!Agilent Technologies,E5061B,MY49102235,A.02.00 FAKE DATA CREATED BY ROBYN AND HEADER CHANGED
!Date: Mon Jul 03 10:55:16 2023
!Data & Calibration Information:
!Freq	S11:SOLT2(ON)	S21:SOLT2(ON)	S12:SOLT2(ON)	S22:SOLT2(ON)
# Hz S RI R 50	
                 0    1.00501629e-06                  0        0.999998995                  0        0.999998995                  0      1.0050163e-06                  0
                 1    4.88944352e-09     5.82076608e-09        0.999999995    -4.17923379e-09        0.999999995    -4.17923379e-09     4.88944352e-09     5.82076615e-09
                 2    4.88944352e-09     5.82076608e-09        0.999999995    -4.17923379e-09        0.999999995    -4.17923379e-09     4.88944352e-09     5.82076615e-09
                 3    4.88944352e-09     5.82076608e-09        0.999999995    -4.17923379e-09        0.999999995    -4.17923379e-09     4.88944352e-09     5.82076615e-09
                 4    4.88944352e-09     5.82076608e-09        0.999999995    -4.17923379e-09        0.999999995    -4.17923379e-09     4.88944352e-09     5.82076615e-09
                 5    4.88944352e-09     5.82076608e-09        0.999999995    -4.17923379e-09        0.999999995    -4.17923379e-09     4.88944352e-09     5.82076615e-09
                 6    4.88944352e-09     5.82076608e-09        0.999999995    -4.17923379e-09        0.999999995    -4.17923379e-09     4.88944352e-09     5.82076615e-09
                 7    4.88944352e-09     5.82076608e-09        0.999999995    -4.17923379e-09        0.999999995    -4.17923379e-09     4.88944352e-09     5.82076615e-09
                 8    4.88944352e-09     5.82076608e-09        0.999999995    -4.17923379e-09        0.999999995    -4.17923379e-09     4.88944352e-09     5.82076615e-09
                 9    4.88944352e-09     5.82076608e-09        0.999999995    -4.17923379e-09        0.999999995    -4.17923379e-09     4.88944352e-09     5.82076615e-09
                10    4.88944352e-09     5.82076608e-09        0.999999995    -4.17923379e-09        0.999999995    -4.17923379e-09     4.88944352e-09     5.82076615e-09
                11    4.88944352e-09     5.82076608e-09        0.999999995    -4.17923379e-09        0.999999995    -4.17923379e-09     4.88944352e-09     5.82076615e-09
                12    1.97906025e-09     5.82076605e-09        0.999999996    -3.45130949e-09        0.999999996    -3.45130944e-09     1.97906047e-09     5.82076611e-09
                13    7.79982656e-09    -1.50229721e-17                  1    -9.78643119e-09                  1    -9.78643119e-09     7.79982656e-09                  0
                14    4.88944374e-09     5.82076606e-09        0.999999998      -4.470645e-09        0.999999998      -4.470645e-09     4.88944352e-09     5.82076615e-09
                15    1.97906025e-09     5.82076614e-09        0.999999995    -4.96723777e-09        0.999999995    -4.96723777e-09     1.97906047e-09     5.82076611e-09
                16    1.97906069e-09     5.82076621e-09        0.999999995    -5.45626964e-09        0.999999995     -5.4562697e-09     1.97906047e-09     5.82076611e-09
                17    4.88944374e-09     5.82076612e-09        0.999999998    -5.93843939e-09        0.999999998    -5.93843934e-09     4.88944352e-09     5.82076615e-09
                18    4.88944352e-09     5.82076622e-09        0.999999997    -6.41434416e-09        0.999999997    -6.41434416e-09     4.88944352e-09     5.82076615e-09
                19    1.97906047e-09     5.82076622e-09        0.999999994    -6.88449974e-09        0.999999994    -6.88449974e-09     1.97906047e-09     5.82076611e-09
                20    4.88944307e-09     1.16415323e-08        0.999999997    -1.52858808e-09        0.999999997    -1.52858813e-09     4.88944352e-09     1.16415323e-08
                21    4.88944352e-09     5.82076607e-09        0.999999997    -7.80930076e-09        0.999999997    -7.80930076e-09     4.88944352e-09     5.82076615e-09
                22    7.79982678e-09     5.82076606e-09                  1      -8.264686e-09                  1    -8.26468595e-09     7.79982656e-09     5.82076618e-09
                23    4.88944374e-09     8.73114919e-09        0.999999996    -5.80543453e-09        0.999999996    -5.80543453e-09     4.88944374e-09     8.73114922e-09
                24    1.97906069e-09     2.91038318e-09        0.999999993    -1.20733531e-08        0.999999993    -1.20733532e-08     1.97906047e-09     2.91038306e-09
                25    1.97906025e-09     1.16415323e-08        0.999999993    -3.78562385e-09        0.999999993    -3.78562385e-09     1.97906025e-09     1.16415322e-08
                26    7.79982678e-09     2.91038311e-09        0.999999999    -1.29566819e-08        0.999999999    -1.29566819e-08     7.79982656e-09     2.91038309e-09
                27    6.34463504e-09    -3.77406541e-18        0.999999997    -1.63036637e-08        0.999999997    -1.63036637e-08     6.34463504e-09                  0
                28    3.43425177e-09     2.91038308e-09        0.999999994    -1.38267516e-08        0.999999994    -1.38267516e-08     3.43425199e-09     2.91038307e-09
                29    6.34463504e-09     2.91038309e-09        0.999999997    -1.42572607e-08        0.999999997    -1.42572607e-08     6.34463504e-09     2.91038308e-09
                30    3.43425199e-09    -2.91038307e-09        0.999999994    -2.05057262e-08        0.999999994    -2.05057262e-08     3.43425199e-09    -2.91038307e-09
                31    1.97906003e-09     5.82076618e-09        0.999999992    -1.21996058e-08        0.999999992    -1.21996058e-08     1.97906047e-09     5.82076611e-09
                32    4.88944352e-09     5.82076622e-09        0.999999995    -1.26220925e-08        0.999999995    -1.26220925e-08     4.88944352e-09     5.82076615e-09
                33    4.88944352e-09      5.8207663e-09        0.999999995    -1.30421552e-08        0.999999995    -1.30421552e-08     4.88944352e-09     5.82076615e-09
                34    3.43425199e-09     2.91038301e-09        0.999999993    -1.63702866e-08        0.999999993    -1.63702866e-08     3.43425199e-09     2.91038307e-09
                35    4.88944352e-09     5.82076625e-09        0.999999995    -1.38754386e-08        0.999999995    -1.38754386e-08     4.88944352e-09     5.82076615e-09
                36    7.79982678e-09      5.8207662e-09        0.999999997    -1.42888548e-08        0.999999997    -1.42888548e-08     7.79982656e-09     5.82076618e-09
                37    6.34463504e-09     5.82076618e-09        0.999999996    -1.47002397e-08        0.999999996    -1.47002397e-08     6.34463504e-09     5.82076617e-09
                38    4.88944374e-09     5.82076639e-09        0.999999994     -1.5109675e-08        0.999999994    -1.51096751e-08     4.88944352e-09     5.82076615e-09
                39    4.88944352e-09      5.8207661e-09        0.999999994    -1.55172377e-08        0.999999994    -1.55172377e-08     4.88944352e-09     5.82076615e-09
                40    4.88944374e-09     5.82076613e-09        0.999999994    -1.59229989e-08        0.999999994    -1.59229989e-08     4.88944352e-09     5.82076615e-09
                41    6.34463504e-09    -2.24556566e-17        0.999999995     -2.2147792e-08        0.999999995    -2.21477919e-08     6.34463504e-09                  0
                42    6.34463504e-09     5.82076634e-09        0.999999995    -1.67293815e-08        0.999999995    -1.67293815e-08     6.34463504e-09     5.82076617e-09
                43    4.88944307e-09     5.82076635e-09        0.999999993    -1.71301254e-08        0.999999993    -1.71301254e-08     4.88944352e-09     5.82076615e-09
                44    3.43425244e-09     8.73114914e-09        0.999999992    -1.46189306e-08        0.999999992    -1.46189306e-08     3.43425199e-09      8.7311492e-09
                45    6.34463504e-09     5.82076625e-09        0.999999995    -1.79269985e-08        0.999999995    -1.79269985e-08     6.34463504e-09     5.82076617e-09
                46    4.88944352e-09     5.82076625e-09        0.999999993    -1.83232301e-08        0.999999993    -1.83232301e-08     4.88944352e-09     5.82076615e-09
                47    6.34463526e-09     2.91038301e-09        0.999999994    -2.16284387e-08        0.999999994    -2.16284386e-08     6.34463504e-09     2.91038308e-09
                48    4.88944374e-09     8.73114923e-09        0.999999993    -1.62011364e-08        0.999999993    -1.62011364e-08     4.88944374e-09     8.73114922e-09
                49    3.43425199e-09     8.73114931e-09        0.999999991    -1.65932811e-08        0.999999991    -1.65932812e-08     3.43425199e-09      8.7311492e-09
                50    6.34463526e-09      5.8207662e-09        0.999999994    -1.98945299e-08        0.999999994    -1.98945299e-08     6.34463504e-09     5.82076617e-09
                51    4.88944374e-09     8.73114923e-09        0.999999992    -1.73737717e-08        0.999999992    -1.73737717e-08     4.88944374e-09     8.73114922e-09
                52    4.88944374e-09     5.82076625e-09        0.999999992    -2.06725751e-08        0.999999992    -2.06725751e-08     4.88944352e-09     5.82076615e-09
                53    4.88944374e-09     8.73114922e-09        0.999999992    -1.81494426e-08        0.999999992    -1.81494426e-08     4.88944374e-09     8.73114922e-09
                54    4.88944374e-09     8.73114923e-09        0.999999992    -1.85355561e-08        0.999999992    -1.85355561e-08     4.88944374e-09     8.73114922e-09
                55    4.88944374e-09     8.73114917e-09        0.999999992    -1.89205641e-08        0.999999992    -1.89205641e-08     4.88944374e-09     8.73114922e-09
                56    4.88944352e-09     1.16415323e-08        0.999999992    -1.63941135e-08        0.999999992    -1.63941135e-08     4.88944352e-09     1.16415323e-08
                57    6.34463504e-09     8.73114924e-09        0.999999993    -1.96873822e-08        0.999999993    -1.96873822e-08     6.34463526e-09     8.73114925e-09
                58    7.79982678e-09      8.7311493e-09        0.999999994    -2.00692484e-08        0.999999994    -2.00692484e-08     7.79982656e-09     8.73114927e-09
                59    7.07223102e-09     8.73114931e-09        0.999999994    -2.04501216e-08        0.999999994    -2.04501216e-08     7.07223102e-09     8.73114926e-09
                60    7.07223058e-09     1.16415323e-08        0.999999993    -1.79196437e-08        0.999999993    -1.79196437e-08     7.07223058e-09     1.16415323e-08
                61    7.79982656e-09     1.16415323e-08        0.999999994    -1.82986049e-08        0.999999994    -1.82986049e-08     7.79982656e-09     1.16415324e-08
                62    7.79982656e-09     8.73114927e-09        0.999999994    -2.15870285e-08        0.999999994    -2.15870285e-08     7.79982656e-09     8.73114927e-09
                63    8.52742255e-09     8.73114937e-09        0.999999995    -2.19641703e-08        0.999999995    -2.19641703e-08     8.52742255e-09     8.73114929e-09
                64    7.07223102e-09     8.73114925e-09        0.999999993    -2.23404351e-08        0.999999993    -2.23404351e-08     7.07223102e-09     8.73114926e-09
                65    7.79982656e-09       5.820766e-09        0.999999994    -2.56262261e-08        0.999999994     -2.5626226e-08     7.79982656e-09     5.82076618e-09
                66    8.52742232e-09     5.82076612e-09        0.999999994    -2.60007968e-08        0.999999994    -2.60007967e-08     8.52742255e-09     5.82076619e-09
                67    9.98261407e-09     2.91038304e-09        0.999999996    -2.92849324e-08        0.999999996    -2.92849324e-08     9.98261407e-09      2.9103831e-09
                68    8.52742255e-09     2.91038299e-09        0.999999994    -2.96578852e-08        0.999999994    -2.96578851e-08     8.52742255e-09      2.9103831e-09
                69    8.52742255e-09     5.82076619e-09        0.999999994    -2.71196724e-08        0.999999994    -2.71196724e-08     8.52742255e-09     5.82076619e-09
                70    9.25501809e-09     5.82076618e-09        0.999999995    -2.74910775e-08        0.999999995    -2.74910775e-08     9.25501809e-09      5.8207662e-09
                71    9.98261407e-09     2.91038305e-09        0.999999995    -3.07721167e-08        0.999999995    -3.07721166e-08     9.98261407e-09      2.9103831e-09
                72    8.52742255e-09     5.82076615e-09        0.999999994    -2.82316563e-08        0.999999994    -2.82316563e-08     8.52742255e-09     5.82076619e-09
                73     7.0722308e-09     5.82076606e-09        0.999999992    -2.86008612e-08        0.999999992    -2.86008612e-08      7.0722308e-09     5.82076617e-09
                74    7.79982678e-09     5.82076615e-09        0.999999993    -2.89693626e-08        0.999999993    -2.89693626e-08     7.79982656e-09     5.82076618e-09
                75    9.25501831e-09     5.82076623e-09        0.999999994    -2.93371749e-08        0.999999994    -2.93371749e-08     9.25501809e-09      5.8207662e-09
                76    7.07223102e-09     7.27595771e-09        0.999999992    -2.82491204e-08        0.999999992    -2.82491204e-08      7.0722308e-09     7.27595772e-09
                77     6.3446346e-09     5.82076618e-09        0.999999991    -3.00707868e-08        0.999999991    -3.00707868e-08     6.34463504e-09     5.82076617e-09
                78    9.25501809e-09     1.45519158e-09        0.999999994    -3.48021871e-08        0.999999994    -3.48021871e-08     9.25501809e-09     1.45519155e-09
                79    8.52742255e-09     5.82076622e-09        0.999999993    -3.08018012e-08        0.999999993    -3.08018013e-08     8.52742255e-09     5.82076619e-09
                80    7.79982656e-09     7.27595766e-09        0.999999992     -2.9711174e-08        0.999999992    -2.97111739e-08     7.79982656e-09     7.27595773e-09
                81    8.52742232e-09      7.2759577e-09        0.999999993     -3.0075125e-08        0.999999993     -3.0075125e-08     8.52742255e-09     7.27595774e-09
                82    7.79982678e-09     7.27595777e-09        0.999999992    -3.04384743e-08        0.999999992    -3.04384744e-08     7.79982656e-09     7.27595773e-09
                83    7.79982656e-09     8.73114934e-09        0.999999992    -2.93460414e-08        0.999999992    -2.93460414e-08     7.79982656e-09     8.73114927e-09
                84    7.79982656e-09     8.73114919e-09        0.999999992      -2.970822e-08        0.999999992      -2.970822e-08     7.79982656e-09     8.73114927e-09
                85    9.98261407e-09     5.82076626e-09        0.999999994    -3.29802116e-08        0.999999994    -3.29802117e-08     9.98261407e-09     5.82076621e-09
                86    7.79982656e-09     1.01863407e-08        0.999999992    -2.89756861e-08        0.999999992    -2.89756861e-08     7.79982656e-09     1.01863408e-08
                87    8.52742255e-09     8.73114925e-09        0.999999992    -3.07913765e-08        0.999999992    -3.07913765e-08     8.52742255e-09     8.73114929e-09
                88     7.0722308e-09     8.73114922e-09        0.999999991    -3.11513349e-08        0.999999991    -3.11513349e-08     7.07223102e-09     8.73114926e-09
                89    9.25501831e-09     7.27595774e-09        0.999999993    -3.29659534e-08        0.999999993    -3.29659533e-08     9.25501809e-09     7.27595775e-09
                90    8.52742232e-09     5.82076611e-09        0.999999992    -3.47800495e-08        0.999999992    -3.47800495e-08     8.52742255e-09     5.82076619e-09
                91    8.52742232e-09     7.27595775e-09        0.999999992    -3.36832486e-08        0.999999992    -3.36832487e-08     8.52742255e-09     7.27595774e-09
                92    9.25501809e-09     5.82076624e-09        0.999999992    -3.54963256e-08        0.999999992    -3.54963256e-08     9.25501809e-09      5.8207662e-09
                93    9.98261362e-09     5.82076616e-09        0.999999993     -3.5853714e-08        0.999999993     -3.5853714e-08     9.98261407e-09     5.82076621e-09
                94    9.25501831e-09     5.82076618e-09        0.999999992    -3.62106133e-08        0.999999992    -3.62106132e-08     9.25501809e-09      5.8207662e-09
                95     8.5274221e-09     8.73114927e-09        0.999999991    -3.36566481e-08        0.999999991    -3.36566481e-08     8.52742255e-09     8.73114929e-09
                96    8.52742255e-09     5.82076616e-09        0.999999991    -3.69229754e-08        0.999999991    -3.69229754e-08     8.52742255e-09     5.82076619e-09
                97    1.07102098e-08     7.27595773e-09        0.999999993    -3.58232617e-08        0.999999993    -3.58232616e-08     1.07102098e-08     7.27595777e-09
                98    9.25501809e-09     7.27595775e-09        0.999999992    -3.61782803e-08        0.999999992    -3.61782803e-08     9.25501809e-09     7.27595775e-09
                99    8.52742232e-09     8.73114922e-09        0.999999991    -3.50776553e-08        0.999999991    -3.50776553e-08     8.52742255e-09     8.73114929e-09
               100    9.98261407e-09     8.73114928e-09        0.999999992    -3.54317764e-08        0.999999992    -3.54317764e-08     9.98261407e-09     8.73114931e-09
               101    1.14378056e-08     7.27595789e-09        0.999999994    -3.72406504e-08        0.999999994    -3.72406504e-08     1.14378056e-08     7.27595778e-09
               102    9.98261407e-09     7.27595774e-09        0.999999992    -3.75939009e-08        0.999999992    -3.75939009e-08     9.98261407e-09     7.27595776e-09
               103    9.98261385e-09     7.27595779e-09        0.999999992    -3.79467254e-08        0.999999992    -3.79467254e-08     9.98261407e-09     7.27595776e-09
               104    9.25501853e-09     8.73114925e-09        0.999999991    -3.68439389e-08        0.999999991    -3.68439389e-08     9.25501831e-09      8.7311493e-09
               105    9.98261385e-09     8.73114925e-09        0.999999992    -3.71959302e-08        0.999999992    -3.71959302e-08     9.98261407e-09     8.73114931e-09
               106    9.25501853e-09     8.73114916e-09        0.999999991    -3.75475139e-08        0.999999991    -3.75475139e-08     9.25501831e-09      8.7311493e-09
               107    9.98261407e-09     8.73114933e-09        0.999999992    -3.78986955e-08        0.999999992    -3.78986955e-08     9.98261407e-09     8.73114931e-09
               108    1.07102101e-08     8.73114935e-09        0.999999992    -3.82494808e-08        0.999999992    -3.82494808e-08     1.07102098e-08     8.73114932e-09
               109    9.98261429e-09     8.73114938e-09        0.999999992    -3.85998754e-08        0.999999992    -3.85998754e-08     9.98261407e-09     8.73114931e-09
               110    1.07102096e-08     7.27595791e-09        0.999999992    -4.04050759e-08        0.999999992     -4.0405076e-08     1.07102098e-08     7.27595777e-09
               111    1.14378056e-08     5.82076628e-09        0.999999993    -4.22098964e-08        0.999999993    -4.22098964e-08     1.14378056e-08     5.82076622e-09
               112    1.14378056e-08     7.27595781e-09        0.999999993    -4.11039586e-08        0.999999993    -4.11039586e-08     1.14378056e-08     7.27595778e-09
               113    1.14378056e-08     7.27595771e-09        0.999999993    -4.14528424e-08        0.999999993    -4.14528424e-08     1.14378056e-08     7.27595778e-09
               114    1.14378056e-08     7.27595779e-09        0.999999993    -4.18013608e-08        0.999999993    -4.18013608e-08     1.14378056e-08     7.27595778e-09
               115    1.21654011e-08     7.27595784e-09        0.999999993    -4.21495189e-08        0.999999993    -4.21495189e-08     1.21654011e-08     7.27595779e-09
