! COPPER MOUNTAIN TECHNOLOGIES, PLANAR TR1300/1, 00000000, 23.1.2/1.0
! Date: 7/7/2023 10:15:31 AM
! Data: Format [Calibration Info]
! Freq          	S11: Re/Im                     	S21: Re/Im                     	S12: Re/Im                     	S22: Re/Im                     
# HZ S RI R 50
4.00000000E+07	 2.12118429E-02	-3.69667597E-02	 9.94411444E-01	-8.50888760E-02	 0.00000000E+00	 0.00000000E+00	 0.00000000E+00	 0.00000000E+00
4.00050000E+07	 2.12168032E-02	-3.69700222E-02	 9.94410180E-01	-8.50994388E-02	 0.00000000E+00	 0.00000000E+00	 0.00000000E+00	 0.00000000E+00
4.00100000E+07	 2.12217630E-02	-3.69732857E-02	 9.94408917E-01	-8.51100015E-02	 0.00000000E+00	 0.00000000E+00	 0.00000000E+00	 0.00000000E+00
4.00150000E+07	 2.12267242E-02	-3.69765474E-02	 9.94407655E-01	-8.51205644E-02	 0.00000000E+00	 0.00000000E+00	 0.00000000E+00	 0.00000000E+00
4.00200000E+07	 2.12316858E-02	-3.69798095E-02	 9.94406391E-01	-8.51311254E-02	 0.00000000E+00	 0.00000000E+00	 0.00000000E+00	 0.00000000E+00
4.00250000E+07	 2.12366479E-02	-3.69830702E-02	 9.94405128E-01	-8.51416881E-02	 0.00000000E+00	 0.00000000E+00	 0.00000000E+00	 0.00000000E+00
4.00300000E+07	 2.12416104E-02	-3.69863312E-02	 9.94403864E-01	-8.51522508E-02	 0.00000000E+00	 0.00000000E+00	 0.00000000E+00	 0.00000000E+00
4.00350000E+07	 2.12465735E-02	-3.69895909E-02	 9.94402600E-01	-8.51628135E-02	 0.00000000E+00	 0.00000000E+00	 0.00000000E+00	 0.00000000E+00
4.00400000E+07	 2.12515368E-02	-3.69928511E-02	 9.94401336E-01	-8.51733762E-02	 0.00000000E+00	 0.00000000E+00	 0.00000000E+00	 0.00000000E+00
4.00450000E+07	 2.12565010E-02	-3.69961098E-02	 9.94400072E-01	-8.51839371E-02	 0.00000000E+00	 0.00000000E+00	 0.00000000E+00	 0.00000000E+00
4.00500000E+07	 2.12614647E-02	-3.69993694E-02	 9.94398808E-01	-8.51944997E-02	 0.00000000E+00	 0.00000000E+00	 0.00000000E+00	 0.00000000E+00
4.00550000E+07	 2.12664297E-02	-3.70026272E-02	 9.94397544E-01	-8.52050624E-02	 0.00000000E+00	 0.00000000E+00	 0.00000000E+00	 0.00000000E+00
4.00600000E+07	 2.12713952E-02	-3.70058854E-02	 9.94396281E-01	-8.52156251E-02	 0.00000000E+00	 0.00000000E+00	 0.00000000E+00	 0.00000000E+00
4.00650000E+07	 2.12763612E-02	-3.70091422E-02	 9.94395015E-01	-8.52261876E-02	 0.00000000E+00	 0.00000000E+00	 0.00000000E+00	 0.00000000E+00
4.00700000E+07	 2.12813274E-02	-3.70123995E-02	 9.94393750E-01	-8.52367501E-02	 0.00000000E+00	 0.00000000E+00	 0.00000000E+00	 0.00000000E+00
4.00750000E+07	 2.12862945E-02	-3.70156553E-02	 9.94392486E-01	-8.52473110E-02	 0.00000000E+00	 0.00000000E+00	 0.00000000E+00	 0.00000000E+00
4.00800000E+07	 2.12912620E-02	-3.70189107E-02	 9.94391221E-01	-8.52578735E-02	 0.00000000E+00	 0.00000000E+00	 0.00000000E+00	 0.00000000E+00
4.00850000E+07	 2.12962298E-02	-3.70221665E-02	 9.94389955E-01	-8.52684342E-02	 0.00000000E+00	 0.00000000E+00	 0.00000000E+00	 0.00000000E+00
4.00900000E+07	 2.13011983E-02	-3.70254210E-02	 9.94388690E-01	-8.52789967E-02	 0.00000000E+00	 0.00000000E+00	 0.00000000E+00	 0.00000000E+00
4.00950000E+07	 2.13061669E-02	-3.70286758E-02	 9.94387425E-01	-8.52895609E-02	 0.00000000E+00	 0.00000000E+00	 0.00000000E+00	 0.00000000E+00
4.01000000E+07	 2.13111365E-02	-3.70319292E-02	 9.94386159E-01	-8.53001216E-02	 0.00000000E+00	 0.00000000E+00	 0.00000000E+00	 0.00000000E+00
4.01050000E+07	 2.13161055E-02	-3.70351836E-02	 9.94384894E-01	-8.53106841E-02	 0.00000000E+00	 0.00000000E+00	 0.00000000E+00	 0.00000000E+00
4.01100000E+07	 2.13210759E-02	-3.70384361E-02	 9.94383628E-01	-8.53212465E-02	 0.00000000E+00	 0.00000000E+00	 0.00000000E+00	 0.00000000E+00
4.01150000E+07	 2.13260468E-02	-3.70416880E-02	 9.94382362E-01	-8.53318071E-02	 0.00000000E+00	 0.00000000E+00	 0.00000000E+00	 0.00000000E+00
4.01200000E+07	 2.13310179E-02	-3.70449405E-02	 9.94381095E-01	-8.53423694E-02	 0.00000000E+00	 0.00000000E+00	 0.00000000E+00	 0.00000000E+00
4.01250000E+07	 2.13359897E-02	-3.70481915E-02	 9.94379830E-01	-8.53529318E-02	 0.00000000E+00	 0.00000000E+00	 0.00000000E+00	 0.00000000E+00
4.01300000E+07	 2.13409620E-02	-3.70514430E-02	 9.94378563E-01	-8.53634924E-02	 0.00000000E+00	 0.00000000E+00	 0.00000000E+00	 0.00000000E+00
4.01350000E+07	 2.13459347E-02	-3.70546930E-02	 9.94377297E-01	-8.53740547E-02	 0.00000000E+00	 0.00000000E+00	 0.00000000E+00	 0.00000000E+00
4.01400000E+07	 2.13509079E-02	-3.70579435E-02	 9.94376030E-01	-8.53846169E-02	 0.00000000E+00	 0.00000000E+00	 0.00000000E+00	 0.00000000E+00
4.01450000E+07	 2.13558817E-02	-3.70611926E-02	 9.94374763E-01	-8.53951793E-02	 0.00000000E+00	 0.00000000E+00	 0.00000000E+00	 0.00000000E+00
4.01500000E+07	 2.13608559E-02	-3.70644413E-02	 9.94373496E-01	-8.54057415E-02	 0.00000000E+00	 0.00000000E+00	 0.00000000E+00	 0.00000000E+00
4.01550000E+07	 2.13658305E-02	-3.70676903E-02	 9.94372228E-01	-8.54163019E-02	 0.00000000E+00	 0.00000000E+00	 0.00000000E+00	 0.00000000E+00
4.01600000E+07	 2.13708057E-02	-3.70709381E-02	 9.94370963E-01	-8.54268643E-02	 0.00000000E+00	 0.00000000E+00	 0.00000000E+00	 0.00000000E+00
4.01650000E+07	 2.13757812E-02	-3.70741862E-02	 9.94369695E-01	-8.54374264E-02	 0.00000000E+00	 0.00000000E+00	 0.00000000E+00	 0.00000000E+00
4.01700000E+07	 2.13807575E-02	-3.70774328E-02	 9.94368427E-01	-8.54479868E-02	 0.00000000E+00	 0.00000000E+00	 0.00000000E+00	 0.00000000E+00
4.01750000E+07	 2.13857341E-02	-3.70806790E-02	 9.94367159E-01	-8.54585490E-02	 0.00000000E+00	 0.00000000E+00	 0.00000000E+00	 0.00000000E+00
4.01800000E+07	 2.13907110E-02	-3.70839257E-02	 9.94365892E-01	-8.54691111E-02	 0.00000000E+00	 0.00000000E+00	 0.00000000E+00	 0.00000000E+00
4.01850000E+07	 2.13956888E-02	-3.70871709E-02	 9.94364624E-01	-8.54796715E-02	 0.00000000E+00	 0.00000000E+00	 0.00000000E+00	 0.00000000E+00
4.01900000E+07	 2.14006667E-02	-3.70904166E-02	 9.94363356E-01	-8.54902335E-02	 0.00000000E+00	 0.00000000E+00	 0.00000000E+00	 0.00000000E+00
4.01950000E+07	 2.14056452E-02	-3.70936609E-02	 9.94362087E-01	-8.55007956E-02	 0.00000000E+00	 0.00000000E+00	 0.00000000E+00	 0.00000000E+00
4.02000000E+07	 2.14106244E-02	-3.70969046E-02	 9.94360819E-01	-8.55113559E-02	 0.00000000E+00	 0.00000000E+00	 0.00000000E+00	 0.00000000E+00
4.02050000E+07	 2.14156038E-02	-3.71001489E-02	 9.94359550E-01	-8.55219196E-02	 0.00000000E+00	 0.00000000E+00	 0.00000000E+00	 0.00000000E+00
4.02100000E+07	 2.14205838E-02	-3.71033918E-02	 9.94358282E-01	-8.55324816E-02	 0.00000000E+00	 0.00000000E+00	 0.00000000E+00	 0.00000000E+00
4.02150000E+07	 2.14255645E-02	-3.71066341E-02	 9.94357013E-01	-8.55430419E-02	 0.00000000E+00	 0.00000000E+00	 0.00000000E+00	 0.00000000E+00
4.02200000E+07	 2.14305453E-02	-3.71098769E-02	 9.94355745E-01	-8.55536039E-02	 0.00000000E+00	 0.00000000E+00	 0.00000000E+00	 0.00000000E+00
4.02250000E+07	 2.14355274E-02	-3.71131180E-02	 9.94354476E-01	-8.55641659E-02	 0.00000000E+00	 0.00000000E+00	 0.00000000E+00	 0.00000000E+00
4.02300000E+07	 2.14405093E-02	-3.71163597E-02	 9.94353207E-01	-8.55747261E-02	 0.00000000E+00	 0.00000000E+00	 0.00000000E+00	 0.00000000E+00
4.02350000E+07	 2.14454918E-02	-3.71196002E-02	 9.94351937E-01	-8.55852880E-02	 0.00000000E+00	 0.00000000E+00	 0.00000000E+00	 0.00000000E+00
4.02400000E+07	 2.14504747E-02	-3.71228401E-02	 9.94350668E-01	-8.55958499E-02	 0.00000000E+00	 0.00000000E+00	 0.00000000E+00	 0.00000000E+00
4.02450000E+07	 2.14554580E-02	-3.71260805E-02	 9.94349399E-01	-8.56064100E-02	 0.00000000E+00	 0.00000000E+00	 0.00000000E+00	 0.00000000E+00
4.02500000E+07	 2.14604419E-02	-3.71293194E-02	 9.94348128E-01	-8.56169718E-02	 0.00000000E+00	 0.00000000E+00	 0.00000000E+00	 0.00000000E+00
4.02550000E+07	 2.14654264E-02	-3.71325578E-02	 9.94346858E-01	-8.56275319E-02	 0.00000000E+00	 0.00000000E+00	 0.00000000E+00	 0.00000000E+00
4.02600000E+07	 2.14704110E-02	-3.71357968E-02	 9.94345588E-01	-8.56380937E-02	 0.00000000E+00	 0.00000000E+00	 0.00000000E+00	 0.00000000E+00
4.02650000E+07	 2.14753964E-02	-3.71390343E-02	 9.94344318E-01	-8.56486555E-02	 0.00000000E+00	 0.00000000E+00	 0.00000000E+00	 0.00000000E+00
4.02700000E+07	 2.14803823E-02	-3.71422713E-02	 9.94343047E-01	-8.56592155E-02	 0.00000000E+00	 0.00000000E+00	 0.00000000E+00	 0.00000000E+00
4.02750000E+07	 2.14853685E-02	-3.71455089E-02	 9.94341777E-01	-8.56697773E-02	 0.00000000E+00	 0.00000000E+00	 0.00000000E+00	 0.00000000E+00
4.02800000E+07	 2.14903559E-02	-3.71487445E-02	 9.94340507E-01	-8.56803390E-02	 0.00000000E+00	 0.00000000E+00	 0.00000000E+00	 0.00000000E+00
4.02850000E+07	 2.14953433E-02	-3.71519800E-02	 9.94339236E-01	-8.56908990E-02	 0.00000000E+00	 0.00000000E+00	 0.00000000E+00	 0.00000000E+00
4.02900000E+07	 2.15003308E-02	-3.71552161E-02	 9.94337965E-01	-8.57014607E-02	 0.00000000E+00	 0.00000000E+00	 0.00000000E+00	 0.00000000E+00
4.02950000E+07	 2.15053191E-02	-3.71584508E-02	 9.94336694E-01	-8.57120224E-02	 0.00000000E+00	 0.00000000E+00	 0.00000000E+00	 0.00000000E+00
4.03000000E+07	 2.15103080E-02	-3.71616849E-02	 9.94335424E-01	-8.57225823E-02	 0.00000000E+00	 0.00000000E+00	 0.00000000E+00	 0.00000000E+00
4.03050000E+07	 2.15152970E-02	-3.71649195E-02	 9.94334153E-01	-8.57331440E-02	 0.00000000E+00	 0.00000000E+00	 0.00000000E+00	 0.00000000E+00
4.03100000E+07	 2.15202867E-02	-3.71681527E-02	 9.94332881E-01	-8.57437055E-02	 0.00000000E+00	 0.00000000E+00	 0.00000000E+00	 0.00000000E+00
4.03150000E+07	 2.15252770E-02	-3.71713853E-02	 9.94331610E-01	-8.57542654E-02	 0.00000000E+00	 0.00000000E+00	 0.00000000E+00	 0.00000000E+00
4.03200000E+07	 2.15302683E-02	-3.71746171E-02	 9.94330338E-01	-8.57648270E-02	 0.00000000E+00	 0.00000000E+00	 0.00000000E+00	 0.00000000E+00
4.03250000E+07	 2.15352592E-02	-3.71778498E-02	 9.94329065E-01	-8.57753885E-02	 0.00000000E+00	 0.00000000E+00	 0.00000000E+00	 0.00000000E+00
4.03300000E+07	 2.15402509E-02	-3.71810809E-02	 9.94327794E-01	-8.57859483E-02	 0.00000000E+00	 0.00000000E+00	 0.00000000E+00	 0.00000000E+00
4.03350000E+07	 2.15452430E-02	-3.71843117E-02	 9.94326521E-01	-8.57965098E-02	 0.00000000E+00	 0.00000000E+00	 0.00000000E+00	 0.00000000E+00
4.03400000E+07	 2.15502354E-02	-3.71875429E-02	 9.94325249E-01	-8.58070713E-02	 0.00000000E+00	 0.00000000E+00	 0.00000000E+00	 0.00000000E+00
4.03450000E+07	 2.15552293E-02	-3.71907723E-02	 9.94323977E-01	-8.58176311E-02	 0.00000000E+00	 0.00000000E+00	 0.00000000E+00	 0.00000000E+00
4.03500000E+07	 2.15602228E-02	-3.71940015E-02	 9.94322704E-01	-8.58281908E-02	 0.00000000E+00	 0.00000000E+00	 0.00000000E+00	 0.00000000E+00
4.03550000E+07	 2.15652166E-02	-3.71972313E-02	 9.94321431E-01	-8.58387521E-02	 0.00000000E+00	 0.00000000E+00	 0.00000000E+00	 0.00000000E+00
4.03600000E+07	 2.15702111E-02	-3.72004597E-02	 9.94320159E-01	-8.58493136E-02	 0.00000000E+00	 0.00000000E+00	 0.00000000E+00	 0.00000000E+00
4.03650000E+07	 2.15752063E-02	-3.72036874E-02	 9.94318886E-01	-8.58598733E-02	 0.00000000E+00	 0.00000000E+00	 0.00000000E+00	 0.00000000E+00
4.03700000E+07	 2.15802017E-02	-3.72069147E-02	 9.94317613E-01	-8.58704346E-02	 0.00000000E+00	 0.00000000E+00	 0.00000000E+00	 0.00000000E+00
4.03750000E+07	 2.15851981E-02	-3.72101422E-02	 9.94316339E-01	-8.58809959E-02	 0.00000000E+00	 0.00000000E+00	 0.00000000E+00	 0.00000000E+00
4.03800000E+07	 2.15901947E-02	-3.72133686E-02	 9.94315066E-01	-8.58915555E-02	 0.00000000E+00	 0.00000000E+00	 0.00000000E+00	 0.00000000E+00
4.03850000E+07	 2.15951916E-02	-3.72165944E-02	 9.94313792E-01	-8.59021168E-02	 0.00000000E+00	 0.00000000E+00	 0.00000000E+00	 0.00000000E+00
4.03900000E+07	 2.16001890E-02	-3.72198198E-02	 9.94312518E-01	-8.59126781E-02	 0.00000000E+00	 0.00000000E+00	 0.00000000E+00	 0.00000000E+00
4.03950000E+07	 2.16051875E-02	-3.72230453E-02	 9.94311245E-01	-8.59232376E-02	 0.00000000E+00	 0.00000000E+00	 0.00000000E+00	 0.00000000E+00
4.04000000E+07	 2.16101859E-02	-3.72262698E-02	 9.94309971E-01	-8.59337989E-02	 0.00000000E+00	 0.00000000E+00	 0.00000000E+00	 0.00000000E+00
4.04050000E+07	 2.16151847E-02	-3.72294938E-02	 9.94308697E-01	-8.59443601E-02	 0.00000000E+00	 0.00000000E+00	 0.00000000E+00	 0.00000000E+00
4.04100000E+07	 2.16201841E-02	-3.72327171E-02	 9.94307422E-01	-8.59549196E-02	 0.00000000E+00	 0.00000000E+00	 0.00000000E+00	 0.00000000E+00
4.04150000E+07	 2.16251844E-02	-3.72359408E-02	 9.94306148E-01	-8.59654791E-02	 0.00000000E+00	 0.00000000E+00	 0.00000000E+00	 0.00000000E+00
4.04200000E+07	 2.16301848E-02	-3.72391633E-02	 9.94304875E-01	-8.59760403E-02	 0.00000000E+00	 0.00000000E+00	 0.00000000E+00	 0.00000000E+00
4.04250000E+07	 2.16351856E-02	-3.72423853E-02	 9.94303600E-01	-8.59865998E-02	 0.00000000E+00	 0.00000000E+00	 0.00000000E+00	 0.00000000E+00
4.04300000E+07	 2.16401869E-02	-3.72456069E-02	 9.94302326E-01	-8.59971609E-02	 0.00000000E+00	 0.00000000E+00	 0.00000000E+00	 0.00000000E+00
4.04350000E+07	 2.16451891E-02	-3.72488285E-02	 9.94301051E-01	-8.60077220E-02	 0.00000000E+00	 0.00000000E+00	 0.00000000E+00	 0.00000000E+00
4.04400000E+07	 2.16501915E-02	-3.72520490E-02	 9.94299775E-01	-8.60182813E-02	 0.00000000E+00	 0.00000000E+00	 0.00000000E+00	 0.00000000E+00
4.04450000E+07	 2.16551942E-02	-3.72552691E-02	 9.94298500E-01	-8.60288424E-02	 0.00000000E+00	 0.00000000E+00	 0.00000000E+00	 0.00000000E+00
4.04500000E+07	 2.16601973E-02	-3.72584887E-02	 9.94297225E-01	-8.60394035E-02	 0.00000000E+00	 0.00000000E+00	 0.00000000E+00	 0.00000000E+00
4.04550000E+07	 2.16652016E-02	-3.72617083E-02	 9.94295950E-01	-8.60499628E-02	 0.00000000E+00	 0.00000000E+00	 0.00000000E+00	 0.00000000E+00
4.04600000E+07	 2.16702057E-02	-3.72649269E-02	 9.94294674E-01	-8.60605220E-02	 0.00000000E+00	 0.00000000E+00	 0.00000000E+00	 0.00000000E+00
4.04650000E+07	 2.16752103E-02	-3.72681451E-02	 9.94293398E-01	-8.60710831E-02	 0.00000000E+00	 0.00000000E+00	 0.00000000E+00	 0.00000000E+00
4.04700000E+07	 2.16802161E-02	-3.72713624E-02	 9.94292123E-01	-8.60816441E-02	 0.00000000E+00	 0.00000000E+00	 0.00000000E+00	 0.00000000E+00
4.04750000E+07	 2.16852218E-02	-3.72745794E-02	 9.94290846E-01	-8.60922032E-02	 0.00000000E+00	 0.00000000E+00	 0.00000000E+00	 0.00000000E+00
4.04800000E+07	 2.16902277E-02	-3.72777971E-02	 9.94289570E-01	-8.61027642E-02	 0.00000000E+00	 0.00000000E+00	 0.00000000E+00	 0.00000000E+00
4.04850000E+07	 2.16952349E-02	-3.72810129E-02	 9.94288293E-01	-8.61133251E-02	 0.00000000E+00	 0.00000000E+00	 0.00000000E+00	 0.00000000E+00
4.04900000E+07	 2.17002420E-02	-3.72842285E-02	 9.94287017E-01	-8.61238843E-02	 0.00000000E+00	 0.00000000E+00	 0.00000000E+00	 0.00000000E+00
4.04950000E+07	 2.17052495E-02	-3.72874438E-02	 9.94285740E-01	-8.61344434E-02	 0.00000000E+00	 0.00000000E+00	 0.00000000E+00	 0.00000000E+00
4.05000000E+07	 2.17102582E-02	-3.72906582E-02	 9.94284464E-01	-8.61450043E-02	 0.00000000E+00	 0.00000000E+00	 0.00000000E+00	 0.00000000E+00
4.05050000E+07	 2.17152666E-02	-3.72938734E-02	 9.94283187E-01	-8.61555633E-02	 0.00000000E+00	 0.00000000E+00	 0.00000000E+00	 0.00000000E+00
4.05100000E+07	 2.17202756E-02	-3.72970871E-02	 9.94281910E-01	-8.61661242E-02	 0.00000000E+00	 0.00000000E+00	 0.00000000E+00	 0.00000000E+00
4.05150000E+07	 2.17252856E-02	-3.73003000E-02	 9.94280633E-01	-8.61766849E-02	 0.00000000E+00	 0.00000000E+00	 0.00000000E+00	 0.00000000E+00
4.05200000E+07	 2.17302957E-02	-3.73035127E-02	 9.94279356E-01	-8.61872440E-02	 0.00000000E+00	 0.00000000E+00	 0.00000000E+00	 0.00000000E+00
4.05250000E+07	 2.17353061E-02	-3.73067251E-02	 9.94278079E-01	-8.61978030E-02	 0.00000000E+00	 0.00000000E+00	 0.00000000E+00	 0.00000000E+00
4.05300000E+07	 2.17403174E-02	-3.73099375E-02	 9.94276801E-01	-8.62083637E-02	 0.00000000E+00	 0.00000000E+00	 0.00000000E+00	 0.00000000E+00
4.05350000E+07	 2.17453288E-02	-3.73131488E-02	 9.94275523E-01	-8.62189244E-02	 0.00000000E+00	 0.00000000E+00	 0.00000000E+00	 0.00000000E+00
4.05400000E+07	 2.17503408E-02	-3.73163596E-02	 9.94274246E-01	-8.62294834E-02	 0.00000000E+00	 0.00000000E+00	 0.00000000E+00	 0.00000000E+00
4.05450000E+07	 2.17553537E-02	-3.73195696E-02	 9.94272967E-01	-8.62400441E-02	 0.00000000E+00	 0.00000000E+00	 0.00000000E+00	 0.00000000E+00
4.05500000E+07	 2.17603665E-02	-3.73227795E-02	 9.94271689E-01	-8.62506030E-02	 0.00000000E+00	 0.00000000E+00	 0.00000000E+00	 0.00000000E+00
4.05550000E+07	 2.17653806E-02	-3.73259885E-02	 9.94270411E-01	-8.62611619E-02	 0.00000000E+00	 0.00000000E+00	 0.00000000E+00	 0.00000000E+00
4.05600000E+07	 2.17703942E-02	-3.73291983E-02	 9.94269133E-01	-8.62717226E-02	 0.00000000E+00	 0.00000000E+00	 0.00000000E+00	 0.00000000E+00
4.05650000E+07	 2.17754084E-02	-3.73324068E-02	 9.94267854E-01	-8.62822831E-02	 0.00000000E+00	 0.00000000E+00	 0.00000000E+00	 0.00000000E+00
4.05700000E+07	 2.17804239E-02	-3.73356142E-02	 9.94266576E-01	-8.62928420E-02	 0.00000000E+00	 0.00000000E+00	 0.00000000E+00	 0.00000000E+00
4.05750000E+07	 2.17854391E-02	-3.73388217E-02	 9.94265297E-01	-8.63034008E-02	 0.00000000E+00	 0.00000000E+00	 0.00000000E+00	 0.00000000E+00
4.05800000E+07	 2.17904555E-02	-3.73420283E-02	 9.94264018E-01	-8.63139613E-02	 0.00000000E+00	 0.00000000E+00	 0.00000000E+00	 0.00000000E+00
4.05850000E+07	 2.17954716E-02	-3.73452347E-02	 9.94262739E-01	-8.63245219E-02	 0.00000000E+00	 0.00000000E+00	 0.00000000E+00	 0.00000000E+00
4.05900000E+07	 2.18004884E-02	-3.73484407E-02	 9.94261460E-01	-8.63350806E-02	 0.00000000E+00	 0.00000000E+00	 0.00000000E+00	 0.00000000E+00
4.05950000E+07	 2.18055060E-02	-3.73516468E-02	 9.94260180E-01	-8.63456393E-02	 0.00000000E+00	 0.00000000E+00	 0.00000000E+00	 0.00000000E+00
4.06000000E+07	 2.18105236E-02	-3.73548518E-02	 9.94258901E-01	-8.63561998E-02	 0.00000000E+00	 0.00000000E+00	 0.00000000E+00	 0.00000000E+00
4.06050000E+07	 2.18155424E-02	-3.73580558E-02	 9.94257621E-01	-8.63667585E-02	 0.00000000E+00	 0.00000000E+00	 0.00000000E+00	 0.00000000E+00
4.06100000E+07	 2.18205610E-02	-3.73612599E-02	 9.94256342E-01	-8.63773190E-02	 0.00000000E+00	 0.00000000E+00	 0.00000000E+00	 0.00000000E+00
4.06150000E+07	 2.18255807E-02	-3.73644631E-02	 9.94255061E-01	-8.63878776E-02	 0.00000000E+00	 0.00000000E+00	 0.00000000E+00	 0.00000000E+00
4.06200000E+07	 2.18306003E-02	-3.73676661E-02	 9.94253781E-01	-8.63984362E-02	 0.00000000E+00	 0.00000000E+00	 0.00000000E+00	 0.00000000E+00
4.06250000E+07	 2.18356210E-02	-3.73708683E-02	 9.94252501E-01	-8.64089966E-02	 0.00000000E+00	 0.00000000E+00	 0.00000000E+00	 0.00000000E+00
4.06300000E+07	 2.18406414E-02	-3.73740704E-02	 9.94251221E-01	-8.64195570E-02	 0.00000000E+00	 0.00000000E+00	 0.00000000E+00	 0.00000000E+00
4.06350000E+07	 2.18456622E-02	-3.73772730E-02	 9.94249941E-01	-8.64301155E-02	 0.00000000E+00	 0.00000000E+00	 0.00000000E+00	 0.00000000E+00
4.06400000E+07	 2.18506845E-02	-3.73804737E-02	 9.94248660E-01	-8.64406740E-02	 0.00000000E+00	 0.00000000E+00	 0.00000000E+00	 0.00000000E+00
4.06450000E+07	 2.18557063E-02	-3.73836742E-02	 9.94247378E-01	-8.64512342E-02	 0.00000000E+00	 0.00000000E+00	 0.00000000E+00	 0.00000000E+00
4.06500000E+07	 2.18607294E-02	-3.73868740E-02	 9.94246097E-01	-8.64617945E-02	 0.00000000E+00	 0.00000000E+00	 0.00000000E+00	 0.00000000E+00
4.06550000E+07	 2.18657524E-02	-3.73900736E-02	 9.94244816E-01	-8.64723513E-02	 0.00000000E+00	 0.00000000E+00	 0.00000000E+00	 0.00000000E+00
4.06600000E+07	 2.18707764E-02	-3.73932724E-02	 9.94243535E-01	-8.64829115E-02	 0.00000000E+00	 0.00000000E+00	 0.00000000E+00	 0.00000000E+00
4.06650000E+07	 2.18758003E-02	-3.73964711E-02	 9.94242254E-01	-8.64934717E-02	 0.00000000E+00	 0.00000000E+00	 0.00000000E+00	 0.00000000E+00
4.06700000E+07	 2.18808253E-02	-3.73996689E-02	 9.94240972E-01	-8.65040319E-02	 0.00000000E+00	 0.00000000E+00	 0.00000000E+00	 0.00000000E+00
4.06750000E+07	 2.18858502E-02	-3.74028665E-02	 9.94239691E-01	-8.65145886E-02	 0.00000000E+00	 0.00000000E+00	 0.00000000E+00	 0.00000000E+00
4.06800000E+07	 2.18908761E-02	-3.74060634E-02	 9.94238409E-01	-8.65251487E-02	 0.00000000E+00	 0.00000000E+00	 0.00000000E+00	 0.00000000E+00
