!Agilent Technologies,E5061B,MY49102235,A.02.00 FAKE DATA CREATED BY ROBYN AND HEADER CHANGED
!Date: Mon Jul 03 10:55:16 2023
!Data & Calibration Information:
!Freq	S11:SOLT2(ON)	S21:SOLT2(ON)	S12:SOLT2(ON)	S22:SOLT2(ON)
# Hz S MA R 50		
	40000000	0.042569156	-94.4626469	0.998043855	-5.50087515	0.998043855	-5.50087515	0.042569156	-94.4626469
	41000000	0.043626877	-94.5998896	0.997971946	-5.63818169	0.997971946	-5.63818169	0.043626877	-94.5998896
	42000000	0.044684177	-94.7371142	0.997898928	-5.77547567	0.997898928	-5.77547567	0.044684177	-94.7371142
	43000000	0.04574105	-94.8743207	0.9978248	-5.91275684	0.9978248	-5.91275684	0.04574105	-94.8743207
	44000000	0.046797487	-95.0115089	0.997749565	-6.05002495	0.997749565	-6.05002495	0.046797487	-95.0115089
	45000000	0.04785348	-95.1486787	0.997673224	-6.18727973	0.997673224	-6.18727973	0.04785348	-95.1486787
	46000000	0.048909021	-95.2858299	0.997595778	-6.32452093	0.997595778	-6.32452093	0.048909021	-95.2858299
	47000000	0.049964103	-95.4229623	0.997517228	-6.46174828	0.997517228	-6.46174828	0.049964103	-95.4229623
	48000000	0.051018717	-95.5600759	0.997437577	-6.59896154	0.997437577	-6.59896154	0.051018717	-95.5600759
	49000000	0.052072855	-95.6971703	0.997356825	-6.73616042	0.997356825	-6.73616042	0.052072855	-95.6971703
	50000000	0.05312651	-95.8342454	0.997274974	-6.87334467	0.997274974	-6.87334467	0.05312651	-95.8342454
	51000000	0.054179672	-95.9713011	0.997192026	-7.01051403	0.997192026	-7.01051403	0.054179672	-95.9713011
	52000000	0.055232336	-96.1083371	0.997107982	-7.14766822	0.997107982	-7.14766822	0.055232336	-96.1083371
	53000000	0.056284492	-96.2453531	0.997022844	-7.28480698	0.997022844	-7.28480698	0.056284492	-96.2453531
	54000000	0.057336132	-96.3823491	0.996936614	-7.42193003	0.996936614	-7.42193003	0.057336132	-96.3823491
	55000000	0.058387249	-96.5193248	0.996849292	-7.55903712	0.996849292	-7.55903712	0.058387249	-96.5193248
	56000000	0.059437834	-96.6562799	0.996760882	-7.69612798	0.996760882	-7.69612798	0.059437834	-96.6562799
	57000000	0.060487881	-96.7932142	0.996671384	-7.83320232	0.996671384	-7.83320232	0.060487881	-96.7932142
	58000000	0.06153738	-96.9301276	0.9965808	-7.97025988	0.9965808	-7.97025988	0.06153738	-96.9301276
	59000000	0.062586323	-97.0670198	0.996489132	-8.1073004	0.996489132	-8.1073004	0.062586323	-97.0670198
	60000000	0.063634704	-97.2038905	0.996396382	-8.2443236	0.996396382	-8.2443236	0.063634704	-97.2038905
	61000000	0.064682514	-97.3407395	0.996302552	-8.3813292	0.996302552	-8.3813292	0.064682514	-97.3407395
	62000000	0.065729745	-97.4775666	0.996207644	-8.51831694	0.996207644	-8.51831694	0.065729745	-97.4775666
	63000000	0.066776389	-97.6143716	0.996111659	-8.65528654	0.996111659	-8.65528654	0.066776389	-97.6143716
	64000000	0.067822439	-97.7511542	0.9960146	-8.79223773	0.9960146	-8.79223773	0.067822439	-97.7511542
	65000000	0.068867886	-97.8879141	0.995916468	-8.92917025	0.995916468	-8.92917025	0.068867886	-97.8879141
	66000000	0.069912722	-98.0246512	0.995817265	-9.06608381	0.995817265	-9.06608381	0.069912722	-98.0246512
	67000000	0.070956941	-98.1613651	0.995716994	-9.20297814	0.995716994	-9.20297814	0.070956941	-98.1613651
	68000000	0.072000533	-98.2980556	0.995615656	-9.33985298	0.995615656	-9.33985298	0.072000533	-98.2980556
	69000000	0.073043492	-98.4347225	0.995513254	-9.47670804	0.995513254	-9.47670804	0.073043492	-98.4347225
	70000000	0.074085809	-98.5713655	0.99540979	-9.61354306	0.99540979	-9.61354306	0.074085809	-98.5713655
	71000000	0.075127476	-98.7079844	0.995305266	-9.75035777	0.995305266	-9.75035777	0.075127476	-98.7079844
	72000000	0.076168487	-98.844579	0.995199683	-9.88715189	0.995199683	-9.88715189	0.076168487	-98.844579
	73000000	0.077208832	-98.9811489	0.995093045	-10.0239251	0.995093045	-10.0239251	0.077208832	-98.9811489
	74000000	0.078248504	-99.1176939	0.994985353	-10.1606773	0.994985353	-10.1606773	0.078248504	-99.1176939
	75000000	0.079287496	-99.2542137	0.99487661	-10.297408	0.99487661	-10.297408	0.079287496	-99.2542137
	76000000	0.0803258	-99.3907082	0.994766818	-10.4341171	0.994766818	-10.4341171	0.0803258	-99.3907082
	77000000	0.081363408	-99.527177	0.994655979	-10.5708042	0.994655979	-10.5708042	0.081363408	-99.527177
	78000000	0.082400312	-99.6636199	0.994544095	-10.707469	0.994544095	-10.707469	0.082400312	-99.6636199
	79000000	0.083436505	-99.8000367	0.99443117	-10.8441114	0.99443117	-10.8441114	0.083436505	-99.8000367
	80000000	0.084471979	-99.936427	0.994317204	-10.9807311	0.994317204	-10.9807311	0.084471979	-99.936427
	81000000	0.085506727	-100.072791	0.994202202	-11.1173277	0.994202202	-11.1173277	0.085506727	-100.072791
	82000000	0.08654074	-100.209127	0.994086165	-11.253901	0.994086165	-11.253901	0.08654074	-100.209127
	83000000	0.087574011	-100.345437	0.993969095	-11.3904508	0.993969095	-11.3904508	0.087574011	-100.345437
	84000000	0.088606533	-100.481719	0.993850996	-11.5269767	0.993850996	-11.5269767	0.088606533	-100.481719
	85000000	0.089638298	-100.617973	0.993731869	-11.6634785	0.993731869	-11.6634785	0.089638298	-100.617973
	86000000	0.090669298	-100.7542	0.993611717	-11.799956	0.993611717	-11.799956	0.090669298	-100.7542
	87000000	0.091699527	-100.890398	0.993490544	-11.9364088	0.993490544	-11.9364088	0.091699527	-100.890398
	88000000	0.092728975	-101.026568	0.99336835	-12.0728367	0.99336835	-12.0728367	0.092728975	-101.026568
	89000000	0.093757637	-101.162709	0.99324514	-12.2092394	0.99324514	-12.2092394	0.093757637	-101.162709
	90000000	0.094785503	-101.298821	0.993120915	-12.3456167	0.993120915	-12.3456167	0.094785503	-101.298821
	91000000	0.095812568	-101.434903	0.992995679	-12.4819684	0.992995679	-12.4819684	0.095812568	-101.434903
	92000000	0.096838823	-101.570956	0.992869434	-12.618294	0.992869434	-12.618294	0.096838823	-101.570956
	93000000	0.097864261	-101.70698	0.992742182	-12.7545934	0.992742182	-12.7545934	0.097864261	-101.70698
	94000000	0.098888875	-101.842973	0.992613927	-12.8908663	0.992613927	-12.8908663	0.098888875	-101.842973
	95000000	0.099912657	-101.978937	0.992484672	-13.0271125	0.992484672	-13.0271125	0.099912657	-101.978937
	96000000	0.1009356	-102.114869	0.992354418	-13.1633316	0.992354418	-13.1633316	0.1009356	-102.114869
	97000000	0.101957696	-102.250771	0.99222317	-13.2995235	0.99222317	-13.2995235	0.101957696	-102.250771
	98000000	0.102978939	-102.386642	0.992090929	-13.4356878	0.992090929	-13.4356878	0.102978939	-102.386642
	99000000	0.10399932	-102.522481	0.9919577	-13.5718243	0.9919577	-13.5718243	0.10399932	-102.522481
	100000000	0.105018833	-102.658289	0.991823483	-13.7079328	0.991823483	-13.7079328	0.105018833	-102.658289
	101000000	0.106037471	-102.794065	0.991688284	-13.844013	0.991688284	-13.844013	0.106037471	-102.794065
	102000000	0.107055225	-102.929809	0.991552104	-13.9800645	0.991552104	-13.9800645	0.107055225	-102.929809
	103000000	0.108072089	-103.065521	0.991414946	-14.1160873	0.991414946	-14.1160873	0.108072089	-103.065521
	104000000	0.109088056	-103.2012	0.991276814	-14.2520809	0.991276814	-14.2520809	0.109088056	-103.2012
	105000000	0.110103118	-103.336847	0.99113771	-14.3880452	0.99113771	-14.3880452	0.110103118	-103.336847
	106000000	0.111117269	-103.47246	0.990997638	-14.5239799	0.990997638	-14.5239799	0.111117269	-103.47246
	107000000	0.112130501	-103.60804	0.990856601	-14.6598848	0.990856601	-14.6598848	0.112130501	-103.60804
	108000000	0.113142806	-103.743587	0.990714601	-14.7957595	0.990714601	-14.7957595	0.113142806	-103.743587
	109000000	0.114154179	-103.879099	0.990571642	-14.9316039	0.990571642	-14.9316039	0.114154179	-103.879099
	110000000	0.115164612	-104.014578	0.990427727	-15.0674177	0.990427727	-15.0674177	0.115164612	-104.014578
	111000000	0.116174098	-104.150022	0.99028286	-15.2032006	0.99028286	-15.2032006	0.116174098	-104.150022
	112000000	0.117182629	-104.285432	0.990137043	-15.3389523	0.990137043	-15.3389523	0.117182629	-104.285432
	113000000	0.118190199	-104.420807	0.989990279	-15.4746728	0.989990279	-15.4746728	0.118190199	-104.420807
	114000000	0.119196801	-104.556147	0.989842572	-15.6103616	0.989842572	-15.6103616	0.119196801	-104.556147
	115000000	0.120202428	-104.691451	0.989693926	-15.7460185	0.989693926	-15.7460185	0.120202428	-104.691451
	116000000	0.121207073	-104.82672	0.989544342	-15.8816433	0.989544342	-15.8816433	0.121207073	-104.82672
	117000000	0.12221073	-104.961954	0.989393826	-16.0172358	0.989393826	-16.0172358	0.12221073	-104.961954
	118000000	0.12321339	-105.097151	0.989242379	-16.1527957	0.989242379	-16.1527957	0.12321339	-105.097151
	119000000	0.124215048	-105.232312	0.989090006	-16.2883227	0.989090006	-16.2883227	0.124215048	-105.232312
	120000000	0.125215696	-105.367436	0.988936709	-16.4238167	0.988936709	-16.4238167	0.125215696	-105.367436
