!Agilent Technologies,E5061B,MY49102235,A.02.00 FAKE DATA CREATED BY ROBYN AND HEADER CHANGED
!Date: Mon Jul 03 10:55:16 2023
!Data & Calibration Information:
!Freq	S11:SOLT2(ON)	S21:SOLT2(ON)	S12:SOLT2(ON)	S22:SOLT2(ON)
# Hz S RI R 50	
                 0    1.00501629e-06                  0        0.999998995                  0        0.999998995                  0      1.0050163e-06                  0
                 1    4.88944352e-09     5.82076608e-09        0.999999995    -4.17923379e-09        0.999999995    -4.17923379e-09     4.88944352e-09     5.82076615e-09
                 2    4.88944352e-09     5.82076608e-09        0.999999995    -4.17923379e-09        0.999999995    -4.17923379e-09     4.88944352e-09     5.82076615e-09
                 3    4.88944352e-09     5.82076608e-09        0.999999995    -4.17923379e-09        0.999999995    -4.17923379e-09     4.88944352e-09     5.82076615e-09
                 4    1.97906047e-09     1.56667002e-18                  1    -7.54425474e-09                  1    -7.54425474e-09     1.97906047e-09                  0
                 5    7.79982656e-09    -1.16415324e-08         1.00000001    -2.07847367e-08         1.00000001    -2.07847367e-08     7.79982656e-09    -1.16415324e-08
                 6    1.97906047e-09    -5.82076611e-09        0.999999999    -1.65382848e-08        0.999999999    -1.65382848e-08     1.97906047e-09    -5.82076611e-09
                 7   -9.31322908e-10    -5.82076607e-09        0.999999996    -1.80939316e-08        0.999999996    -1.80939316e-08    -9.31322575e-10    -5.82076608e-09
                 8    1.97906047e-09    -5.82076607e-09        0.999999998    -1.96347994e-08        0.999999998    -1.96347994e-08     1.97906047e-09    -5.82076611e-09
                 9    5.23868948e-10    -3.60246035e-17        0.999999997     -1.5342823e-08        0.999999997     -1.5342823e-08     5.23868948e-10                  0
                10    4.88944352e-09    -1.16415323e-08                  1    -2.85030332e-08                  1    -2.85030332e-08     4.88944352e-09    -1.16415323e-08
                11    4.16184798e-09    -8.73114916e-09                  1    -2.71027009e-08                  1    -2.71027009e-08     4.16184798e-09    -8.73114921e-09
                12    2.70665601e-09    -1.16415323e-08        0.999999998    -3.15156611e-08        0.999999998    -3.15156611e-08     2.70665601e-09    -1.16415322e-08
                13    1.97906069e-09    -8.73114919e-09        0.999999997    -3.01012985e-08        0.999999997    -3.01012985e-08     1.97906069e-09    -8.73114917e-09
                14    2.70665601e-09    -1.16415322e-08        0.999999998    -3.45018891e-08        0.999999998    -3.45018891e-08     2.70665601e-09    -1.16415322e-08
                15    2.70665601e-09    -1.16415323e-08        0.999999998    -3.59868966e-08        0.999999998    -3.59868966e-08     2.70665601e-09    -1.16415322e-08
                16    2.70665601e-09    -1.45519153e-08        0.999999997    -4.03775994e-08        0.999999997    -4.03775994e-08     2.70665601e-09    -1.45519153e-08
                17    3.43425177e-09    -1.45519153e-08        0.999999998    -4.18536645e-08        0.999999998    -4.18536645e-08     3.43425177e-09    -1.45519153e-08
                18    2.34285791e-09    -1.45519153e-08        0.999999997    -4.33258453e-08        0.999999997    -4.33258453e-08     2.34285813e-09    -1.45519153e-08
                19    2.70665557e-09    -1.45519153e-08        0.999999997    -4.47944615e-08        0.999999997    -4.47944615e-08     2.70665601e-09    -1.45519153e-08
                20    2.70665601e-09    -2.03726815e-08        0.999999997    -5.20805572e-08        0.999999997    -5.20805572e-08     2.70665601e-09    -2.03726814e-08
                21    2.70665579e-09    -1.74622984e-08        0.999999997    -5.06324607e-08        0.999999997    -5.06324606e-08     2.70665601e-09    -1.74622984e-08
                22    3.07045411e-09    -1.74622984e-08        0.999999997    -5.20919191e-08        0.999999997    -5.20919191e-08     3.07045367e-09    -1.74622984e-08
                23    3.07045345e-09    -2.32830645e-08        0.999999997    -5.93695064e-08        0.999999997    -5.93695064e-08     3.07045345e-09    -2.32830645e-08
                24    3.79804921e-09     -2.4738256e-08        0.999999997    -6.22790521e-08        0.999999997    -6.22790521e-08     3.79804899e-09    -2.47382561e-08
                25    3.79804921e-09     -2.1827873e-08        0.999999997    -6.08207088e-08        0.999999997    -6.08207088e-08     3.79804921e-09     -2.1827873e-08
                26    4.16184709e-09    -2.76486392e-08        0.999999997    -6.80913379e-08        0.999999997    -6.80913379e-08     4.16184709e-09    -2.76486392e-08
                27    3.07045323e-09     -2.4738256e-08        0.999999996    -6.66287653e-08        0.999999996    -6.66287653e-08     3.07045323e-09     -2.4738256e-08
                28    3.43425088e-09     -2.4738256e-08        0.999999996    -6.80746365e-08        0.999999996    -6.80746365e-08     3.43425111e-09    -2.47382561e-08
                29    3.43425111e-09    -2.76486391e-08        0.999999996    -7.24290544e-08        0.999999996    -7.24290544e-08     3.43425111e-09    -2.76486391e-08
                30    4.16184709e-09    -2.76486392e-08        0.999999997    -7.38713472e-08        0.999999997    -7.38713472e-08     4.16184709e-09    -2.76486392e-08
                31    3.07045323e-09    -2.61934475e-08        0.999999995    -7.38567925e-08        0.999999995    -7.38567925e-08     3.07045345e-09    -2.61934476e-08
                32    3.97994793e-09    -3.20142138e-08        0.999999996    -8.11166195e-08        0.999999996    -8.11166195e-08      3.9799477e-09    -3.20142138e-08
                33    4.52564497e-09    -3.05590222e-08        0.999999997    -8.10989857e-08        0.999999997    -8.10989858e-08     4.52564497e-09    -3.05590223e-08
                34     3.9799477e-09    -3.20142138e-08        0.999999996       -8.39903e-08        0.999999996       -8.39903e-08      3.9799477e-09    -3.20142138e-08
                35    4.70754347e-09    -3.49245969e-08        0.999999996    -8.83354336e-08        0.999999996    -8.83354336e-08     4.70754347e-09    -3.49245969e-08
                36    4.34374603e-09    -3.34694053e-08        0.999999996    -8.83136786e-08        0.999999996    -8.83136786e-08     4.34374581e-09    -3.34694053e-08
                37    4.88944174e-09    -3.63797884e-08        0.999999996    -9.26562389e-08        0.999999996    -9.26562389e-08     4.88944196e-09    -3.63797884e-08
                38    4.52564386e-09     -4.0745363e-08        0.999999996     -9.8452782e-08        0.999999996     -9.8452782e-08     4.52564386e-09     -4.0745363e-08
                39     4.7075428e-09     -4.0745363e-08        0.999999996    -9.98825891e-08        0.999999996    -9.98825891e-08      4.7075428e-09     -4.0745363e-08
                40    4.70754302e-09    -3.92901715e-08        0.999999996    -9.98560877e-08        0.999999996    -9.98560877e-08     4.70754302e-09    -3.92901715e-08
                41    4.88944196e-09    -4.22005545e-08        0.999999996    -1.04194086e-07        0.999999996    -1.04194086e-07     4.88944196e-09    -4.22005546e-08
                42     4.8894413e-09    -4.36557461e-08        0.999999996    -1.07075856e-07        0.999999996    -1.07075856e-07     4.88944174e-09    -4.36557461e-08
                43    4.88944174e-09    -4.36557461e-08        0.999999996    -1.08501435e-07        0.999999996    -1.08501435e-07     4.88944174e-09    -4.36557461e-08
                44    5.07134046e-09    -4.51109377e-08        0.999999996    -1.11381241e-07        0.999999996    -1.11381241e-07     5.07134046e-09    -4.51109377e-08
                45    5.07134024e-09    -4.65661292e-08        0.999999995    -1.14260115e-07        0.999999995    -1.14260115e-07     5.07134001e-09    -4.65661292e-08
                46    5.25323918e-09    -4.65661292e-08        0.999999996    -1.15682896e-07        0.999999996    -1.15682896e-07     5.25323895e-09    -4.65661292e-08
                47    5.07134024e-09    -4.94765123e-08        0.999999995    -1.20015188e-07        0.999999995    -1.20015188e-07     5.07134001e-09    -4.94765123e-08
                48    5.43513745e-09    -5.23868954e-08        0.999999995    -1.24346637e-07        0.999999995    -1.24346637e-07     5.43513767e-09    -5.23868954e-08
                49    5.07134001e-09    -4.94765123e-08        0.999999995      -1.228565e-07        0.999999995      -1.228565e-07     5.07134001e-09    -4.94765123e-08
                50    5.25323829e-09    -5.38420869e-08        0.999999995    -1.28641529e-07        0.999999995    -1.28641529e-07     5.25323829e-09    -5.38420869e-08
                51     5.4351379e-09    -4.94765123e-08        0.999999995    -1.25694639e-07        0.999999995    -1.25694639e-07      5.4351379e-09    -4.94765123e-08
                52    5.43513745e-09    -5.23868954e-08        0.999999995    -1.30022959e-07        0.999999995    -1.30022959e-07     5.43513767e-09    -5.23868954e-08
                53    5.61703639e-09     -5.3842087e-08        0.999999995    -1.32895363e-07        0.999999995    -1.32895363e-07     5.61703617e-09    -5.38420869e-08
                54    5.43513745e-09    -5.45696827e-08        0.999999995    -1.35039466e-07        0.999999995    -1.35039466e-07     5.43513745e-09    -5.45696827e-08
                55    5.70798586e-09    -5.60248743e-08        0.999999995    -1.37910479e-07        0.999999995    -1.37910479e-07     5.70798564e-09    -5.60248743e-08
                56    5.52608648e-09    -5.82076616e-08        0.999999995     -1.4150842e-07        0.999999995     -1.4150842e-07     5.52608648e-09    -5.82076616e-08
                57    5.43513701e-09    -5.60248742e-08        0.999999994    -1.40740138e-07        0.999999994    -1.40740138e-07     5.43513723e-09    -5.60248742e-08
                58    5.70798542e-09    -5.82076616e-08        0.999999994    -1.44336799e-07        0.999999994    -1.44336799e-07     5.70798542e-09    -5.82076616e-08
                59    5.88988414e-09    -5.96628531e-08        0.999999995    -1.47205248e-07        0.999999995    -1.47205248e-07     5.88988414e-09    -5.96628531e-08
                60    5.88988458e-09    -6.03904489e-08        0.999999994      -1.493455e-07        0.999999994      -1.493455e-07     5.88988414e-09    -6.03904489e-08
                61    5.79893422e-09    -6.11180447e-08        0.999999994    -1.51485168e-07        0.999999994    -1.51485168e-07     5.79893422e-09    -6.11180447e-08
                62    5.88988414e-09     -6.3300832e-08        0.999999994    -1.55079456e-07        0.999999994    -1.55079456e-07     5.88988369e-09     -6.3300832e-08
                63    6.16273232e-09    -6.47560236e-08        0.999999994    -1.57945591e-07        0.999999994    -1.57945591e-07      6.1627321e-09    -6.47560236e-08
                64    6.07178241e-09    -6.47560235e-08        0.999999994     -1.5935599e-07        0.999999994     -1.5935599e-07     6.07178263e-09    -6.47560236e-08
                65    5.98083294e-09    -6.54836193e-08        0.999999994    -1.61493453e-07        0.999999994    -1.61493453e-07     5.98083294e-09    -6.54836193e-08
                66    6.16273166e-09    -6.69388109e-08        0.999999994    -1.64357994e-07        0.999999994    -1.64357994e-07     6.16273188e-09    -6.69388109e-08
                67    6.07178197e-09    -6.83940024e-08        0.999999994    -1.67222026e-07        0.999999994    -1.67222026e-07     6.07178197e-09    -6.83940024e-08
                68    6.43557962e-09    -6.91215982e-08        0.999999994    -1.69357967e-07        0.999999994    -1.69357967e-07     6.43557962e-09    -6.91215982e-08
                69    6.25368068e-09    -6.91215982e-08        0.999999994    -1.70765827e-07        0.999999994    -1.70765827e-07     6.25368068e-09    -6.91215982e-08
                70    6.25368046e-09    -7.05767898e-08        0.999999994    -1.73628404e-07        0.999999994    -1.73628404e-07     6.25368046e-09    -7.05767897e-08
                71    6.43557962e-09    -7.13043855e-08        0.999999994    -1.75762921e-07        0.999999994    -1.75762921e-07     6.43557962e-09    -7.13043855e-08
                72    6.52652865e-09    -7.27595771e-08        0.999999994    -1.78624578e-07        0.999999994    -1.78624578e-07     6.52652843e-09    -7.27595771e-08
                73     6.6174779e-09    -7.42147686e-08        0.999999994     -1.8148579e-07        0.999999994     -1.8148579e-07      6.6174779e-09    -7.42147686e-08
                74    6.52652887e-09    -7.49423644e-08        0.999999993     -1.8361897e-07        0.999999993     -1.8361897e-07     6.52652865e-09    -7.49423644e-08
                75    6.61747745e-09    -7.56699602e-08        0.999999993    -1.85751723e-07        0.999999993    -1.85751723e-07     6.61747768e-09    -7.56699602e-08
                76    6.52652798e-09    -7.56699602e-08        0.999999993    -1.87156461e-07        0.999999993    -1.87156461e-07     6.52652843e-09    -7.56699602e-08
                77     6.7993764e-09    -7.71251518e-08        0.999999993     -1.9001598e-07        0.999999993     -1.9001598e-07     6.79937684e-09    -7.71251518e-08
                78    6.89032564e-09    -8.00355348e-08        0.999999993    -1.94330288e-07        0.999999993    -1.94330288e-07     6.89032542e-09    -8.00355349e-08
                79    6.79937595e-09    -8.07631306e-08        0.999999993    -1.96461413e-07        0.999999993    -1.96461413e-07     6.79937595e-09    -8.07631306e-08
                80    6.79937595e-09    -8.07631306e-08        0.999999993    -1.97864555e-07        0.999999993    -1.97864555e-07     6.79937595e-09    -8.07631306e-08
                81    6.70842648e-09    -8.14907264e-08        0.999999993    -1.99994912e-07        0.999999993    -1.99994912e-07     6.70842648e-09    -8.14907264e-08
                82    6.79937551e-09    -8.22183222e-08        0.999999993    -2.02124897e-07        0.999999993    -2.02124897e-07     6.79937595e-09    -8.22183222e-08
                83    6.98127423e-09    -8.44011095e-08        0.999999993    -2.05709706e-07        0.999999993    -2.05709706e-07     6.98127423e-09    -8.44011095e-08
                84    7.25412264e-09    -8.58563011e-08        0.999999993     -2.0856656e-07        0.999999993     -2.0856656e-07     7.25412264e-09    -8.58563011e-08
                85    7.07222392e-09    -8.58563011e-08        0.999999993    -2.09967868e-07        0.999999993    -2.09967868e-07      7.0722237e-09    -8.58563011e-08
                86    7.16317317e-09    -8.65838968e-08        0.999999993    -2.12096426e-07        0.999999993    -2.12096426e-07     7.16317317e-09    -8.65838968e-08
                87    7.25412219e-09    -8.80390884e-08        0.999999993    -2.14952237e-07        0.999999993    -2.14952237e-07     7.25412197e-09    -8.80390884e-08
                88    7.25412197e-09    -8.87666842e-08        0.999999993    -2.17080118e-07        0.999999993    -2.17080118e-07     7.25412197e-09    -8.87666842e-08
                89    7.52697016e-09    -9.02218758e-08        0.999999993    -2.19935265e-07        0.999999993    -2.19935265e-07     7.52696994e-09    -9.02218758e-08
                90      7.345071e-09    -9.16770673e-08        0.999999993    -2.22790087e-07        0.999999993    -2.22790087e-07       7.345071e-09    -9.16770673e-08
                91      7.345071e-09    -9.24046631e-08        0.999999992    -2.24916995e-07        0.999999992    -2.24916995e-07       7.345071e-09    -9.24046631e-08
                92    7.52696971e-09    -9.31322589e-08        0.999999993     -2.2704359e-07        0.999999993     -2.2704359e-07     7.52696949e-09    -9.31322589e-08
                93    7.61791874e-09    -9.45874504e-08        0.999999993    -2.29897471e-07        0.999999993    -2.29897471e-07     7.61791874e-09    -9.45874504e-08
                94     7.6179183e-09     -9.6042642e-08        0.999999992     -2.3275105e-07        0.999999992     -2.3275105e-07     7.61791852e-09     -9.6042642e-08
                95    7.61791852e-09     -9.6042642e-08        0.999999992    -2.34149138e-07        0.999999992    -2.34149138e-07     7.61791852e-09     -9.6042642e-08
                96    7.70886754e-09    -9.74978335e-08        0.999999992    -2.37002124e-07        0.999999992    -2.37002124e-07     7.70886754e-09    -9.74978335e-08
                97    7.66339237e-09    -9.96806209e-08        0.999999992    -2.40582416e-07        0.999999992    -2.40582416e-07     7.66339259e-09    -9.96806208e-08
                98    7.84529131e-09    -1.00408217e-07        0.999999992    -2.42707231e-07        0.999999992    -2.42707231e-07     7.84529131e-09    -1.00408217e-07
                99    7.84529108e-09    -1.01135812e-07        0.999999992    -2.44831767e-07        0.999999992    -2.44831767e-07     7.84529108e-09    -1.01135812e-07
               100    7.84529108e-09    -1.01863408e-07        0.999999992    -2.46956025e-07        0.999999992    -2.46956025e-07     7.84529086e-09    -1.01863408e-07
               101    7.93624011e-09      -1.033186e-07        0.999999992    -2.49807608e-07        0.999999992    -2.49807608e-07     7.93624011e-09      -1.033186e-07
               102    8.07266454e-09    -1.04046196e-07        0.999999992    -2.51931326e-07        0.999999992    -2.51931326e-07     8.07266431e-09    -1.04046196e-07
               103    8.07266454e-09    -1.04773791e-07        0.999999992     -2.5405478e-07        0.999999992     -2.5405478e-07     8.07266409e-09    -1.04773791e-07
               104    8.11813861e-09    -1.06956579e-07        0.999999992    -2.57633165e-07        0.999999992    -2.57633165e-07     8.11813838e-09    -1.06956579e-07
               105    8.30003732e-09    -1.08047972e-07        0.999999992      -2.601199e-07        0.999999992      -2.601199e-07      8.3000371e-09    -1.08047972e-07
               106     8.2545617e-09    -1.09866962e-07        0.999999992    -2.63333978e-07        0.999999992    -2.63333978e-07      8.2545617e-09    -1.09866962e-07
               107    8.20908719e-09    -1.09503164e-07        0.999999992    -2.64365018e-07        0.999999992    -2.64365018e-07     8.20908719e-09    -1.09503164e-07
               108    8.48193538e-09    -1.10958355e-07        0.999999992    -2.67214803e-07        0.999999992    -2.67214803e-07     8.48193538e-09    -1.10958355e-07
               109     8.2545617e-09    -1.11685951e-07        0.999999992    -2.69336749e-07        0.999999992    -2.69336749e-07     8.25456148e-09    -1.11685951e-07
               110    8.39098502e-09    -1.13141143e-07        0.999999992    -2.72186051e-07        0.999999992    -2.72186051e-07     8.39098546e-09    -1.13141143e-07
               111    8.61835869e-09    -1.14596334e-07        0.999999992    -2.75035117e-07        0.999999992    -2.75035118e-07     8.61835869e-09    -1.14596334e-07
               112      8.527409e-09    -1.15687728e-07        0.999999992    -2.77520153e-07        0.999999992    -2.77520153e-07       8.527409e-09    -1.15687728e-07
               113    8.61835825e-09    -1.16415324e-07        0.999999992    -2.79641161e-07        0.999999992    -2.79641161e-07     8.61835825e-09    -1.16415324e-07
               114    8.52740878e-09    -1.16779122e-07        0.999999991    -2.81398145e-07        0.999999991    -2.81398145e-07     8.52740878e-09    -1.16779122e-07
               115    8.61835781e-09    -1.18598111e-07        0.999999991    -2.84610096e-07        0.999999991    -2.84610096e-07     8.61835781e-09    -1.18598111e-07
