!Agilent Technologies,E5061B,MY49102235,A.02.00 FAKE DATA CREATED BY ROBYN AND HEADER CHANGED
!Date: Mon Jul 03 10:55:16 2023
!Data & Calibration Information:
!Freq	S11:SOLT2(ON)	S21:SOLT2(ON)	S12:SOLT2(ON)	S22:SOLT2(ON)
# Hz S RI R 50	
                 0    1.00501629e-06                  0        0.999998995                  0        0.999998995                  0      1.0050163e-06                  0
               0.1    4.88944352e-09     5.82076608e-09        0.999999995    -4.17923379e-09        0.999999995    -4.17923379e-09     4.88944352e-09     5.82076615e-09
               0.2    4.88944352e-09     5.82076608e-09        0.999999995    -4.17923379e-09        0.999999995    -4.17923379e-09     4.88944352e-09     5.82076615e-09
               0.3    4.88944352e-09     5.82076608e-09        0.999999995    -4.17923379e-09        0.999999995    -4.17923379e-09     4.88944352e-09     5.82076615e-09
               0.4    4.88944352e-09     5.82076608e-09        0.999999995    -4.17923379e-09        0.999999995    -4.17923379e-09     4.88944352e-09     5.82076615e-09
               0.5    4.88944352e-09     5.82076608e-09        0.999999995    -4.17923379e-09        0.999999995    -4.17923379e-09     4.88944352e-09     5.82076615e-09
               0.6    4.88944352e-09     5.82076608e-09        0.999999995    -4.17923379e-09        0.999999995    -4.17923379e-09     4.88944352e-09     5.82076615e-09
               0.7    4.88944352e-09     5.82076608e-09        0.999999995    -4.17923379e-09        0.999999995    -4.17923379e-09     4.88944352e-09     5.82076615e-09
               0.8    4.88944352e-09     5.82076608e-09        0.999999995    -4.17923379e-09        0.999999995    -4.17923379e-09     4.88944352e-09     5.82076615e-09
               0.9    4.88944352e-09     5.82076608e-09        0.999999995    -4.17923379e-09        0.999999995    -4.17923379e-09     4.88944352e-09     5.82076615e-09
                 1    4.88944352e-09     5.82076608e-09        0.999999995    -4.17923379e-09        0.999999995    -4.17923379e-09     4.88944352e-09     5.82076615e-09
               1.1    4.88944352e-09     5.82076608e-09        0.999999995    -4.17923379e-09        0.999999995    -4.17923379e-09     4.88944352e-09     5.82076615e-09
               1.2    4.88944352e-09     5.82076608e-09        0.999999995    -4.17923379e-09        0.999999995    -4.17923379e-09     4.88944352e-09     5.82076615e-09
               1.3    4.88944352e-09     5.82076608e-09        0.999999995    -4.17923379e-09        0.999999995    -4.17923379e-09     4.88944352e-09     5.82076615e-09
               1.4    4.88944352e-09     5.82076608e-09        0.999999995    -4.17923379e-09        0.999999995    -4.17923379e-09     4.88944352e-09     5.82076615e-09
               1.5    4.88944352e-09     5.82076608e-09        0.999999995    -4.17923379e-09        0.999999995    -4.17923379e-09     4.88944352e-09     5.82076615e-09
               1.6    4.88944352e-09     5.82076608e-09        0.999999995    -4.17923379e-09        0.999999995    -4.17923379e-09     4.88944352e-09     5.82076615e-09
               1.7    4.88944352e-09     5.82076608e-09        0.999999995    -4.17923379e-09        0.999999995    -4.17923379e-09     4.88944352e-09     5.82076615e-09
               1.8    4.88944352e-09     5.82076608e-09        0.999999995    -4.17923379e-09        0.999999995    -4.17923379e-09     4.88944352e-09     5.82076615e-09
               1.9    4.88944352e-09     5.82076608e-09        0.999999995    -4.17923379e-09        0.999999995    -4.17923379e-09     4.88944352e-09     5.82076615e-09
                 2    4.88944352e-09     5.82076608e-09        0.999999995    -4.17923379e-09        0.999999995    -4.17923379e-09     4.88944352e-09     5.82076615e-09
               2.1    4.88944352e-09     5.82076608e-09        0.999999995    -4.17923379e-09        0.999999995    -4.17923379e-09     4.88944352e-09     5.82076615e-09
               2.2    4.88944352e-09     5.82076608e-09        0.999999995    -4.17923379e-09        0.999999995    -4.17923379e-09     4.88944352e-09     5.82076615e-09
               2.3    4.88944352e-09     5.82076608e-09        0.999999995    -4.17923379e-09        0.999999995    -4.17923379e-09     4.88944352e-09     5.82076615e-09
               2.4    4.88944352e-09     5.82076608e-09        0.999999995    -4.17923379e-09        0.999999995    -4.17923379e-09     4.88944352e-09     5.82076615e-09
               2.5    4.88944352e-09     5.82076608e-09        0.999999995    -4.17923379e-09        0.999999995    -4.17923379e-09     4.88944352e-09     5.82076615e-09
               2.6    4.88944352e-09     5.82076608e-09        0.999999995    -4.17923379e-09        0.999999995    -4.17923379e-09     4.88944352e-09     5.82076615e-09
               2.7    4.88944352e-09     5.82076608e-09        0.999999995    -4.17923379e-09        0.999999995    -4.17923379e-09     4.88944352e-09     5.82076615e-09
               2.8    4.88944352e-09     5.82076608e-09        0.999999995    -4.17923379e-09        0.999999995    -4.17923379e-09     4.88944352e-09     5.82076615e-09
               2.9    4.88944352e-09     5.82076608e-09        0.999999995    -4.17923379e-09        0.999999995    -4.17923379e-09     4.88944352e-09     5.82076615e-09
                 3    4.88944352e-09     5.82076608e-09        0.999999995    -4.17923379e-09        0.999999995    -4.17923379e-09     4.88944352e-09     5.82076615e-09
               3.1    4.88944352e-09     5.82076608e-09        0.999999995    -4.17923379e-09        0.999999995    -4.17923379e-09     4.88944352e-09     5.82076615e-09
               3.2    1.97906025e-09     1.16415322e-08                  1      5.4006863e-09                  1     5.40068635e-09     1.97906025e-09     1.16415322e-08
               3.3    4.88944307e-09    -1.16415322e-08                  1    -1.80467648e-08                  1    -1.80467648e-08     4.88944352e-09    -1.16415323e-08
               3.4   -3.84170562e-09    -5.58066175e-18        0.999999994    -6.56916541e-09        0.999999994    -6.56916541e-09    -3.84170562e-09                  0
               3.5    7.79982678e-09    -7.21763847e-17         1.00000001    -6.73266448e-09         1.00000001    -6.73266437e-09     7.79982656e-09                  0
               3.6   -3.84170562e-09      1.1641532e-08        0.999999994     4.74578412e-09        0.999999994     4.74578418e-09    -3.84170584e-09     1.16415321e-08
               3.7   -9.31322908e-10     1.16415322e-08        0.999999997     4.58309902e-09        0.999999997     4.58309902e-09    -9.31322797e-10     1.16415322e-08
               3.8   -9.31322797e-10     3.06684584e-18        0.999999997    -7.22073622e-09        0.999999997    -7.22073622e-09    -9.31322575e-10                  0
               3.9   -9.31322575e-10    -1.77056356e-17        0.999999997    -7.38267208e-09        0.999999997    -7.38267208e-09    -9.31322575e-10                  0
                 4    1.97906025e-09     1.16415322e-08                  1     4.09727746e-09                  1     4.09727746e-09     1.97906025e-09     1.16415322e-08
               4.1     7.7998259e-09    -2.32830646e-08         1.00000001     -3.0988562e-08         1.00000001    -3.09885621e-08     7.79982612e-09    -2.32830647e-08
               4.2     1.9790598e-09    -2.32830644e-08        0.999999999    -3.11494768e-08        0.999999999    -3.11494768e-08      1.9790598e-09    -2.32830645e-08
               4.3    7.79982656e-09    -1.16415323e-08         1.00000001    -1.96685437e-08         1.00000001    -1.96685437e-08     7.79982656e-09    -1.16415324e-08
               4.4    4.88944352e-09    -1.16415324e-08                  1    -1.98288377e-08                  1    -1.98288377e-08     4.88944352e-09    -1.16415323e-08
               4.5    4.88944307e-09    -2.32830647e-08                  1    -3.16303693e-08                  1    -3.16303692e-08     4.88944307e-09    -2.32830646e-08
               4.6    4.88944352e-09    -1.16415323e-08                  1    -2.01485512e-08                  1    -2.01485512e-08     4.88944352e-09    -1.16415323e-08
               4.7    7.79982612e-09    -2.32830648e-08         1.00000001    -3.19495222e-08         1.00000001    -3.19495222e-08     7.79982612e-09    -2.32830647e-08
               4.8    4.88944352e-09    -1.16415324e-08                  1    -2.04671615e-08                  1    -2.04671614e-08     4.88944352e-09    -1.16415323e-08
               4.9    4.88944396e-09    -5.82076612e-09                  1    -1.48053082e-08                  1    -1.48053082e-08     4.88944352e-09    -5.82076615e-09
                 5    7.79982656e-09    -1.16415324e-08         1.00000001    -2.07847367e-08         1.00000001    -2.07847367e-08     7.79982656e-09    -1.16415324e-08
               5.1    7.79982656e-09    -5.82076614e-09         1.00000001    -1.51223895e-08         1.00000001    -1.51223895e-08     7.79982656e-09    -5.82076618e-09
               5.2    4.88944352e-09    -5.82076615e-09                  1    -1.52805723e-08                  1    -1.52805723e-08     4.88944352e-09    -5.82076615e-09
               5.3    7.79982612e-09    -1.74622985e-08                  1    -2.70800581e-08                  1    -2.70800581e-08     7.79982612e-09    -1.74622985e-08
               5.4    4.88944352e-09     4.46916055e-17                  1    -9.77549008e-09                  1    -9.77549008e-09     4.88944352e-09                  0
               5.5    4.88944352e-09    -5.82076616e-09                  1      -1.575377e-08                  1      -1.575377e-08     4.88944352e-09    -5.82076615e-09
               5.6    7.79982678e-09     -5.8207661e-09                  1    -1.59110729e-08                  1    -1.59110729e-08     7.79982656e-09    -5.82076618e-09
               5.7   -2.38651443e-09       4.854893e-17        0.999999995    -1.02474044e-08        0.999999995    -1.02474045e-08     -2.3865141e-09                  0
               5.8    3.43425177e-09    -1.16415323e-08                  1    -2.20458345e-08                  1    -2.20458345e-08     3.43425177e-09    -1.16415323e-08
               5.9   -9.31322242e-10    -5.82076608e-09        0.999999996    -1.63817714e-08        0.999999996    -1.63817715e-08    -9.31322575e-10    -5.82076608e-09
                 6    5.23868948e-10    -1.16415322e-08        0.999999997    -2.23590509e-08        0.999999997    -2.23590509e-08     5.23868726e-10    -1.16415322e-08
               6.1    1.97906003e-09    -1.16415321e-08        0.999999999     -2.2515379e-08        0.999999999    -2.25153791e-08     1.97906025e-09    -1.16415322e-08
               6.2   -9.31322797e-10    -5.82076609e-09        0.999999996    -1.68507607e-08        0.999999996    -1.68507607e-08    -9.31322575e-10    -5.82076608e-09
               6.3   -2.38651421e-09    -5.82076615e-09        0.999999995    -1.70067323e-08        0.999999995    -1.70067322e-08     -2.3865141e-09    -5.82076606e-09
               6.4    4.88944374e-09     -5.8207661e-09                  1    -1.71625318e-08                  1    -1.71625318e-08     4.88944352e-09    -5.82076615e-09
               6.5    4.88944352e-09    -1.16415322e-08                  1    -2.31389295e-08                  1    -2.31389295e-08     4.88944352e-09    -1.16415323e-08
               6.6    1.97906047e-09    -1.16415322e-08        0.999999999    -2.32943969e-08        0.999999999    -2.32943969e-08     1.97906025e-09    -1.16415322e-08
               6.7    5.23868948e-10     2.91077112e-17        0.999999997    -1.18081717e-08        0.999999997    -1.18081717e-08     5.23868948e-10                  0
               6.8    5.23868948e-10     -5.8207661e-09        0.999999997     -1.7784088e-08        0.999999997     -1.7784088e-08     5.23868948e-10     -5.8207661e-09
               6.9   -9.31322575e-10     -5.8207661e-09        0.999999996    -1.79390848e-08        0.999999996    -1.79390848e-08    -9.31322575e-10    -5.82076608e-09
                 7   -9.31322908e-10    -5.82076607e-09        0.999999996    -1.80939316e-08        0.999999996    -1.80939316e-08    -9.31322575e-10    -5.82076608e-09
               7.1    1.97906069e-09    -5.82076611e-09        0.999999999    -1.82486315e-08        0.999999999    -1.82486315e-08     1.97906047e-09    -5.82076611e-09
               7.2    1.97906003e-09    -5.82076612e-09        0.999999999    -1.84031877e-08        0.999999999    -1.84031877e-08     1.97906047e-09    -5.82076611e-09
               7.3    5.23868948e-10    -5.82076619e-09        0.999999997    -1.85576031e-08        0.999999997    -1.85576031e-08     5.23868948e-10     -5.8207661e-09
               7.4    3.43425199e-09    -5.82076612e-09                  1    -1.87118806e-08                  1    -1.87118806e-08     3.43425199e-09    -5.82076613e-09
               7.5   -9.31322797e-10       6.328555e-17        0.999999996    -1.30452568e-08        0.999999996    -1.30452568e-08    -9.31322575e-10                  0
               7.6    1.97906025e-09    -5.82076608e-09        0.999999999    -1.90200329e-08        0.999999999    -1.90200329e-08     1.97906047e-09    -5.82076611e-09
               7.7    5.23868726e-10    -5.82076602e-09        0.999999997     -1.9173913e-08        0.999999997     -1.9173913e-08     5.23868948e-10     -5.8207661e-09
               7.8    5.23868948e-10    -5.82076605e-09        0.999999997    -1.93276658e-08        0.999999997    -1.93276658e-08     5.23868948e-10     -5.8207661e-09
               7.9    5.23868948e-10    -4.77682452e-17        0.999999997    -1.36605278e-08        0.999999997    -1.36605278e-08     5.23868948e-10                  0
                 8   -9.31322575e-10    -5.82076613e-09        0.999999996    -1.96347994e-08        0.999999996    -1.96347994e-08    -9.31322575e-10    -5.82076608e-09
               8.1    1.97906047e-09    -5.82076611e-09        0.999999998    -1.97881848e-08        0.999999998    -1.97881848e-08     1.97906047e-09    -5.82076611e-09
               8.2   -9.31322575e-10    -9.43792062e-18        0.999999995     -1.4120686e-08        0.999999995     -1.4120686e-08    -9.31322575e-10                  0
               8.3    5.23868726e-10    -5.82076609e-09        0.999999997    -2.00946036e-08        0.999999997    -2.00946036e-08     5.23868948e-10     -5.8207661e-09
               8.4    5.23868948e-10    -5.94397451e-17        0.999999997    -1.44268753e-08        0.999999997    -1.44268753e-08     5.23868948e-10                  0
               8.5   -2.38651399e-09    -3.39921437e-17        0.999999994    -1.45798014e-08        0.999999994    -1.45798014e-08     -2.3865141e-09                  0
               8.6    5.23868948e-10    -5.55307389e-17        0.999999997    -1.47326177e-08        0.999999997    -1.47326177e-08     5.23868948e-10                  0
               8.7     5.2386917e-10     -5.8207661e-09        0.999999997    -2.07060923e-08        0.999999997    -2.07060923e-08     5.23868948e-10     -5.8207661e-09
               8.8    1.97906025e-09    -5.82076606e-09        0.999999998    -2.08586948e-08        0.999999998    -2.08586948e-08     1.97906047e-09    -5.82076611e-09
               8.9    5.23868948e-10    -1.16415322e-08        0.999999997    -2.68319592e-08        0.999999997    -2.68319592e-08     5.23868726e-10    -1.16415322e-08
                 9    1.97906047e-09    -2.51669879e-17        0.999999998     -1.5342823e-08        0.999999998     -1.5342823e-08     1.97906047e-09                  0
               9.1    1.97906069e-09    -5.82076607e-09        0.999999998    -2.13158842e-08        0.999999998    -2.13158842e-08     1.97906047e-09    -5.82076611e-09
               9.2    5.23868726e-10     1.96252113e-17        0.999999997    -1.56473142e-08        0.999999997    -1.56473142e-08     5.23868948e-10                  0
               9.3   -9.31322908e-10     2.63083309e-17        0.999999995    -1.57994128e-08        0.999999995    -1.57994128e-08    -9.31322575e-10                  0
               9.4    5.23868726e-10    -5.82076607e-09        0.999999997    -2.17721816e-08        0.999999997    -2.17721816e-08     5.23868948e-10     -5.8207661e-09
               9.5    5.23868504e-10    -2.44650178e-17        0.999999997    -1.61033239e-08        0.999999997    -1.61033239e-08     5.23868948e-10                  0
               9.6    5.23868726e-10     4.22302125e-17        0.999999997    -1.62551394e-08        0.999999997    -1.62551394e-08     5.23868948e-10                  0
               9.7    4.88944307e-09    -1.74622985e-08                  1    -3.38691619e-08                  1    -3.38691619e-08     4.88944307e-09    -1.74622984e-08
               9.8    4.88944352e-09    -1.16415323e-08                  1    -2.82000297e-08                  1    -2.82000298e-08     4.88944352e-09    -1.16415323e-08
               9.9    4.88944307e-09    -1.74622984e-08                  1    -3.41723413e-08                  1    -3.41723413e-08     4.88944307e-09    -1.74622984e-08
                10    3.43425199e-09    -1.16415323e-08        0.999999999    -2.85030332e-08        0.999999999    -2.85030332e-08     3.43425177e-09    -1.16415323e-08
              10.1    4.88944307e-09    -1.74622985e-08                  1    -3.44751714e-08                  1    -3.44751714e-08     4.88944307e-09    -1.74622984e-08
              10.2    3.43425155e-09    -1.74622983e-08        0.999999999    -3.46264586e-08        0.999999999    -3.46264587e-08     3.43425177e-09    -1.74622984e-08
              10.3    3.43425177e-09    -1.74622983e-08        0.999999999    -3.47776625e-08        0.999999999    -3.47776625e-08     3.43425177e-09    -1.74622984e-08
              10.4    1.97906003e-09    -1.16415322e-08        0.999999998    -2.91080179e-08        0.999999998    -2.91080179e-08     1.97906025e-09    -1.16415322e-08
              10.5    4.16184753e-09    -1.74622984e-08                  1    -3.50798246e-08                  1    -3.50798246e-08     4.16184753e-09    -1.74622984e-08
              10.6    1.97906003e-09    -1.16415323e-08        0.999999998     -2.9410019e-08        0.999999998     -2.9410019e-08     1.97906025e-09    -1.16415322e-08
              10.7    2.70665601e-09    -1.16415322e-08        0.999999999    -2.95609007e-08        0.999999999    -2.95609007e-08     2.70665601e-09    -1.16415322e-08
              10.8    2.70665579e-09    -1.74622984e-08        0.999999999    -3.55324709e-08        0.999999999    -3.55324709e-08     2.70665601e-09    -1.74622984e-08
              10.9    2.70665645e-09     -5.8207661e-09        0.999999998     -2.4041666e-08        0.999999998     -2.4041666e-08     2.70665623e-09    -5.82076612e-09
                11    2.70665623e-09    -5.82076613e-09        0.999999998    -2.41923179e-08        0.999999998    -2.41923179e-08     2.70665623e-09    -5.82076612e-09
              11.1    3.43425222e-09    -8.73114923e-09        0.999999999    -2.72532782e-08        0.999999999    -2.72532782e-08     3.43425199e-09     -8.7311492e-09
              11.2    1.25146449e-09    -2.91038302e-09        0.999999997    -2.15830158e-08        0.999999997    -2.15830158e-08     1.25146471e-09    -2.91038305e-09
              11.3    2.70665623e-09    -5.82076611e-09        0.999999998    -2.46438301e-08        0.999999998    -2.46438301e-08     2.70665623e-09    -5.82076612e-09
              11.4    2.70665645e-09    -8.73114916e-09        0.999999998    -2.77045727e-08        0.999999998    -2.77045727e-08     2.70665645e-09    -8.73114918e-09
              11.5    3.43425177e-09    -1.45519153e-08        0.999999999    -3.36756278e-08        0.999999999    -3.36756278e-08     3.43425177e-09    -1.45519153e-08
