!Agilent Technologies,E5061B,MY49102235,A.02.00
!Date: Thu Jun 29 15:38:14 2023
!Data & Calibration Information:
!Freq	S11:SOLT2(ON)	S21:SOLT2(ON)	S12:SOLT2(ON)	S22:SOLT2(ON)
# Hz S dB R 50
40000000.000	-2.268642e+001	-3.625393e+001	-6.528365e-001	-4.417032e+001	-6.546333e-001	-4.415675e+001	-2.307062e+001	-3.989348e+001
40031269.543	-2.267942e+001	-3.634805e+001	-6.527923e-001	-4.419883e+001	-6.554232e-001	-4.418108e+001	-2.306696e+001	-3.991933e+001
40062539.087	-2.267975e+001	-3.639792e+001	-6.562470e-001	-4.423181e+001	-6.560065e-001	-4.421620e+001	-2.305821e+001	-4.000048e+001
40093808.630	-2.267905e+001	-3.644241e+001	-6.549399e-001	-4.426704e+001	-6.551756e-001	-4.425775e+001	-2.305976e+001	-4.004992e+001
40125078.174	-2.267941e+001	-3.648655e+001	-6.556885e-001	-4.429577e+001	-6.567750e-001	-4.428979e+001	-2.305604e+001	-4.002303e+001
40156347.717	-2.266737e+001	-3.654842e+001	-6.542752e-001	-4.433019e+001	-6.557762e-001	-4.432966e+001	-2.305529e+001	-4.017474e+001
40187617.261	-2.266240e+001	-3.664099e+001	-6.557207e-001	-4.435501e+001	-6.553229e-001	-4.435582e+001	-2.304252e+001	-4.029086e+001
40218886.804	-2.266001e+001	-3.663937e+001	-6.551825e-001	-4.439759e+001	-6.576081e-001	-4.438489e+001	-2.303804e+001	-4.029448e+001
40250156.348	-2.265922e+001	-3.669857e+001	-6.561751e-001	-4.442116e+001	-6.563650e-001	-4.441937e+001	-2.304317e+001	-4.041661e+001
40281425.891	-2.265644e+001	-3.678335e+001	-6.560947e-001	-4.445931e+001	-6.572962e-001	-4.445085e+001	-2.304006e+001	-4.042057e+001
40312695.435	-2.264952e+001	-3.681775e+001	-6.556226e-001	-4.450120e+001	-6.577016e-001	-4.448165e+001	-2.303120e+001	-4.047239e+001
40343964.978	-2.264909e+001	-3.683631e+001	-6.575364e-001	-4.451853e+001	-6.583125e-001	-4.451496e+001	-2.303644e+001	-4.051433e+001
40375234.522	-2.264390e+001	-3.688063e+001	-6.578039e-001	-4.456292e+001	-6.584903e-001	-4.454323e+001	-2.303438e+001	-4.061021e+001
40406504.065	-2.265038e+001	-3.693713e+001	-6.594806e-001	-4.459002e+001	-6.579525e-001	-4.458637e+001	-2.301826e+001	-4.067479e+001
40437773.609	-2.264289e+001	-3.707699e+001	-6.572275e-001	-4.461212e+001	-6.585162e-001	-4.460685e+001	-2.301765e+001	-4.076799e+001
40469043.152	-2.263235e+001	-3.708282e+001	-6.583042e-001	-4.465123e+001	-6.586853e-001	-4.464042e+001	-2.302135e+001	-4.077991e+001
40500312.695	-2.262954e+001	-3.720806e+001	-6.592491e-001	-4.469397e+001	-6.588691e-001	-4.467278e+001	-2.302251e+001	-4.083719e+001
40531582.239	-2.262934e+001	-3.718773e+001	-6.609463e-001	-4.471166e+001	-6.586465e-001	-4.472432e+001	-2.302203e+001	-4.089457e+001
40562851.782	-2.262958e+001	-3.722349e+001	-6.606813e-001	-4.475364e+001	-6.604601e-001	-4.474693e+001	-2.299917e+001	-4.101085e+001
40594121.326	-2.261990e+001	-3.730349e+001	-6.582992e-001	-4.478309e+001	-6.607330e-001	-4.477200e+001	-2.300728e+001	-4.098948e+001
40625390.869	-2.262001e+001	-3.731368e+001	-6.595059e-001	-4.481153e+001	-6.584977e-001	-4.480494e+001	-2.300387e+001	-4.113670e+001
40656660.413	-2.261687e+001	-3.739402e+001	-6.600980e-001	-4.484833e+001	-6.600548e-001	-4.483076e+001	-2.300257e+001	-4.113495e+001
40687929.956	-2.261110e+001	-3.741510e+001	-6.577551e-001	-4.487796e+001	-6.601118e-001	-4.486300e+001	-2.299800e+001	-4.121998e+001
40719199.500	-2.261474e+001	-3.745708e+001	-6.618989e-001	-4.491231e+001	-6.602639e-001	-4.491295e+001	-2.298640e+001	-4.125511e+001
40750469.043	-2.261010e+001	-3.754488e+001	-6.629066e-001	-4.494198e+001	-6.610723e-001	-4.494052e+001	-2.300103e+001	-4.136114e+001
40781738.587	-2.259295e+001	-3.762277e+001	-6.606961e-001	-4.498039e+001	-6.610526e-001	-4.497492e+001	-2.299904e+001	-4.142778e+001
40813008.130	-2.259968e+001	-3.768338e+001	-6.609317e-001	-4.499998e+001	-6.621570e-001	-4.501068e+001	-2.299046e+001	-4.146066e+001
40844277.674	-2.259806e+001	-3.767605e+001	-6.622512e-001	-4.504183e+001	-6.623968e-001	-4.503919e+001	-2.299268e+001	-4.154139e+001
40875547.217	-2.259067e+001	-3.776191e+001	-6.620925e-001	-4.508318e+001	-6.623144e-001	-4.505991e+001	-2.298353e+001	-4.158945e+001
40906816.760	-2.259126e+001	-3.778434e+001	-6.613155e-001	-4.510454e+001	-6.631030e-001	-4.509776e+001	-2.296853e+001	-4.162152e+001
40938086.304	-2.259139e+001	-3.791261e+001	-6.631425e-001	-4.514964e+001	-6.618139e-001	-4.513095e+001	-2.297997e+001	-4.173598e+001
40969355.847	-2.259004e+001	-3.792689e+001	-6.643891e-001	-4.517763e+001	-6.630437e-001	-4.516680e+001	-2.297960e+001	-4.176809e+001
41000625.391	-2.258751e+001	-3.794988e+001	-6.654004e-001	-4.521016e+001	-6.649272e-001	-4.520053e+001	-2.297353e+001	-4.180440e+001
41031894.934	-2.257039e+001	-3.791844e+001	-6.635255e-001	-4.522830e+001	-6.634934e-001	-4.523734e+001	-2.297363e+001	-4.188341e+001
41063164.478	-2.257817e+001	-3.804949e+001	-6.634908e-001	-4.526769e+001	-6.631274e-001	-4.526256e+001	-2.296281e+001	-4.195233e+001
41094434.021	-2.257371e+001	-3.814219e+001	-6.646742e-001	-4.529977e+001	-6.650598e-001	-4.529437e+001	-2.296452e+001	-4.202030e+001
41125703.565	-2.256777e+001	-3.817594e+001	-6.641912e-001	-4.533331e+001	-6.647490e-001	-4.532033e+001	-2.296511e+001	-4.206632e+001
41156973.108	-2.255696e+001	-3.822473e+001	-6.652178e-001	-4.535480e+001	-6.655427e-001	-4.536727e+001	-2.296027e+001	-4.214985e+001
41188242.652	-2.256603e+001	-3.823558e+001	-6.637852e-001	-4.540581e+001	-6.652926e-001	-4.539285e+001	-2.294497e+001	-4.218271e+001
41219512.195	-2.255075e+001	-3.834898e+001	-6.649343e-001	-4.543662e+001	-6.662300e-001	-4.542819e+001	-2.294709e+001	-4.229469e+001
41250781.739	-2.255613e+001	-3.840058e+001	-6.653966e-001	-4.548317e+001	-6.662155e-001	-4.546195e+001	-2.294741e+001	-4.229321e+001
41282051.282	-2.254637e+001	-3.846896e+001	-6.657801e-001	-4.550068e+001	-6.662695e-001	-4.549404e+001	-2.294734e+001	-4.242542e+001
41313320.826	-2.255412e+001	-3.847172e+001	-6.675188e-001	-4.553213e+001	-6.669525e-001	-4.552236e+001	-2.293926e+001	-4.246056e+001
41344590.369	-2.254805e+001	-3.859545e+001	-6.689686e-001	-4.555996e+001	-6.658907e-001	-4.555908e+001	-2.293821e+001	-4.245862e+001
41375859.912	-2.255380e+001	-3.863432e+001	-6.668613e-001	-4.559678e+001	-6.690705e-001	-4.559724e+001	-2.293291e+001	-4.254092e+001
41407129.456	-2.254205e+001	-3.866988e+001	-6.673587e-001	-4.561912e+001	-6.692044e-001	-4.561903e+001	-2.294404e+001	-4.260639e+001
41438398.999	-2.253161e+001	-3.875966e+001	-6.659838e-001	-4.565904e+001	-6.674911e-001	-4.564962e+001	-2.293826e+001	-4.267530e+001
41469668.543	-2.254482e+001	-3.872359e+001	-6.676479e-001	-4.569959e+001	-6.677525e-001	-4.569457e+001	-2.292852e+001	-4.273804e+001
41500938.086	-2.253072e+001	-3.883975e+001	-6.680909e-001	-4.572259e+001	-6.680653e-001	-4.571338e+001	-2.292300e+001	-4.283847e+001
41532207.630	-2.252566e+001	-3.887771e+001	-6.683833e-001	-4.575725e+001	-6.685509e-001	-4.574898e+001	-2.292091e+001	-4.287083e+001
41563477.173	-2.251694e+001	-3.894626e+001	-6.684253e-001	-4.579587e+001	-6.695865e-001	-4.577960e+001	-2.291133e+001	-4.292156e+001
41594746.717	-2.251290e+001	-3.896159e+001	-6.693881e-001	-4.582577e+001	-6.691019e-001	-4.581739e+001	-2.291986e+001	-4.295403e+001
41626016.260	-2.252439e+001	-3.911875e+001	-6.690702e-001	-4.585707e+001	-6.696268e-001	-4.584788e+001	-2.291634e+001	-4.304205e+001
41657285.804	-2.250919e+001	-3.911299e+001	-6.688988e-001	-4.588969e+001	-6.703072e-001	-4.587824e+001	-2.290782e+001	-4.307534e+001
41688555.347	-2.250636e+001	-3.912420e+001	-6.699048e-001	-4.592056e+001	-6.697903e-001	-4.591676e+001	-2.290712e+001	-4.315057e+001
41719824.891	-2.250685e+001	-3.914077e+001	-6.694423e-001	-4.595555e+001	-6.708607e-001	-4.594253e+001	-2.290880e+001	-4.319230e+001
41751094.434	-2.251659e+001	-3.917896e+001	-6.706384e-001	-4.598073e+001	-6.700122e-001	-4.599040e+001	-2.289380e+001	-4.330334e+001
41782363.977	-2.249386e+001	-3.928367e+001	-6.699082e-001	-4.601601e+001	-6.708443e-001	-4.600628e+001	-2.290930e+001	-4.340264e+001
41813633.521	-2.249827e+001	-3.936443e+001	-6.721175e-001	-4.605050e+001	-6.710852e-001	-4.603749e+001	-2.289526e+001	-4.334801e+001
41844903.064	-2.249757e+001	-3.940461e+001	-6.712094e-001	-4.607232e+001	-6.713285e-001	-4.608054e+001	-2.289723e+001	-4.347132e+001
41876172.608	-2.249056e+001	-3.946708e+001	-6.725607e-001	-4.612200e+001	-6.705111e-001	-4.610553e+001	-2.290296e+001	-4.353330e+001
41907442.151	-2.249557e+001	-3.950010e+001	-6.722096e-001	-4.614524e+001	-6.707468e-001	-4.614147e+001	-2.289567e+001	-4.360054e+001
41938711.695	-2.247983e+001	-3.952964e+001	-6.726421e-001	-4.618287e+001	-6.722773e-001	-4.616652e+001	-2.287839e+001	-4.362143e+001
41969981.238	-2.247630e+001	-3.964971e+001	-6.725375e-001	-4.621230e+001	-6.719744e-001	-4.621540e+001	-2.288004e+001	-4.366972e+001
42001250.782	-2.247869e+001	-3.962209e+001	-6.724850e-001	-4.624597e+001	-6.737998e-001	-4.623049e+001	-2.287886e+001	-4.374252e+001
42032520.325	-2.247643e+001	-3.966135e+001	-6.730912e-001	-4.628079e+001	-6.727471e-001	-4.625689e+001	-2.288238e+001	-4.382652e+001
42063789.869	-2.247550e+001	-3.977281e+001	-6.729978e-001	-4.630678e+001	-6.733279e-001	-4.631061e+001	-2.288162e+001	-4.391973e+001
42095059.412	-2.246726e+001	-3.981491e+001	-6.733684e-001	-4.634260e+001	-6.725049e-001	-4.633489e+001	-2.287942e+001	-4.391149e+001
42126328.956	-2.246931e+001	-3.988631e+001	-6.746814e-001	-4.637069e+001	-6.745985e-001	-4.636930e+001	-2.287524e+001	-4.402884e+001
42157598.499	-2.245579e+001	-3.992677e+001	-6.742225e-001	-4.640799e+001	-6.737551e-001	-4.640787e+001	-2.286929e+001	-4.404809e+001
42188868.043	-2.245496e+001	-3.999145e+001	-6.744567e-001	-4.642877e+001	-6.739296e-001	-4.643399e+001	-2.287099e+001	-4.411478e+001
42220137.586	-2.244874e+001	-3.999589e+001	-6.745029e-001	-4.647662e+001	-6.752211e-001	-4.646179e+001	-2.286529e+001	-4.419297e+001
42251407.129	-2.244880e+001	-4.010395e+001	-6.738012e-001	-4.650561e+001	-6.748804e-001	-4.650289e+001	-2.286999e+001	-4.422932e+001
42282676.673	-2.244395e+001	-4.013519e+001	-6.754601e-001	-4.653931e+001	-6.760466e-001	-4.653412e+001	-2.285962e+001	-4.428733e+001
42313946.216	-2.244711e+001	-4.017177e+001	-6.744262e-001	-4.657081e+001	-6.746881e-001	-4.656479e+001	-2.285754e+001	-4.435574e+001
42345215.760	-2.244513e+001	-4.030532e+001	-6.757329e-001	-4.660550e+001	-6.755338e-001	-4.660366e+001	-2.286585e+001	-4.443702e+001
42376485.303	-2.243925e+001	-4.034059e+001	-6.760697e-001	-4.664027e+001	-6.768177e-001	-4.663099e+001	-2.285682e+001	-4.444186e+001
42407754.847	-2.243642e+001	-4.034819e+001	-6.769832e-001	-4.667041e+001	-6.766975e-001	-4.666354e+001	-2.285212e+001	-4.450423e+001
42439024.390	-2.243269e+001	-4.045070e+001	-6.764827e-001	-4.670196e+001	-6.776253e-001	-4.668968e+001	-2.284673e+001	-4.463361e+001
42470293.934	-2.242310e+001	-4.047897e+001	-6.764301e-001	-4.673356e+001	-6.765584e-001	-4.672407e+001	-2.284237e+001	-4.465896e+001
42501563.477	-2.243133e+001	-4.049081e+001	-6.772060e-001	-4.675781e+001	-6.760101e-001	-4.676055e+001	-2.283635e+001	-4.469723e+001
42532833.021	-2.241903e+001	-4.053520e+001	-6.774555e-001	-4.679291e+001	-6.757037e-001	-4.679435e+001	-2.284200e+001	-4.481499e+001
42564102.564	-2.242049e+001	-4.062090e+001	-6.771188e-001	-4.683522e+001	-6.773043e-001	-4.682865e+001	-2.283541e+001	-4.487702e+001
42595372.108	-2.241425e+001	-4.064189e+001	-6.779600e-001	-4.687221e+001	-6.768880e-001	-4.686311e+001	-2.283934e+001	-4.495612e+001
42626641.651	-2.240486e+001	-4.079829e+001	-6.782201e-001	-4.688992e+001	-6.783011e-001	-4.688555e+001	-2.283698e+001	-4.498739e+001
42657911.194	-2.240880e+001	-4.079256e+001	-6.784062e-001	-4.693120e+001	-6.777778e-001	-4.692349e+001	-2.283039e+001	-4.502596e+001
42689180.738	-2.241354e+001	-4.083384e+001	-6.784837e-001	-4.695720e+001	-6.784513e-001	-4.695676e+001	-2.283062e+001	-4.512821e+001
42720450.281	-2.240476e+001	-4.093992e+001	-6.813124e-001	-4.699192e+001	-6.796406e-001	-4.698854e+001	-2.282246e+001	-4.513144e+001
42751719.825	-2.239367e+001	-4.101626e+001	-6.795154e-001	-4.702501e+001	-6.787635e-001	-4.700674e+001	-2.281456e+001	-4.520459e+001
42782989.368	-2.240503e+001	-4.105908e+001	-6.785231e-001	-4.706598e+001	-6.789310e-001	-4.705387e+001	-2.282393e+001	-4.526550e+001
42814258.912	-2.239141e+001	-4.105411e+001	-6.787895e-001	-4.708360e+001	-6.790300e-001	-4.708356e+001	-2.280691e+001	-4.539644e+001
42845528.455	-2.239655e+001	-4.111047e+001	-6.796593e-001	-4.712761e+001	-6.793751e-001	-4.711531e+001	-2.281238e+001	-4.537169e+001
42876797.999	-2.238283e+001	-4.116417e+001	-6.804010e-001	-4.714741e+001	-6.798789e-001	-4.715199e+001	-2.280699e+001	-4.550027e+001
42908067.542	-2.238860e+001	-4.125105e+001	-6.817156e-001	-4.717928e+001	-6.802280e-001	-4.717158e+001	-2.280283e+001	-4.558791e+001
42939337.086	-2.237959e+001	-4.124592e+001	-6.814564e-001	-4.721609e+001	-6.818587e-001	-4.721994e+001	-2.279529e+001	-4.560833e+001
42970606.629	-2.237708e+001	-4.137086e+001	-6.815217e-001	-4.725280e+001	-6.814696e-001	-4.725052e+001	-2.279648e+001	-4.574089e+001
43001876.173	-2.237497e+001	-4.141626e+001	-6.812732e-001	-4.728655e+001	-6.807143e-001	-4.728105e+001	-2.280436e+001	-4.569899e+001
43033145.716	-2.236665e+001	-4.138977e+001	-6.824160e-001	-4.732382e+001	-6.814070e-001	-4.731803e+001	-2.280142e+001	-4.578100e+001
43064415.260	-2.235992e+001	-4.149333e+001	-6.830765e-001	-4.735186e+001	-6.810497e-001	-4.734139e+001	-2.279243e+001	-4.587037e+001
43095684.803	-2.236700e+001	-4.155149e+001	-6.827477e-001	-4.738700e+001	-6.821698e-001	-4.737858e+001	-2.279273e+001	-4.593734e+001
43126954.346	-2.235723e+001	-4.155975e+001	-6.824161e-001	-4.741527e+001	-6.822866e-001	-4.741198e+001	-2.279626e+001	-4.595709e+001
43158223.890	-2.235520e+001	-4.164860e+001	-6.837355e-001	-4.744005e+001	-6.831596e-001	-4.744476e+001	-2.279375e+001	-4.603468e+001
43189493.433	-2.234938e+001	-4.174364e+001	-6.815871e-001	-4.747833e+001	-6.834071e-001	-4.748936e+001	-2.279333e+001	-4.607172e+001
43220762.977	-2.235060e+001	-4.173932e+001	-6.827133e-001	-4.751359e+001	-6.833609e-001	-4.750238e+001	-2.278250e+001	-4.618505e+001
43252032.520	-2.234515e+001	-4.187024e+001	-6.837206e-001	-4.754718e+001	-6.833701e-001	-4.754735e+001	-2.277254e+001	-4.622028e+001
43283302.064	-2.234970e+001	-4.184691e+001	-6.844223e-001	-4.757583e+001	-6.849935e-001	-4.757414e+001	-2.277526e+001	-4.623327e+001
43314571.607	-2.234260e+001	-4.198309e+001	-6.836836e-001	-4.760884e+001	-6.826292e-001	-4.759698e+001	-2.278326e+001	-4.627436e+001
43345841.151	-2.233585e+001	-4.197240e+001	-6.849343e-001	-4.764262e+001	-6.841270e-001	-4.763594e+001	-2.277716e+001	-4.635810e+001
43377110.694	-2.233761e+001	-4.207851e+001	-6.850858e-001	-4.767198e+001	-6.848200e-001	-4.767592e+001	-2.277436e+001	-4.645647e+001
43408380.238	-2.232273e+001	-4.211998e+001	-6.837425e-001	-4.770949e+001	-6.857234e-001	-4.770188e+001	-2.276428e+001	-4.649154e+001
43439649.781	-2.232271e+001	-4.216529e+001	-6.855752e-001	-4.774326e+001	-6.858717e-001	-4.774354e+001	-2.275854e+001	-4.653651e+001
43470919.325	-2.232615e+001	-4.224031e+001	-6.855637e-001	-4.778262e+001	-6.839605e-001	-4.776770e+001	-2.276364e+001	-4.654295e+001
43502188.868	-2.231830e+001	-4.231372e+001	-6.852176e-001	-4.780940e+001	-6.862289e-001	-4.780672e+001	-2.276130e+001	-4.664319e+001
43533458.412	-2.231620e+001	-4.228202e+001	-6.867241e-001	-4.783523e+001	-6.865538e-001	-4.783511e+001	-2.274872e+001	-4.671574e+001
43564727.955	-2.231934e+001	-4.238949e+001	-6.869012e-001	-4.786400e+001	-6.850369e-001	-4.787622e+001	-2.275065e+001	-4.682372e+001
43595997.498	-2.230774e+001	-4.246851e+001	-6.875307e-001	-4.789908e+001	-6.877486e-001	-4.790320e+001	-2.275212e+001	-4.686293e+001
43627267.042	-2.230386e+001	-4.252200e+001	-6.866205e-001	-4.792762e+001	-6.863817e-001	-4.793589e+001	-2.275359e+001	-4.689811e+001
43658536.585	-2.229720e+001	-4.257677e+001	-6.878877e-001	-4.796410e+001	-6.871874e-001	-4.796702e+001	-2.274942e+001	-4.697840e+001
43689806.129	-2.228822e+001	-4.261175e+001	-6.883217e-001	-4.800269e+001	-6.873689e-001	-4.799711e+001	-2.273841e+001	-4.704645e+001
43721075.672	-2.230870e+001	-4.262743e+001	-6.889779e-001	-4.803321e+001	-6.874652e-001	-4.803166e+001	-2.273538e+001	-4.710641e+001
43752345.216	-2.228615e+001	-4.272196e+001	-6.866358e-001	-4.805895e+001	-6.877661e-001	-4.807102e+001	-2.273537e+001	-4.712478e+001
43783614.759	-2.228391e+001	-4.277353e+001	-6.890375e-001	-4.809710e+001	-6.875353e-001	-4.809416e+001	-2.273100e+001	-4.723257e+001
43814884.303	-2.229327e+001	-4.285240e+001	-6.886530e-001	-4.812518e+001	-6.885477e-001	-4.812702e+001	-2.273580e+001	-4.726866e+001
43846153.846	-2.227861e+001	-4.289196e+001	-6.885929e-001	-4.815312e+001	-6.874518e-001	-4.815439e+001	-2.273375e+001	-4.735485e+001
43877423.390	-2.227754e+001	-4.295486e+001	-6.887660e-001	-4.820158e+001	-6.888382e-001	-4.819231e+001	-2.272442e+001	-4.736980e+001
43908692.933	-2.228623e+001	-4.297341e+001	-6.894519e-001	-4.823699e+001	-6.889848e-001	-4.821606e+001	-2.273107e+001	-4.742991e+001
43939962.477	-2.228033e+001	-4.303476e+001	-6.884360e-001	-4.825933e+001	-6.886681e-001	-4.825700e+001	-2.272292e+001	-4.750706e+001
43971232.020	-2.226972e+001	-4.310899e+001	-6.903125e-001	-4.829549e+001	-6.890331e-001	-4.829092e+001	-2.271797e+001	-4.756956e+001
44002501.563	-2.226479e+001	-4.318306e+001	-6.914983e-001	-4.832473e+001	-6.904325e-001	-4.831366e+001	-2.272069e+001	-4.757346e+001
44033771.107	-2.225962e+001	-4.321604e+001	-6.898268e-001	-4.836188e+001	-6.905957e-001	-4.834754e+001	-2.271704e+001	-4.767915e+001
44065040.650	-2.226327e+001	-4.321373e+001	-6.903366e-001	-4.838862e+001	-6.900816e-001	-4.838324e+001	-2.271087e+001	-4.766676e+001
44096310.194	-2.226359e+001	-4.333561e+001	-6.907066e-001	-4.841661e+001	-6.911501e-001	-4.841717e+001	-2.270745e+001	-4.779577e+001
44127579.737	-2.225445e+001	-4.340082e+001	-6.907793e-001	-4.845360e+001	-6.913440e-001	-4.844353e+001	-2.270339e+001	-4.786617e+001
44158849.281	-2.225092e+001	-4.341963e+001	-6.918604e-001	-4.848327e+001	-6.904041e-001	-4.847972e+001	-2.270145e+001	-4.791965e+001
44190118.824	-2.225051e+001	-4.349702e+001	-6.922103e-001	-4.851777e+001	-6.901133e-001	-4.851286e+001	-2.270288e+001	-4.798384e+001
44221388.368	-2.225098e+001	-4.356187e+001	-6.909703e-001	-4.854811e+001	-6.920998e-001	-4.854975e+001	-2.270696e+001	-4.806896e+001
44252657.911	-2.224693e+001	-4.359801e+001	-6.922289e-001	-4.858337e+001	-6.918019e-001	-4.858398e+001	-2.268948e+001	-4.807637e+001
44283927.455	-2.224198e+001	-4.366852e+001	-6.931472e-001	-4.861324e+001	-6.917852e-001	-4.861005e+001	-2.269757e+001	-4.824891e+001
44315196.998	-2.224130e+001	-4.371205e+001	-6.917750e-001	-4.864726e+001	-6.922181e-001	-4.864169e+001	-2.268406e+001	-4.823251e+001
44346466.542	-2.223454e+001	-4.377358e+001	-6.933032e-001	-4.868407e+001	-6.923601e-001	-4.867801e+001	-2.269200e+001	-4.831489e+001
44377736.085	-2.223321e+001	-4.380033e+001	-6.945787e-001	-4.870602e+001	-6.940606e-001	-4.871306e+001	-2.269731e+001	-4.838818e+001
44409005.629	-2.223041e+001	-4.382245e+001	-6.937663e-001	-4.875152e+001	-6.944136e-001	-4.874181e+001	-2.268268e+001	-4.841382e+001
44440275.172	-2.221844e+001	-4.394993e+001	-6.950973e-001	-4.877813e+001	-6.932098e-001	-4.877255e+001	-2.268674e+001	-4.848100e+001
44471544.715	-2.221817e+001	-4.400364e+001	-6.949089e-001	-4.881391e+001	-6.935240e-001	-4.880201e+001	-2.267821e+001	-4.850096e+001
44502814.259	-2.220632e+001	-4.403158e+001	-6.960971e-001	-4.883533e+001	-6.951337e-001	-4.884510e+001	-2.267271e+001	-4.856299e+001
44534083.802	-2.221757e+001	-4.408896e+001	-6.952180e-001	-4.888362e+001	-6.950587e-001	-4.887307e+001	-2.266852e+001	-4.867924e+001
44565353.346	-2.221600e+001	-4.414394e+001	-6.953205e-001	-4.891050e+001	-6.946219e-001	-4.889997e+001	-2.268219e+001	-4.868136e+001
44596622.889	-2.221135e+001	-4.422781e+001	-6.956854e-001	-4.893790e+001	-6.949845e-001	-4.893368e+001	-2.267060e+001	-4.875471e+001
