! COPPER MOUNTAIN TECHNOLOGIES, PLANAR TR1300/1, 00000000, 23.1.2/1.0
! Date: 7/6/2023 6:32:27 PM
! Data: Format [Calibration Info]
! Freq          	S11: Re/Im                     	S21: Re/Im                     	S12: Re/Im                     	S22: Re/Im                     
# HZ S RI R 50
4.00000000E+07	 2.04249000E-02	-3.74043619E-02	 9.93443436E-01	-9.56763463E-02	 0.00000000E+00	 0.00000000E+00	 0.00000000E+00	 0.00000000E+00
4.00050000E+07	 2.04296903E-02	-3.74077835E-02	 9.93441933E-01	-9.56882180E-02	 0.00000000E+00	 0.00000000E+00	 0.00000000E+00	 0.00000000E+00
4.00100000E+07	 2.04344802E-02	-3.74112059E-02	 9.93440430E-01	-9.57000879E-02	 0.00000000E+00	 0.00000000E+00	 0.00000000E+00	 0.00000000E+00
4.00150000E+07	 2.04392713E-02	-3.74146267E-02	 9.93438927E-01	-9.57119595E-02	 0.00000000E+00	 0.00000000E+00	 0.00000000E+00	 0.00000000E+00
4.00200000E+07	 2.04440630E-02	-3.74180469E-02	 9.93437423E-01	-9.57238292E-02	 0.00000000E+00	 0.00000000E+00	 0.00000000E+00	 0.00000000E+00
4.00250000E+07	 2.04488551E-02	-3.74214676E-02	 9.93435919E-01	-9.57356990E-02	 0.00000000E+00	 0.00000000E+00	 0.00000000E+00	 0.00000000E+00
4.00300000E+07	 2.04536476E-02	-3.74248870E-02	 9.93434415E-01	-9.57475723E-02	 0.00000000E+00	 0.00000000E+00	 0.00000000E+00	 0.00000000E+00
4.00350000E+07	 2.04584406E-02	-3.74283069E-02	 9.93432912E-01	-9.57594421E-02	 0.00000000E+00	 0.00000000E+00	 0.00000000E+00	 0.00000000E+00
4.00400000E+07	 2.04632341E-02	-3.74317252E-02	 9.93431407E-01	-9.57713117E-02	 0.00000000E+00	 0.00000000E+00	 0.00000000E+00	 0.00000000E+00
4.00450000E+07	 2.04680282E-02	-3.74351434E-02	 9.93429903E-01	-9.57831832E-02	 0.00000000E+00	 0.00000000E+00	 0.00000000E+00	 0.00000000E+00
4.00500000E+07	 2.04728219E-02	-3.74385622E-02	 9.93428399E-01	-9.57950529E-02	 0.00000000E+00	 0.00000000E+00	 0.00000000E+00	 0.00000000E+00
4.00550000E+07	 2.04776170E-02	-3.74419793E-02	 9.93426895E-01	-9.58069226E-02	 0.00000000E+00	 0.00000000E+00	 0.00000000E+00	 0.00000000E+00
4.00600000E+07	 2.04824123E-02	-3.74453960E-02	 9.93425389E-01	-9.58187956E-02	 0.00000000E+00	 0.00000000E+00	 0.00000000E+00	 0.00000000E+00
4.00650000E+07	 2.04872081E-02	-3.74488132E-02	 9.93423883E-01	-9.58306652E-02	 0.00000000E+00	 0.00000000E+00	 0.00000000E+00	 0.00000000E+00
4.00700000E+07	 2.04920045E-02	-3.74522290E-02	 9.93422379E-01	-9.58425365E-02	 0.00000000E+00	 0.00000000E+00	 0.00000000E+00	 0.00000000E+00
4.00750000E+07	 2.04968013E-02	-3.74556453E-02	 9.93420874E-01	-9.58544061E-02	 0.00000000E+00	 0.00000000E+00	 0.00000000E+00	 0.00000000E+00
4.00800000E+07	 2.05015987E-02	-3.74590602E-02	 9.93419368E-01	-9.58662756E-02	 0.00000000E+00	 0.00000000E+00	 0.00000000E+00	 0.00000000E+00
4.00850000E+07	 2.05063965E-02	-3.74624747E-02	 9.93417862E-01	-9.58781468E-02	 0.00000000E+00	 0.00000000E+00	 0.00000000E+00	 0.00000000E+00
4.00900000E+07	 2.05111948E-02	-3.74658897E-02	 9.93416356E-01	-9.58900163E-02	 0.00000000E+00	 0.00000000E+00	 0.00000000E+00	 0.00000000E+00
4.00950000E+07	 2.05159936E-02	-3.74693032E-02	 9.93414851E-01	-9.59018875E-02	 0.00000000E+00	 0.00000000E+00	 0.00000000E+00	 0.00000000E+00
4.01000000E+07	 2.05207929E-02	-3.74727164E-02	 9.93413344E-01	-9.59137587E-02	 0.00000000E+00	 0.00000000E+00	 0.00000000E+00	 0.00000000E+00
4.01050000E+07	 2.05255918E-02	-3.74761303E-02	 9.93411838E-01	-9.59256280E-02	 0.00000000E+00	 0.00000000E+00	 0.00000000E+00	 0.00000000E+00
4.01100000E+07	 2.05303922E-02	-3.74795426E-02	 9.93410331E-01	-9.59374974E-02	 0.00000000E+00	 0.00000000E+00	 0.00000000E+00	 0.00000000E+00
4.01150000E+07	 2.05351928E-02	-3.74829544E-02	 9.93408825E-01	-9.59493685E-02	 0.00000000E+00	 0.00000000E+00	 0.00000000E+00	 0.00000000E+00
4.01200000E+07	 2.05399939E-02	-3.74863667E-02	 9.93407318E-01	-9.59612378E-02	 0.00000000E+00	 0.00000000E+00	 0.00000000E+00	 0.00000000E+00
4.01250000E+07	 2.05447954E-02	-3.74897775E-02	 9.93405810E-01	-9.59731088E-02	 0.00000000E+00	 0.00000000E+00	 0.00000000E+00	 0.00000000E+00
4.01300000E+07	 2.05495976E-02	-3.74931880E-02	 9.93404303E-01	-9.59849781E-02	 0.00000000E+00	 0.00000000E+00	 0.00000000E+00	 0.00000000E+00
4.01350000E+07	 2.05544001E-02	-3.74965989E-02	 9.93402797E-01	-9.59968474E-02	 0.00000000E+00	 0.00000000E+00	 0.00000000E+00	 0.00000000E+00
4.01400000E+07	 2.05592032E-02	-3.75000085E-02	 9.93401289E-01	-9.60087201E-02	 0.00000000E+00	 0.00000000E+00	 0.00000000E+00	 0.00000000E+00
4.01450000E+07	 2.05640068E-02	-3.75034176E-02	 9.93399781E-01	-9.60205893E-02	 0.00000000E+00	 0.00000000E+00	 0.00000000E+00	 0.00000000E+00
4.01500000E+07	 2.05688108E-02	-3.75068272E-02	 9.93398273E-01	-9.60324584E-02	 0.00000000E+00	 0.00000000E+00	 0.00000000E+00	 0.00000000E+00
4.01550000E+07	 2.05736152E-02	-3.75102354E-02	 9.93396765E-01	-9.60443293E-02	 0.00000000E+00	 0.00000000E+00	 0.00000000E+00	 0.00000000E+00
4.01600000E+07	 2.05784203E-02	-3.75136432E-02	 9.93395258E-01	-9.60561985E-02	 0.00000000E+00	 0.00000000E+00	 0.00000000E+00	 0.00000000E+00
4.01650000E+07	 2.05832256E-02	-3.75170514E-02	 9.93393748E-01	-9.60680675E-02	 0.00000000E+00	 0.00000000E+00	 0.00000000E+00	 0.00000000E+00
4.01700000E+07	 2.05880315E-02	-3.75204584E-02	 9.93392240E-01	-9.60799383E-02	 0.00000000E+00	 0.00000000E+00	 0.00000000E+00	 0.00000000E+00
4.01750000E+07	 2.05928380E-02	-3.75238648E-02	 9.93390731E-01	-9.60918074E-02	 0.00000000E+00	 0.00000000E+00	 0.00000000E+00	 0.00000000E+00
4.01800000E+07	 2.05976448E-02	-3.75272707E-02	 9.93389222E-01	-9.61036782E-02	 0.00000000E+00	 0.00000000E+00	 0.00000000E+00	 0.00000000E+00
4.01850000E+07	 2.06024521E-02	-3.75306772E-02	 9.93387713E-01	-9.61155471E-02	 0.00000000E+00	 0.00000000E+00	 0.00000000E+00	 0.00000000E+00
4.01900000E+07	 2.06072600E-02	-3.75340823E-02	 9.93386204E-01	-9.61274161E-02	 0.00000000E+00	 0.00000000E+00	 0.00000000E+00	 0.00000000E+00
4.01950000E+07	 2.06120683E-02	-3.75374870E-02	 9.93384695E-01	-9.61392868E-02	 0.00000000E+00	 0.00000000E+00	 0.00000000E+00	 0.00000000E+00
4.02000000E+07	 2.06168769E-02	-3.75408921E-02	 9.93383184E-01	-9.61511557E-02	 0.00000000E+00	 0.00000000E+00	 0.00000000E+00	 0.00000000E+00
4.02050000E+07	 2.06216863E-02	-3.75442958E-02	 9.93381675E-01	-9.61630263E-02	 0.00000000E+00	 0.00000000E+00	 0.00000000E+00	 0.00000000E+00
4.02100000E+07	 2.06264960E-02	-3.75476992E-02	 9.93380165E-01	-9.61748970E-02	 0.00000000E+00	 0.00000000E+00	 0.00000000E+00	 0.00000000E+00
4.02150000E+07	 2.06313063E-02	-3.75511021E-02	 9.93378655E-01	-9.61867658E-02	 0.00000000E+00	 0.00000000E+00	 0.00000000E+00	 0.00000000E+00
4.02200000E+07	 2.06361167E-02	-3.75545054E-02	 9.93377144E-01	-9.61986363E-02	 0.00000000E+00	 0.00000000E+00	 0.00000000E+00	 0.00000000E+00
4.02250000E+07	 2.06409287E-02	-3.75579070E-02	 9.93375634E-01	-9.62105051E-02	 0.00000000E+00	 0.00000000E+00	 0.00000000E+00	 0.00000000E+00
4.02300000E+07	 2.06457404E-02	-3.75613085E-02	 9.93374124E-01	-9.62223739E-02	 0.00000000E+00	 0.00000000E+00	 0.00000000E+00	 0.00000000E+00
4.02350000E+07	 2.06505523E-02	-3.75647107E-02	 9.93372614E-01	-9.62342444E-02	 0.00000000E+00	 0.00000000E+00	 0.00000000E+00	 0.00000000E+00
4.02400000E+07	 2.06553649E-02	-3.75681112E-02	 9.93371102E-01	-9.62461131E-02	 0.00000000E+00	 0.00000000E+00	 0.00000000E+00	 0.00000000E+00
4.02450000E+07	 2.06601780E-02	-3.75715114E-02	 9.93369591E-01	-9.62579836E-02	 0.00000000E+00	 0.00000000E+00	 0.00000000E+00	 0.00000000E+00
4.02500000E+07	 2.06649916E-02	-3.75749111E-02	 9.93368080E-01	-9.62698522E-02	 0.00000000E+00	 0.00000000E+00	 0.00000000E+00	 0.00000000E+00
4.02550000E+07	 2.06698055E-02	-3.75783113E-02	 9.93366568E-01	-9.62817208E-02	 0.00000000E+00	 0.00000000E+00	 0.00000000E+00	 0.00000000E+00
4.02600000E+07	 2.06746199E-02	-3.75817102E-02	 9.93365057E-01	-9.62935912E-02	 0.00000000E+00	 0.00000000E+00	 0.00000000E+00	 0.00000000E+00
4.02650000E+07	 2.06794350E-02	-3.75851086E-02	 9.93363545E-01	-9.63054598E-02	 0.00000000E+00	 0.00000000E+00	 0.00000000E+00	 0.00000000E+00
4.02700000E+07	 2.06842506E-02	-3.75885065E-02	 9.93362033E-01	-9.63173284E-02	 0.00000000E+00	 0.00000000E+00	 0.00000000E+00	 0.00000000E+00
4.02750000E+07	 2.06890662E-02	-3.75919050E-02	 9.93360520E-01	-9.63291986E-02	 0.00000000E+00	 0.00000000E+00	 0.00000000E+00	 0.00000000E+00
4.02800000E+07	 2.06938833E-02	-3.75953016E-02	 9.93359009E-01	-9.63410672E-02	 0.00000000E+00	 0.00000000E+00	 0.00000000E+00	 0.00000000E+00
4.02850000E+07	 2.06987002E-02	-3.75986983E-02	 9.93357496E-01	-9.63529374E-02	 0.00000000E+00	 0.00000000E+00	 0.00000000E+00	 0.00000000E+00
4.02900000E+07	 2.07035176E-02	-3.76020943E-02	 9.93355983E-01	-9.63648058E-02	 0.00000000E+00	 0.00000000E+00	 0.00000000E+00	 0.00000000E+00
4.02950000E+07	 2.07083353E-02	-3.76054910E-02	 9.93354470E-01	-9.63766742E-02	 0.00000000E+00	 0.00000000E+00	 0.00000000E+00	 0.00000000E+00
4.03000000E+07	 2.07131536E-02	-3.76088863E-02	 9.93352958E-01	-9.63885444E-02	 0.00000000E+00	 0.00000000E+00	 0.00000000E+00	 0.00000000E+00
4.03050000E+07	 2.07179725E-02	-3.76122811E-02	 9.93351445E-01	-9.64004129E-02	 0.00000000E+00	 0.00000000E+00	 0.00000000E+00	 0.00000000E+00
4.03100000E+07	 2.07227917E-02	-3.76156755E-02	 9.93349931E-01	-9.64122829E-02	 0.00000000E+00	 0.00000000E+00	 0.00000000E+00	 0.00000000E+00
4.03150000E+07	 2.07276115E-02	-3.76190694E-02	 9.93348418E-01	-9.64241513E-02	 0.00000000E+00	 0.00000000E+00	 0.00000000E+00	 0.00000000E+00
4.03200000E+07	 2.07324322E-02	-3.76224635E-02	 9.93346905E-01	-9.64360196E-02	 0.00000000E+00	 0.00000000E+00	 0.00000000E+00	 0.00000000E+00
4.03250000E+07	 2.07372528E-02	-3.76258565E-02	 9.93345389E-01	-9.64478895E-02	 0.00000000E+00	 0.00000000E+00	 0.00000000E+00	 0.00000000E+00
4.03300000E+07	 2.07420740E-02	-3.76292490E-02	 9.93343876E-01	-9.64597579E-02	 0.00000000E+00	 0.00000000E+00	 0.00000000E+00	 0.00000000E+00
4.03350000E+07	 2.07468956E-02	-3.76326412E-02	 9.93342362E-01	-9.64716279E-02	 0.00000000E+00	 0.00000000E+00	 0.00000000E+00	 0.00000000E+00
4.03400000E+07	 2.07517178E-02	-3.76360328E-02	 9.93340847E-01	-9.64834960E-02	 0.00000000E+00	 0.00000000E+00	 0.00000000E+00	 0.00000000E+00
4.03450000E+07	 2.07565409E-02	-3.76394247E-02	 9.93339333E-01	-9.64953643E-02	 0.00000000E+00	 0.00000000E+00	 0.00000000E+00	 0.00000000E+00
4.03500000E+07	 2.07613639E-02	-3.76428155E-02	 9.93337819E-01	-9.65072324E-02	 0.00000000E+00	 0.00000000E+00	 0.00000000E+00	 0.00000000E+00
4.03550000E+07	 2.07661875E-02	-3.76462058E-02	 9.93336304E-01	-9.65191006E-02	 0.00000000E+00	 0.00000000E+00	 0.00000000E+00	 0.00000000E+00
4.03600000E+07	 2.07710115E-02	-3.76495957E-02	 9.93334789E-01	-9.65309704E-02	 0.00000000E+00	 0.00000000E+00	 0.00000000E+00	 0.00000000E+00
4.03650000E+07	 2.07758360E-02	-3.76529851E-02	 9.93333274E-01	-9.65428386E-02	 0.00000000E+00	 0.00000000E+00	 0.00000000E+00	 0.00000000E+00
4.03700000E+07	 2.07806609E-02	-3.76563750E-02	 9.93331759E-01	-9.65547066E-02	 0.00000000E+00	 0.00000000E+00	 0.00000000E+00	 0.00000000E+00
4.03750000E+07	 2.07854869E-02	-3.76597632E-02	 9.93330243E-01	-9.65665763E-02	 0.00000000E+00	 0.00000000E+00	 0.00000000E+00	 0.00000000E+00
4.03800000E+07	 2.07903129E-02	-3.76631513E-02	 9.93328727E-01	-9.65784443E-02	 0.00000000E+00	 0.00000000E+00	 0.00000000E+00	 0.00000000E+00
4.03850000E+07	 2.07951392E-02	-3.76665390E-02	 9.93327211E-01	-9.65903141E-02	 0.00000000E+00	 0.00000000E+00	 0.00000000E+00	 0.00000000E+00
4.03900000E+07	 2.07999661E-02	-3.76699261E-02	 9.93325695E-01	-9.66021820E-02	 0.00000000E+00	 0.00000000E+00	 0.00000000E+00	 0.00000000E+00
4.03950000E+07	 2.08047940E-02	-3.76733134E-02	 9.93324179E-01	-9.66140499E-02	 0.00000000E+00	 0.00000000E+00	 0.00000000E+00	 0.00000000E+00
4.04000000E+07	 2.08096218E-02	-3.76766998E-02	 9.93322663E-01	-9.66259196E-02	 0.00000000E+00	 0.00000000E+00	 0.00000000E+00	 0.00000000E+00
4.04050000E+07	 2.08144501E-02	-3.76800856E-02	 9.93321146E-01	-9.66377874E-02	 0.00000000E+00	 0.00000000E+00	 0.00000000E+00	 0.00000000E+00
4.04100000E+07	 2.08192788E-02	-3.76834710E-02	 9.93319629E-01	-9.66496571E-02	 0.00000000E+00	 0.00000000E+00	 0.00000000E+00	 0.00000000E+00
4.04150000E+07	 2.08241088E-02	-3.76868557E-02	 9.93318113E-01	-9.66615232E-02	 0.00000000E+00	 0.00000000E+00	 0.00000000E+00	 0.00000000E+00
4.04200000E+07	 2.08289385E-02	-3.76902401E-02	 9.93316596E-01	-9.66733911E-02	 0.00000000E+00	 0.00000000E+00	 0.00000000E+00	 0.00000000E+00
4.04250000E+07	 2.08337684E-02	-3.76936251E-02	 9.93315078E-01	-9.66852605E-02	 0.00000000E+00	 0.00000000E+00	 0.00000000E+00	 0.00000000E+00
4.04300000E+07	 2.08385992E-02	-3.76970088E-02	 9.93313562E-01	-9.66971283E-02	 0.00000000E+00	 0.00000000E+00	 0.00000000E+00	 0.00000000E+00
4.04350000E+07	 2.08434309E-02	-3.77003916E-02	 9.93312044E-01	-9.67089978E-02	 0.00000000E+00	 0.00000000E+00	 0.00000000E+00	 0.00000000E+00
4.04400000E+07	 2.08482625E-02	-3.77037742E-02	 9.93310525E-01	-9.67208654E-02	 0.00000000E+00	 0.00000000E+00	 0.00000000E+00	 0.00000000E+00
4.04450000E+07	 2.08530947E-02	-3.77071565E-02	 9.93309008E-01	-9.67327331E-02	 0.00000000E+00	 0.00000000E+00	 0.00000000E+00	 0.00000000E+00
4.04500000E+07	 2.08579272E-02	-3.77105384E-02	 9.93307491E-01	-9.67446026E-02	 0.00000000E+00	 0.00000000E+00	 0.00000000E+00	 0.00000000E+00
4.04550000E+07	 2.08627609E-02	-3.77139193E-02	 9.93305972E-01	-9.67564702E-02	 0.00000000E+00	 0.00000000E+00	 0.00000000E+00	 0.00000000E+00
4.04600000E+07	 2.08675941E-02	-3.77173012E-02	 9.93304453E-01	-9.67683377E-02	 0.00000000E+00	 0.00000000E+00	 0.00000000E+00	 0.00000000E+00
4.04650000E+07	 2.08724282E-02	-3.77206817E-02	 9.93302935E-01	-9.67802054E-02	 0.00000000E+00	 0.00000000E+00	 0.00000000E+00	 0.00000000E+00
4.04700000E+07	 2.08772632E-02	-3.77240613E-02	 9.93301416E-01	-9.67920747E-02	 0.00000000E+00	 0.00000000E+00	 0.00000000E+00	 0.00000000E+00
4.04750000E+07	 2.08820982E-02	-3.77274409E-02	 9.93299897E-01	-9.68039422E-02	 0.00000000E+00	 0.00000000E+00	 0.00000000E+00	 0.00000000E+00
4.04800000E+07	 2.08869337E-02	-3.77308200E-02	 9.93298379E-01	-9.68158098E-02	 0.00000000E+00	 0.00000000E+00	 0.00000000E+00	 0.00000000E+00
4.04850000E+07	 2.08917701E-02	-3.77341983E-02	 9.93296858E-01	-9.68276789E-02	 0.00000000E+00	 0.00000000E+00	 0.00000000E+00	 0.00000000E+00
4.04900000E+07	 2.08966065E-02	-3.77375765E-02	 9.93295340E-01	-9.68395464E-02	 0.00000000E+00	 0.00000000E+00	 0.00000000E+00	 0.00000000E+00
4.04950000E+07	 2.09014433E-02	-3.77409543E-02	 9.93293820E-01	-9.68514138E-02	 0.00000000E+00	 0.00000000E+00	 0.00000000E+00	 0.00000000E+00
4.05000000E+07	 2.09062813E-02	-3.77443312E-02	 9.93292300E-01	-9.68632812E-02	 0.00000000E+00	 0.00000000E+00	 0.00000000E+00	 0.00000000E+00
4.05050000E+07	 2.09111190E-02	-3.77477091E-02	 9.93290780E-01	-9.68751486E-02	 0.00000000E+00	 0.00000000E+00	 0.00000000E+00	 0.00000000E+00
4.05100000E+07	 2.09159572E-02	-3.77510856E-02	 9.93289261E-01	-9.68870177E-02	 0.00000000E+00	 0.00000000E+00	 0.00000000E+00	 0.00000000E+00
4.05150000E+07	 2.09207965E-02	-3.77544610E-02	 9.93287740E-01	-9.68988850E-02	 0.00000000E+00	 0.00000000E+00	 0.00000000E+00	 0.00000000E+00
4.05200000E+07	 2.09256357E-02	-3.77578366E-02	 9.93286220E-01	-9.69107541E-02	 0.00000000E+00	 0.00000000E+00	 0.00000000E+00	 0.00000000E+00
4.05250000E+07	 2.09304754E-02	-3.77612117E-02	 9.93284700E-01	-9.69226197E-02	 0.00000000E+00	 0.00000000E+00	 0.00000000E+00	 0.00000000E+00
4.05300000E+07	 2.09353161E-02	-3.77645860E-02	 9.93283178E-01	-9.69344885E-02	 0.00000000E+00	 0.00000000E+00	 0.00000000E+00	 0.00000000E+00
4.05350000E+07	 2.09401568E-02	-3.77679601E-02	 9.93281657E-01	-9.69463558E-02	 0.00000000E+00	 0.00000000E+00	 0.00000000E+00	 0.00000000E+00
4.05400000E+07	 2.09449980E-02	-3.77713339E-02	 9.93280137E-01	-9.69582231E-02	 0.00000000E+00	 0.00000000E+00	 0.00000000E+00	 0.00000000E+00
4.05450000E+07	 2.09498401E-02	-3.77747067E-02	 9.93278615E-01	-9.69700919E-02	 0.00000000E+00	 0.00000000E+00	 0.00000000E+00	 0.00000000E+00
4.05500000E+07	 2.09546821E-02	-3.77780795E-02	 9.93277094E-01	-9.69819574E-02	 0.00000000E+00	 0.00000000E+00	 0.00000000E+00	 0.00000000E+00
4.05550000E+07	 2.09595252E-02	-3.77814516E-02	 9.93275571E-01	-9.69938261E-02	 0.00000000E+00	 0.00000000E+00	 0.00000000E+00	 0.00000000E+00
4.05600000E+07	 2.09643681E-02	-3.77848245E-02	 9.93274051E-01	-9.70056933E-02	 0.00000000E+00	 0.00000000E+00	 0.00000000E+00	 0.00000000E+00
4.05650000E+07	 2.09692115E-02	-3.77881960E-02	 9.93272529E-01	-9.70175622E-02	 0.00000000E+00	 0.00000000E+00	 0.00000000E+00	 0.00000000E+00
4.05700000E+07	 2.09740561E-02	-3.77915666E-02	 9.93271006E-01	-9.70294291E-02	 0.00000000E+00	 0.00000000E+00	 0.00000000E+00	 0.00000000E+00
4.05750000E+07	 2.09789006E-02	-3.77949372E-02	 9.93269484E-01	-9.70412945E-02	 0.00000000E+00	 0.00000000E+00	 0.00000000E+00	 0.00000000E+00
4.05800000E+07	 2.09837460E-02	-3.77983070E-02	 9.93267962E-01	-9.70531632E-02	 0.00000000E+00	 0.00000000E+00	 0.00000000E+00	 0.00000000E+00
4.05850000E+07	 2.09885914E-02	-3.78016765E-02	 9.93266439E-01	-9.70650301E-02	 0.00000000E+00	 0.00000000E+00	 0.00000000E+00	 0.00000000E+00
4.05900000E+07	 2.09934371E-02	-3.78050458E-02	 9.93264916E-01	-9.70768989E-02	 0.00000000E+00	 0.00000000E+00	 0.00000000E+00	 0.00000000E+00
4.05950000E+07	 2.09982842E-02	-3.78084143E-02	 9.93263394E-01	-9.70887641E-02	 0.00000000E+00	 0.00000000E+00	 0.00000000E+00	 0.00000000E+00
4.06000000E+07	 2.10031308E-02	-3.78117826E-02	 9.93261870E-01	-9.71006327E-02	 0.00000000E+00	 0.00000000E+00	 0.00000000E+00	 0.00000000E+00
4.06050000E+07	 2.10079788E-02	-3.78151500E-02	 9.93260347E-01	-9.71124996E-02	 0.00000000E+00	 0.00000000E+00	 0.00000000E+00	 0.00000000E+00
4.06100000E+07	 2.10128266E-02	-3.78185175E-02	 9.93258825E-01	-9.71243665E-02	 0.00000000E+00	 0.00000000E+00	 0.00000000E+00	 0.00000000E+00
4.06150000E+07	 2.10176753E-02	-3.78218841E-02	 9.93257299E-01	-9.71362332E-02	 0.00000000E+00	 0.00000000E+00	 0.00000000E+00	 0.00000000E+00
4.06200000E+07	 2.10225240E-02	-3.78252506E-02	 9.93255776E-01	-9.71481000E-02	 0.00000000E+00	 0.00000000E+00	 0.00000000E+00	 0.00000000E+00
4.06250000E+07	 2.10273737E-02	-3.78286163E-02	 9.93254252E-01	-9.71599685E-02	 0.00000000E+00	 0.00000000E+00	 0.00000000E+00	 0.00000000E+00
4.06300000E+07	 2.10322233E-02	-3.78319819E-02	 9.93252728E-01	-9.71718353E-02	 0.00000000E+00	 0.00000000E+00	 0.00000000E+00	 0.00000000E+00
4.06350000E+07	 2.10370734E-02	-3.78353471E-02	 9.93251205E-01	-9.71837021E-02	 0.00000000E+00	 0.00000000E+00	 0.00000000E+00	 0.00000000E+00
4.06400000E+07	 2.10419246E-02	-3.78387114E-02	 9.93249679E-01	-9.71955686E-02	 0.00000000E+00	 0.00000000E+00	 0.00000000E+00	 0.00000000E+00
4.06450000E+07	 2.10467757E-02	-3.78420757E-02	 9.93248155E-01	-9.72074354E-02	 0.00000000E+00	 0.00000000E+00	 0.00000000E+00	 0.00000000E+00
4.06500000E+07	 2.10516278E-02	-3.78454392E-02	 9.93246631E-01	-9.72193038E-02	 0.00000000E+00	 0.00000000E+00	 0.00000000E+00	 0.00000000E+00
4.06550000E+07	 2.10564798E-02	-3.78488025E-02	 9.93245105E-01	-9.72311686E-02	 0.00000000E+00	 0.00000000E+00	 0.00000000E+00	 0.00000000E+00
4.06600000E+07	 2.10613328E-02	-3.78521651E-02	 9.93243580E-01	-9.72430370E-02	 0.00000000E+00	 0.00000000E+00	 0.00000000E+00	 0.00000000E+00
4.06650000E+07	 2.10661858E-02	-3.78555276E-02	 9.93242056E-01	-9.72549036E-02	 0.00000000E+00	 0.00000000E+00	 0.00000000E+00	 0.00000000E+00
4.06700000E+07	 2.10710395E-02	-3.78588902E-02	 9.93240529E-01	-9.72667718E-02	 0.00000000E+00	 0.00000000E+00	 0.00000000E+00	 0.00000000E+00
4.06750000E+07	 2.10758934E-02	-3.78622518E-02	 9.93239004E-01	-9.72786366E-02	 0.00000000E+00	 0.00000000E+00	 0.00000000E+00	 0.00000000E+00
4.06800000E+07	 2.10807484E-02	-3.78656124E-02	 9.93237477E-01	-9.72905030E-02	 0.00000000E+00	 0.00000000E+00	 0.00000000E+00	 0.00000000E+00
