!Agilent Technologies,E5061B,MY49102235,A.02.00
!Date: Mon Jul 03 10:58:19 2023
!Data & Calibration Information:
!Freq	S11:SOLT2(ON)	S21:SOLT2(ON)	S12:SOLT2(ON)	S22:SOLT2(ON)
# Hz S RI R 50
40000000.000	-3.009189e-002	-3.609567e-002	7.543025e-001	-6.552023e-001	7.543796e-001	-6.542389e-001	-3.478329e-002	-3.048298e-002
40031269.543	-3.013697e-002	-3.615932e-002	7.539904e-001	-6.555873e-001	7.540582e-001	-6.545409e-001	-3.481176e-002	-3.046188e-002
40062539.087	-3.020543e-002	-3.616740e-002	7.533442e-001	-6.557632e-001	7.536253e-001	-6.549470e-001	-3.481355e-002	-3.050133e-002
40093808.630	-3.025363e-002	-3.614901e-002	7.530796e-001	-6.563388e-001	7.532603e-001	-6.555852e-001	-3.488603e-002	-3.045154e-002
40125078.174	-3.033712e-002	-3.613335e-002	7.527300e-001	-6.566613e-001	7.527898e-001	-6.558947e-001	-3.488154e-002	-3.037983e-002
40156347.717	-3.030225e-002	-3.617079e-002	7.524834e-001	-6.572430e-001	7.524470e-001	-6.564684e-001	-3.499158e-002	-3.046124e-002
40187617.261	-3.037827e-002	-3.624361e-002	7.521135e-001	-6.575067e-001	7.522588e-001	-6.568728e-001	-3.502071e-002	-3.057575e-002
40218886.804	-3.038205e-002	-3.618979e-002	7.517093e-001	-6.581066e-001	7.517348e-001	-6.571189e-001	-3.502222e-002	-3.052254e-002
40250156.348	-3.044517e-002	-3.619412e-002	7.513873e-001	-6.583754e-001	7.514600e-001	-6.576561e-001	-3.515105e-002	-3.054633e-002
40281425.891	-3.051598e-002	-3.621851e-002	7.509865e-001	-6.588566e-001	7.510342e-001	-6.580400e-001	-3.516655e-002	-3.049454e-002
40312695.435	-3.051751e-002	-3.622266e-002	7.505539e-001	-6.594508e-001	7.506990e-001	-6.583953e-001	-3.516225e-002	-3.051143e-002
40343964.978	-3.054439e-002	-3.617200e-002	7.502392e-001	-6.595795e-001	7.503083e-001	-6.588349e-001	-3.526272e-002	-3.046095e-002
40375234.522	-3.056516e-002	-3.617489e-002	7.497330e-001	-6.601311e-001	7.500230e-001	-6.591802e-001	-3.531620e-002	-3.048762e-002
40406504.065	-3.068029e-002	-3.615132e-002	7.493293e-001	-6.603731e-001	7.495538e-001	-6.598022e-001	-3.530400e-002	-3.056393e-002
40437773.609	-3.078307e-002	-3.627450e-002	7.492632e-001	-6.608408e-001	7.492951e-001	-6.600733e-001	-3.535027e-002	-3.057274e-002
40469043.152	-3.070588e-002	-3.626993e-002	7.487505e-001	-6.612879e-001	7.489379e-001	-6.604928e-001	-3.544927e-002	-3.048363e-002
40500312.695	-3.080822e-002	-3.634913e-002	7.481730e-001	-6.617997e-001	7.485639e-001	-6.609429e-001	-3.551331e-002	-3.047374e-002
40531582.239	-3.080829e-002	-3.625698e-002	7.478872e-001	-6.619149e-001	7.480132e-001	-6.616071e-001	-3.557778e-002	-3.046053e-002
40562851.782	-3.087503e-002	-3.622906e-002	7.474352e-001	-6.625018e-001	7.476252e-001	-6.617982e-001	-3.551915e-002	-3.060870e-002
40594121.326	-3.089173e-002	-3.628612e-002	7.473452e-001	-6.630843e-001	7.473780e-001	-6.621303e-001	-3.559576e-002	-3.046102e-002
40625390.869	-3.092411e-002	-3.623747e-002	7.469435e-001	-6.633747e-001	7.471637e-001	-6.627329e-001	-3.568675e-002	-3.056552e-002
40656660.413	-3.098660e-002	-3.627746e-002	7.464811e-001	-6.638212e-001	7.467865e-001	-6.629516e-001	-3.569473e-002	-3.050649e-002
40687929.956	-3.100379e-002	-3.628018e-002	7.463907e-001	-6.643842e-001	7.464536e-001	-6.633666e-001	-3.574137e-002	-3.053737e-002
40719199.500	-3.106971e-002	-3.621737e-002	7.456875e-001	-6.645732e-001	7.458935e-001	-6.640636e-001	-3.572388e-002	-3.054797e-002
40750469.043	-3.112366e-002	-3.627334e-002	7.452546e-001	-6.648817e-001	7.455051e-001	-6.643341e-001	-3.592168e-002	-3.050669e-002
40781738.587	-3.107824e-002	-3.638060e-002	7.450246e-001	-6.655384e-001	7.451732e-001	-6.647793e-001	-3.598966e-002	-3.051235e-002
40813008.130	-3.120094e-002	-3.633164e-002	7.447885e-001	-6.658154e-001	7.446771e-001	-6.652057e-001	-3.598071e-002	-3.050649e-002
40844277.674	-3.121906e-002	-3.628195e-002	7.442716e-001	-6.662825e-001	7.443535e-001	-6.655415e-001	-3.609384e-002	-3.051195e-002
40875547.217	-3.124850e-002	-3.635091e-002	7.438324e-001	-6.668282e-001	7.441392e-001	-6.658604e-001	-3.607699e-002	-3.051081e-002
40906816.760	-3.130703e-002	-3.628947e-002	7.436694e-001	-6.671685e-001	7.436503e-001	-6.663312e-001	-3.602502e-002	-3.055132e-002
40938086.304	-3.140693e-002	-3.636143e-002	7.430142e-001	-6.676183e-001	7.434281e-001	-6.668622e-001	-3.619769e-002	-3.052859e-002
40969355.847	-3.145976e-002	-3.632074e-002	7.426049e-001	-6.678925e-001	7.429458e-001	-6.672182e-001	-3.624054e-002	-3.049020e-002
41000625.391	-3.147002e-002	-3.630021e-002	7.422013e-001	-6.682535e-001	7.424133e-001	-6.675650e-001	-3.622924e-002	-3.048754e-002
41031894.934	-3.135043e-002	-3.625681e-002	7.421444e-001	-6.686765e-001	7.421425e-001	-6.681559e-001	-3.633219e-002	-3.050055e-002
41063164.478	-3.152569e-002	-3.631368e-002	7.417239e-001	-6.691782e-001	7.418900e-001	-6.685147e-001	-3.632684e-002	-3.054732e-002
41094434.021	-3.158894e-002	-3.637207e-002	7.412788e-001	-6.695307e-001	7.414109e-001	-6.687959e-001	-3.641978e-002	-3.051809e-002
41125703.565	-3.158517e-002	-3.636331e-002	7.409934e-001	-6.700089e-001	7.411560e-001	-6.691518e-001	-3.648470e-002	-3.050233e-002
41156973.108	-3.159080e-002	-3.640349e-002	7.406231e-001	-6.702457e-001	7.405394e-001	-6.697156e-001	-3.651977e-002	-3.051452e-002
41188242.652	-3.167718e-002	-3.630508e-002	7.401837e-001	-6.710220e-001	7.403290e-001	-6.700826e-001	-3.648336e-002	-3.056311e-002
41219512.195	-3.167444e-002	-3.643627e-002	7.397761e-001	-6.713202e-001	7.398552e-001	-6.704705e-001	-3.659506e-002	-3.058980e-002
41250781.739	-3.178319e-002	-3.640887e-002	7.392006e-001	-6.718738e-001	7.394857e-001	-6.709501e-001	-3.661277e-002	-3.051268e-002
41282051.282	-3.177746e-002	-3.645696e-002	7.389991e-001	-6.721248e-001	7.391015e-001	-6.713496e-001	-3.672808e-002	-3.056215e-002
41313320.826	-3.187468e-002	-3.634973e-002	7.385299e-001	-6.724335e-001	7.387761e-001	-6.717052e-001	-3.675311e-002	-3.055965e-002
41344590.369	-3.194204e-002	-3.645379e-002	7.380871e-001	-6.726901e-001	7.384552e-001	-6.722532e-001	-3.674161e-002	-3.047947e-002
41375859.912	-3.204530e-002	-3.640447e-002	7.378803e-001	-6.732843e-001	7.377783e-001	-6.725257e-001	-3.678220e-002	-3.053147e-002
41407129.456	-3.199305e-002	-3.642771e-002	7.375924e-001	-6.735552e-001	7.375881e-001	-6.728128e-001	-3.693579e-002	-3.046249e-002
41438398.999	-3.203678e-002	-3.650679e-002	7.372702e-001	-6.742393e-001	7.373349e-001	-6.733779e-001	-3.697568e-002	-3.048897e-002
41469668.543	-3.213092e-002	-3.633234e-002	7.366840e-001	-6.745969e-001	7.368257e-001	-6.739277e-001	-3.697079e-002	-3.051703e-002
41500938.086	-3.214017e-002	-3.645197e-002	7.363976e-001	-6.749229e-001	7.365966e-001	-6.741821e-001	-3.702571e-002	-3.058454e-002
41532207.630	-3.215426e-002	-3.646963e-002	7.360069e-001	-6.753446e-001	7.361761e-001	-6.746145e-001	-3.706909e-002	-3.052931e-002
41563477.173	-3.216911e-002	-3.650860e-002	7.355397e-001	-6.758411e-001	7.357526e-001	-6.749446e-001	-3.704520e-002	-3.057828e-002
41594746.717	-3.216771e-002	-3.648582e-002	7.351662e-001	-6.761906e-001	7.353652e-001	-6.754269e-001	-3.715309e-002	-3.048310e-002
41626016.260	-3.237445e-002	-3.653177e-002	7.348447e-001	-6.766008e-001	7.349667e-001	-6.758527e-001	-3.722714e-002	-3.049971e-002
41657285.804	-3.230686e-002	-3.652172e-002	7.344723e-001	-6.770574e-001	7.346422e-001	-6.761981e-001	-3.721977e-002	-3.051557e-002
41688555.347	-3.232140e-002	-3.650109e-002	7.340747e-001	-6.773785e-001	7.342578e-001	-6.767310e-001	-3.727849e-002	-3.050705e-002
41719824.891	-3.235961e-002	-3.643627e-002	7.337464e-001	-6.778805e-001	7.338613e-001	-6.770091e-001	-3.735957e-002	-3.046092e-002
41751094.434	-3.248245e-002	-3.637010e-002	7.333600e-001	-6.781389e-001	7.333878e-001	-6.777013e-001	-3.736155e-002	-3.056631e-002
41782363.977	-3.241923e-002	-3.652040e-002	7.330166e-001	-6.786509e-001	7.331780e-001	-6.778434e-001	-3.756372e-002	-3.051103e-002
41813633.521	-3.254480e-002	-3.652677e-002	7.324965e-001	-6.789412e-001	7.328585e-001	-6.782562e-001	-3.744627e-002	-3.045733e-002
41844903.064	-3.260143e-002	-3.649206e-002	7.323303e-001	-6.793154e-001	7.323058e-001	-6.787841e-001	-3.759349e-002	-3.050159e-002
41876172.608	-3.260254e-002	-3.651743e-002	7.316561e-001	-6.798653e-001	7.321284e-001	-6.791633e-001	-3.767905e-002	-3.046812e-002
41907442.151	-3.270309e-002	-3.647521e-002	7.314157e-001	-6.801734e-001	7.317017e-001	-6.796193e-001	-3.770206e-002	-3.048957e-002
41938711.695	-3.262878e-002	-3.651161e-002	7.309509e-001	-6.806605e-001	7.312923e-001	-6.798844e-001	-3.761610e-002	-3.053076e-002
41969981.238	-3.271439e-002	-3.660479e-002	7.306504e-001	-6.810570e-001	7.307520e-001	-6.805352e-001	-3.769171e-002	-3.046601e-002
42001250.782	-3.274303e-002	-3.649194e-002	7.303121e-001	-6.815292e-001	7.304544e-001	-6.806119e-001	-3.776574e-002	-3.047131e-002
42032520.325	-3.276990e-002	-3.647145e-002	7.298628e-001	-6.819150e-001	7.302690e-001	-6.810149e-001	-3.787751e-002	-3.045963e-002
42063789.869	-3.287972e-002	-3.653708e-002	7.295843e-001	-6.822729e-001	7.296162e-001	-6.816804e-001	-3.797947e-002	-3.048322e-002
42095059.412	-3.289199e-002	-3.654710e-002	7.291477e-001	-6.827172e-001	7.294189e-001	-6.820625e-001	-3.796164e-002	-3.041785e-002
42126328.956	-3.297685e-002	-3.654840e-002	7.287217e-001	-6.829682e-001	7.288708e-001	-6.823417e-001	-3.802376e-002	-3.047074e-002
42157598.499	-3.293161e-002	-3.658656e-002	7.283330e-001	-6.834820e-001	7.284900e-001	-6.829254e-001	-3.803733e-002	-3.043888e-002
42188868.043	-3.299557e-002	-3.659455e-002	7.280929e-001	-6.837714e-001	7.282043e-001	-6.832526e-001	-3.813078e-002	-3.042918e-002
42220137.586	-3.298317e-002	-3.656928e-002	7.275790e-001	-6.843911e-001	7.278010e-001	-6.834864e-001	-3.815120e-002	-3.045989e-002
42251407.129	-3.309698e-002	-3.661463e-002	7.273385e-001	-6.848302e-001	7.273469e-001	-6.840844e-001	-3.824969e-002	-3.039247e-002
42282676.673	-3.311479e-002	-3.661388e-002	7.268133e-001	-6.851256e-001	7.269187e-001	-6.843799e-001	-3.822452e-002	-3.041993e-002
42313946.216	-3.318946e-002	-3.656407e-002	7.265396e-001	-6.856389e-001	7.266840e-001	-6.849052e-001	-3.828666e-002	-3.042626e-002
42345215.760	-3.329693e-002	-3.665730e-002	7.260155e-001	-6.859718e-001	7.261946e-001	-6.853387e-001	-3.842814e-002	-3.038245e-002
42376485.303	-3.329919e-002	-3.665233e-002	7.256180e-001	-6.864046e-001	7.257635e-001	-6.856139e-001	-3.840390e-002	-3.036068e-002
42407754.847	-3.329977e-002	-3.660311e-002	7.251886e-001	-6.867194e-001	7.254359e-001	-6.860394e-001	-3.843160e-002	-3.036751e-002
42439024.390	-3.337150e-002	-3.667099e-002	7.248877e-001	-6.871725e-001	7.250442e-001	-6.863466e-001	-3.854050e-002	-3.046271e-002
42470293.934	-3.335224e-002	-3.667858e-002	7.245304e-001	-6.876010e-001	7.247737e-001	-6.868763e-001	-3.852299e-002	-3.044594e-002
42501563.477	-3.344909e-002	-3.658142e-002	7.242425e-001	-6.878687e-001	7.244071e-001	-6.873949e-001	-3.852456e-002	-3.042166e-002
42532833.021	-3.341092e-002	-3.662121e-002	7.238168e-001	-6.883086e-001	7.240630e-001	-6.878353e-001	-3.867777e-002	-3.043513e-002
42564102.564	-3.352030e-002	-3.663761e-002	7.233885e-001	-6.888898e-001	7.235490e-001	-6.881722e-001	-3.872750e-002	-3.044921e-002
42595372.108	-3.352559e-002	-3.663355e-002	7.228818e-001	-6.893055e-001	7.231755e-001	-6.886303e-001	-3.881972e-002	-3.042825e-002
42626641.651	-3.359807e-002	-3.676832e-002	7.226190e-001	-6.895114e-001	7.228187e-001	-6.888336e-001	-3.883970e-002	-3.041845e-002
42657911.194	-3.365289e-002	-3.667536e-002	7.221880e-001	-6.900596e-001	7.224278e-001	-6.893632e-001	-3.886254e-002	-3.039569e-002
42689180.738	-3.372955e-002	-3.663386e-002	7.218827e-001	-6.903781e-001	7.220307e-001	-6.897543e-001	-3.895671e-002	-3.042173e-002
42720450.281	-3.376803e-002	-3.672676e-002	7.212589e-001	-6.906138e-001	7.215415e-001	-6.900477e-001	-3.891335e-002	-3.038775e-002
42751719.825	-3.378461e-002	-3.680188e-002	7.210306e-001	-6.911703e-001	7.214418e-001	-6.903928e-001	-3.894763e-002	-3.041920e-002
42782989.368	-3.391177e-002	-3.671857e-002	7.206375e-001	-6.917884e-001	7.208745e-001	-6.909853e-001	-3.907516e-002	-3.035070e-002
42814258.912	-3.384141e-002	-3.670678e-002	7.204404e-001	-6.920038e-001	7.205087e-001	-6.913669e-001	-3.908711e-002	-3.050630e-002
42845528.455	-3.395799e-002	-3.666663e-002	7.198794e-001	-6.925422e-001	7.201423e-001	-6.917546e-001	-3.913475e-002	-3.035872e-002
42876797.999	-3.390175e-002	-3.672913e-002	7.195873e-001	-6.927199e-001	7.196852e-001	-6.922024e-001	-3.921115e-002	-3.044321e-002
42908067.542	-3.403373e-002	-3.673390e-002	7.191321e-001	-6.930201e-001	7.194290e-001	-6.924183e-001	-3.925910e-002	-3.047239e-002
42939337.086	-3.398062e-002	-3.668705e-002	7.187254e-001	-6.935060e-001	7.187812e-001	-6.929205e-001	-3.924793e-002	-3.047670e-002
42970606.629	-3.410709e-002	-3.678102e-002	7.183187e-001	-6.939666e-001	7.184247e-001	-6.933406e-001	-3.937755e-002	-3.050786e-002
43001876.173	-3.415067e-002	-3.676910e-002	7.179481e-001	-6.944646e-001	7.181924e-001	-6.938145e-001	-3.943036e-002	-3.032154e-002
43033145.716	-3.407945e-002	-3.671370e-002	7.174290e-001	-6.948885e-001	7.176980e-001	-6.942450e-001	-3.949519e-002	-3.036639e-002
43064415.260	-3.416621e-002	-3.678713e-002	7.170733e-001	-6.951738e-001	7.174545e-001	-6.945757e-001	-3.952556e-002	-3.042870e-002
43095684.803	-3.425411e-002	-3.675542e-002	7.166872e-001	-6.956727e-001	7.169750e-001	-6.949695e-001	-3.959254e-002	-3.040728e-002
43126954.346	-3.422568e-002	-3.673810e-002	7.164086e-001	-6.960111e-001	7.165441e-001	-6.954052e-001	-3.965801e-002	-3.033160e-002
43158223.890	-3.431331e-002	-3.678856e-002	7.160057e-001	-6.962552e-001	7.161015e-001	-6.957368e-001	-3.971992e-002	-3.032856e-002
43189493.433	-3.434940e-002	-3.684014e-002	7.157472e-001	-6.969122e-001	7.156015e-001	-6.963006e-001	-3.975171e-002	-3.029437e-002
43220762.977	-3.439809e-002	-3.676033e-002	7.152696e-001	-6.972808e-001	7.154277e-001	-6.964548e-001	-3.978341e-002	-3.039154e-002
43252032.520	-3.447261e-002	-3.686788e-002	7.147669e-001	-6.976294e-001	7.149316e-001	-6.970740e-001	-3.977439e-002	-3.039754e-002
43283302.064	-3.451043e-002	-3.675536e-002	7.143991e-001	-6.979673e-001	7.144865e-001	-6.972894e-001	-3.979471e-002	-3.032613e-002
43314571.607	-3.459087e-002	-3.687410e-002	7.140739e-001	-6.984339e-001	7.144427e-001	-6.977372e-001	-3.992553e-002	-3.023273e-002
43345841.151	-3.456276e-002	-3.682171e-002	7.136016e-001	-6.988011e-001	7.138526e-001	-6.981777e-001	-3.997012e-002	-3.026788e-002
43377110.694	-3.468213e-002	-3.685464e-002	7.132218e-001	-6.991542e-001	7.133811e-001	-6.986075e-001	-4.004463e-002	-3.031501e-002
43408380.238	-3.462802e-002	-3.691533e-002	7.129343e-001	-6.997444e-001	7.129827e-001	-6.988931e-001	-4.002090e-002	-3.033968e-002
43439649.781	-3.468032e-002	-3.688763e-002	7.123968e-001	-7.000246e-001	7.124903e-001	-6.993922e-001	-4.003732e-002	-3.032021e-002
43470919.325	-3.479797e-002	-3.688570e-002	7.119442e-001	-7.005284e-001	7.123891e-001	-6.998581e-001	-4.010167e-002	-3.023096e-002
43502188.868	-3.481450e-002	-3.692447e-002	7.116711e-001	-7.008955e-001	7.117368e-001	-7.001847e-001	-4.018879e-002	-3.025091e-002
43533458.412	-3.479744e-002	-3.684075e-002	7.112812e-001	-7.011060e-001	7.113906e-001	-7.005134e-001	-4.017824e-002	-3.032066e-002
43564727.955	-3.492039e-002	-3.686332e-002	7.109434e-001	-7.014810e-001	7.110443e-001	-7.011616e-001	-4.030483e-002	-3.032983e-002
43595997.498	-3.492438e-002	-3.693591e-002	7.104792e-001	-7.019007e-001	7.105157e-001	-7.013281e-001	-4.035118e-002	-3.028241e-002
43627267.042	-3.496189e-002	-3.696616e-002	7.102395e-001	-7.023416e-001	7.102458e-001	-7.018267e-001	-4.041947e-002	-3.022997e-002
43658536.585	-3.496998e-002	-3.697730e-002	7.097118e-001	-7.027138e-001	7.098190e-001	-7.021691e-001	-4.046172e-002	-3.025796e-002
43689806.129	-3.497351e-002	-3.699025e-002	7.092442e-001	-7.031304e-001	7.094693e-001	-7.025470e-001	-4.048221e-002	-3.031364e-002
43721075.672	-3.516148e-002	-3.683798e-002	7.088398e-001	-7.034667e-001	7.090387e-001	-7.030186e-001	-4.052137e-002	-3.030875e-002
43752345.216	-3.509399e-002	-3.697974e-002	7.087003e-001	-7.039918e-001	7.085995e-001	-7.034563e-001	-4.054622e-002	-3.023647e-002
43783614.759	-3.513869e-002	-3.699328e-002	7.080809e-001	-7.043170e-001	7.083402e-001	-7.037856e-001	-4.062412e-002	-3.029992e-002
43814884.303	-3.529913e-002	-3.693988e-002	7.078035e-001	-7.046768e-001	7.078989e-001	-7.041080e-001	-4.071176e-002	-3.022580e-002
43846153.846	-3.522722e-002	-3.700070e-002	7.074747e-001	-7.050753e-001	7.076357e-001	-7.045821e-001	-4.076026e-002	-3.023760e-002
43877423.390	-3.531420e-002	-3.701192e-002	7.068808e-001	-7.056948e-001	7.070887e-001	-7.049622e-001	-4.073436e-002	-3.024247e-002
43908692.933	-3.539749e-002	-3.690496e-002	7.064213e-001	-7.060660e-001	7.068351e-001	-7.052672e-001	-4.083722e-002	-3.017877e-002
43939962.477	-3.543256e-002	-3.694500e-002	7.062756e-001	-7.064163e-001	7.063575e-001	-7.057809e-001	-4.088649e-002	-3.019965e-002
43971232.020	-3.543999e-002	-3.701402e-002	7.056744e-001	-7.067349e-001	7.059153e-001	-7.061731e-001	-4.090412e-002	-3.020405e-002
44002501.563	-3.548045e-002	-3.703706e-002	7.052506e-001	-7.070091e-001	7.056256e-001	-7.063826e-001	-4.096391e-002	-3.013553e-002
44033771.107	-3.550126e-002	-3.703894e-002	7.049568e-001	-7.076119e-001	7.052027e-001	-7.067910e-001	-4.101501e-002	-3.017182e-002
44065040.650	-3.553745e-002	-3.693180e-002	7.045935e-001	-7.079562e-001	7.048079e-001	-7.072894e-001	-4.099052e-002	-3.011264e-002
44096310.194	-3.566298e-002	-3.701219e-002	7.042697e-001	-7.082628e-001	7.043136e-001	-7.076279e-001	-4.109059e-002	-3.019266e-002
44127579.737	-3.567028e-002	-3.704364e-002	7.037871e-001	-7.087277e-001	7.040077e-001	-7.079419e-001	-4.113674e-002	-3.019082e-002
44158849.281	-3.568019e-002	-3.701370e-002	7.033823e-001	-7.090021e-001	7.036824e-001	-7.085151e-001	-4.118292e-002	-3.017547e-002
44190118.824	-3.577460e-002	-3.703217e-002	7.029611e-001	-7.094303e-001	7.032666e-001	-7.089393e-001	-4.125350e-002	-3.016079e-002
44221388.368	-3.583792e-002	-3.703556e-002	7.026972e-001	-7.099258e-001	7.026953e-001	-7.092434e-001	-4.139180e-002	-3.013452e-002
44252657.911	-3.587109e-002	-3.702896e-002	7.022091e-001	-7.102412e-001	7.023565e-001	-7.097289e-001	-4.129236e-002	-3.016279e-002
44283927.455	-3.590818e-002	-3.706395e-002	7.017756e-001	-7.105678e-001	7.020195e-001	-7.100115e-001	-4.150223e-002	-3.020591e-002
44315196.998	-3.595888e-002	-3.704036e-002	7.015200e-001	-7.110987e-001	7.016267e-001	-7.104095e-001	-4.141578e-002	-3.020873e-002
44346466.542	-3.599640e-002	-3.706828e-002	7.009577e-001	-7.114578e-001	7.011845e-001	-7.108561e-001	-4.154611e-002	-3.014259e-002
44377736.085	-3.601675e-002	-3.704922e-002	7.005857e-001	-7.116289e-001	7.006612e-001	-7.111392e-001	-4.166820e-002	-3.010365e-002
44409005.629	-3.603546e-002	-3.699200e-002	7.001182e-001	-7.122523e-001	7.002815e-001	-7.114977e-001	-4.161591e-002	-3.013703e-002
44440275.172	-3.607236e-002	-3.713773e-002	6.996833e-001	-7.125143e-001	7.000442e-001	-7.119764e-001	-4.169675e-002	-3.008213e-002
44471544.715	-3.615473e-002	-3.713190e-002	6.992995e-001	-7.129607e-001	6.996536e-001	-7.123765e-001	-4.168222e-002	-3.007657e-002
44502814.259	-3.609950e-002	-3.716315e-002	6.989523e-001	-7.131578e-001	6.990190e-001	-7.127706e-001	-4.171288e-002	-3.009016e-002
44534083.802	-3.627067e-002	-3.707754e-002	6.984735e-001	-7.138321e-001	6.987049e-001	-7.131104e-001	-4.178462e-002	-3.014944e-002
44565353.346	-3.632293e-002	-3.707179e-002	6.981475e-001	-7.142033e-001	6.984473e-001	-7.135024e-001	-4.190286e-002	-2.999010e-002
44596622.889	-3.635776e-002	-3.713895e-002	6.977697e-001	-7.144750e-001	6.980460e-001	-7.138789e-001	-4.189758e-002	-3.005943e-002
44627892.433	-3.634373e-002	-3.712141e-002	6.973598e-001	-7.148420e-001	6.975533e-001	-7.142954e-001	-4.202378e-002	-3.012120e-002
44659161.976	-3.642531e-002	-3.708653e-002	6.967780e-001	-7.153026e-001	6.972216e-001	-7.146400e-001	-4.202750e-002	-3.004271e-002
44690431.520	-3.643539e-002	-3.720102e-002	6.965611e-001	-7.156991e-001	6.967300e-001	-7.150391e-001	-4.207090e-002	-3.003430e-002
