! COPPER MOUNTAIN TECHNOLOGIES, PLANAR TR1300/1, 00000000, 23.1.2/1.0
! Date: 7/3/2023 3:28:58 PM
! Data: Format [Calibration Info]
! Freq          	S11: Mag/Ang                   	S21: Mag/Ang                   	S12: Mag/Ang                   	S22: Mag/Ang                   
# HZ S MA R 50
4.00000000E+07	 7.55758596E-02	 4.16445967E+01	 9.25435530E-01	-6.80182762E+00	 0.00000000E+00	 0.00000000E+00	 0.00000000E+00	 0.00000000E+00
4.00312695E+07	 7.55741517E-02	 4.16244102E+01	 9.25402681E-01	-6.81056230E+00	 0.00000000E+00	 0.00000000E+00	 0.00000000E+00	 0.00000000E+00
4.00625391E+07	 7.56705111E-02	 4.16760686E+01	 9.25226217E-01	-6.81370020E+00	 0.00000000E+00	 0.00000000E+00	 0.00000000E+00	 0.00000000E+00
4.00938086E+07	 7.56976936E-02	 4.17103201E+01	 9.25298307E-01	-6.82437154E+00	 0.00000000E+00	 0.00000000E+00	 0.00000000E+00	 0.00000000E+00
4.01250782E+07	 7.57184100E-02	 4.16669891E+01	 9.25283298E-01	-6.81229148E+00	 0.00000000E+00	 0.00000000E+00	 0.00000000E+00	 0.00000000E+00
4.01563477E+07	 7.56926069E-02	 4.17209329E+01	 9.25271526E-01	-6.80928906E+00	 0.00000000E+00	 0.00000000E+00	 0.00000000E+00	 0.00000000E+00
4.01876173E+07	 7.56571851E-02	 4.16767530E+01	 9.25252947E-01	-6.81586259E+00	 0.00000000E+00	 0.00000000E+00	 0.00000000E+00	 0.00000000E+00
4.02188868E+07	 7.56841283E-02	 4.17088319E+01	 9.24910291E-01	-6.82132387E+00	 0.00000000E+00	 0.00000000E+00	 0.00000000E+00	 0.00000000E+00
4.02501563E+07	 7.58032404E-02	 4.16491405E+01	 9.25156777E-01	-6.82771791E+00	 0.00000000E+00	 0.00000000E+00	 0.00000000E+00	 0.00000000E+00
4.02814259E+07	 7.58461147E-02	 4.17018823E+01	 9.25041751E-01	-6.82724104E+00	 0.00000000E+00	 0.00000000E+00	 0.00000000E+00	 0.00000000E+00
4.03126954E+07	 7.58816242E-02	 4.17006457E+01	 9.25077422E-01	-6.83336634E+00	 0.00000000E+00	 0.00000000E+00	 0.00000000E+00	 0.00000000E+00
4.03439650E+07	 7.59084587E-02	 4.17401450E+01	 9.24931384E-01	-6.83639655E+00	 0.00000000E+00	 0.00000000E+00	 0.00000000E+00	 0.00000000E+00
4.03752345E+07	 7.59466185E-02	 4.16831482E+01	 9.24964902E-01	-6.85046789E+00	 0.00000000E+00	 0.00000000E+00	 0.00000000E+00	 0.00000000E+00
4.04065041E+07	 7.59982059E-02	 4.17518981E+01	 9.24980661E-01	-6.84734815E+00	 0.00000000E+00	 0.00000000E+00	 0.00000000E+00	 0.00000000E+00
4.04377736E+07	 7.59535429E-02	 4.16996141E+01	 9.24920006E-01	-6.84620196E+00	 0.00000000E+00	 0.00000000E+00	 0.00000000E+00	 0.00000000E+00
4.04690432E+07	 7.59411674E-02	 4.16906917E+01	 9.24864796E-01	-6.85149888E+00	 0.00000000E+00	 0.00000000E+00	 0.00000000E+00	 0.00000000E+00
4.05003127E+07	 7.60196576E-02	 4.17064965E+01	 9.24878170E-01	-6.85411103E+00	 0.00000000E+00	 0.00000000E+00	 0.00000000E+00	 0.00000000E+00
4.05315822E+07	 7.61013835E-02	 4.16462390E+01	 9.24845030E-01	-6.86249222E+00	 0.00000000E+00	 0.00000000E+00	 0.00000000E+00	 0.00000000E+00
4.05628518E+07	 7.60888774E-02	 4.17188275E+01	 9.24817194E-01	-6.86725530E+00	 0.00000000E+00	 0.00000000E+00	 0.00000000E+00	 0.00000000E+00
4.05941213E+07	 7.61236057E-02	 4.17475328E+01	 9.24719019E-01	-6.86372913E+00	 0.00000000E+00	 0.00000000E+00	 0.00000000E+00	 0.00000000E+00
4.06253909E+07	 7.61193503E-02	 4.16951427E+01	 9.24641785E-01	-6.86904632E+00	 0.00000000E+00	 0.00000000E+00	 0.00000000E+00	 0.00000000E+00
4.06566604E+07	 7.61271005E-02	 4.16961809E+01	 9.24619751E-01	-6.87469327E+00	 0.00000000E+00	 0.00000000E+00	 0.00000000E+00	 0.00000000E+00
4.06879300E+07	 7.62484534E-02	 4.17277972E+01	 9.24860863E-01	-6.87315262E+00	 0.00000000E+00	 0.00000000E+00	 0.00000000E+00	 0.00000000E+00
4.07191995E+07	 7.62107341E-02	 4.17247775E+01	 9.24567396E-01	-6.87228964E+00	 0.00000000E+00	 0.00000000E+00	 0.00000000E+00	 0.00000000E+00
4.07504690E+07	 7.63074275E-02	 4.17133740E+01	 9.24559430E-01	-6.89048778E+00	 0.00000000E+00	 0.00000000E+00	 0.00000000E+00	 0.00000000E+00
4.07817386E+07	 7.62103030E-02	 4.17553022E+01	 9.24710177E-01	-6.87755041E+00	 0.00000000E+00	 0.00000000E+00	 0.00000000E+00	 0.00000000E+00
4.08130081E+07	 7.62965103E-02	 4.17562940E+01	 9.24434332E-01	-6.88938312E+00	 0.00000000E+00	 0.00000000E+00	 0.00000000E+00	 0.00000000E+00
4.08442777E+07	 7.62686253E-02	 4.17049095E+01	 9.24684863E-01	-6.88084900E+00	 0.00000000E+00	 0.00000000E+00	 0.00000000E+00	 0.00000000E+00
4.08755472E+07	 7.64157991E-02	 4.16896143E+01	 9.24380580E-01	-6.89293740E+00	 0.00000000E+00	 0.00000000E+00	 0.00000000E+00	 0.00000000E+00
4.09068168E+07	 7.64130373E-02	 4.17657289E+01	 9.24560526E-01	-6.90874256E+00	 0.00000000E+00	 0.00000000E+00	 0.00000000E+00	 0.00000000E+00
4.09380863E+07	 7.63703931E-02	 4.17617554E+01	 9.24486364E-01	-6.89768532E+00	 0.00000000E+00	 0.00000000E+00	 0.00000000E+00	 0.00000000E+00
4.09693558E+07	 7.64362212E-02	 4.17337332E+01	 9.24501102E-01	-6.90758567E+00	 0.00000000E+00	 0.00000000E+00	 0.00000000E+00	 0.00000000E+00
4.10006254E+07	 7.64686212E-02	 4.18138640E+01	 9.24320405E-01	-6.91129928E+00	 0.00000000E+00	 0.00000000E+00	 0.00000000E+00	 0.00000000E+00
4.10318949E+07	 7.65110785E-02	 4.17554005E+01	 9.24332010E-01	-6.90695085E+00	 0.00000000E+00	 0.00000000E+00	 0.00000000E+00	 0.00000000E+00
4.10631645E+07	 7.64806155E-02	 4.17799420E+01	 9.24419838E-01	-6.91233606E+00	 0.00000000E+00	 0.00000000E+00	 0.00000000E+00	 0.00000000E+00
4.10944340E+07	 7.65596873E-02	 4.17793560E+01	 9.24565126E-01	-6.91568767E+00	 0.00000000E+00	 0.00000000E+00	 0.00000000E+00	 0.00000000E+00
4.11257036E+07	 7.65556056E-02	 4.17129963E+01	 9.24587223E-01	-6.91130541E+00	 0.00000000E+00	 0.00000000E+00	 0.00000000E+00	 0.00000000E+00
4.11569731E+07	 7.66615609E-02	 4.17452500E+01	 9.24228228E-01	-6.92602745E+00	 0.00000000E+00	 0.00000000E+00	 0.00000000E+00	 0.00000000E+00
4.11882427E+07	 7.65662215E-02	 4.17730563E+01	 9.24007902E-01	-6.93361326E+00	 0.00000000E+00	 0.00000000E+00	 0.00000000E+00	 0.00000000E+00
4.12195122E+07	 7.66556199E-02	 4.17718769E+01	 9.24096944E-01	-6.93375688E+00	 0.00000000E+00	 0.00000000E+00	 0.00000000E+00	 0.00000000E+00
4.12507817E+07	 7.67035689E-02	 4.17922579E+01	 9.23932137E-01	-6.93993833E+00	 0.00000000E+00	 0.00000000E+00	 0.00000000E+00	 0.00000000E+00
4.12820513E+07	 7.66535671E-02	 4.17858872E+01	 9.24088111E-01	-6.93115554E+00	 0.00000000E+00	 0.00000000E+00	 0.00000000E+00	 0.00000000E+00
4.13133208E+07	 7.67700366E-02	 4.17632455E+01	 9.23958340E-01	-6.93826723E+00	 0.00000000E+00	 0.00000000E+00	 0.00000000E+00	 0.00000000E+00
4.13445904E+07	 7.67984002E-02	 4.18046110E+01	 9.24038218E-01	-6.94078775E+00	 0.00000000E+00	 0.00000000E+00	 0.00000000E+00	 0.00000000E+00
4.13758599E+07	 7.67899135E-02	 4.18148099E+01	 9.24076045E-01	-6.95544583E+00	 0.00000000E+00	 0.00000000E+00	 0.00000000E+00	 0.00000000E+00
4.14071295E+07	 7.68369339E-02	 4.17511206E+01	 9.23950555E-01	-6.94415913E+00	 0.00000000E+00	 0.00000000E+00	 0.00000000E+00	 0.00000000E+00
4.14383990E+07	 7.68295635E-02	 4.17772409E+01	 9.24021294E-01	-6.95530856E+00	 0.00000000E+00	 0.00000000E+00	 0.00000000E+00	 0.00000000E+00
4.14696685E+07	 7.69260928E-02	 4.17707465E+01	 9.23820085E-01	-6.96116465E+00	 0.00000000E+00	 0.00000000E+00	 0.00000000E+00	 0.00000000E+00
4.15009381E+07	 7.69329800E-02	 4.17897021E+01	 9.23941175E-01	-6.96949226E+00	 0.00000000E+00	 0.00000000E+00	 0.00000000E+00	 0.00000000E+00
4.15322076E+07	 7.69364194E-02	 4.17804328E+01	 9.23761839E-01	-6.96982650E+00	 0.00000000E+00	 0.00000000E+00	 0.00000000E+00	 0.00000000E+00
4.15634772E+07	 7.69488963E-02	 4.18186035E+01	 9.23729202E-01	-6.98243413E+00	 0.00000000E+00	 0.00000000E+00	 0.00000000E+00	 0.00000000E+00
4.15947467E+07	 7.69414839E-02	 4.17923698E+01	 9.23667789E-01	-6.95750140E+00	 0.00000000E+00	 0.00000000E+00	 0.00000000E+00	 0.00000000E+00
4.16260163E+07	 7.69527970E-02	 4.18236979E+01	 9.23619617E-01	-6.97345014E+00	 0.00000000E+00	 0.00000000E+00	 0.00000000E+00	 0.00000000E+00
4.16572858E+07	 7.69839535E-02	 4.17657274E+01	 9.23815849E-01	-6.98677107E+00	 0.00000000E+00	 0.00000000E+00	 0.00000000E+00	 0.00000000E+00
4.16885553E+07	 7.70682979E-02	 4.18239702E+01	 9.23784029E-01	-6.97975300E+00	 0.00000000E+00	 0.00000000E+00	 0.00000000E+00	 0.00000000E+00
4.17198249E+07	 7.70976045E-02	 4.18243810E+01	 9.23791885E-01	-6.98172174E+00	 0.00000000E+00	 0.00000000E+00	 0.00000000E+00	 0.00000000E+00
4.17510944E+07	 7.70773640E-02	 4.18655089E+01	 9.23487818E-01	-6.98238627E+00	 0.00000000E+00	 0.00000000E+00	 0.00000000E+00	 0.00000000E+00
4.17823640E+07	 7.71194519E-02	 4.18135201E+01	 9.23525038E-01	-6.98397641E+00	 0.00000000E+00	 0.00000000E+00	 0.00000000E+00	 0.00000000E+00
4.18136335E+07	 7.71607300E-02	 4.18204143E+01	 9.23562072E-01	-6.99535799E+00	 0.00000000E+00	 0.00000000E+00	 0.00000000E+00	 0.00000000E+00
4.18449031E+07	 7.72097940E-02	 4.18725363E+01	 9.23567024E-01	-6.99332571E+00	 0.00000000E+00	 0.00000000E+00	 0.00000000E+00	 0.00000000E+00
4.18761726E+07	 7.72627522E-02	 4.18525614E+01	 9.23591392E-01	-7.00541732E+00	 0.00000000E+00	 0.00000000E+00	 0.00000000E+00	 0.00000000E+00
4.19074422E+07	 7.72330147E-02	 4.18182582E+01	 9.23315914E-01	-7.00789549E+00	 0.00000000E+00	 0.00000000E+00	 0.00000000E+00	 0.00000000E+00
4.19387117E+07	 7.73252035E-02	 4.18133595E+01	 9.23372740E-01	-7.00567043E+00	 0.00000000E+00	 0.00000000E+00	 0.00000000E+00	 0.00000000E+00
4.19699812E+07	 7.72823431E-02	 4.18697817E+01	 9.23300070E-01	-7.00664174E+00	 0.00000000E+00	 0.00000000E+00	 0.00000000E+00	 0.00000000E+00
4.20012508E+07	 7.73629646E-02	 4.18639560E+01	 9.23417476E-01	-7.01317117E+00	 0.00000000E+00	 0.00000000E+00	 0.00000000E+00	 0.00000000E+00
4.20325203E+07	 7.73839206E-02	 4.18104045E+01	 9.23387577E-01	-7.00237076E+00	 0.00000000E+00	 0.00000000E+00	 0.00000000E+00	 0.00000000E+00
4.20637899E+07	 7.74631864E-02	 4.18545093E+01	 9.23538947E-01	-7.01751037E+00	 0.00000000E+00	 0.00000000E+00	 0.00000000E+00	 0.00000000E+00
4.20950594E+07	 7.73942452E-02	 4.18413687E+01	 9.23248822E-01	-7.00738224E+00	 0.00000000E+00	 0.00000000E+00	 0.00000000E+00	 0.00000000E+00
4.21263290E+07	 7.74422743E-02	 4.18781240E+01	 9.23200604E-01	-7.02438871E+00	 0.00000000E+00	 0.00000000E+00	 0.00000000E+00	 0.00000000E+00
4.21575985E+07	 7.74618176E-02	 4.18274626E+01	 9.23113939E-01	-7.02342553E+00	 0.00000000E+00	 0.00000000E+00	 0.00000000E+00	 0.00000000E+00
4.21888680E+07	 7.75465916E-02	 4.17980680E+01	 9.23227686E-01	-7.03299007E+00	 0.00000000E+00	 0.00000000E+00	 0.00000000E+00	 0.00000000E+00
4.22201376E+07	 7.75590902E-02	 4.18444708E+01	 9.23100771E-01	-7.03228752E+00	 0.00000000E+00	 0.00000000E+00	 0.00000000E+00	 0.00000000E+00
4.22514071E+07	 7.76254675E-02	 4.18647697E+01	 9.22967785E-01	-7.04252536E+00	 0.00000000E+00	 0.00000000E+00	 0.00000000E+00	 0.00000000E+00
4.22826767E+07	 7.76551522E-02	 4.18678869E+01	 9.23288398E-01	-7.03354509E+00	 0.00000000E+00	 0.00000000E+00	 0.00000000E+00	 0.00000000E+00
4.23139462E+07	 7.76199778E-02	 4.18993025E+01	 9.23316525E-01	-7.04209466E+00	 0.00000000E+00	 0.00000000E+00	 0.00000000E+00	 0.00000000E+00
4.23452158E+07	 7.76176557E-02	 4.18509050E+01	 9.23192219E-01	-7.04362230E+00	 0.00000000E+00	 0.00000000E+00	 0.00000000E+00	 0.00000000E+00
4.23764853E+07	 7.77129123E-02	 4.18628439E+01	 9.23055512E-01	-7.05669243E+00	 0.00000000E+00	 0.00000000E+00	 0.00000000E+00	 0.00000000E+00
4.24077548E+07	 7.77550745E-02	 4.19075531E+01	 9.23031486E-01	-7.05104685E+00	 0.00000000E+00	 0.00000000E+00	 0.00000000E+00	 0.00000000E+00
4.24390244E+07	 7.77275960E-02	 4.19146122E+01	 9.22840055E-01	-7.05328137E+00	 0.00000000E+00	 0.00000000E+00	 0.00000000E+00	 0.00000000E+00
4.24702939E+07	 7.77783435E-02	 4.18692967E+01	 9.23000004E-01	-7.05508569E+00	 0.00000000E+00	 0.00000000E+00	 0.00000000E+00	 0.00000000E+00
4.25015635E+07	 7.77661026E-02	 4.19085054E+01	 9.22961693E-01	-7.06925151E+00	 0.00000000E+00	 0.00000000E+00	 0.00000000E+00	 0.00000000E+00
4.25328330E+07	 7.77695017E-02	 4.18785478E+01	 9.22868691E-01	-7.07206699E+00	 0.00000000E+00	 0.00000000E+00	 0.00000000E+00	 0.00000000E+00
4.25641026E+07	 7.78506649E-02	 4.18886619E+01	 9.22964086E-01	-7.08271699E+00	 0.00000000E+00	 0.00000000E+00	 0.00000000E+00	 0.00000000E+00
4.25953721E+07	 7.78256414E-02	 4.19398929E+01	 9.22787438E-01	-7.06785179E+00	 0.00000000E+00	 0.00000000E+00	 0.00000000E+00	 0.00000000E+00
4.26266417E+07	 7.78602698E-02	 4.18618721E+01	 9.23034445E-01	-7.07328389E+00	 0.00000000E+00	 0.00000000E+00	 0.00000000E+00	 0.00000000E+00
4.26579112E+07	 7.79181577E-02	 4.19326159E+01	 9.22707962E-01	-7.07322259E+00	 0.00000000E+00	 0.00000000E+00	 0.00000000E+00	 0.00000000E+00
4.26891807E+07	 7.79539257E-02	 4.18784966E+01	 9.22922454E-01	-7.07333030E+00	 0.00000000E+00	 0.00000000E+00	 0.00000000E+00	 0.00000000E+00
4.27204503E+07	 7.79515569E-02	 4.19176835E+01	 9.22721431E-01	-7.07804031E+00	 0.00000000E+00	 0.00000000E+00	 0.00000000E+00	 0.00000000E+00
4.27517198E+07	 7.79614424E-02	 4.18748414E+01	 9.22689873E-01	-7.09415567E+00	 0.00000000E+00	 0.00000000E+00	 0.00000000E+00	 0.00000000E+00
4.27829894E+07	 7.79413265E-02	 4.19402050E+01	 9.22786004E-01	-7.08706537E+00	 0.00000000E+00	 0.00000000E+00	 0.00000000E+00	 0.00000000E+00
4.28142589E+07	 7.80337270E-02	 4.19213968E+01	 9.22561759E-01	-7.08649538E+00	 0.00000000E+00	 0.00000000E+00	 0.00000000E+00	 0.00000000E+00
4.28455285E+07	 7.80948606E-02	 4.19469520E+01	 9.22531043E-01	-7.08921589E+00	 0.00000000E+00	 0.00000000E+00	 0.00000000E+00	 0.00000000E+00
4.28767980E+07	 7.80576940E-02	 4.19426401E+01	 9.22490048E-01	-7.09970616E+00	 0.00000000E+00	 0.00000000E+00	 0.00000000E+00	 0.00000000E+00
4.29080675E+07	 7.81539081E-02	 4.18971241E+01	 9.22605638E-01	-7.08991131E+00	 0.00000000E+00	 0.00000000E+00	 0.00000000E+00	 0.00000000E+00
4.29393371E+07	 7.81512221E-02	 4.19378298E+01	 9.22300587E-01	-7.09154931E+00	 0.00000000E+00	 0.00000000E+00	 0.00000000E+00	 0.00000000E+00
4.29706066E+07	 7.81644227E-02	 4.19554842E+01	 9.22450199E-01	-7.10737049E+00	 0.00000000E+00	 0.00000000E+00	 0.00000000E+00	 0.00000000E+00
4.30018762E+07	 7.82227961E-02	 4.19154305E+01	 9.22313729E-01	-7.11639773E+00	 0.00000000E+00	 0.00000000E+00	 0.00000000E+00	 0.00000000E+00
4.30331457E+07	 7.83029729E-02	 4.19301421E+01	 9.22333603E-01	-7.10117864E+00	 0.00000000E+00	 0.00000000E+00	 0.00000000E+00	 0.00000000E+00
4.30644153E+07	 7.82896336E-02	 4.19144968E+01	 9.22209578E-01	-7.10139800E+00	 0.00000000E+00	 0.00000000E+00	 0.00000000E+00	 0.00000000E+00
4.30956848E+07	 7.82698432E-02	 4.19130021E+01	 9.22391716E-01	-7.12600202E+00	 0.00000000E+00	 0.00000000E+00	 0.00000000E+00	 0.00000000E+00
4.31269543E+07	 7.83545597E-02	 4.19111791E+01	 9.22316484E-01	-7.11863460E+00	 0.00000000E+00	 0.00000000E+00	 0.00000000E+00	 0.00000000E+00
4.31582239E+07	 7.83647524E-02	 4.19426231E+01	 9.22264402E-01	-7.12532875E+00	 0.00000000E+00	 0.00000000E+00	 0.00000000E+00	 0.00000000E+00
4.31894934E+07	 7.83872501E-02	 4.19443857E+01	 9.22359385E-01	-7.12752816E+00	 0.00000000E+00	 0.00000000E+00	 0.00000000E+00	 0.00000000E+00
4.32207630E+07	 7.83865361E-02	 4.19603119E+01	 9.22247176E-01	-7.13895047E+00	 0.00000000E+00	 0.00000000E+00	 0.00000000E+00	 0.00000000E+00
4.32520325E+07	 7.83468732E-02	 4.19953900E+01	 9.22265125E-01	-7.12670060E+00	 0.00000000E+00	 0.00000000E+00	 0.00000000E+00	 0.00000000E+00
4.32833021E+07	 7.84050530E-02	 4.19636123E+01	 9.22281324E-01	-7.14326756E+00	 0.00000000E+00	 0.00000000E+00	 0.00000000E+00	 0.00000000E+00
4.33145716E+07	 7.84095126E-02	 4.19611210E+01	 9.21908587E-01	-7.14464950E+00	 0.00000000E+00	 0.00000000E+00	 0.00000000E+00	 0.00000000E+00
4.33458412E+07	 7.84997978E-02	 4.19751287E+01	 9.22167076E-01	-7.15669924E+00	 0.00000000E+00	 0.00000000E+00	 0.00000000E+00	 0.00000000E+00
4.33771107E+07	 7.84733455E-02	 4.19812660E+01	 9.22095281E-01	-7.15226946E+00	 0.00000000E+00	 0.00000000E+00	 0.00000000E+00	 0.00000000E+00
4.34083802E+07	 7.85905974E-02	 4.19594520E+01	 9.21997018E-01	-7.15110772E+00	 0.00000000E+00	 0.00000000E+00	 0.00000000E+00	 0.00000000E+00
4.34396498E+07	 7.85819242E-02	 4.20090277E+01	 9.21923250E-01	-7.16242331E+00	 0.00000000E+00	 0.00000000E+00	 0.00000000E+00	 0.00000000E+00
4.34709193E+07	 7.85954144E-02	 4.20029485E+01	 9.21930189E-01	-7.16204097E+00	 0.00000000E+00	 0.00000000E+00	 0.00000000E+00	 0.00000000E+00
4.35021889E+07	 7.84896524E-02	 4.19410533E+01	 9.22007261E-01	-7.15707974E+00	 0.00000000E+00	 0.00000000E+00	 0.00000000E+00	 0.00000000E+00
4.35334584E+07	 7.86483380E-02	 4.19603106E+01	 9.21669278E-01	-7.17461650E+00	 0.00000000E+00	 0.00000000E+00	 0.00000000E+00	 0.00000000E+00
4.35647280E+07	 7.87051609E-02	 4.20375705E+01	 9.21776971E-01	-7.17908634E+00	 0.00000000E+00	 0.00000000E+00	 0.00000000E+00	 0.00000000E+00
4.35959975E+07	 7.85985679E-02	 4.19975656E+01	 9.21730773E-01	-7.16671913E+00	 0.00000000E+00	 0.00000000E+00	 0.00000000E+00	 0.00000000E+00
4.36272670E+07	 7.87307546E-02	 4.19791805E+01	 9.21819738E-01	-7.17584785E+00	 0.00000000E+00	 0.00000000E+00	 0.00000000E+00	 0.00000000E+00
4.36585366E+07	 7.87321134E-02	 4.19326348E+01	 9.21766348E-01	-7.18047676E+00	 0.00000000E+00	 0.00000000E+00	 0.00000000E+00	 0.00000000E+00
4.36898061E+07	 7.88364479E-02	 4.19751763E+01	 9.21742043E-01	-7.18807302E+00	 0.00000000E+00	 0.00000000E+00	 0.00000000E+00	 0.00000000E+00
4.37210757E+07	 7.88716251E-02	 4.20062887E+01	 9.21788500E-01	-7.18887297E+00	 0.00000000E+00	 0.00000000E+00	 0.00000000E+00	 0.00000000E+00
4.37523452E+07	 7.88523111E-02	 4.20071445E+01	 9.21842152E-01	-7.18905798E+00	 0.00000000E+00	 0.00000000E+00	 0.00000000E+00	 0.00000000E+00
4.37836148E+07	 7.88774682E-02	 4.20478957E+01	 9.21505005E-01	-7.17999520E+00	 0.00000000E+00	 0.00000000E+00	 0.00000000E+00	 0.00000000E+00
4.38148843E+07	 7.88892048E-02	 4.19878696E+01	 9.21623484E-01	-7.19798232E+00	 0.00000000E+00	 0.00000000E+00	 0.00000000E+00	 0.00000000E+00
4.38461538E+07	 7.88728602E-02	 4.20225156E+01	 9.21594550E-01	-7.19647238E+00	 0.00000000E+00	 0.00000000E+00	 0.00000000E+00	 0.00000000E+00
4.38774234E+07	 7.88388350E-02	 4.20494655E+01	 9.21558369E-01	-7.20521889E+00	 0.00000000E+00	 0.00000000E+00	 0.00000000E+00	 0.00000000E+00
4.39086929E+07	 7.89314272E-02	 4.20350766E+01	 9.21566020E-01	-7.20321950E+00	 0.00000000E+00	 0.00000000E+00	 0.00000000E+00	 0.00000000E+00
4.39399625E+07	 7.88844917E-02	 4.20189973E+01	 9.21507339E-01	-7.21387366E+00	 0.00000000E+00	 0.00000000E+00	 0.00000000E+00	 0.00000000E+00
4.39712320E+07	 7.90771714E-02	 4.20143113E+01	 9.21397787E-01	-7.21372845E+00	 0.00000000E+00	 0.00000000E+00	 0.00000000E+00	 0.00000000E+00
4.40025016E+07	 7.90438907E-02	 4.20428174E+01	 9.21423234E-01	-7.21461481E+00	 0.00000000E+00	 0.00000000E+00	 0.00000000E+00	 0.00000000E+00
4.40337711E+07	 7.90488774E-02	 4.20301777E+01	 9.21393483E-01	-7.21838796E+00	 0.00000000E+00	 0.00000000E+00	 0.00000000E+00	 0.00000000E+00
4.40650407E+07	 7.91173638E-02	 4.20571630E+01	 9.21218325E-01	-7.23620726E+00	 0.00000000E+00	 0.00000000E+00	 0.00000000E+00	 0.00000000E+00
4.40963102E+07	 7.90560015E-02	 4.19955694E+01	 9.21318654E-01	-7.22894101E+00	 0.00000000E+00	 0.00000000E+00	 0.00000000E+00	 0.00000000E+00
4.41275797E+07	 7.91902541E-02	 4.20541705E+01	 9.21463209E-01	-7.21575086E+00	 0.00000000E+00	 0.00000000E+00	 0.00000000E+00	 0.00000000E+00
4.41588493E+07	 7.91573229E-02	 4.20704334E+01	 9.21167619E-01	-7.22380289E+00	 0.00000000E+00	 0.00000000E+00	 0.00000000E+00	 0.00000000E+00
4.41901188E+07	 7.91553588E-02	 4.20354287E+01	 9.21382299E-01	-7.22879601E+00	 0.00000000E+00	 0.00000000E+00	 0.00000000E+00	 0.00000000E+00
4.42213884E+07	 7.92163439E-02	 4.21113296E+01	 9.21255699E-01	-7.22877264E+00	 0.00000000E+00	 0.00000000E+00	 0.00000000E+00	 0.00000000E+00
4.42526579E+07	 7.92118002E-02	 4.20138704E+01	 9.21457753E-01	-7.24299298E+00	 0.00000000E+00	 0.00000000E+00	 0.00000000E+00	 0.00000000E+00
