!Agilent Technologies,E5061B,MY49102235,A.02.00
!Date: Mon Jul 03 10:33:12 2023
!Data & Calibration Information:
!Freq	S11:SOLT2(ON)	S21:SOLT2(ON)	S12:SOLT2(ON)	S22:SOLT2(ON)
# Hz S RI R 50
40000000.000	-3.160107e-002	-3.815314e-002	7.562834e-001	-6.526531e-001	7.563552e-001	-6.518446e-001	-3.645447e-002	-3.257296e-002
40031269.543	-3.162609e-002	-3.823713e-002	7.559887e-001	-6.530620e-001	7.560894e-001	-6.518648e-001	-3.650542e-002	-3.251145e-002
40062539.087	-3.167729e-002	-3.817412e-002	7.552552e-001	-6.533361e-001	7.557848e-001	-6.525043e-001	-3.648126e-002	-3.252804e-002
40093808.630	-3.178949e-002	-3.814528e-002	7.549778e-001	-6.538817e-001	7.553343e-001	-6.532185e-001	-3.658793e-002	-3.251511e-002
40125078.174	-3.185780e-002	-3.809098e-002	7.545491e-001	-6.541610e-001	7.548621e-001	-6.533180e-001	-3.653434e-002	-3.243592e-002
40156347.717	-3.183979e-002	-3.816369e-002	7.544524e-001	-6.547324e-001	7.544130e-001	-6.539637e-001	-3.668630e-002	-3.251085e-002
40187617.261	-3.188874e-002	-3.829518e-002	7.540608e-001	-6.548796e-001	7.542396e-001	-6.543094e-001	-3.671526e-002	-3.263260e-002
40218886.804	-3.196539e-002	-3.818442e-002	7.536164e-001	-6.557194e-001	7.537924e-001	-6.545891e-001	-3.674450e-002	-3.260093e-002
40250156.348	-3.201254e-002	-3.818279e-002	7.531732e-001	-6.559895e-001	7.533329e-001	-6.552569e-001	-3.687367e-002	-3.260987e-002
40281425.891	-3.202763e-002	-3.823356e-002	7.528652e-001	-6.563995e-001	7.529976e-001	-6.554599e-001	-3.689364e-002	-3.251694e-002
40312695.435	-3.208158e-002	-3.827948e-002	7.525718e-001	-6.569239e-001	7.526725e-001	-6.559448e-001	-3.690451e-002	-3.258023e-002
40343964.978	-3.208259e-002	-3.816890e-002	7.522089e-001	-6.569559e-001	7.524804e-001	-6.562245e-001	-3.696773e-002	-3.251181e-002
40375234.522	-3.214240e-002	-3.821210e-002	7.516857e-001	-6.577339e-001	7.520986e-001	-6.568626e-001	-3.705389e-002	-3.255666e-002
40406504.065	-3.228380e-002	-3.822883e-002	7.513648e-001	-6.577722e-001	7.516534e-001	-6.573432e-001	-3.698903e-002	-3.266270e-002
40437773.609	-3.234375e-002	-3.832718e-002	7.510285e-001	-6.583174e-001	7.511910e-001	-6.575396e-001	-3.705561e-002	-3.259811e-002
40469043.152	-3.225930e-002	-3.835178e-002	7.506652e-001	-6.588342e-001	7.510179e-001	-6.579493e-001	-3.719954e-002	-3.256707e-002
40500312.695	-3.237117e-002	-3.840497e-002	7.502545e-001	-6.591950e-001	7.506651e-001	-6.583914e-001	-3.724864e-002	-3.249658e-002
40531582.239	-3.237144e-002	-3.828690e-002	7.498059e-001	-6.594580e-001	7.499796e-001	-6.590139e-001	-3.731545e-002	-3.256312e-002
40562851.782	-3.247817e-002	-3.823303e-002	7.493621e-001	-6.598590e-001	7.496116e-001	-6.591415e-001	-3.728719e-002	-3.268293e-002
40594121.326	-3.251281e-002	-3.830686e-002	7.494366e-001	-6.605867e-001	7.494239e-001	-6.595566e-001	-3.729601e-002	-3.252451e-002
40625390.869	-3.255529e-002	-3.826450e-002	7.488567e-001	-6.608104e-001	7.492398e-001	-6.601908e-001	-3.739623e-002	-3.262764e-002
40656660.413	-3.254808e-002	-3.832471e-002	7.484191e-001	-6.612797e-001	7.488863e-001	-6.602941e-001	-3.744610e-002	-3.263482e-002
40687929.956	-3.252155e-002	-3.825260e-002	7.483762e-001	-6.619818e-001	7.484680e-001	-6.608277e-001	-3.746888e-002	-3.265318e-002
40719199.500	-3.260536e-002	-3.825752e-002	7.476485e-001	-6.621916e-001	7.478781e-001	-6.615977e-001	-3.746343e-002	-3.262647e-002
40750469.043	-3.273546e-002	-3.832772e-002	7.473217e-001	-6.624388e-001	7.476151e-001	-6.619153e-001	-3.771517e-002	-3.260287e-002
40781738.587	-3.267616e-002	-3.840346e-002	7.469364e-001	-6.631365e-001	7.470871e-001	-6.622389e-001	-3.773409e-002	-3.261247e-002
40813008.130	-3.277708e-002	-3.838013e-002	7.466299e-001	-6.633157e-001	7.466955e-001	-6.627013e-001	-3.777559e-002	-3.259518e-002
40844277.674	-3.281505e-002	-3.830479e-002	7.463222e-001	-6.637337e-001	7.464877e-001	-6.630136e-001	-3.785488e-002	-3.258376e-002
40875547.217	-3.288181e-002	-3.837989e-002	7.459258e-001	-6.642869e-001	7.462840e-001	-6.632920e-001	-3.783920e-002	-3.259231e-002
40906816.760	-3.289450e-002	-3.832240e-002	7.456514e-001	-6.647216e-001	7.456413e-001	-6.638778e-001	-3.782739e-002	-3.265852e-002
40938086.304	-3.298796e-002	-3.839280e-002	7.449392e-001	-6.651553e-001	7.456123e-001	-6.644091e-001	-3.801327e-002	-3.256774e-002
40969355.847	-3.305541e-002	-3.841687e-002	7.445583e-001	-6.653752e-001	7.450971e-001	-6.646923e-001	-3.802408e-002	-3.259757e-002
41000625.391	-3.309084e-002	-3.836778e-002	7.442847e-001	-6.658526e-001	7.444342e-001	-6.651149e-001	-3.800269e-002	-3.256039e-002
41031894.934	-3.294833e-002	-3.826633e-002	7.442605e-001	-6.661836e-001	7.441470e-001	-6.654879e-001	-3.814186e-002	-3.258503e-002
41063164.478	-3.318670e-002	-3.835996e-002	7.436042e-001	-6.666321e-001	7.439995e-001	-6.659569e-001	-3.809881e-002	-3.262251e-002
41094434.021	-3.318063e-002	-3.841336e-002	7.432886e-001	-6.669996e-001	7.435252e-001	-6.662691e-001	-3.820430e-002	-3.263769e-002
41125703.565	-3.318369e-002	-3.838805e-002	7.427819e-001	-6.677046e-001	7.432378e-001	-6.666121e-001	-3.826052e-002	-3.255715e-002
41156973.108	-3.322601e-002	-3.843251e-002	7.426646e-001	-6.678478e-001	7.426703e-001	-6.672014e-001	-3.832768e-002	-3.261631e-002
41188242.652	-3.329194e-002	-3.838762e-002	7.425213e-001	-6.685198e-001	7.422774e-001	-6.674866e-001	-3.833456e-002	-3.265894e-002
41219512.195	-3.328681e-002	-3.848986e-002	7.416962e-001	-6.688796e-001	7.420183e-001	-6.677908e-001	-3.836736e-002	-3.268478e-002
41250781.739	-3.344639e-002	-3.848057e-002	7.413205e-001	-6.693924e-001	7.417058e-001	-6.683972e-001	-3.846437e-002	-3.257082e-002
41282051.282	-3.340226e-002	-3.849503e-002	7.409656e-001	-6.695185e-001	7.412531e-001	-6.688841e-001	-3.856539e-002	-3.264977e-002
41313320.826	-3.355234e-002	-3.841235e-002	7.405176e-001	-6.699411e-001	7.407506e-001	-6.690916e-001	-3.857426e-002	-3.263939e-002
41344590.369	-3.358038e-002	-3.855990e-002	7.401070e-001	-6.701572e-001	7.405584e-001	-6.697382e-001	-3.858030e-002	-3.258498e-002
41375859.912	-3.363683e-002	-3.848423e-002	7.399858e-001	-6.708523e-001	7.398566e-001	-6.701103e-001	-3.862754e-002	-3.261563e-002
41407129.456	-3.359906e-002	-3.849347e-002	7.396252e-001	-6.709542e-001	7.396248e-001	-6.703021e-001	-3.874860e-002	-3.256664e-002
41438398.999	-3.367314e-002	-3.857303e-002	7.392432e-001	-6.717149e-001	7.395080e-001	-6.708300e-001	-3.879173e-002	-3.257890e-002
41469668.543	-3.379267e-002	-3.846092e-002	7.386629e-001	-6.720374e-001	7.389348e-001	-6.712933e-001	-3.878072e-002	-3.258635e-002
41500938.086	-3.376694e-002	-3.852274e-002	7.383645e-001	-6.724744e-001	7.386526e-001	-6.715673e-001	-3.883220e-002	-3.274373e-002
41532207.630	-3.385597e-002	-3.853312e-002	7.380370e-001	-6.728320e-001	7.383132e-001	-6.719958e-001	-3.894325e-002	-3.267193e-002
41563477.173	-3.379086e-002	-3.855781e-002	7.376296e-001	-6.732261e-001	7.379135e-001	-6.722395e-001	-3.887358e-002	-3.268640e-002
41594746.717	-3.383563e-002	-3.855540e-002	7.371052e-001	-6.737550e-001	7.375020e-001	-6.729739e-001	-3.897988e-002	-3.253864e-002
41626016.260	-3.400451e-002	-3.859412e-002	7.367547e-001	-6.741002e-001	7.371215e-001	-6.733442e-001	-3.907017e-002	-3.262243e-002
41657285.804	-3.396946e-002	-3.857333e-002	7.365580e-001	-6.744318e-001	7.367790e-001	-6.736634e-001	-3.905624e-002	-3.265545e-002
41688555.347	-3.403752e-002	-3.863670e-002	7.361465e-001	-6.748483e-001	7.364314e-001	-6.741658e-001	-3.912286e-002	-3.261399e-002
41719824.891	-3.404646e-002	-3.847357e-002	7.357643e-001	-6.754488e-001	7.359632e-001	-6.744330e-001	-3.924353e-002	-3.253598e-002
41751094.434	-3.415361e-002	-3.847235e-002	7.354392e-001	-6.756617e-001	7.354903e-001	-6.751530e-001	-3.926261e-002	-3.265756e-002
41782363.977	-3.410267e-002	-3.859713e-002	7.351425e-001	-6.761146e-001	7.353314e-001	-6.752388e-001	-3.941876e-002	-3.261798e-002
41813633.521	-3.427463e-002	-3.862945e-002	7.345732e-001	-6.763861e-001	7.350057e-001	-6.757399e-001	-3.933764e-002	-3.253621e-002
41844903.064	-3.429766e-002	-3.861587e-002	7.344560e-001	-6.767598e-001	7.346285e-001	-6.762522e-001	-3.949719e-002	-3.259029e-002
41876172.608	-3.429758e-002	-3.862536e-002	7.338420e-001	-6.773532e-001	7.343759e-001	-6.767089e-001	-3.955837e-002	-3.257251e-002
41907442.151	-3.442599e-002	-3.856943e-002	7.333949e-001	-6.775836e-001	7.339409e-001	-6.769776e-001	-3.959075e-002	-3.258595e-002
41938711.695	-3.437781e-002	-3.859078e-002	7.330894e-001	-6.781905e-001	7.335528e-001	-6.774066e-001	-3.949149e-002	-3.265310e-002
41969981.238	-3.441460e-002	-3.871384e-002	7.327954e-001	-6.784957e-001	7.329575e-001	-6.779924e-001	-3.958018e-002	-3.259327e-002
42001250.782	-3.448669e-002	-3.855242e-002	7.324260e-001	-6.791100e-001	7.326885e-001	-6.780211e-001	-3.968723e-002	-3.261613e-002
42032520.325	-3.448297e-002	-3.854857e-002	7.318885e-001	-6.794022e-001	7.325706e-001	-6.784543e-001	-3.976586e-002	-3.261259e-002
42063789.869	-3.463400e-002	-3.865697e-002	7.317122e-001	-6.797082e-001	7.317599e-001	-6.791349e-001	-3.989474e-002	-3.258932e-002
42095059.412	-3.461205e-002	-3.861730e-002	7.311909e-001	-6.801403e-001	7.316204e-001	-6.795269e-001	-3.988384e-002	-3.253537e-002
42126328.956	-3.470813e-002	-3.867040e-002	7.308723e-001	-6.803423e-001	7.311088e-001	-6.797234e-001	-3.992415e-002	-3.262572e-002
42157598.499	-3.464921e-002	-3.871145e-002	7.305311e-001	-6.810127e-001	7.307173e-001	-6.803877e-001	-3.993996e-002	-3.255120e-002
42188868.043	-3.472251e-002	-3.868863e-002	7.301932e-001	-6.811927e-001	7.304114e-001	-6.806950e-001	-4.006389e-002	-3.259143e-002
42220137.586	-3.468287e-002	-3.874088e-002	7.296538e-001	-6.818661e-001	7.299863e-001	-6.809358e-001	-4.009439e-002	-3.252823e-002
42251407.129	-3.481425e-002	-3.873037e-002	7.293663e-001	-6.823890e-001	7.296202e-001	-6.815905e-001	-4.012213e-002	-3.248501e-002
42282676.673	-3.480328e-002	-3.874575e-002	7.289144e-001	-6.824877e-001	7.291366e-001	-6.817542e-001	-4.012752e-002	-3.252639e-002
42313946.216	-3.490344e-002	-3.867193e-002	7.287202e-001	-6.831663e-001	7.288584e-001	-6.825008e-001	-4.022311e-002	-3.254661e-002
42345215.760	-3.503062e-002	-3.874612e-002	7.280476e-001	-6.835030e-001	7.283776e-001	-6.827896e-001	-4.035676e-002	-3.251679e-002
42376485.303	-3.508848e-002	-3.876980e-002	7.278468e-001	-6.840279e-001	7.280101e-001	-6.830850e-001	-4.035134e-002	-3.242981e-002
42407754.847	-3.503167e-002	-3.873076e-002	7.274547e-001	-6.841875e-001	7.276700e-001	-6.835523e-001	-4.037923e-002	-3.250165e-002
42439024.390	-3.508351e-002	-3.875963e-002	7.269201e-001	-6.846300e-001	7.270922e-001	-6.838788e-001	-4.049168e-002	-3.254120e-002
42470293.934	-3.513127e-002	-3.883626e-002	7.264759e-001	-6.851228e-001	7.269895e-001	-6.843116e-001	-4.046737e-002	-3.258516e-002
42501563.477	-3.524427e-002	-3.870616e-002	7.263576e-001	-6.852819e-001	7.265463e-001	-6.846840e-001	-4.049620e-002	-3.252950e-002
42532833.021	-3.515560e-002	-3.872722e-002	7.259699e-001	-6.857961e-001	7.261471e-001	-6.853263e-001	-4.059724e-002	-3.256347e-002
42564102.564	-3.527285e-002	-3.872611e-002	7.254910e-001	-6.862977e-001	7.256892e-001	-6.854982e-001	-4.070674e-002	-3.253439e-002
42595372.108	-3.529263e-002	-3.876920e-002	7.250187e-001	-6.867160e-001	7.252765e-001	-6.860663e-001	-4.077638e-002	-3.261962e-002
42626641.651	-3.537722e-002	-3.890233e-002	7.247597e-001	-6.869813e-001	7.251177e-001	-6.861537e-001	-4.083231e-002	-3.257114e-002
42657911.194	-3.539696e-002	-3.879454e-002	7.243638e-001	-6.876665e-001	7.246146e-001	-6.868013e-001	-4.084799e-002	-3.251627e-002
42689180.738	-3.550035e-002	-3.876272e-002	7.240645e-001	-6.879410e-001	7.244793e-001	-6.872139e-001	-4.091858e-002	-3.254466e-002
42720450.281	-3.556405e-002	-3.885250e-002	7.232643e-001	-6.879207e-001	7.237364e-001	-6.875039e-001	-4.088036e-002	-3.249925e-002
42751719.825	-3.553054e-002	-3.890229e-002	7.232287e-001	-6.887484e-001	7.235717e-001	-6.880080e-001	-4.091570e-002	-3.249120e-002
42782989.368	-3.570522e-002	-3.882242e-002	7.228869e-001	-6.894087e-001	7.231982e-001	-6.884574e-001	-4.105737e-002	-3.247452e-002
42814258.912	-3.562123e-002	-3.883502e-002	7.225843e-001	-6.894492e-001	7.228305e-001	-6.889250e-001	-4.105688e-002	-3.261828e-002
42845528.455	-3.572665e-002	-3.881048e-002	7.219948e-001	-6.899805e-001	7.223739e-001	-6.891074e-001	-4.111837e-002	-3.248179e-002
42876797.999	-3.567277e-002	-3.886987e-002	7.218543e-001	-6.902007e-001	7.218002e-001	-6.896229e-001	-4.125884e-002	-3.255889e-002
42908067.542	-3.582492e-002	-3.887815e-002	7.212155e-001	-6.904021e-001	7.215341e-001	-6.897837e-001	-4.124744e-002	-3.260807e-002
42939337.086	-3.578536e-002	-3.884191e-002	7.208834e-001	-6.910964e-001	7.210240e-001	-6.903174e-001	-4.126044e-002	-3.259486e-002
42970606.629	-3.591554e-002	-3.895341e-002	7.205524e-001	-6.914157e-001	7.207498e-001	-6.907059e-001	-4.139015e-002	-3.260564e-002
43001876.173	-3.593393e-002	-3.887206e-002	7.201521e-001	-6.918674e-001	7.204111e-001	-6.912047e-001	-4.143969e-002	-3.245661e-002
43033145.716	-3.589629e-002	-3.887544e-002	7.194627e-001	-6.922169e-001	7.199160e-001	-6.915291e-001	-4.152898e-002	-3.249213e-002
43064415.260	-3.595542e-002	-3.898551e-002	7.193131e-001	-6.925110e-001	7.195800e-001	-6.917427e-001	-4.151887e-002	-3.257591e-002
43095684.803	-3.605419e-002	-3.890437e-002	7.189474e-001	-6.931697e-001	7.191002e-001	-6.923517e-001	-4.161304e-002	-3.256135e-002
43126954.346	-3.602629e-002	-3.889635e-002	7.186290e-001	-6.934133e-001	7.189219e-001	-6.927732e-001	-4.169577e-002	-3.245966e-002
43158223.890	-3.611053e-002	-3.889822e-002	7.181823e-001	-6.936865e-001	7.183871e-001	-6.931804e-001	-4.175207e-002	-3.252076e-002
43189493.433	-3.615229e-002	-3.901119e-002	7.180895e-001	-6.943849e-001	7.178706e-001	-6.936882e-001	-4.181336e-002	-3.246526e-002
43220762.977	-3.621089e-002	-3.891697e-002	7.174921e-001	-6.946474e-001	7.178220e-001	-6.938507e-001	-4.183213e-002	-3.256084e-002
43252032.520	-3.629246e-002	-3.903445e-002	7.170016e-001	-6.951184e-001	7.172423e-001	-6.945276e-001	-4.179430e-002	-3.249756e-002
43283302.064	-3.631907e-002	-3.890586e-002	7.165598e-001	-6.953776e-001	7.167110e-001	-6.948515e-001	-4.184302e-002	-3.238568e-002
43314571.607	-3.642008e-002	-3.902755e-002	7.163702e-001	-6.959491e-001	7.167838e-001	-6.950868e-001	-4.196967e-002	-3.241256e-002
43345841.151	-3.640543e-002	-3.898831e-002	7.158180e-001	-6.962360e-001	7.161508e-001	-6.956788e-001	-4.203436e-002	-3.241449e-002
43377110.694	-3.653489e-002	-3.905798e-002	7.153120e-001	-6.965586e-001	7.156167e-001	-6.960429e-001	-4.204359e-002	-3.244965e-002
43408380.238	-3.647642e-002	-3.911102e-002	7.151691e-001	-6.970449e-001	7.153383e-001	-6.962338e-001	-4.209254e-002	-3.249562e-002
43439649.781	-3.653385e-002	-3.900843e-002	7.146457e-001	-6.974232e-001	7.147881e-001	-6.969043e-001	-4.211153e-002	-3.243851e-002
43470919.325	-3.665017e-002	-3.900127e-002	7.140994e-001	-6.979384e-001	7.146396e-001	-6.973155e-001	-4.209920e-002	-3.231502e-002
43502188.868	-3.667402e-002	-3.907777e-002	7.137847e-001	-6.984160e-001	7.139505e-001	-6.977630e-001	-4.226018e-002	-3.243989e-002
43533458.412	-3.662431e-002	-3.900448e-002	7.135097e-001	-6.984860e-001	7.136494e-001	-6.979884e-001	-4.225945e-002	-3.244165e-002
43564727.955	-3.678376e-002	-3.904944e-002	7.132587e-001	-6.989217e-001	7.134866e-001	-6.986888e-001	-4.242715e-002	-3.240398e-002
43595997.498	-3.677549e-002	-3.907776e-002	7.126776e-001	-6.993047e-001	7.129031e-001	-6.987622e-001	-4.246010e-002	-3.242747e-002
43627267.042	-3.683838e-002	-3.911638e-002	7.124949e-001	-6.998707e-001	7.125505e-001	-6.992657e-001	-4.248658e-002	-3.234951e-002
43658536.585	-3.681207e-002	-3.915077e-002	7.119589e-001	-7.001025e-001	7.120699e-001	-6.996982e-001	-4.258062e-002	-3.241683e-002
43689806.129	-3.681017e-002	-3.914656e-002	7.113694e-001	-7.006070e-001	7.117174e-001	-6.998082e-001	-4.254417e-002	-3.242794e-002
43721075.672	-3.701815e-002	-3.904180e-002	7.111231e-001	-7.008993e-001	7.113696e-001	-7.005068e-001	-4.263527e-002	-3.249028e-002
43752345.216	-3.699101e-002	-3.916799e-002	7.108869e-001	-7.014821e-001	7.108521e-001	-7.007402e-001	-4.262242e-002	-3.236862e-002
43783614.759	-3.699763e-002	-3.919842e-002	7.103827e-001	-7.016827e-001	7.106774e-001	-7.012146e-001	-4.276138e-002	-3.239275e-002
43814884.303	-3.718864e-002	-3.914546e-002	7.099719e-001	-7.022405e-001	7.102498e-001	-7.015140e-001	-4.282759e-002	-3.234130e-002
43846153.846	-3.711459e-002	-3.920336e-002	7.095946e-001	-7.025679e-001	7.099220e-001	-7.019034e-001	-4.287202e-002	-3.241773e-002
43877423.390	-3.714954e-002	-3.920393e-002	7.090344e-001	-7.030607e-001	7.095633e-001	-7.023235e-001	-4.283417e-002	-3.241747e-002
43908692.933	-3.730746e-002	-3.907744e-002	7.084479e-001	-7.035640e-001	7.091494e-001	-7.025714e-001	-4.294512e-002	-3.232009e-002
43939962.477	-3.734400e-002	-3.914871e-002	7.083100e-001	-7.038395e-001	7.086476e-001	-7.031386e-001	-4.298266e-002	-3.235350e-002
43971232.020	-3.732381e-002	-3.922032e-002	7.079439e-001	-7.041854e-001	7.082211e-001	-7.035120e-001	-4.307009e-002	-3.235905e-002
44002501.563	-3.735937e-002	-3.920310e-002	7.075155e-001	-7.044179e-001	7.079487e-001	-7.036712e-001	-4.305517e-002	-3.233263e-002
44033771.107	-3.740595e-002	-3.927503e-002	7.073852e-001	-7.051726e-001	7.076308e-001	-7.042418e-001	-4.320999e-002	-3.229951e-002
44065040.650	-3.743807e-002	-3.908545e-002	7.069491e-001	-7.054574e-001	7.071955e-001	-7.047544e-001	-4.311727e-002	-3.225453e-002
44096310.194	-3.760229e-002	-3.918216e-002	7.065543e-001	-7.056415e-001	7.067006e-001	-7.049836e-001	-4.323531e-002	-3.232375e-002
44127579.737	-3.756878e-002	-3.921286e-002	7.062094e-001	-7.061853e-001	7.063665e-001	-7.053023e-001	-4.329301e-002	-3.231145e-002
44158849.281	-3.761287e-002	-3.922473e-002	7.056632e-001	-7.062276e-001	7.060691e-001	-7.059168e-001	-4.333399e-002	-3.237562e-002
44190118.824	-3.769219e-002	-3.919922e-002	7.051963e-001	-7.068519e-001	7.056114e-001	-7.063058e-001	-4.338512e-002	-3.233462e-002
44221388.368	-3.772976e-002	-3.924734e-002	7.051662e-001	-7.075045e-001	7.050079e-001	-7.066667e-001	-4.358360e-002	-3.228829e-002
44252657.911	-3.780885e-002	-3.923021e-002	7.044273e-001	-7.076792e-001	7.046445e-001	-7.071262e-001	-4.346635e-002	-3.232276e-002
44283927.455	-3.785711e-002	-3.925759e-002	7.041058e-001	-7.080929e-001	7.044749e-001	-7.073346e-001	-4.370046e-002	-3.235691e-002
44315196.998	-3.789476e-002	-3.926913e-002	7.037088e-001	-7.084609e-001	7.039588e-001	-7.078811e-001	-4.362494e-002	-3.235550e-002
44346466.542	-3.793377e-002	-3.921654e-002	7.032517e-001	-7.089186e-001	7.034089e-001	-7.083214e-001	-4.372114e-002	-3.229979e-002
44377736.085	-3.800191e-002	-3.923490e-002	7.028726e-001	-7.090162e-001	7.029968e-001	-7.086526e-001	-4.384109e-002	-3.226275e-002
44409005.629	-3.800309e-002	-3.918617e-002	7.024042e-001	-7.097918e-001	7.026180e-001	-7.088005e-001	-4.381425e-002	-3.234226e-002
44440275.172	-3.803153e-002	-3.937210e-002	7.020083e-001	-7.100145e-001	7.024395e-001	-7.093234e-001	-4.388421e-002	-3.225369e-002
44471544.715	-3.813462e-002	-3.933870e-002	7.017409e-001	-7.103624e-001	7.019560e-001	-7.096806e-001	-4.388819e-002	-3.225454e-002
44502814.259	-3.809407e-002	-3.935368e-002	7.012236e-001	-7.104658e-001	7.014137e-001	-7.100788e-001	-4.393976e-002	-3.227517e-002
44534083.802	-3.822238e-002	-3.925911e-002	7.008392e-001	-7.113947e-001	7.010641e-001	-7.105137e-001	-4.398972e-002	-3.230248e-002
44565353.346	-3.828109e-002	-3.924144e-002	7.004163e-001	-7.115853e-001	7.007391e-001	-7.108367e-001	-4.412573e-002	-3.214268e-002
44596622.889	-3.833003e-002	-3.929939e-002	7.001395e-001	-7.118984e-001	7.005185e-001	-7.112247e-001	-4.406619e-002	-3.230515e-002
44627892.433	-3.832991e-002	-3.932182e-002	6.999443e-001	-7.123221e-001	6.999636e-001	-7.116333e-001	-4.419347e-002	-3.229480e-002
44659161.976	-3.836579e-002	-3.928706e-002	6.991223e-001	-7.126328e-001	6.995633e-001	-7.120075e-001	-4.422032e-002	-3.220119e-002
44690431.520	-3.836809e-002	-3.936255e-002	6.989287e-001	-7.130278e-001	6.990422e-001	-7.123902e-001	-4.428403e-002	-3.223070e-002
