!Agilent Technologies,E5061B,MY49102235,A.02.00
!Date: Mon Jul 03 11:00:23 2023
!Data & Calibration Information:
!Freq	S11:SOLT2(ON)	S21:SOLT2(ON)	S12:SOLT2(ON)	S22:SOLT2(ON)
# Hz S RI R 50
40000000.000	8.870020e-002	-1.002948e-002	6.352126e-001	-6.800905e-001	6.353735e-001	-6.792075e-001	8.565541e-002	-1.453802e-002
40031269.543	8.871550e-002	-1.015772e-002	6.348568e-001	-6.804323e-001	6.349996e-001	-6.794488e-001	8.570407e-002	-1.458704e-002
40062539.087	8.872212e-002	-1.022317e-002	6.341914e-001	-6.805156e-001	6.345072e-001	-6.797683e-001	8.573624e-002	-1.474084e-002
40093808.630	8.875174e-002	-1.028015e-002	6.338487e-001	-6.810226e-001	6.340460e-001	-6.803013e-001	8.573617e-002	-1.478422e-002
40125078.174	8.875173e-002	-1.033904e-002	6.333947e-001	-6.813121e-001	6.334971e-001	-6.805526e-001	8.583377e-002	-1.478029e-002
40156347.717	8.883900e-002	-1.047423e-002	6.330670e-001	-6.818154e-001	6.330946e-001	-6.810620e-001	8.576284e-002	-1.495324e-002
40187617.261	8.883153e-002	-1.058764e-002	6.326466e-001	-6.819760e-001	6.328374e-001	-6.814226e-001	8.578316e-002	-1.512628e-002
40218886.804	8.889532e-002	-1.060681e-002	6.321590e-001	-6.824850e-001	6.322619e-001	-6.815689e-001	8.585585e-002	-1.517468e-002
40250156.348	8.891162e-002	-1.067758e-002	6.317922e-001	-6.826897e-001	6.318747e-001	-6.820351e-001	8.576773e-002	-1.527752e-002
40281425.891	8.891084e-002	-1.079579e-002	6.313078e-001	-6.831273e-001	6.314129e-001	-6.823391e-001	8.583009e-002	-1.530008e-002
40312695.435	8.897874e-002	-1.086942e-002	6.307858e-001	-6.836424e-001	6.309945e-001	-6.826505e-001	8.589693e-002	-1.542118e-002
40343964.978	8.901642e-002	-1.089684e-002	6.304311e-001	-6.836849e-001	6.305406e-001	-6.829923e-001	8.588789e-002	-1.543603e-002
40375234.522	8.906712e-002	-1.099056e-002	6.298573e-001	-6.841443e-001	6.301945e-001	-6.832856e-001	8.587141e-002	-1.555204e-002
40406504.065	8.902018e-002	-1.101181e-002	6.293858e-001	-6.843231e-001	6.296518e-001	-6.838115e-001	8.593976e-002	-1.571782e-002
40437773.609	8.900488e-002	-1.119450e-002	6.292596e-001	-6.847580e-001	6.293321e-001	-6.839971e-001	8.592262e-002	-1.583002e-002
40469043.152	8.911475e-002	-1.126901e-002	6.286827e-001	-6.851100e-001	6.289120e-001	-6.843447e-001	8.593924e-002	-1.581554e-002
40500312.695	8.907207e-002	-1.142119e-002	6.280835e-001	-6.855386e-001	6.284505e-001	-6.847165e-001	8.593380e-002	-1.588146e-002
40531582.239	8.915468e-002	-1.141483e-002	6.277059e-001	-6.855757e-001	6.278519e-001	-6.853101e-001	8.593879e-002	-1.594951e-002
40562851.782	8.917000e-002	-1.145316e-002	6.271949e-001	-6.860847e-001	6.274331e-001	-6.853997e-001	8.603050e-002	-1.619304e-002
40594121.326	8.921333e-002	-1.159142e-002	6.269756e-001	-6.865597e-001	6.270794e-001	-6.856965e-001	8.604719e-002	-1.614882e-002
40625390.869	8.924036e-002	-1.161536e-002	6.265328e-001	-6.868350e-001	6.268019e-001	-6.862360e-001	8.599403e-002	-1.631409e-002
40656660.413	8.924991e-002	-1.172660e-002	6.260217e-001	-6.871938e-001	6.263585e-001	-6.863862e-001	8.604821e-002	-1.633201e-002
40687929.956	8.932006e-002	-1.177551e-002	6.258095e-001	-6.877168e-001	6.259450e-001	-6.867311e-001	8.604960e-002	-1.645607e-002
40719199.500	8.931604e-002	-1.180874e-002	6.250715e-001	-6.877673e-001	6.253172e-001	-6.873056e-001	8.614410e-002	-1.655861e-002
40750469.043	8.931928e-002	-1.194045e-002	6.246109e-001	-6.880116e-001	6.248717e-001	-6.875508e-001	8.601188e-002	-1.659652e-002
40781738.587	8.940610e-002	-1.212289e-002	6.243036e-001	-6.886264e-001	6.244647e-001	-6.879278e-001	8.601551e-002	-1.667766e-002
40813008.130	8.937419e-002	-1.214508e-002	6.240115e-001	-6.888486e-001	6.238986e-001	-6.882450e-001	8.608174e-002	-1.676580e-002
40844277.674	8.943247e-002	-1.215606e-002	6.233634e-001	-6.891934e-001	6.235297e-001	-6.885515e-001	8.605075e-002	-1.683153e-002
40875547.217	8.945459e-002	-1.229059e-002	6.228782e-001	-6.896697e-001	6.232554e-001	-6.887810e-001	8.611289e-002	-1.694379e-002
40906816.760	8.948369e-002	-1.231990e-002	6.226342e-001	-6.899561e-001	6.227197e-001	-6.891251e-001	8.621624e-002	-1.707745e-002
40938086.304	8.943011e-002	-1.246151e-002	6.219639e-001	-6.903250e-001	6.223931e-001	-6.896152e-001	8.610649e-002	-1.712732e-002
40969355.847	8.947675e-002	-1.247629e-002	6.214798e-001	-6.905355e-001	6.218396e-001	-6.899267e-001	8.613055e-002	-1.717642e-002
41000625.391	8.950442e-002	-1.254394e-002	6.209798e-001	-6.907966e-001	6.212752e-001	-6.901488e-001	8.617985e-002	-1.727730e-002
41031894.934	8.971642e-002	-1.259942e-002	6.208759e-001	-6.911552e-001	6.208992e-001	-6.906691e-001	8.615815e-002	-1.734031e-002
41063164.478	8.959207e-002	-1.270796e-002	6.203592e-001	-6.916161e-001	6.205878e-001	-6.909641e-001	8.621522e-002	-1.747929e-002
41094434.021	8.959312e-002	-1.283759e-002	6.198985e-001	-6.918747e-001	6.200474e-001	-6.911802e-001	8.619673e-002	-1.755238e-002
41125703.565	8.966209e-002	-1.291845e-002	6.195048e-001	-6.922801e-001	6.197369e-001	-6.914922e-001	8.619385e-002	-1.759552e-002
41156973.108	8.973011e-002	-1.301981e-002	6.190887e-001	-6.924312e-001	6.190458e-001	-6.919193e-001	8.620597e-002	-1.771910e-002
41188242.652	8.971465e-002	-1.299710e-002	6.185503e-001	-6.931126e-001	6.187529e-001	-6.922553e-001	8.631862e-002	-1.785330e-002
41219512.195	8.977330e-002	-1.320757e-002	6.180915e-001	-6.933583e-001	6.182437e-001	-6.925543e-001	8.625456e-002	-1.795324e-002
41250781.739	8.972006e-002	-1.322670e-002	6.174440e-001	-6.938107e-001	6.178112e-001	-6.929581e-001	8.630924e-002	-1.796964e-002
41282051.282	8.977432e-002	-1.336566e-002	6.172055e-001	-6.939958e-001	6.173682e-001	-6.932979e-001	8.623542e-002	-1.810115e-002
41313320.826	8.978584e-002	-1.333507e-002	6.166572e-001	-6.942245e-001	6.169394e-001	-6.935528e-001	8.630437e-002	-1.820025e-002
41344590.369	8.976509e-002	-1.351779e-002	6.161918e-001	-6.944322e-001	6.165458e-001	-6.940252e-001	8.637518e-002	-1.820797e-002
41375859.912	8.973797e-002	-1.351270e-002	6.158799e-001	-6.949620e-001	6.158306e-001	-6.942274e-001	8.637576e-002	-1.834015e-002
41407129.456	8.983264e-002	-1.362613e-002	6.155312e-001	-6.951500e-001	6.155565e-001	-6.944590e-001	8.629056e-002	-1.834489e-002
41438398.999	8.987839e-002	-1.378401e-002	6.151260e-001	-6.957454e-001	6.152504e-001	-6.949197e-001	8.631450e-002	-1.845619e-002
41469668.543	8.987054e-002	-1.367735e-002	6.144827e-001	-6.960479e-001	6.146915e-001	-6.953716e-001	8.636695e-002	-1.858147e-002
41500938.086	8.992489e-002	-1.388807e-002	6.141630e-001	-6.962552e-001	6.143890e-001	-6.955818e-001	8.635191e-002	-1.872450e-002
41532207.630	8.996361e-002	-1.396599e-002	6.136682e-001	-6.966109e-001	6.139015e-001	-6.959305e-001	8.639003e-002	-1.877778e-002
41563477.173	9.000619e-002	-1.408737e-002	6.131793e-001	-6.970442e-001	6.134232e-001	-6.961931e-001	8.645074e-002	-1.889099e-002
41594746.717	9.007794e-002	-1.415115e-002	6.127106e-001	-6.972996e-001	6.129750e-001	-6.966230e-001	8.641907e-002	-1.889210e-002
41626016.260	8.991741e-002	-1.424530e-002	6.123293e-001	-6.976804e-001	6.125334e-001	-6.969232e-001	8.641013e-002	-1.899690e-002
41657285.804	9.007035e-002	-1.434806e-002	6.119146e-001	-6.980292e-001	6.120804e-001	-6.971993e-001	8.647808e-002	-1.910078e-002
41688555.347	9.012123e-002	-1.437206e-002	6.114267e-001	-6.982955e-001	6.116161e-001	-6.976489e-001	8.646703e-002	-1.918561e-002
41719824.891	9.016028e-002	-1.439178e-002	6.110065e-001	-6.986953e-001	6.112020e-001	-6.978786e-001	8.647359e-002	-1.922540e-002
41751094.434	9.009272e-002	-1.439225e-002	6.105754e-001	-6.989084e-001	6.106754e-001	-6.984176e-001	8.650620e-002	-1.942356e-002
41782363.977	9.021598e-002	-1.462285e-002	6.102165e-001	-6.993484e-001	6.103803e-001	-6.985594e-001	8.637491e-002	-1.943447e-002
41813633.521	9.015662e-002	-1.469490e-002	6.095867e-001	-6.995324e-001	6.099668e-001	-6.988943e-001	8.656318e-002	-1.949568e-002
41844903.064	9.017892e-002	-1.474555e-002	6.093697e-001	-6.998616e-001	6.093683e-001	-6.993347e-001	8.648835e-002	-1.960014e-002
41876172.608	9.022409e-002	-1.486762e-002	6.085931e-001	-7.002661e-001	6.091208e-001	-6.996601e-001	8.643989e-002	-1.963775e-002
41907442.151	9.020623e-002	-1.487090e-002	6.083222e-001	-7.005570e-001	6.086169e-001	-7.000392e-001	8.646723e-002	-1.976000e-002
41938711.695	9.034687e-002	-1.500041e-002	6.078038e-001	-7.009224e-001	6.081915e-001	-7.002027e-001	8.659976e-002	-1.989864e-002
41969981.238	9.029993e-002	-1.515999e-002	6.074522e-001	-7.012587e-001	6.075792e-001	-7.007369e-001	8.661347e-002	-1.994499e-002
42001250.782	9.035618e-002	-1.512623e-002	6.069857e-001	-7.016379e-001	6.072300e-001	-7.007684e-001	8.659742e-002	-2.002789e-002
42032520.325	9.039253e-002	-1.518900e-002	6.065091e-001	-7.019619e-001	6.069434e-001	-7.011419e-001	8.654531e-002	-2.010285e-002
42063789.869	9.035627e-002	-1.531185e-002	6.061517e-001	-7.022555e-001	6.062382e-001	-7.016722e-001	8.652291e-002	-2.020470e-002
42095059.412	9.040956e-002	-1.541158e-002	6.056657e-001	-7.025846e-001	6.059634e-001	-7.019941e-001	8.659204e-002	-2.022073e-002
42126328.956	9.037847e-002	-1.548080e-002	6.052172e-001	-7.027998e-001	6.053818e-001	-7.022204e-001	8.655700e-002	-2.037684e-002
42157598.499	9.049296e-002	-1.561434e-002	6.047568e-001	-7.032190e-001	6.049029e-001	-7.026829e-001	8.662182e-002	-2.044541e-002
42188868.043	9.048670e-002	-1.569375e-002	6.044532e-001	-7.034563e-001	6.045615e-001	-7.029420e-001	8.660383e-002	-2.050127e-002
42220137.586	9.057710e-002	-1.573902e-002	6.038369e-001	-7.039641e-001	6.041051e-001	-7.031356e-001	8.661023e-002	-2.063468e-002
42251407.129	9.052197e-002	-1.585293e-002	6.035168e-001	-7.043377e-001	6.035800e-001	-7.036256e-001	8.659172e-002	-2.064503e-002
42282676.673	9.058360e-002	-1.593014e-002	6.029586e-001	-7.045516e-001	6.030976e-001	-7.038776e-001	8.665675e-002	-2.078043e-002
42313946.216	9.057804e-002	-1.595126e-002	6.025817e-001	-7.049801e-001	6.027770e-001	-7.043147e-001	8.665807e-002	-2.087237e-002
42345215.760	9.050924e-002	-1.610397e-002	6.020368e-001	-7.052335e-001	6.022456e-001	-7.046489e-001	8.658017e-002	-2.090850e-002
42376485.303	9.057066e-002	-1.619038e-002	6.015643e-001	-7.055873e-001	6.017844e-001	-7.048448e-001	8.668020e-002	-2.097814e-002
42407754.847	9.063812e-002	-1.622743e-002	6.011068e-001	-7.058412e-001	6.013409e-001	-7.052220e-001	8.669641e-002	-2.108862e-002
42439024.390	9.061273e-002	-1.636895e-002	6.007209e-001	-7.062163e-001	6.009230e-001	-7.054033e-001	8.665388e-002	-2.123939e-002
42470293.934	9.069530e-002	-1.647170e-002	6.002908e-001	-7.065672e-001	6.005684e-001	-7.058616e-001	8.670068e-002	-2.130027e-002
42501563.477	9.067686e-002	-1.643339e-002	5.999117e-001	-7.067936e-001	6.001228e-001	-7.063197e-001	8.675738e-002	-2.139316e-002
42532833.021	9.077412e-002	-1.656593e-002	5.994502e-001	-7.071342e-001	5.997351e-001	-7.066869e-001	8.665377e-002	-2.148265e-002
42564102.564	9.074304e-002	-1.664292e-002	5.989212e-001	-7.076135e-001	5.991468e-001	-7.069116e-001	8.670347e-002	-2.159683e-002
42595372.108	9.080750e-002	-1.671158e-002	5.983900e-001	-7.079469e-001	5.987310e-001	-7.073356e-001	8.664890e-002	-2.164647e-002
42626641.651	9.077477e-002	-1.693186e-002	5.980943e-001	-7.080913e-001	5.983073e-001	-7.074574e-001	8.667038e-002	-2.171189e-002
42657911.194	9.080727e-002	-1.691019e-002	5.975804e-001	-7.085210e-001	5.978470e-001	-7.078829e-001	8.672808e-002	-2.180593e-002
42689180.738	9.078695e-002	-1.694279e-002	5.972166e-001	-7.088044e-001	5.973675e-001	-7.082079e-001	8.667213e-002	-2.190379e-002
42720450.281	9.079061e-002	-1.710530e-002	5.965673e-001	-7.089396e-001	5.968438e-001	-7.084448e-001	8.676925e-002	-2.197862e-002
42751719.825	9.083934e-002	-1.725762e-002	5.962335e-001	-7.094292e-001	5.966808e-001	-7.087286e-001	8.680617e-002	-2.210774e-002
42782989.368	9.078656e-002	-1.724110e-002	5.957813e-001	-7.099448e-001	5.960490e-001	-7.091986e-001	8.674708e-002	-2.211805e-002
42814258.912	9.092594e-002	-1.733370e-002	5.955012e-001	-7.101213e-001	5.956264e-001	-7.094985e-001	8.676413e-002	-2.236857e-002
42845528.455	9.090100e-002	-1.737221e-002	5.948674e-001	-7.105544e-001	5.951771e-001	-7.098202e-001	8.680911e-002	-2.231507e-002
42876797.999	9.098009e-002	-1.751749e-002	5.945443e-001	-7.106727e-001	5.946549e-001	-7.101891e-001	8.676845e-002	-2.247885e-002
42908067.542	9.091068e-002	-1.757084e-002	5.940323e-001	-7.109203e-001	5.943938e-001	-7.103461e-001	8.675766e-002	-2.261057e-002
42939337.086	9.102994e-002	-1.764682e-002	5.935509e-001	-7.112966e-001	5.936449e-001	-7.107304e-001	8.682455e-002	-2.266825e-002
42970606.629	9.097435e-002	-1.778952e-002	5.930729e-001	-7.116984e-001	5.932551e-001	-7.110812e-001	8.674650e-002	-2.281799e-002
43001876.173	9.099566e-002	-1.785813e-002	5.926411e-001	-7.120989e-001	5.929033e-001	-7.114654e-001	8.679788e-002	-2.273630e-002
43033145.716	9.113112e-002	-1.788783e-002	5.920743e-001	-7.123555e-001	5.923809e-001	-7.117898e-001	8.678083e-002	-2.284439e-002
43064415.260	9.112794e-002	-1.803912e-002	5.916714e-001	-7.126007e-001	5.920736e-001	-7.120705e-001	8.679183e-002	-2.300728e-002
43095684.803	9.107527e-002	-1.807333e-002	5.912081e-001	-7.130379e-001	5.915151e-001	-7.123658e-001	8.677910e-002	-2.307134e-002
43126954.346	9.119347e-002	-1.814556e-002	5.908526e-001	-7.133197e-001	5.910501e-001	-7.127309e-001	8.678116e-002	-2.308030e-002
43158223.890	9.116028e-002	-1.826434e-002	5.904261e-001	-7.134877e-001	5.905483e-001	-7.129855e-001	8.678269e-002	-2.316994e-002
43189493.433	9.116265e-002	-1.840392e-002	5.900548e-001	-7.140876e-001	5.899548e-001	-7.134518e-001	8.680791e-002	-2.323493e-002
43220762.977	9.120070e-002	-1.839895e-002	5.895318e-001	-7.143179e-001	5.897411e-001	-7.135913e-001	8.680399e-002	-2.342623e-002
43252032.520	9.117182e-002	-1.857098e-002	5.890125e-001	-7.146204e-001	5.891803e-001	-7.140726e-001	8.687224e-002	-2.352553e-002
43283302.064	9.119336e-002	-1.853501e-002	5.885551e-001	-7.148749e-001	5.887177e-001	-7.142208e-001	8.689822e-002	-2.355665e-002
43314571.607	9.117724e-002	-1.872628e-002	5.881943e-001	-7.152707e-001	5.885198e-001	-7.146477e-001	8.685471e-002	-2.354337e-002
43345841.151	9.126728e-002	-1.877018e-002	5.876310e-001	-7.155301e-001	5.879426e-001	-7.149257e-001	8.686167e-002	-2.366892e-002
43377110.694	9.121802e-002	-1.887303e-002	5.872402e-001	-7.158549e-001	5.873594e-001	-7.153052e-001	8.682772e-002	-2.380577e-002
43408380.238	9.132215e-002	-1.901561e-002	5.868354e-001	-7.163369e-001	5.869433e-001	-7.154791e-001	8.690597e-002	-2.391086e-002
43439649.781	9.132594e-002	-1.907942e-002	5.862644e-001	-7.165145e-001	5.864049e-001	-7.159100e-001	8.694721e-002	-2.400489e-002
43470919.325	9.129310e-002	-1.913178e-002	5.857347e-001	-7.169319e-001	5.861837e-001	-7.163260e-001	8.695076e-002	-2.400244e-002
43502188.868	9.131231e-002	-1.927219e-002	5.854038e-001	-7.172522e-001	5.855011e-001	-7.165375e-001	8.693170e-002	-2.411471e-002
43533458.412	9.142092e-002	-1.926366e-002	5.849537e-001	-7.174014e-001	5.851111e-001	-7.167992e-001	8.697143e-002	-2.428135e-002
43564727.955	9.133482e-002	-1.935444e-002	5.845527e-001	-7.176897e-001	5.846685e-001	-7.173696e-001	8.691997e-002	-2.437437e-002
43595997.498	9.139008e-002	-1.952771e-002	5.840305e-001	-7.179948e-001	5.841222e-001	-7.174287e-001	8.691482e-002	-2.441710e-002
43627267.042	9.140380e-002	-1.961239e-002	5.837025e-001	-7.183803e-001	5.837528e-001	-7.179042e-001	8.692267e-002	-2.444597e-002
43658536.585	9.145361e-002	-1.972423e-002	5.831170e-001	-7.186526e-001	5.832860e-001	-7.181460e-001	8.691818e-002	-2.457079e-002
43689806.129	9.152622e-002	-1.982369e-002	5.826099e-001	-7.189935e-001	5.828789e-001	-7.184043e-001	8.696865e-002	-2.470924e-002
43721075.672	9.142502e-002	-1.970750e-002	5.821282e-001	-7.192497e-001	5.823969e-001	-7.187846e-001	8.696682e-002	-2.479700e-002
43752345.216	9.153285e-002	-1.997417e-002	5.819209e-001	-7.197083e-001	5.818662e-001	-7.191549e-001	8.700531e-002	-2.484062e-002
43783614.759	9.154508e-002	-2.004913e-002	5.812679e-001	-7.199326e-001	5.815905e-001	-7.194153e-001	8.696802e-002	-2.498021e-002
43814884.303	9.147230e-002	-2.007442e-002	5.809095e-001	-7.202489e-001	5.810595e-001	-7.196714e-001	8.695493e-002	-2.499619e-002
43846153.846	9.157866e-002	-2.021968e-002	5.805299e-001	-7.205653e-001	5.807220e-001	-7.200667e-001	8.693828e-002	-2.511603e-002
43877423.390	9.156876e-002	-2.029871e-002	5.798486e-001	-7.210051e-001	5.801495e-001	-7.203140e-001	8.701576e-002	-2.520978e-002
43908692.933	9.154813e-002	-2.027356e-002	5.793589e-001	-7.213350e-001	5.798159e-001	-7.205725e-001	8.697428e-002	-2.522683e-002
43939962.477	9.157127e-002	-2.037644e-002	5.791011e-001	-7.216464e-001	5.792861e-001	-7.210072e-001	8.699012e-002	-2.536433e-002
43971232.020	9.162279e-002	-2.054361e-002	5.784913e-001	-7.218458e-001	5.787888e-001	-7.213198e-001	8.701867e-002	-2.546828e-002
44002501.563	9.162514e-002	-2.065091e-002	5.780493e-001	-7.220609e-001	5.784000e-001	-7.214627e-001	8.704080e-002	-2.547309e-002
44033771.107	9.167661e-002	-2.073191e-002	5.776470e-001	-7.225545e-001	5.779508e-001	-7.218010e-001	8.701548e-002	-2.561758e-002
44065040.650	9.171211e-002	-2.072611e-002	5.772374e-001	-7.228368e-001	5.774944e-001	-7.221824e-001	8.710413e-002	-2.565684e-002
44096310.194	9.164244e-002	-2.085314e-002	5.768534e-001	-7.231079e-001	5.769569e-001	-7.224569e-001	8.703812e-002	-2.581527e-002
44127579.737	9.168648e-002	-2.097974e-002	5.763318e-001	-7.234440e-001	5.765836e-001	-7.227138e-001	8.704732e-002	-2.591468e-002
44158849.281	9.173190e-002	-2.103742e-002	5.758842e-001	-7.236570e-001	5.761801e-001	-7.231475e-001	8.705488e-002	-2.600188e-002
44190118.824	9.170566e-002	-2.113447e-002	5.753639e-001	-7.239723e-001	5.757263e-001	-7.235283e-001	8.702672e-002	-2.607001e-002
44221388.368	9.169315e-002	-2.119642e-002	5.750388e-001	-7.244238e-001	5.751021e-001	-7.237422e-001	8.697263e-002	-2.612402e-002
44252657.911	9.174569e-002	-2.127561e-002	5.744991e-001	-7.246604e-001	5.746699e-001	-7.241250e-001	8.711496e-002	-2.626538e-002
44283927.455	9.175626e-002	-2.139138e-002	5.740053e-001	-7.248996e-001	5.743055e-001	-7.243589e-001	8.694374e-002	-2.639478e-002
44315196.998	9.176043e-002	-2.144896e-002	5.736565e-001	-7.253546e-001	5.738342e-001	-7.246558e-001	8.707104e-002	-2.647021e-002
44346466.542	9.179728e-002	-2.155196e-002	5.730556e-001	-7.256250e-001	5.733521e-001	-7.250308e-001	8.700758e-002	-2.650526e-002
44377736.085	9.182345e-002	-2.161089e-002	5.726487e-001	-7.257375e-001	5.727463e-001	-7.252316e-001	8.696198e-002	-2.654622e-002
44409005.629	9.187320e-002	-2.166330e-002	5.720989e-001	-7.262449e-001	5.723533e-001	-7.254909e-001	8.706457e-002	-2.669079e-002
44440275.172	9.186456e-002	-2.188286e-002	5.716737e-001	-7.264217e-001	5.720152e-001	-7.259079e-001	8.702099e-002	-2.675351e-002
44471544.715	9.186588e-002	-2.194441e-002	5.711876e-001	-7.267916e-001	5.715808e-001	-7.262022e-001	8.710304e-002	-2.683605e-002
44502814.259	9.195917e-002	-2.206284e-002	5.708142e-001	-7.269224e-001	5.709061e-001	-7.264898e-001	8.713327e-002	-2.694597e-002
44534083.802	9.188568e-002	-2.205879e-002	5.702221e-001	-7.274807e-001	5.705418e-001	-7.267683e-001	8.707437e-002	-2.709836e-002
44565353.346	9.189867e-002	-2.213306e-002	5.698467e-001	-7.277681e-001	5.702013e-001	-7.270990e-001	8.704458e-002	-2.701705e-002
44596622.889	9.188754e-002	-2.226462e-002	5.694343e-001	-7.279850e-001	5.697130e-001	-7.273737e-001	8.707374e-002	-2.718116e-002
44627892.433	9.198699e-002	-2.235364e-002	5.689724e-001	-7.282716e-001	5.692072e-001	-7.277346e-001	8.700377e-002	-2.733711e-002
44659161.976	9.196281e-002	-2.238684e-002	5.683296e-001	-7.286093e-001	5.688177e-001	-7.279781e-001	8.706521e-002	-2.735735e-002
44690431.520	9.199687e-002	-2.259532e-002	5.680431e-001	-7.289133e-001	5.682496e-001	-7.282580e-001	8.708077e-002	-2.744548e-002
44721701.063	9.201729e-002	-2.260095e-002	5.677028e-001	-7.292208e-001	5.678144e-001	-7.287822e-001	8.710255e-002	-2.747558e-002
44752970.607	9.194057e-002	-2.278692e-002	5.670929e-001	-7.295294e-001	5.672732e-001	-7.290929e-001	8.712643e-002	-2.767326e-002
