!Agilent Technologies,E5061B,MY49102235,A.02.00
!Date: Mon Jul 03 10:58:44 2023
!Data & Calibration Information:
!Freq	S11:SOLT2(ON)	S21:SOLT2(ON)	S12:SOLT2(ON)	S22:SOLT2(ON)
# Hz S RI R 50
40000000.000	-2.832869e-002	-3.384474e-002	7.525383e-001	-6.574087e-001	7.526108e-001	-6.564560e-001	-3.283559e-002	-2.837289e-002
40031269.543	-2.836845e-002	-3.391512e-002	7.522506e-001	-6.577959e-001	7.523153e-001	-6.567490e-001	-3.285604e-002	-2.835495e-002
40062539.087	-2.842702e-002	-3.391746e-002	7.515953e-001	-6.579884e-001	7.518664e-001	-6.571917e-001	-3.286001e-002	-2.838980e-002
40093808.630	-2.847552e-002	-3.390044e-002	7.512945e-001	-6.585518e-001	7.515108e-001	-6.577937e-001	-3.293819e-002	-2.834500e-002
40125078.174	-2.855175e-002	-3.388018e-002	7.509509e-001	-6.589069e-001	7.510417e-001	-6.581223e-001	-3.292542e-002	-2.828139e-002
40156347.717	-2.852153e-002	-3.391811e-002	7.507249e-001	-6.594585e-001	7.506842e-001	-6.587025e-001	-3.303715e-002	-2.835041e-002
40187617.261	-2.859398e-002	-3.399745e-002	7.503367e-001	-6.597530e-001	7.504635e-001	-6.591027e-001	-3.306603e-002	-2.847269e-002
40218886.804	-2.859469e-002	-3.393089e-002	7.499221e-001	-6.603257e-001	7.499563e-001	-6.593489e-001	-3.306909e-002	-2.841255e-002
40250156.348	-2.865203e-002	-3.393864e-002	7.496258e-001	-6.606103e-001	7.496792e-001	-6.598793e-001	-3.319410e-002	-2.844820e-002
40281425.891	-2.871620e-002	-3.397122e-002	7.491963e-001	-6.610859e-001	7.492521e-001	-6.602681e-001	-3.320323e-002	-2.839017e-002
40312695.435	-2.872230e-002	-3.396465e-002	7.487826e-001	-6.616965e-001	7.489087e-001	-6.606357e-001	-3.319164e-002	-2.840634e-002
40343964.978	-2.874980e-002	-3.391251e-002	7.484557e-001	-6.617942e-001	7.485166e-001	-6.610740e-001	-3.329720e-002	-2.834777e-002
40375234.522	-2.876614e-002	-3.391108e-002	7.479471e-001	-6.623457e-001	7.482040e-001	-6.614388e-001	-3.334871e-002	-2.837216e-002
40406504.065	-2.887524e-002	-3.389388e-002	7.475195e-001	-6.625875e-001	7.477585e-001	-6.620266e-001	-3.332177e-002	-2.845967e-002
40437773.609	-2.898199e-002	-3.401705e-002	7.474646e-001	-6.630743e-001	7.474849e-001	-6.622969e-001	-3.337175e-002	-2.845520e-002
40469043.152	-2.889404e-002	-3.400735e-002	7.469663e-001	-6.635315e-001	7.471248e-001	-6.627299e-001	-3.346958e-002	-2.836816e-002
40500312.695	-2.899421e-002	-3.409046e-002	7.463909e-001	-6.640283e-001	7.467536e-001	-6.631842e-001	-3.352092e-002	-2.835835e-002
40531582.239	-2.899649e-002	-3.399764e-002	7.460917e-001	-6.641223e-001	7.462105e-001	-6.638429e-001	-3.358102e-002	-2.834603e-002
40562851.782	-2.906398e-002	-3.396833e-002	7.456518e-001	-6.647249e-001	7.458155e-001	-6.640204e-001	-3.352097e-002	-2.849563e-002
40594121.326	-2.907594e-002	-3.402082e-002	7.455327e-001	-6.652900e-001	7.455531e-001	-6.643683e-001	-3.359959e-002	-2.836080e-002
40625390.869	-2.910680e-002	-3.397157e-002	7.451232e-001	-6.655939e-001	7.453786e-001	-6.649775e-001	-3.369224e-002	-2.845260e-002
40656660.413	-2.916214e-002	-3.401955e-002	7.447031e-001	-6.660173e-001	7.449864e-001	-6.651874e-001	-3.369004e-002	-2.839547e-002
40687929.956	-2.916948e-002	-3.401356e-002	7.445745e-001	-6.666523e-001	7.446243e-001	-6.656236e-001	-3.373983e-002	-2.841702e-002
40719199.500	-2.924336e-002	-3.394700e-002	7.438599e-001	-6.667905e-001	7.440696e-001	-6.662936e-001	-3.372402e-002	-2.842893e-002
40750469.043	-2.929416e-002	-3.400196e-002	7.434372e-001	-6.670992e-001	7.436934e-001	-6.665701e-001	-3.391013e-002	-2.839456e-002
40781738.587	-2.924265e-002	-3.411070e-002	7.431879e-001	-6.677744e-001	7.433423e-001	-6.670223e-001	-3.397991e-002	-2.839334e-002
40813008.130	-2.936483e-002	-3.406447e-002	7.430023e-001	-6.680748e-001	7.428618e-001	-6.674568e-001	-3.395992e-002	-2.839334e-002
40844277.674	-2.938000e-002	-3.401580e-002	7.424435e-001	-6.685009e-001	7.425074e-001	-6.678054e-001	-3.407850e-002	-2.839502e-002
40875547.217	-2.940407e-002	-3.407154e-002	7.420040e-001	-6.690801e-001	7.423134e-001	-6.681035e-001	-3.405717e-002	-2.840457e-002
40906816.760	-2.946031e-002	-3.401858e-002	7.418169e-001	-6.694122e-001	7.418103e-001	-6.685798e-001	-3.400082e-002	-2.843555e-002
40938086.304	-2.956097e-002	-3.409373e-002	7.411683e-001	-6.698659e-001	7.415977e-001	-6.691085e-001	-3.417461e-002	-2.840811e-002
40969355.847	-2.961123e-002	-3.404328e-002	7.407632e-001	-6.701270e-001	7.411026e-001	-6.694665e-001	-3.422166e-002	-2.837816e-002
41000625.391	-2.962132e-002	-3.403042e-002	7.403294e-001	-6.705129e-001	7.405803e-001	-6.697993e-001	-3.419677e-002	-2.836995e-002
41031894.934	-2.950174e-002	-3.397747e-002	7.403249e-001	-6.709177e-001	7.402930e-001	-6.704074e-001	-3.429707e-002	-2.838631e-002
41063164.478	-2.966724e-002	-3.404052e-002	7.398655e-001	-6.714265e-001	7.400220e-001	-6.707816e-001	-3.429772e-002	-2.842810e-002
41094434.021	-2.972512e-002	-3.410259e-002	7.394411e-001	-6.717750e-001	7.395355e-001	-6.710354e-001	-3.437524e-002	-2.840656e-002
41125703.565	-2.972116e-002	-3.409224e-002	7.391280e-001	-6.722622e-001	7.392973e-001	-6.714166e-001	-3.443905e-002	-2.838189e-002
41156973.108	-2.972180e-002	-3.413058e-002	7.387675e-001	-6.724841e-001	7.386818e-001	-6.719779e-001	-3.447578e-002	-2.839015e-002
41188242.652	-2.980216e-002	-3.402765e-002	7.383323e-001	-6.732594e-001	7.384458e-001	-6.723261e-001	-3.443507e-002	-2.844054e-002
41219512.195	-2.980094e-002	-3.415436e-002	7.379038e-001	-6.735658e-001	7.379705e-001	-6.727185e-001	-3.454370e-002	-2.846976e-002
41250781.739	-2.991170e-002	-3.412883e-002	7.373306e-001	-6.741318e-001	7.376229e-001	-6.732197e-001	-3.455431e-002	-2.838732e-002
41282051.282	-2.990069e-002	-3.417286e-002	7.371496e-001	-6.743856e-001	7.372155e-001	-6.736080e-001	-3.467669e-002	-2.843679e-002
41313320.826	-2.999439e-002	-3.408152e-002	7.366578e-001	-6.746843e-001	7.368913e-001	-6.739436e-001	-3.468254e-002	-2.844226e-002
41344590.369	-3.005307e-002	-3.418667e-002	7.362041e-001	-6.749143e-001	7.365956e-001	-6.745197e-001	-3.467784e-002	-2.835816e-002
41375859.912	-3.016473e-002	-3.412126e-002	7.360190e-001	-6.755499e-001	7.359073e-001	-6.748130e-001	-3.472187e-002	-2.841399e-002
41407129.456	-3.011662e-002	-3.413838e-002	7.357286e-001	-6.758055e-001	7.356983e-001	-6.750786e-001	-3.486794e-002	-2.833351e-002
41438398.999	-3.014737e-002	-3.422821e-002	7.353998e-001	-6.764844e-001	7.354670e-001	-6.756544e-001	-3.489892e-002	-2.836365e-002
41469668.543	-3.023764e-002	-3.404963e-002	7.348340e-001	-6.768664e-001	7.349551e-001	-6.761829e-001	-3.490364e-002	-2.839168e-002
41500938.086	-3.024563e-002	-3.417226e-002	7.345250e-001	-6.771571e-001	7.347010e-001	-6.764386e-001	-3.494757e-002	-2.846201e-002
41532207.630	-3.025488e-002	-3.417567e-002	7.341275e-001	-6.776092e-001	7.342751e-001	-6.768699e-001	-3.498228e-002	-2.840770e-002
41563477.173	-3.027436e-002	-3.421837e-002	7.336693e-001	-6.780999e-001	7.338507e-001	-6.772203e-001	-3.496085e-002	-2.845429e-002
41594746.717	-3.026233e-002	-3.419635e-002	7.332639e-001	-6.784453e-001	7.334857e-001	-6.777194e-001	-3.507215e-002	-2.835744e-002
41626016.260	-3.047835e-002	-3.424941e-002	7.329511e-001	-6.788714e-001	7.330743e-001	-6.781091e-001	-3.514142e-002	-2.837450e-002
41657285.804	-3.039714e-002	-3.423582e-002	7.326052e-001	-6.793207e-001	7.327301e-001	-6.784958e-001	-3.513052e-002	-2.838718e-002
41688555.347	-3.041524e-002	-3.420772e-002	7.321812e-001	-6.796504e-001	7.323359e-001	-6.790014e-001	-3.518410e-002	-2.837571e-002
41719824.891	-3.044727e-002	-3.414477e-002	7.318544e-001	-6.801493e-001	7.319562e-001	-6.792794e-001	-3.526788e-002	-2.833124e-002
41751094.434	-3.056731e-002	-3.408720e-002	7.314862e-001	-6.804075e-001	7.314735e-001	-6.799652e-001	-3.526316e-002	-2.844306e-002
41782363.977	-3.049886e-002	-3.423336e-002	7.311233e-001	-6.809175e-001	7.312670e-001	-6.801001e-001	-3.546627e-002	-2.838278e-002
41813633.521	-3.061888e-002	-3.423362e-002	7.305717e-001	-6.812059e-001	7.309048e-001	-6.805215e-001	-3.534832e-002	-2.832263e-002
41844903.064	-3.067218e-002	-3.419295e-002	7.303964e-001	-6.815605e-001	7.303652e-001	-6.810654e-001	-3.548396e-002	-2.836954e-002
41876172.608	-3.068161e-002	-3.423201e-002	7.297152e-001	-6.821238e-001	7.302057e-001	-6.814469e-001	-3.556386e-002	-2.832825e-002
41907442.151	-3.077664e-002	-3.417336e-002	7.294982e-001	-6.824443e-001	7.297652e-001	-6.819034e-001	-3.558884e-002	-2.835426e-002
41938711.695	-3.069559e-002	-3.422097e-002	7.290632e-001	-6.829268e-001	7.293633e-001	-6.821683e-001	-3.551003e-002	-2.839866e-002
41969981.238	-3.078101e-002	-3.431541e-002	7.287397e-001	-6.833026e-001	7.288346e-001	-6.827967e-001	-3.557449e-002	-2.832992e-002
42001250.782	-3.080144e-002	-3.420084e-002	7.283703e-001	-6.837729e-001	7.285363e-001	-6.828581e-001	-3.564613e-002	-2.834308e-002
42032520.325	-3.083418e-002	-3.417135e-002	7.279451e-001	-6.841740e-001	7.283059e-001	-6.832905e-001	-3.575337e-002	-2.832786e-002
42063789.869	-3.094244e-002	-3.423698e-002	7.276576e-001	-6.845450e-001	7.276789e-001	-6.839342e-001	-3.585112e-002	-2.833965e-002
42095059.412	-3.093983e-002	-3.425541e-002	7.272019e-001	-6.849810e-001	7.274951e-001	-6.843143e-001	-3.582984e-002	-2.828435e-002
42126328.956	-3.102622e-002	-3.425713e-002	7.268066e-001	-6.852542e-001	7.269232e-001	-6.846177e-001	-3.589966e-002	-2.833863e-002
42157598.499	-3.097962e-002	-3.429132e-002	7.264120e-001	-6.857578e-001	7.265594e-001	-6.852100e-001	-3.591009e-002	-2.830807e-002
42188868.043	-3.105103e-002	-3.429574e-002	7.261564e-001	-6.860409e-001	7.262771e-001	-6.855166e-001	-3.598108e-002	-2.829684e-002
42220137.586	-3.102990e-002	-3.426975e-002	7.256141e-001	-6.866529e-001	7.258467e-001	-6.857945e-001	-3.601802e-002	-2.832323e-002
42251407.129	-3.114322e-002	-3.432050e-002	7.253807e-001	-6.871200e-001	7.253899e-001	-6.863690e-001	-3.610187e-002	-2.826144e-002
42282676.673	-3.115278e-002	-3.431138e-002	7.248533e-001	-6.874061e-001	7.249600e-001	-6.866610e-001	-3.607880e-002	-2.828136e-002
42313946.216	-3.123184e-002	-3.426593e-002	7.245921e-001	-6.878892e-001	7.247125e-001	-6.871804e-001	-3.614293e-002	-2.828811e-002
42345215.760	-3.133516e-002	-3.436716e-002	7.240800e-001	-6.882357e-001	7.242485e-001	-6.876115e-001	-3.627253e-002	-2.825131e-002
42376485.303	-3.133522e-002	-3.434683e-002	7.236813e-001	-6.886573e-001	7.238009e-001	-6.879041e-001	-3.625516e-002	-2.822722e-002
42407754.847	-3.133178e-002	-3.428935e-002	7.232462e-001	-6.890123e-001	7.234599e-001	-6.883328e-001	-3.627647e-002	-2.823755e-002
42439024.390	-3.139781e-002	-3.436487e-002	7.229327e-001	-6.894414e-001	7.230841e-001	-6.886179e-001	-3.637854e-002	-2.831826e-002
42470293.934	-3.136974e-002	-3.437445e-002	7.225812e-001	-6.898761e-001	7.227773e-001	-6.891629e-001	-3.636511e-002	-2.830019e-002
42501563.477	-3.146703e-002	-3.427284e-002	7.222513e-001	-6.901470e-001	7.224255e-001	-6.896847e-001	-3.636066e-002	-2.828536e-002
42532833.021	-3.143830e-002	-3.431482e-002	7.218571e-001	-6.905968e-001	7.220973e-001	-6.901302e-001	-3.650635e-002	-2.829904e-002
42564102.564	-3.153818e-002	-3.432571e-002	7.213985e-001	-6.911527e-001	7.215740e-001	-6.904447e-001	-3.655179e-002	-2.830614e-002
42595372.108	-3.153572e-002	-3.431936e-002	7.208992e-001	-6.915931e-001	7.212226e-001	-6.909458e-001	-3.664378e-002	-2.828625e-002
42626641.651	-3.161159e-002	-3.445308e-002	7.206402e-001	-6.917987e-001	7.208156e-001	-6.911194e-001	-3.666304e-002	-2.826983e-002
42657911.194	-3.166379e-002	-3.435958e-002	7.202169e-001	-6.923360e-001	7.204261e-001	-6.916486e-001	-3.667986e-002	-2.824643e-002
42689180.738	-3.174347e-002	-3.432376e-002	7.198975e-001	-6.926665e-001	7.200293e-001	-6.920634e-001	-3.677651e-002	-2.828118e-002
42720450.281	-3.177569e-002	-3.441857e-002	7.192865e-001	-6.929064e-001	7.195422e-001	-6.923806e-001	-3.673332e-002	-2.825121e-002
42751719.825	-3.178409e-002	-3.449178e-002	7.190365e-001	-6.934542e-001	7.194387e-001	-6.926872e-001	-3.675155e-002	-2.827364e-002
42782989.368	-3.191529e-002	-3.439459e-002	7.186535e-001	-6.940714e-001	7.188759e-001	-6.932702e-001	-3.688486e-002	-2.820986e-002
42814258.912	-3.183919e-002	-3.439748e-002	7.184632e-001	-6.942908e-001	7.184996e-001	-6.936586e-001	-3.688782e-002	-2.836073e-002
42845528.455	-3.194858e-002	-3.435331e-002	7.178849e-001	-6.948115e-001	7.181296e-001	-6.940527e-001	-3.693234e-002	-2.822054e-002
42876797.999	-3.189849e-002	-3.441572e-002	7.175929e-001	-6.950275e-001	7.176930e-001	-6.945055e-001	-3.701267e-002	-2.830945e-002
42908067.542	-3.202479e-002	-3.443331e-002	7.171297e-001	-6.953020e-001	7.174333e-001	-6.947064e-001	-3.705458e-002	-2.832730e-002
42939337.086	-3.196841e-002	-3.436955e-002	7.167194e-001	-6.957877e-001	7.167553e-001	-6.952057e-001	-3.703898e-002	-2.833244e-002
42970606.629	-3.209171e-002	-3.446640e-002	7.163094e-001	-6.962591e-001	7.164227e-001	-6.956324e-001	-3.716998e-002	-2.837091e-002
43001876.173	-3.212081e-002	-3.445337e-002	7.159447e-001	-6.967663e-001	7.161459e-001	-6.960905e-001	-3.721930e-002	-2.818423e-002
43033145.716	-3.206401e-002	-3.439985e-002	7.153971e-001	-6.971614e-001	7.157114e-001	-6.965216e-001	-3.728076e-002	-2.822228e-002
43064415.260	-3.213498e-002	-3.446833e-002	7.150647e-001	-6.974270e-001	7.154433e-001	-6.968671e-001	-3.730015e-002	-2.828127e-002
43095684.803	-3.222701e-002	-3.443808e-002	7.146857e-001	-6.979429e-001	7.149357e-001	-6.972813e-001	-3.737002e-002	-2.826549e-002
43126954.346	-3.219105e-002	-3.441958e-002	7.143903e-001	-6.983181e-001	7.145083e-001	-6.976912e-001	-3.742763e-002	-2.819174e-002
43158223.890	-3.228159e-002	-3.447043e-002	7.140040e-001	-6.985285e-001	7.140732e-001	-6.980287e-001	-3.749836e-002	-2.819793e-002
43189493.433	-3.231497e-002	-3.451904e-002	7.137044e-001	-6.992162e-001	7.135544e-001	-6.985989e-001	-3.752222e-002	-2.814788e-002
43220762.977	-3.235286e-002	-3.443728e-002	7.132531e-001	-6.995465e-001	7.134125e-001	-6.987754e-001	-3.756421e-002	-2.824165e-002
43252032.520	-3.243439e-002	-3.454981e-002	7.127638e-001	-6.999260e-001	7.128681e-001	-6.993754e-001	-3.753733e-002	-2.826063e-002
43283302.064	-3.246437e-002	-3.443378e-002	7.123871e-001	-7.002433e-001	7.124538e-001	-6.995818e-001	-3.756553e-002	-2.817757e-002
43314571.607	-3.254941e-002	-3.455147e-002	7.120546e-001	-7.007286e-001	7.124186e-001	-7.000406e-001	-3.768251e-002	-2.809266e-002
43345841.151	-3.251521e-002	-3.450270e-002	7.115779e-001	-7.010705e-001	7.118434e-001	-7.004602e-001	-3.772419e-002	-2.813093e-002
43377110.694	-3.263222e-002	-3.453889e-002	7.112208e-001	-7.014330e-001	7.113168e-001	-7.009024e-001	-3.779575e-002	-2.817380e-002
43408380.238	-3.257494e-002	-3.458713e-002	7.108972e-001	-7.020446e-001	7.109268e-001	-7.011907e-001	-3.777010e-002	-2.818672e-002
43439649.781	-3.263232e-002	-3.457000e-002	7.103459e-001	-7.022934e-001	7.104152e-001	-7.016911e-001	-3.778776e-002	-2.816141e-002
43470919.325	-3.273240e-002	-3.455733e-002	7.098941e-001	-7.028085e-001	7.103167e-001	-7.022253e-001	-3.783951e-002	-2.807533e-002
43502188.868	-3.276406e-002	-3.459472e-002	7.096106e-001	-7.032021e-001	7.096739e-001	-7.024932e-001	-3.792389e-002	-2.811347e-002
43533458.412	-3.272906e-002	-3.451340e-002	7.092311e-001	-7.033976e-001	7.093538e-001	-7.028213e-001	-3.791432e-002	-2.816703e-002
43564727.955	-3.286173e-002	-3.454649e-002	7.088925e-001	-7.037674e-001	7.089629e-001	-7.034635e-001	-3.803891e-002	-2.817943e-002
43595997.498	-3.285448e-002	-3.461135e-002	7.084010e-001	-7.041737e-001	7.084483e-001	-7.036193e-001	-3.809363e-002	-2.813666e-002
43627267.042	-3.289059e-002	-3.464022e-002	7.081699e-001	-7.046245e-001	7.081765e-001	-7.041388e-001	-3.814476e-002	-2.808142e-002
43658536.585	-3.289569e-002	-3.464474e-002	7.076118e-001	-7.049961e-001	7.077718e-001	-7.044764e-001	-3.818393e-002	-2.811204e-002
43689806.129	-3.289953e-002	-3.465757e-002	7.071510e-001	-7.054443e-001	7.073996e-001	-7.048543e-001	-3.819972e-002	-2.815871e-002
43721075.672	-3.308140e-002	-3.451437e-002	7.067686e-001	-7.057824e-001	7.069663e-001	-7.053014e-001	-3.823717e-002	-2.815908e-002
43752345.216	-3.301866e-002	-3.465435e-002	7.065907e-001	-7.062906e-001	7.064851e-001	-7.057753e-001	-3.825519e-002	-2.809201e-002
43783614.759	-3.305292e-002	-3.466758e-002	7.060047e-001	-7.066168e-001	7.062537e-001	-7.060806e-001	-3.832966e-002	-2.815373e-002
43814884.303	-3.320901e-002	-3.461081e-002	7.057023e-001	-7.069953e-001	7.058185e-001	-7.064328e-001	-3.841979e-002	-2.807539e-002
43846153.846	-3.313857e-002	-3.466276e-002	7.053759e-001	-7.073971e-001	7.055374e-001	-7.068753e-001	-3.846806e-002	-2.809543e-002
43877423.390	-3.321065e-002	-3.467135e-002	7.048164e-001	-7.079576e-001	7.050153e-001	-7.072814e-001	-3.844685e-002	-2.809711e-002
43908692.933	-3.330381e-002	-3.457846e-002	7.043430e-001	-7.083546e-001	7.047434e-001	-7.075722e-001	-3.855140e-002	-2.803079e-002
43939962.477	-3.333364e-002	-3.460922e-002	7.041733e-001	-7.087325e-001	7.042650e-001	-7.080915e-001	-3.857973e-002	-2.804295e-002
43971232.020	-3.334602e-002	-3.467566e-002	7.035927e-001	-7.090465e-001	7.038164e-001	-7.085184e-001	-3.861190e-002	-2.805253e-002
44002501.563	-3.337066e-002	-3.471033e-002	7.031578e-001	-7.093213e-001	7.035057e-001	-7.086872e-001	-3.866171e-002	-2.798458e-002
44033771.107	-3.339752e-002	-3.470220e-002	7.028338e-001	-7.099055e-001	7.030901e-001	-7.091362e-001	-3.870709e-002	-2.801987e-002
44065040.650	-3.342816e-002	-3.459536e-002	7.025020e-001	-7.102628e-001	7.026928e-001	-7.096016e-001	-3.867876e-002	-2.796485e-002
44096310.194	-3.354246e-002	-3.466889e-002	7.021673e-001	-7.105638e-001	7.021977e-001	-7.099667e-001	-3.878503e-002	-2.803882e-002
44127579.737	-3.355910e-002	-3.471080e-002	7.016946e-001	-7.110327e-001	7.018721e-001	-7.102414e-001	-3.881236e-002	-2.803724e-002
44158849.281	-3.356512e-002	-3.468446e-002	7.012900e-001	-7.113204e-001	7.015628e-001	-7.108127e-001	-3.885726e-002	-2.802770e-002
44190118.824	-3.364688e-002	-3.469124e-002	7.008375e-001	-7.117293e-001	7.011576e-001	-7.112354e-001	-3.892670e-002	-2.800678e-002
44221388.368	-3.371607e-002	-3.470055e-002	7.005966e-001	-7.122223e-001	7.005849e-001	-7.115833e-001	-3.906978e-002	-2.798049e-002
44252657.911	-3.375344e-002	-3.469124e-002	7.000903e-001	-7.125541e-001	7.002139e-001	-7.120695e-001	-3.896253e-002	-2.801309e-002
44283927.455	-3.378559e-002	-3.471905e-002	6.996583e-001	-7.128650e-001	6.998721e-001	-7.123333e-001	-3.916989e-002	-2.805216e-002
44315196.998	-3.382754e-002	-3.470274e-002	6.993781e-001	-7.134055e-001	6.994834e-001	-7.127370e-001	-3.907970e-002	-2.805855e-002
44346466.542	-3.385759e-002	-3.472514e-002	6.988266e-001	-7.137728e-001	6.990518e-001	-7.131637e-001	-3.921360e-002	-2.798871e-002
44377736.085	-3.388316e-002	-3.470425e-002	6.984556e-001	-7.139583e-001	6.985046e-001	-7.134812e-001	-3.933752e-002	-2.794174e-002
44409005.629	-3.389749e-002	-3.464443e-002	6.979704e-001	-7.145895e-001	6.981614e-001	-7.138149e-001	-3.927369e-002	-2.798094e-002
44440275.172	-3.392813e-002	-3.480038e-002	6.975494e-001	-7.148165e-001	6.979024e-001	-7.143112e-001	-3.935497e-002	-2.793218e-002
44471544.715	-3.401875e-002	-3.478729e-002	6.971688e-001	-7.152839e-001	6.975269e-001	-7.146841e-001	-3.933547e-002	-2.792287e-002
44502814.259	-3.395481e-002	-3.482600e-002	6.968119e-001	-7.154502e-001	6.968655e-001	-7.151003e-001	-3.935819e-002	-2.792822e-002
44534083.802	-3.411086e-002	-3.473269e-002	6.963433e-001	-7.161423e-001	6.965938e-001	-7.154141e-001	-3.943066e-002	-2.799643e-002
44565353.346	-3.416949e-002	-3.472933e-002	6.960039e-001	-7.165103e-001	6.962803e-001	-7.158034e-001	-3.955763e-002	-2.784239e-002
44596622.889	-3.419894e-002	-3.479871e-002	6.956400e-001	-7.167744e-001	6.958682e-001	-7.162117e-001	-3.954416e-002	-2.789785e-002
44627892.433	-3.419086e-002	-3.478138e-002	6.952274e-001	-7.171685e-001	6.954138e-001	-7.166039e-001	-3.965351e-002	-2.797167e-002
44659161.976	-3.425984e-002	-3.473838e-002	6.946379e-001	-7.176065e-001	6.950460e-001	-7.169462e-001	-3.965737e-002	-2.788515e-002
44690431.520	-3.426668e-002	-3.485952e-002	6.944312e-001	-7.180227e-001	6.945487e-001	-7.173188e-001	-3.970689e-002	-2.788100e-002
