!Agilent Technologies,E5061B,MY49102235,A.02.00
!Date: Mon Jul 03 10:57:07 2023
!Data & Calibration Information:
!Freq	S11:SOLT2(ON)	S21:SOLT2(ON)	S12:SOLT2(ON)	S22:SOLT2(ON)
# Hz S RI R 50
40000000.000	-3.173758e-002	-3.818773e-002	7.558902e-001	-6.531297e-001	7.560023e-001	-6.521673e-001	-3.658106e-002	-3.246637e-002
40031269.543	-3.177439e-002	-3.825474e-002	7.555875e-001	-6.535400e-001	7.556621e-001	-6.524707e-001	-3.661210e-002	-3.243700e-002
40062539.087	-3.184018e-002	-3.826133e-002	7.549367e-001	-6.537302e-001	7.552486e-001	-6.528706e-001	-3.661411e-002	-3.247574e-002
40093808.630	-3.188654e-002	-3.824947e-002	7.546835e-001	-6.542802e-001	7.548707e-001	-6.535173e-001	-3.669705e-002	-3.244015e-002
40125078.174	-3.198012e-002	-3.822977e-002	7.543280e-001	-6.546377e-001	7.544107e-001	-6.538310e-001	-3.668577e-002	-3.236825e-002
40156347.717	-3.194386e-002	-3.826629e-002	7.540831e-001	-6.551829e-001	7.540830e-001	-6.543941e-001	-3.680527e-002	-3.244514e-002
40187617.261	-3.202320e-002	-3.834830e-002	7.537285e-001	-6.554599e-001	7.538748e-001	-6.547975e-001	-3.683564e-002	-3.256281e-002
40218886.804	-3.203177e-002	-3.828526e-002	7.533309e-001	-6.560421e-001	7.533598e-001	-6.550711e-001	-3.683918e-002	-3.251004e-002
40250156.348	-3.209338e-002	-3.829781e-002	7.529965e-001	-6.563227e-001	7.530683e-001	-6.555701e-001	-3.696911e-002	-3.254014e-002
40281425.891	-3.216446e-002	-3.832768e-002	7.525894e-001	-6.568197e-001	7.526671e-001	-6.559666e-001	-3.699396e-002	-3.249297e-002
40312695.435	-3.216987e-002	-3.831764e-002	7.521558e-001	-6.574082e-001	7.523400e-001	-6.563207e-001	-3.699095e-002	-3.250048e-002
40343964.978	-3.220517e-002	-3.827283e-002	7.518394e-001	-6.575028e-001	7.519634e-001	-6.567778e-001	-3.708945e-002	-3.244831e-002
40375234.522	-3.222306e-002	-3.827855e-002	7.513410e-001	-6.580716e-001	7.516274e-001	-6.571156e-001	-3.714658e-002	-3.246881e-002
40406504.065	-3.234303e-002	-3.825897e-002	7.509365e-001	-6.583278e-001	7.511948e-001	-6.577093e-001	-3.713171e-002	-3.255530e-002
40437773.609	-3.244833e-002	-3.838601e-002	7.508700e-001	-6.587877e-001	7.509334e-001	-6.579956e-001	-3.718868e-002	-3.255918e-002
40469043.152	-3.236984e-002	-3.837740e-002	7.503911e-001	-6.592327e-001	7.505754e-001	-6.584096e-001	-3.729155e-002	-3.247772e-002
40500312.695	-3.247231e-002	-3.844977e-002	7.497897e-001	-6.597405e-001	7.501904e-001	-6.588729e-001	-3.735411e-002	-3.245878e-002
40531582.239	-3.248843e-002	-3.836160e-002	7.495005e-001	-6.598657e-001	7.496870e-001	-6.595154e-001	-3.742664e-002	-3.245237e-002
40562851.782	-3.255344e-002	-3.834167e-002	7.490721e-001	-6.604199e-001	7.492533e-001	-6.597227e-001	-3.736362e-002	-3.259445e-002
40594121.326	-3.257074e-002	-3.839099e-002	7.489797e-001	-6.609954e-001	7.490082e-001	-6.600648e-001	-3.744703e-002	-3.246395e-002
40625390.869	-3.260401e-002	-3.834613e-002	7.485560e-001	-6.613134e-001	7.488444e-001	-6.606482e-001	-3.753532e-002	-3.255783e-002
40656660.413	-3.266744e-002	-3.839146e-002	7.481301e-001	-6.617562e-001	7.484276e-001	-6.608598e-001	-3.755060e-002	-3.250168e-002
40687929.956	-3.268155e-002	-3.838907e-002	7.480265e-001	-6.623418e-001	7.480917e-001	-6.613030e-001	-3.760526e-002	-3.252313e-002
40719199.500	-3.275274e-002	-3.832704e-002	7.473231e-001	-6.624825e-001	7.475486e-001	-6.619819e-001	-3.758325e-002	-3.254116e-002
40750469.043	-3.281600e-002	-3.838752e-002	7.469248e-001	-6.627838e-001	7.471719e-001	-6.622498e-001	-3.778158e-002	-3.250331e-002
40781738.587	-3.276973e-002	-3.848955e-002	7.466562e-001	-6.634912e-001	7.468305e-001	-6.627134e-001	-3.785763e-002	-3.249893e-002
40813008.130	-3.290176e-002	-3.844365e-002	7.464593e-001	-6.637500e-001	7.463429e-001	-6.631246e-001	-3.784255e-002	-3.250191e-002
40844277.674	-3.291126e-002	-3.839808e-002	7.459019e-001	-6.642361e-001	7.460333e-001	-6.634820e-001	-3.796704e-002	-3.250384e-002
40875547.217	-3.295068e-002	-3.846716e-002	7.454826e-001	-6.647433e-001	7.458239e-001	-6.637656e-001	-3.795119e-002	-3.251438e-002
40906816.760	-3.299598e-002	-3.839963e-002	7.453081e-001	-6.651093e-001	7.453195e-001	-6.642328e-001	-3.789493e-002	-3.255647e-002
40938086.304	-3.310975e-002	-3.847517e-002	7.446751e-001	-6.655605e-001	7.451034e-001	-6.647781e-001	-3.807516e-002	-3.253266e-002
40969355.847	-3.317004e-002	-3.843774e-002	7.442464e-001	-6.658271e-001	7.446001e-001	-6.651456e-001	-3.812762e-002	-3.248912e-002
41000625.391	-3.318957e-002	-3.841053e-002	7.438499e-001	-6.662183e-001	7.441071e-001	-6.654786e-001	-3.811550e-002	-3.249035e-002
41031894.934	-3.307105e-002	-3.837346e-002	7.438423e-001	-6.665986e-001	7.438237e-001	-6.660675e-001	-3.822046e-002	-3.250256e-002
41063164.478	-3.324572e-002	-3.842980e-002	7.433738e-001	-6.671244e-001	7.435651e-001	-6.664350e-001	-3.822162e-002	-3.254883e-002
41094434.021	-3.330031e-002	-3.849404e-002	7.429636e-001	-6.674692e-001	7.430794e-001	-6.666997e-001	-3.831340e-002	-3.252114e-002
41125703.565	-3.330680e-002	-3.848407e-002	7.426249e-001	-6.679292e-001	7.428401e-001	-6.670649e-001	-3.836813e-002	-3.249406e-002
41156973.108	-3.331258e-002	-3.852540e-002	7.422972e-001	-6.681693e-001	7.422227e-001	-6.676416e-001	-3.841528e-002	-3.251039e-002
41188242.652	-3.339872e-002	-3.842073e-002	7.418818e-001	-6.689401e-001	7.420043e-001	-6.679942e-001	-3.838082e-002	-3.256563e-002
41219512.195	-3.340152e-002	-3.855317e-002	7.414628e-001	-6.692487e-001	7.415572e-001	-6.684055e-001	-3.849673e-002	-3.259015e-002
41250781.739	-3.351442e-002	-3.852560e-002	7.408811e-001	-6.697947e-001	7.411844e-001	-6.688630e-001	-3.851548e-002	-3.251239e-002
41282051.282	-3.351472e-002	-3.857281e-002	7.407073e-001	-6.700350e-001	7.408007e-001	-6.692479e-001	-3.863861e-002	-3.257576e-002
41313320.826	-3.360827e-002	-3.848003e-002	7.402173e-001	-6.703327e-001	7.404791e-001	-6.696145e-001	-3.865655e-002	-3.256457e-002
41344590.369	-3.367264e-002	-3.857704e-002	7.397898e-001	-6.706464e-001	7.401635e-001	-6.701473e-001	-3.865112e-002	-3.248249e-002
41375859.912	-3.378212e-002	-3.852180e-002	7.395588e-001	-6.712220e-001	7.394923e-001	-6.704691e-001	-3.869723e-002	-3.253924e-002
41407129.456	-3.374167e-002	-3.855088e-002	7.392805e-001	-6.714655e-001	7.393059e-001	-6.707233e-001	-3.884651e-002	-3.247028e-002
41438398.999	-3.377913e-002	-3.863347e-002	7.389639e-001	-6.721542e-001	7.390618e-001	-6.712836e-001	-3.889678e-002	-3.248648e-002
41469668.543	-3.387647e-002	-3.845499e-002	7.383927e-001	-6.725143e-001	7.385445e-001	-6.718167e-001	-3.889226e-002	-3.252523e-002
41500938.086	-3.389749e-002	-3.857840e-002	7.381038e-001	-6.728235e-001	7.383047e-001	-6.720792e-001	-3.894833e-002	-3.259858e-002
41532207.630	-3.390151e-002	-3.858668e-002	7.377031e-001	-6.732589e-001	7.378763e-001	-6.724974e-001	-3.898884e-002	-3.253127e-002
41563477.173	-3.392512e-002	-3.863359e-002	7.372790e-001	-6.737462e-001	7.374755e-001	-6.728528e-001	-3.897375e-002	-3.258769e-002
41594746.717	-3.391981e-002	-3.861638e-002	7.368744e-001	-6.741063e-001	7.370917e-001	-6.733389e-001	-3.908588e-002	-3.249378e-002
41626016.260	-3.413865e-002	-3.866321e-002	7.365424e-001	-6.745122e-001	7.367191e-001	-6.737513e-001	-3.916664e-002	-3.250671e-002
41657285.804	-3.407292e-002	-3.865070e-002	7.362063e-001	-6.749900e-001	7.363571e-001	-6.740956e-001	-3.915794e-002	-3.252678e-002
41688555.347	-3.408048e-002	-3.862996e-002	7.357672e-001	-6.752987e-001	7.359971e-001	-6.746415e-001	-3.921840e-002	-3.251101e-002
41719824.891	-3.412152e-002	-3.856634e-002	7.354470e-001	-6.757844e-001	7.355929e-001	-6.749122e-001	-3.930154e-002	-3.247074e-002
41751094.434	-3.424649e-002	-3.849786e-002	7.351095e-001	-6.760647e-001	7.351347e-001	-6.756072e-001	-3.930214e-002	-3.257910e-002
41782363.977	-3.418929e-002	-3.865450e-002	7.347746e-001	-6.765839e-001	7.349007e-001	-6.757523e-001	-3.952090e-002	-3.252076e-002
41813633.521	-3.432117e-002	-3.865626e-002	7.341937e-001	-6.768673e-001	7.345717e-001	-6.761503e-001	-3.940326e-002	-3.246862e-002
41844903.064	-3.437504e-002	-3.862146e-002	7.340496e-001	-6.772287e-001	7.340569e-001	-6.766865e-001	-3.954749e-002	-3.250762e-002
41876172.608	-3.437608e-002	-3.865971e-002	7.333622e-001	-6.777651e-001	7.338534e-001	-6.770559e-001	-3.963217e-002	-3.246860e-002
41907442.151	-3.448315e-002	-3.860316e-002	7.331543e-001	-6.780939e-001	7.334366e-001	-6.775066e-001	-3.965405e-002	-3.249574e-002
41938711.695	-3.440683e-002	-3.865326e-002	7.327041e-001	-6.785768e-001	7.330493e-001	-6.777927e-001	-3.957909e-002	-3.254399e-002
41969981.238	-3.449417e-002	-3.874820e-002	7.323847e-001	-6.789285e-001	7.325297e-001	-6.784113e-001	-3.965191e-002	-3.246802e-002
42001250.782	-3.453089e-002	-3.862872e-002	7.320439e-001	-6.794433e-001	7.322311e-001	-6.784908e-001	-3.973609e-002	-3.248375e-002
42032520.325	-3.456686e-002	-3.860887e-002	7.315888e-001	-6.798038e-001	7.320146e-001	-6.788796e-001	-3.984272e-002	-3.247325e-002
42063789.869	-3.467096e-002	-3.866706e-002	7.313166e-001	-6.801644e-001	7.313886e-001	-6.795516e-001	-3.994528e-002	-3.249475e-002
42095059.412	-3.468011e-002	-3.868710e-002	7.308816e-001	-6.806451e-001	7.311679e-001	-6.799444e-001	-3.993010e-002	-3.243078e-002
42126328.956	-3.476550e-002	-3.869022e-002	7.304713e-001	-6.808799e-001	7.306286e-001	-6.802402e-001	-4.000498e-002	-3.248497e-002
42157598.499	-3.473522e-002	-3.872066e-002	7.300768e-001	-6.813963e-001	7.302717e-001	-6.808243e-001	-4.002774e-002	-3.245647e-002
42188868.043	-3.480480e-002	-3.873576e-002	7.298414e-001	-6.816807e-001	7.299834e-001	-6.811536e-001	-4.010340e-002	-3.244273e-002
42220137.586	-3.478523e-002	-3.871321e-002	7.293302e-001	-6.822904e-001	7.295679e-001	-6.813925e-001	-4.014166e-002	-3.248025e-002
42251407.129	-3.490588e-002	-3.875981e-002	7.290999e-001	-6.827343e-001	7.291579e-001	-6.819540e-001	-4.023147e-002	-3.240778e-002
42282676.673	-3.492573e-002	-3.875021e-002	7.285732e-001	-6.830447e-001	7.286832e-001	-6.822873e-001	-4.021187e-002	-3.243985e-002
42313946.216	-3.500131e-002	-3.870748e-002	7.282854e-001	-6.835260e-001	7.284492e-001	-6.827996e-001	-4.028006e-002	-3.244000e-002
42345215.760	-3.511523e-002	-3.880741e-002	7.277969e-001	-6.838690e-001	7.279818e-001	-6.832234e-001	-4.042231e-002	-3.240447e-002
42376485.303	-3.512254e-002	-3.879447e-002	7.274028e-001	-6.843156e-001	7.275361e-001	-6.835080e-001	-4.040246e-002	-3.237644e-002
42407754.847	-3.512487e-002	-3.873895e-002	7.269595e-001	-6.846584e-001	7.272199e-001	-6.839214e-001	-4.043182e-002	-3.239002e-002
42439024.390	-3.520497e-002	-3.881000e-002	7.266690e-001	-6.850949e-001	7.268448e-001	-6.842267e-001	-4.053930e-002	-3.247460e-002
42470293.934	-3.517015e-002	-3.881867e-002	7.263166e-001	-6.854989e-001	7.265663e-001	-6.847661e-001	-4.052328e-002	-3.245210e-002
42501563.477	-3.527209e-002	-3.872385e-002	7.260117e-001	-6.857454e-001	7.261897e-001	-6.852767e-001	-4.052604e-002	-3.243584e-002
42532833.021	-3.524506e-002	-3.876204e-002	7.255891e-001	-6.862218e-001	7.258634e-001	-6.857191e-001	-4.068667e-002	-3.244844e-002
42564102.564	-3.534867e-002	-3.878230e-002	7.251657e-001	-6.867811e-001	7.253381e-001	-6.860511e-001	-4.074027e-002	-3.246395e-002
42595372.108	-3.535680e-002	-3.878155e-002	7.246385e-001	-6.871961e-001	7.249867e-001	-6.865201e-001	-4.082805e-002	-3.244061e-002
42626641.651	-3.543818e-002	-3.890996e-002	7.244244e-001	-6.874279e-001	7.246148e-001	-6.867113e-001	-4.086012e-002	-3.243172e-002
42657911.194	-3.549214e-002	-3.881707e-002	7.239824e-001	-6.879500e-001	7.242413e-001	-6.872434e-001	-4.088185e-002	-3.241043e-002
42689180.738	-3.557044e-002	-3.877947e-002	7.236843e-001	-6.882829e-001	7.238286e-001	-6.876173e-001	-4.098034e-002	-3.244502e-002
42720450.281	-3.561904e-002	-3.887002e-002	7.230513e-001	-6.884856e-001	7.233462e-001	-6.879662e-001	-4.094357e-002	-3.240689e-002
42751719.825	-3.563049e-002	-3.895011e-002	7.228274e-001	-6.890693e-001	7.232553e-001	-6.882784e-001	-4.097114e-002	-3.243186e-002
42782989.368	-3.576480e-002	-3.885912e-002	7.224383e-001	-6.896870e-001	7.227090e-001	-6.888550e-001	-4.110748e-002	-3.237329e-002
42814258.912	-3.568898e-002	-3.885682e-002	7.222635e-001	-6.899054e-001	7.223161e-001	-6.892477e-001	-4.111306e-002	-3.252103e-002
42845528.455	-3.580614e-002	-3.881830e-002	7.216862e-001	-6.904270e-001	7.219900e-001	-6.896391e-001	-4.116492e-002	-3.238234e-002
42876797.999	-3.575848e-002	-3.887143e-002	7.214016e-001	-6.906075e-001	7.215134e-001	-6.901080e-001	-4.124494e-002	-3.246679e-002
42908067.542	-3.589444e-002	-3.889051e-002	7.209448e-001	-6.908927e-001	7.212427e-001	-6.902975e-001	-4.129652e-002	-3.249401e-002
42939337.086	-3.584832e-002	-3.883683e-002	7.205508e-001	-6.914186e-001	7.205897e-001	-6.907809e-001	-4.128466e-002	-3.249214e-002
42970606.629	-3.597266e-002	-3.893537e-002	7.201405e-001	-6.918600e-001	7.202710e-001	-6.912114e-001	-4.141395e-002	-3.253131e-002
43001876.173	-3.602000e-002	-3.891492e-002	7.197737e-001	-6.923699e-001	7.200256e-001	-6.916802e-001	-4.147669e-002	-3.235767e-002
43033145.716	-3.595494e-002	-3.886919e-002	7.192319e-001	-6.927498e-001	7.195367e-001	-6.920980e-001	-4.154289e-002	-3.238546e-002
43064415.260	-3.603001e-002	-3.894687e-002	7.188944e-001	-6.930266e-001	7.192962e-001	-6.924544e-001	-4.157881e-002	-3.245189e-002
43095684.803	-3.612959e-002	-3.890885e-002	7.184970e-001	-6.935334e-001	7.187900e-001	-6.928452e-001	-4.164887e-002	-3.243277e-002
43126954.346	-3.610500e-002	-3.889155e-002	7.182466e-001	-6.938936e-001	7.184059e-001	-6.932574e-001	-4.170748e-002	-3.236127e-002
43158223.890	-3.620084e-002	-3.894675e-002	7.178473e-001	-6.941405e-001	7.179561e-001	-6.936104e-001	-4.178190e-002	-3.236799e-002
43189493.433	-3.624067e-002	-3.899318e-002	7.175730e-001	-6.948013e-001	7.174478e-001	-6.941688e-001	-4.181312e-002	-3.232362e-002
43220762.977	-3.627638e-002	-3.891743e-002	7.171120e-001	-6.951605e-001	7.172776e-001	-6.943460e-001	-4.186301e-002	-3.241959e-002
43252032.520	-3.635949e-002	-3.902742e-002	7.166208e-001	-6.955165e-001	7.167965e-001	-6.949206e-001	-4.183513e-002	-3.243678e-002
43283302.064	-3.640406e-002	-3.891599e-002	7.162452e-001	-6.958177e-001	7.163545e-001	-6.951482e-001	-4.187171e-002	-3.234858e-002
43314571.607	-3.649167e-002	-3.903112e-002	7.159652e-001	-6.963183e-001	7.162819e-001	-6.956136e-001	-4.199911e-002	-3.225820e-002
43345841.151	-3.646112e-002	-3.898343e-002	7.154536e-001	-6.966868e-001	7.157335e-001	-6.960469e-001	-4.204411e-002	-3.229924e-002
43377110.694	-3.657850e-002	-3.902238e-002	7.150895e-001	-6.970375e-001	7.152286e-001	-6.964563e-001	-4.212159e-002	-3.235202e-002
43408380.238	-3.652541e-002	-3.907247e-002	7.147944e-001	-6.976263e-001	7.148607e-001	-6.967490e-001	-4.210057e-002	-3.236617e-002
43439649.781	-3.658380e-002	-3.904109e-002	7.142415e-001	-6.978977e-001	7.143409e-001	-6.972586e-001	-4.211874e-002	-3.234088e-002
43470919.325	-3.670319e-002	-3.904361e-002	7.138048e-001	-6.983881e-001	7.142417e-001	-6.977306e-001	-4.219351e-002	-3.224965e-002
43502188.868	-3.672956e-002	-3.908763e-002	7.135130e-001	-6.987844e-001	7.136244e-001	-6.980535e-001	-4.227094e-002	-3.228003e-002
43533458.412	-3.671558e-002	-3.899940e-002	7.131153e-001	-6.989744e-001	7.132766e-001	-6.983788e-001	-4.226324e-002	-3.234686e-002
43564727.955	-3.683960e-002	-3.902939e-002	7.128393e-001	-6.993554e-001	7.129455e-001	-6.990194e-001	-4.239725e-002	-3.235593e-002
43595997.498	-3.683800e-002	-3.909479e-002	7.123448e-001	-6.997497e-001	7.123909e-001	-6.991832e-001	-4.246043e-002	-3.231449e-002
43627267.042	-3.688092e-002	-3.912734e-002	7.121023e-001	-7.001949e-001	7.121228e-001	-6.997140e-001	-4.251094e-002	-3.226026e-002
43658536.585	-3.689149e-002	-3.913588e-002	7.115612e-001	-7.005780e-001	7.117055e-001	-7.000316e-001	-4.256186e-002	-3.228696e-002
43689806.129	-3.689383e-002	-3.914713e-002	7.110890e-001	-7.010258e-001	7.113418e-001	-7.004019e-001	-4.258439e-002	-3.234450e-002
43721075.672	-3.708143e-002	-3.899707e-002	7.107075e-001	-7.013359e-001	7.109244e-001	-7.008483e-001	-4.262062e-002	-3.234280e-002
43752345.216	-3.702923e-002	-3.914096e-002	7.105466e-001	-7.018787e-001	7.104784e-001	-7.013131e-001	-4.264933e-002	-3.226852e-002
43783614.759	-3.706921e-002	-3.916136e-002	7.099511e-001	-7.021814e-001	7.102166e-001	-7.016489e-001	-4.273235e-002	-3.232831e-002
43814884.303	-3.723173e-002	-3.910488e-002	7.096707e-001	-7.025676e-001	7.098050e-001	-7.019711e-001	-4.281897e-002	-3.225530e-002
43846153.846	-3.716682e-002	-3.916165e-002	7.093437e-001	-7.029653e-001	7.095519e-001	-7.024142e-001	-4.288150e-002	-3.226766e-002
43877423.390	-3.724787e-002	-3.918188e-002	7.087782e-001	-7.035440e-001	7.089998e-001	-7.028187e-001	-4.285948e-002	-3.227635e-002
43908692.933	-3.733489e-002	-3.908475e-002	7.083434e-001	-7.039260e-001	7.087401e-001	-7.031163e-001	-4.296804e-002	-3.220095e-002
43939962.477	-3.737915e-002	-3.910973e-002	7.081517e-001	-7.042796e-001	7.082593e-001	-7.036247e-001	-4.301437e-002	-3.223162e-002
43971232.020	-3.738721e-002	-3.917366e-002	7.075854e-001	-7.046109e-001	7.078385e-001	-7.040334e-001	-4.304267e-002	-3.223280e-002
44002501.563	-3.742927e-002	-3.920942e-002	7.071315e-001	-7.048947e-001	7.075278e-001	-7.042398e-001	-4.309236e-002	-3.215897e-002
44033771.107	-3.744744e-002	-3.920641e-002	7.068279e-001	-7.054611e-001	7.071064e-001	-7.046528e-001	-4.313941e-002	-3.219833e-002
44065040.650	-3.749227e-002	-3.910295e-002	7.065006e-001	-7.058168e-001	7.067278e-001	-7.051503e-001	-4.313049e-002	-3.214321e-002
44096310.194	-3.761658e-002	-3.917498e-002	7.061735e-001	-7.061554e-001	7.062300e-001	-7.054994e-001	-4.322790e-002	-3.222155e-002
44127579.737	-3.763241e-002	-3.921377e-002	7.057018e-001	-7.065852e-001	7.058940e-001	-7.058017e-001	-4.327438e-002	-3.221972e-002
44158849.281	-3.764024e-002	-3.918860e-002	7.052942e-001	-7.068755e-001	7.055971e-001	-7.063432e-001	-4.332178e-002	-3.221021e-002
44190118.824	-3.773805e-002	-3.919931e-002	7.048726e-001	-7.072965e-001	7.051910e-001	-7.067860e-001	-4.340105e-002	-3.218792e-002
44221388.368	-3.780100e-002	-3.920620e-002	7.046239e-001	-7.077601e-001	7.046313e-001	-7.071212e-001	-4.353752e-002	-3.216523e-002
44252657.911	-3.784399e-002	-3.919732e-002	7.041323e-001	-7.081234e-001	7.042852e-001	-7.075925e-001	-4.344555e-002	-3.219951e-002
44283927.455	-3.787992e-002	-3.922789e-002	7.037001e-001	-7.084400e-001	7.039458e-001	-7.078758e-001	-4.364713e-002	-3.224537e-002
44315196.998	-3.793610e-002	-3.921744e-002	7.034341e-001	-7.089665e-001	7.035567e-001	-7.082742e-001	-4.356844e-002	-3.224336e-002
44346466.542	-3.797751e-002	-3.923756e-002	7.028921e-001	-7.093454e-001	7.031270e-001	-7.087025e-001	-4.370861e-002	-3.217305e-002
44377736.085	-3.800339e-002	-3.921906e-002	7.025219e-001	-7.095005e-001	7.026042e-001	-7.090068e-001	-4.383004e-002	-3.212883e-002
44409005.629	-3.802655e-002	-3.915975e-002	7.020363e-001	-7.101360e-001	7.022467e-001	-7.093577e-001	-4.378409e-002	-3.216653e-002
44440275.172	-3.805724e-002	-3.931279e-002	7.016261e-001	-7.103638e-001	7.019884e-001	-7.098383e-001	-4.386765e-002	-3.211212e-002
44471544.715	-3.814148e-002	-3.929629e-002	7.012307e-001	-7.108236e-001	7.016250e-001	-7.101890e-001	-4.385099e-002	-3.211184e-002
44502814.259	-3.809077e-002	-3.933757e-002	7.008798e-001	-7.110164e-001	7.009614e-001	-7.106088e-001	-4.388054e-002	-3.211451e-002
44534083.802	-3.825467e-002	-3.924999e-002	7.004136e-001	-7.117023e-001	7.006790e-001	-7.109409e-001	-4.395973e-002	-3.218172e-002
44565353.346	-3.831244e-002	-3.925120e-002	7.000955e-001	-7.120517e-001	7.004062e-001	-7.113279e-001	-4.408437e-002	-3.202484e-002
44596622.889	-3.835239e-002	-3.931017e-002	6.997054e-001	-7.123386e-001	6.999641e-001	-7.117130e-001	-4.408013e-002	-3.208923e-002
44627892.433	-3.834761e-002	-3.929881e-002	6.992966e-001	-7.127010e-001	6.995099e-001	-7.121334e-001	-4.420876e-002	-3.215829e-002
44659161.976	-3.842335e-002	-3.926016e-002	6.987364e-001	-7.131444e-001	6.991674e-001	-7.124782e-001	-4.421283e-002	-3.207517e-002
44690431.520	-3.843608e-002	-3.937561e-002	6.985202e-001	-7.135459e-001	6.987078e-001	-7.128835e-001	-4.426081e-002	-3.206421e-002
