!Agilent Technologies,E5061B,MY49102235,A.02.00
!Date: Mon Jul 03 10:56:18 2023
!Data & Calibration Information:
!Freq	S11:SOLT2(ON)	S21:SOLT2(ON)	S12:SOLT2(ON)	S22:SOLT2(ON)
# Hz S RI R 50
40000000.000	-3.218802e-002	-3.875833e-002	7.562803e-001	-6.526152e-001	7.563801e-001	-6.515986e-001	-3.706907e-002	-3.303718e-002
40031269.543	-3.223779e-002	-3.882874e-002	7.559894e-001	-6.529912e-001	7.560732e-001	-6.518992e-001	-3.710404e-002	-3.300895e-002
40062539.087	-3.230259e-002	-3.883163e-002	7.553363e-001	-6.531870e-001	7.556437e-001	-6.523282e-001	-3.710890e-002	-3.304621e-002
40093808.630	-3.235458e-002	-3.882200e-002	7.550630e-001	-6.537485e-001	7.552651e-001	-6.529134e-001	-3.719054e-002	-3.300832e-002
40125078.174	-3.243315e-002	-3.880657e-002	7.547178e-001	-6.540885e-001	7.548174e-001	-6.532668e-001	-3.717841e-002	-3.293854e-002
40156347.717	-3.240790e-002	-3.884605e-002	7.544793e-001	-6.546560e-001	7.544676e-001	-6.538426e-001	-3.730485e-002	-3.300493e-002
40187617.261	-3.247801e-002	-3.891716e-002	7.540885e-001	-6.549057e-001	7.542774e-001	-6.542417e-001	-3.733089e-002	-3.313466e-002
40218886.804	-3.249316e-002	-3.886228e-002	7.536857e-001	-6.554930e-001	7.537743e-001	-6.545047e-001	-3.734130e-002	-3.308124e-002
40250156.348	-3.256431e-002	-3.886901e-002	7.534030e-001	-6.557607e-001	7.534661e-001	-6.550245e-001	-3.747413e-002	-3.310198e-002
40281425.891	-3.262758e-002	-3.890355e-002	7.530067e-001	-6.562697e-001	7.530678e-001	-6.554083e-001	-3.748052e-002	-3.306628e-002
40312695.435	-3.263650e-002	-3.889853e-002	7.525664e-001	-6.568622e-001	7.527297e-001	-6.557743e-001	-3.748606e-002	-3.307196e-002
40343964.978	-3.266801e-002	-3.884679e-002	7.522331e-001	-6.569540e-001	7.523605e-001	-6.562049e-001	-3.758497e-002	-3.301841e-002
40375234.522	-3.269606e-002	-3.885173e-002	7.517648e-001	-6.575271e-001	7.520439e-001	-6.565425e-001	-3.765037e-002	-3.304075e-002
40406504.065	-3.280644e-002	-3.883240e-002	7.513121e-001	-6.577727e-001	7.515985e-001	-6.571589e-001	-3.763274e-002	-3.312063e-002
40437773.609	-3.291241e-002	-3.896173e-002	7.512591e-001	-6.582472e-001	7.513332e-001	-6.574231e-001	-3.768676e-002	-3.312525e-002
40469043.152	-3.284378e-002	-3.895272e-002	7.508158e-001	-6.587083e-001	7.509753e-001	-6.578426e-001	-3.779649e-002	-3.304834e-002
40500312.695	-3.294601e-002	-3.903313e-002	7.502094e-001	-6.592023e-001	7.506106e-001	-6.582867e-001	-3.785541e-002	-3.303366e-002
40531582.239	-3.296257e-002	-3.893902e-002	7.499099e-001	-6.593187e-001	7.500877e-001	-6.589779e-001	-3.792608e-002	-3.302489e-002
40562851.782	-3.302677e-002	-3.890867e-002	7.494851e-001	-6.598859e-001	7.496626e-001	-6.591494e-001	-3.786030e-002	-3.317107e-002
40594121.326	-3.304435e-002	-3.896435e-002	7.493817e-001	-6.604245e-001	7.494129e-001	-6.594746e-001	-3.794932e-002	-3.303744e-002
40625390.869	-3.307871e-002	-3.892142e-002	7.489554e-001	-6.607790e-001	7.492525e-001	-6.600688e-001	-3.804654e-002	-3.313249e-002
40656660.413	-3.313485e-002	-3.896734e-002	7.485487e-001	-6.611769e-001	7.488619e-001	-6.602939e-001	-3.804850e-002	-3.307344e-002
40687929.956	-3.316040e-002	-3.896062e-002	7.484387e-001	-6.617875e-001	7.484957e-001	-6.607407e-001	-3.810468e-002	-3.311181e-002
40719199.500	-3.323662e-002	-3.890818e-002	7.477371e-001	-6.619409e-001	7.479801e-001	-6.614190e-001	-3.809224e-002	-3.311300e-002
40750469.043	-3.328988e-002	-3.895870e-002	7.473130e-001	-6.622391e-001	7.475933e-001	-6.616830e-001	-3.828799e-002	-3.307512e-002
40781738.587	-3.324855e-002	-3.905796e-002	7.470862e-001	-6.629414e-001	7.472464e-001	-6.621469e-001	-3.836460e-002	-3.307447e-002
40813008.130	-3.337883e-002	-3.902213e-002	7.468591e-001	-6.632085e-001	7.467446e-001	-6.625454e-001	-3.835080e-002	-3.307872e-002
40844277.674	-3.339280e-002	-3.896982e-002	7.462895e-001	-6.636583e-001	7.464476e-001	-6.629106e-001	-3.847345e-002	-3.307825e-002
40875547.217	-3.342684e-002	-3.903668e-002	7.458740e-001	-6.642100e-001	7.462331e-001	-6.632018e-001	-3.844833e-002	-3.309107e-002
40906816.760	-3.348309e-002	-3.898138e-002	7.457321e-001	-6.645429e-001	7.457395e-001	-6.636751e-001	-3.840354e-002	-3.312501e-002
40938086.304	-3.359239e-002	-3.905727e-002	7.450799e-001	-6.650083e-001	7.455305e-001	-6.642130e-001	-3.858843e-002	-3.310489e-002
40969355.847	-3.364435e-002	-3.901625e-002	7.446714e-001	-6.652843e-001	7.450227e-001	-6.645711e-001	-3.863579e-002	-3.306707e-002
41000625.391	-3.366633e-002	-3.899223e-002	7.442489e-001	-6.656245e-001	7.445041e-001	-6.649127e-001	-3.862712e-002	-3.306062e-002
41031894.934	-3.354932e-002	-3.895155e-002	7.442367e-001	-6.660483e-001	7.442290e-001	-6.655120e-001	-3.873320e-002	-3.307564e-002
41063164.478	-3.372173e-002	-3.901006e-002	7.437903e-001	-6.665629e-001	7.439837e-001	-6.658443e-001	-3.873173e-002	-3.311964e-002
41094434.021	-3.378345e-002	-3.907088e-002	7.433494e-001	-6.668911e-001	7.435001e-001	-6.661426e-001	-3.882770e-002	-3.309499e-002
41125703.565	-3.378506e-002	-3.906114e-002	7.430491e-001	-6.673786e-001	7.432561e-001	-6.665130e-001	-3.888654e-002	-3.306934e-002
41156973.108	-3.379484e-002	-3.910297e-002	7.427139e-001	-6.676217e-001	7.426520e-001	-6.670726e-001	-3.893312e-002	-3.309017e-002
41188242.652	-3.388379e-002	-3.900509e-002	7.422817e-001	-6.683700e-001	7.424395e-001	-6.674431e-001	-3.889731e-002	-3.313335e-002
41219512.195	-3.388679e-002	-3.913617e-002	7.418655e-001	-6.686897e-001	7.419392e-001	-6.678135e-001	-3.901068e-002	-3.316265e-002
41250781.739	-3.400174e-002	-3.910557e-002	7.412981e-001	-6.692389e-001	7.415874e-001	-6.683083e-001	-3.903187e-002	-3.308193e-002
41282051.282	-3.399748e-002	-3.915304e-002	7.411119e-001	-6.694899e-001	7.412135e-001	-6.686691e-001	-3.915130e-002	-3.314333e-002
41313320.826	-3.409797e-002	-3.905850e-002	7.406222e-001	-6.697780e-001	7.409204e-001	-6.690271e-001	-3.917116e-002	-3.314236e-002
41344590.369	-3.416126e-002	-3.915998e-002	7.401885e-001	-6.700666e-001	7.405828e-001	-6.696022e-001	-3.917445e-002	-3.305376e-002
41375859.912	-3.427550e-002	-3.910363e-002	7.399840e-001	-6.706546e-001	7.399082e-001	-6.698658e-001	-3.921582e-002	-3.311831e-002
41407129.456	-3.422739e-002	-3.912998e-002	7.397060e-001	-6.709152e-001	7.397167e-001	-6.701439e-001	-3.936805e-002	-3.304480e-002
41438398.999	-3.426492e-002	-3.921436e-002	7.393726e-001	-6.715883e-001	7.394920e-001	-6.706957e-001	-3.941690e-002	-3.306846e-002
41469668.543	-3.436728e-002	-3.902934e-002	7.388173e-001	-6.719749e-001	7.389691e-001	-6.712460e-001	-3.940594e-002	-3.309208e-002
41500938.086	-3.438481e-002	-3.915965e-002	7.385177e-001	-6.722624e-001	7.387315e-001	-6.715148e-001	-3.947491e-002	-3.317007e-002
41532207.630	-3.439571e-002	-3.916918e-002	7.381234e-001	-6.727152e-001	7.383130e-001	-6.719461e-001	-3.951045e-002	-3.311182e-002
41563477.173	-3.441702e-002	-3.921280e-002	7.376948e-001	-6.732061e-001	7.378994e-001	-6.722651e-001	-3.949436e-002	-3.316081e-002
41594746.717	-3.441955e-002	-3.919584e-002	7.372909e-001	-6.735618e-001	7.375114e-001	-6.727724e-001	-3.960937e-002	-3.306546e-002
41626016.260	-3.463276e-002	-3.924481e-002	7.369558e-001	-6.739569e-001	7.371391e-001	-6.731620e-001	-3.969286e-002	-3.309053e-002
41657285.804	-3.455540e-002	-3.923339e-002	7.366141e-001	-6.744415e-001	7.367886e-001	-6.735101e-001	-3.968479e-002	-3.309657e-002
41688555.347	-3.458120e-002	-3.921195e-002	7.362053e-001	-6.747582e-001	7.364293e-001	-6.740502e-001	-3.975058e-002	-3.309234e-002
41719824.891	-3.462617e-002	-3.914726e-002	7.358892e-001	-6.752581e-001	7.360447e-001	-6.743326e-001	-3.982798e-002	-3.304967e-002
41751094.434	-3.474210e-002	-3.908364e-002	7.355309e-001	-6.754821e-001	7.355448e-001	-6.750255e-001	-3.983044e-002	-3.316043e-002
41782363.977	-3.468426e-002	-3.923443e-002	7.351816e-001	-6.760128e-001	7.353282e-001	-6.751626e-001	-4.004044e-002	-3.309465e-002
41813633.521	-3.481843e-002	-3.923802e-002	7.346325e-001	-6.762995e-001	7.350131e-001	-6.755750e-001	-3.992723e-002	-3.304211e-002
41844903.064	-3.487227e-002	-3.921341e-002	7.344887e-001	-6.766463e-001	7.344921e-001	-6.761150e-001	-4.007258e-002	-3.309155e-002
41876172.608	-3.487415e-002	-3.923913e-002	7.338093e-001	-6.772130e-001	7.343030e-001	-6.764836e-001	-4.015921e-002	-3.305393e-002
41907442.151	-3.498527e-002	-3.918498e-002	7.335955e-001	-6.775410e-001	7.338897e-001	-6.769447e-001	-4.019106e-002	-3.307818e-002
41938711.695	-3.491105e-002	-3.923368e-002	7.331056e-001	-6.780132e-001	7.334934e-001	-6.772008e-001	-4.010761e-002	-3.311913e-002
41969981.238	-3.499814e-002	-3.932067e-002	7.328297e-001	-6.783911e-001	7.329762e-001	-6.778389e-001	-4.018518e-002	-3.305109e-002
42001250.782	-3.503324e-002	-3.921376e-002	7.324662e-001	-6.788897e-001	7.326627e-001	-6.779232e-001	-4.026955e-002	-3.306110e-002
42032520.325	-3.506632e-002	-3.919581e-002	7.320354e-001	-6.792574e-001	7.324589e-001	-6.783320e-001	-4.038011e-002	-3.305358e-002
42063789.869	-3.517676e-002	-3.925786e-002	7.317557e-001	-6.796121e-001	7.318329e-001	-6.789774e-001	-4.047943e-002	-3.307629e-002
42095059.412	-3.518152e-002	-3.927061e-002	7.313375e-001	-6.800614e-001	7.316157e-001	-6.793655e-001	-4.047188e-002	-3.301111e-002
42126328.956	-3.528001e-002	-3.927401e-002	7.309123e-001	-6.803142e-001	7.310739e-001	-6.796448e-001	-4.053958e-002	-3.306832e-002
42157598.499	-3.523754e-002	-3.930854e-002	7.305189e-001	-6.808432e-001	7.307013e-001	-6.802401e-001	-4.055112e-002	-3.303344e-002
42188868.043	-3.530286e-002	-3.932421e-002	7.302923e-001	-6.811188e-001	7.304171e-001	-6.805503e-001	-4.064351e-002	-3.302008e-002
42220137.586	-3.529243e-002	-3.929185e-002	7.297557e-001	-6.817370e-001	7.299975e-001	-6.808335e-001	-4.068033e-002	-3.305554e-002
42251407.129	-3.541202e-002	-3.933531e-002	7.295316e-001	-6.821909e-001	7.295809e-001	-6.813773e-001	-4.078101e-002	-3.298581e-002
42282676.673	-3.543500e-002	-3.933601e-002	7.289990e-001	-6.824650e-001	7.291338e-001	-6.817030e-001	-4.075431e-002	-3.301304e-002
42313946.216	-3.551407e-002	-3.928804e-002	7.287514e-001	-6.829670e-001	7.289003e-001	-6.822386e-001	-4.081683e-002	-3.303046e-002
42345215.760	-3.561976e-002	-3.938916e-002	7.282244e-001	-6.833010e-001	7.284300e-001	-6.826579e-001	-4.096888e-002	-3.298689e-002
42376485.303	-3.564170e-002	-3.937380e-002	7.278281e-001	-6.837542e-001	7.279901e-001	-6.829403e-001	-4.093999e-002	-3.295832e-002
42407754.847	-3.564138e-002	-3.932209e-002	7.274022e-001	-6.840870e-001	7.276543e-001	-6.833545e-001	-4.097615e-002	-3.297288e-002
42439024.390	-3.571162e-002	-3.939743e-002	7.271003e-001	-6.845282e-001	7.272695e-001	-6.836454e-001	-4.108509e-002	-3.306235e-002
42470293.934	-3.568454e-002	-3.940036e-002	7.267422e-001	-6.849352e-001	7.270013e-001	-6.841831e-001	-4.107111e-002	-3.303628e-002
42501563.477	-3.579270e-002	-3.930496e-002	7.264476e-001	-6.852114e-001	7.266449e-001	-6.846843e-001	-4.107329e-002	-3.301856e-002
42532833.021	-3.575967e-002	-3.934931e-002	7.260528e-001	-6.856532e-001	7.263083e-001	-6.851468e-001	-4.122887e-002	-3.302970e-002
42564102.564	-3.585811e-002	-3.936813e-002	7.255971e-001	-6.862158e-001	7.257930e-001	-6.854545e-001	-4.128032e-002	-3.304655e-002
42595372.108	-3.587250e-002	-3.936527e-002	7.250982e-001	-6.866393e-001	7.254446e-001	-6.859289e-001	-4.137548e-002	-3.302695e-002
42626641.651	-3.595508e-002	-3.949525e-002	7.248524e-001	-6.868283e-001	7.250665e-001	-6.861498e-001	-4.141020e-002	-3.301303e-002
42657911.194	-3.600939e-002	-3.940297e-002	7.244342e-001	-6.873809e-001	7.246868e-001	-6.866653e-001	-4.142628e-002	-3.299061e-002
42689180.738	-3.609455e-002	-3.935563e-002	7.241398e-001	-6.877284e-001	7.242810e-001	-6.870490e-001	-4.153287e-002	-3.302578e-002
42720450.281	-3.613223e-002	-3.945175e-002	7.235115e-001	-6.879421e-001	7.237978e-001	-6.873729e-001	-4.149601e-002	-3.299095e-002
42751719.825	-3.614965e-002	-3.953425e-002	7.232637e-001	-6.884858e-001	7.237058e-001	-6.876883e-001	-4.152464e-002	-3.301758e-002
42782989.368	-3.628622e-002	-3.944800e-002	7.228953e-001	-6.891176e-001	7.231337e-001	-6.882727e-001	-4.166340e-002	-3.295914e-002
42814258.912	-3.621207e-002	-3.943939e-002	7.226960e-001	-6.893381e-001	7.227805e-001	-6.886640e-001	-4.166542e-002	-3.311424e-002
42845528.455	-3.633230e-002	-3.940485e-002	7.221455e-001	-6.898629e-001	7.224476e-001	-6.890476e-001	-4.172108e-002	-3.296237e-002
42876797.999	-3.628567e-002	-3.946745e-002	7.218669e-001	-6.900453e-001	7.219742e-001	-6.895220e-001	-4.179819e-002	-3.304711e-002
42908067.542	-3.641957e-002	-3.947065e-002	7.213957e-001	-6.903510e-001	7.217112e-001	-6.897142e-001	-4.185511e-002	-3.307814e-002
42939337.086	-3.637035e-002	-3.941854e-002	7.210035e-001	-6.908246e-001	7.210330e-001	-6.902226e-001	-4.184166e-002	-3.308170e-002
42970606.629	-3.649718e-002	-3.952064e-002	7.205885e-001	-6.912893e-001	7.207260e-001	-6.906494e-001	-4.198288e-002	-3.311586e-002
43001876.173	-3.654159e-002	-3.950562e-002	7.202203e-001	-6.917817e-001	7.204772e-001	-6.910922e-001	-4.203142e-002	-3.293380e-002
43033145.716	-3.647819e-002	-3.944931e-002	7.196822e-001	-6.921940e-001	7.200148e-001	-6.915180e-001	-4.210105e-002	-3.296335e-002
43064415.260	-3.656008e-002	-3.953114e-002	7.193515e-001	-6.924720e-001	7.197577e-001	-6.918691e-001	-4.213359e-002	-3.302923e-002
43095684.803	-3.665744e-002	-3.949413e-002	7.189668e-001	-6.929874e-001	7.192662e-001	-6.922566e-001	-4.220508e-002	-3.301629e-002
43126954.346	-3.663276e-002	-3.948428e-002	7.186921e-001	-6.933402e-001	7.188507e-001	-6.926742e-001	-4.227074e-002	-3.295031e-002
43158223.890	-3.672070e-002	-3.953006e-002	7.183023e-001	-6.935709e-001	7.184254e-001	-6.930187e-001	-4.234217e-002	-3.295159e-002
43189493.433	-3.676396e-002	-3.958154e-002	7.180153e-001	-6.942402e-001	7.179233e-001	-6.935798e-001	-4.237603e-002	-3.290891e-002
43220762.977	-3.680782e-002	-3.949994e-002	7.175680e-001	-6.946038e-001	7.177648e-001	-6.937648e-001	-4.242213e-002	-3.299441e-002
43252032.520	-3.689528e-002	-3.961277e-002	7.170930e-001	-6.949563e-001	7.172348e-001	-6.943467e-001	-4.240304e-002	-3.301151e-002
43283302.064	-3.693437e-002	-3.950012e-002	7.167071e-001	-6.952788e-001	7.167962e-001	-6.945814e-001	-4.243119e-002	-3.293069e-002
43314571.607	-3.701134e-002	-3.962226e-002	7.163969e-001	-6.957382e-001	7.167642e-001	-6.950394e-001	-4.256711e-002	-3.284409e-002
43345841.151	-3.698289e-002	-3.956118e-002	7.159086e-001	-6.961073e-001	7.161960e-001	-6.954589e-001	-4.261735e-002	-3.287838e-002
43377110.694	-3.711036e-002	-3.960902e-002	7.155603e-001	-6.964498e-001	7.156905e-001	-6.958874e-001	-4.268419e-002	-3.293055e-002
43408380.238	-3.706406e-002	-3.965940e-002	7.152583e-001	-6.970660e-001	7.153252e-001	-6.961947e-001	-4.266897e-002	-3.294534e-002
43439649.781	-3.712512e-002	-3.964151e-002	7.147011e-001	-6.973219e-001	7.148168e-001	-6.966694e-001	-4.268555e-002	-3.292248e-002
43470919.325	-3.723787e-002	-3.963273e-002	7.142726e-001	-6.978357e-001	7.147034e-001	-6.971457e-001	-4.275314e-002	-3.283530e-002
43502188.868	-3.726395e-002	-3.967662e-002	7.139996e-001	-6.982113e-001	7.140721e-001	-6.974804e-001	-4.284164e-002	-3.286153e-002
43533458.412	-3.725034e-002	-3.959054e-002	7.136140e-001	-6.984277e-001	7.137344e-001	-6.977951e-001	-4.283279e-002	-3.291943e-002
43564727.955	-3.738030e-002	-3.962122e-002	7.132908e-001	-6.987773e-001	7.133925e-001	-6.984426e-001	-4.297250e-002	-3.294272e-002
43595997.498	-3.737296e-002	-3.968344e-002	7.127993e-001	-6.991993e-001	7.128504e-001	-6.985978e-001	-4.302656e-002	-3.289849e-002
43627267.042	-3.741332e-002	-3.971543e-002	7.125373e-001	-6.996309e-001	7.125826e-001	-6.990934e-001	-4.308453e-002	-3.284836e-002
43658536.585	-3.743324e-002	-3.973021e-002	7.120402e-001	-7.000117e-001	7.121909e-001	-6.994437e-001	-4.313569e-002	-3.287375e-002
43689806.129	-3.743966e-002	-3.974086e-002	7.115643e-001	-7.004622e-001	7.118265e-001	-6.998109e-001	-4.315425e-002	-3.292380e-002
43721075.672	-3.762779e-002	-3.959175e-002	7.111997e-001	-7.007817e-001	7.114251e-001	-7.002655e-001	-4.319649e-002	-3.292807e-002
43752345.216	-3.756371e-002	-3.973619e-002	7.110224e-001	-7.012892e-001	7.109643e-001	-7.007293e-001	-4.322948e-002	-3.285938e-002
43783614.759	-3.761377e-002	-3.974848e-002	7.104116e-001	-7.016230e-001	7.107238e-001	-7.010599e-001	-4.331129e-002	-3.290818e-002
43814884.303	-3.777909e-002	-3.969494e-002	7.101454e-001	-7.019989e-001	7.102857e-001	-7.014018e-001	-4.340287e-002	-3.283270e-002
43846153.846	-3.771199e-002	-3.974875e-002	7.098259e-001	-7.023976e-001	7.100269e-001	-7.018447e-001	-4.345700e-002	-3.285395e-002
43877423.390	-3.779307e-002	-3.976801e-002	7.092410e-001	-7.029788e-001	7.094799e-001	-7.022276e-001	-4.343468e-002	-3.286119e-002
43908692.933	-3.788391e-002	-3.967230e-002	7.088078e-001	-7.033731e-001	7.092156e-001	-7.025291e-001	-4.353876e-002	-3.279370e-002
43939962.477	-3.791494e-002	-3.970269e-002	7.086198e-001	-7.037382e-001	7.087558e-001	-7.030371e-001	-4.358522e-002	-3.280846e-002
43971232.020	-3.793726e-002	-3.976142e-002	7.080457e-001	-7.040436e-001	7.083089e-001	-7.034667e-001	-4.361621e-002	-3.281198e-002
44002501.563	-3.797470e-002	-3.979225e-002	7.076118e-001	-7.043162e-001	7.079945e-001	-7.036462e-001	-4.367118e-002	-3.274768e-002
44033771.107	-3.800103e-002	-3.978970e-002	7.073040e-001	-7.048906e-001	7.075907e-001	-7.040595e-001	-4.372524e-002	-3.278215e-002
44065040.650	-3.803861e-002	-3.968347e-002	7.069837e-001	-7.052522e-001	7.072006e-001	-7.045374e-001	-4.371518e-002	-3.272771e-002
44096310.194	-3.816903e-002	-3.977306e-002	7.066514e-001	-7.055504e-001	7.067358e-001	-7.049318e-001	-4.381400e-002	-3.280332e-002
44127579.737	-3.817752e-002	-3.980953e-002	7.061777e-001	-7.060195e-001	7.063744e-001	-7.052185e-001	-4.386050e-002	-3.280554e-002
44158849.281	-3.818951e-002	-3.978122e-002	7.057867e-001	-7.063082e-001	7.060818e-001	-7.057676e-001	-4.390431e-002	-3.279361e-002
44190118.824	-3.828857e-002	-3.978619e-002	7.053398e-001	-7.067240e-001	7.057005e-001	-7.061930e-001	-4.398500e-002	-3.277199e-002
44221388.368	-3.835640e-002	-3.979705e-002	7.050826e-001	-7.072007e-001	7.051111e-001	-7.065183e-001	-4.412298e-002	-3.275468e-002
44252657.911	-3.839793e-002	-3.979176e-002	7.046034e-001	-7.075260e-001	7.047760e-001	-7.070058e-001	-4.402463e-002	-3.278293e-002
44283927.455	-3.843026e-002	-3.982486e-002	7.041868e-001	-7.078579e-001	7.044345e-001	-7.072710e-001	-4.423780e-002	-3.281579e-002
44315196.998	-3.848506e-002	-3.980498e-002	7.039255e-001	-7.083876e-001	7.040540e-001	-7.076766e-001	-4.415229e-002	-3.283083e-002
44346466.542	-3.852503e-002	-3.982944e-002	7.033540e-001	-7.087556e-001	7.036156e-001	-7.081226e-001	-4.429364e-002	-3.276422e-002
44377736.085	-3.855357e-002	-3.980862e-002	7.030103e-001	-7.089355e-001	7.030823e-001	-7.084339e-001	-4.442821e-002	-3.272013e-002
44409005.629	-3.857579e-002	-3.975499e-002	7.025239e-001	-7.095676e-001	7.027105e-001	-7.087660e-001	-4.437916e-002	-3.275467e-002
44440275.172	-3.860606e-002	-3.990495e-002	7.021040e-001	-7.098090e-001	7.024802e-001	-7.092424e-001	-4.444877e-002	-3.270493e-002
44471544.715	-3.870057e-002	-3.988972e-002	7.017302e-001	-7.102261e-001	7.021191e-001	-7.096098e-001	-4.444575e-002	-3.270515e-002
44502814.259	-3.865094e-002	-3.992162e-002	7.013764e-001	-7.104375e-001	7.014676e-001	-7.100448e-001	-4.447683e-002	-3.270276e-002
44534083.802	-3.881403e-002	-3.984461e-002	7.009007e-001	-7.111212e-001	7.011640e-001	-7.103772e-001	-4.455082e-002	-3.276363e-002
44565353.346	-3.887142e-002	-3.983812e-002	7.005779e-001	-7.114968e-001	7.008932e-001	-7.107668e-001	-4.467602e-002	-3.261372e-002
44596622.889	-3.890844e-002	-3.990887e-002	7.002243e-001	-7.117522e-001	7.004795e-001	-7.111268e-001	-4.468250e-002	-3.267374e-002
44627892.433	-3.890718e-002	-3.989489e-002	6.997871e-001	-7.121319e-001	6.999915e-001	-7.115637e-001	-4.479640e-002	-3.274258e-002
44659161.976	-3.898656e-002	-3.985490e-002	6.992162e-001	-7.125795e-001	6.996711e-001	-7.119171e-001	-4.480599e-002	-3.266281e-002
44690431.520	-3.900116e-002	-3.996499e-002	6.990162e-001	-7.129757e-001	6.992011e-001	-7.122738e-001	-4.485537e-002	-3.265081e-002
