! COPPER MOUNTAIN TECHNOLOGIES, PLANAR TR1300/1, 00000000, 23.1.2/1.0
! Date: 7/5/2023 9:10:16 AM
! Data: Format [Calibration Info]
! Freq          	S11: Re/Im                     	S21: Re/Im                     	S12: Re/Im                     	S22: Re/Im                     
# HZ S RI R 50
4.00000000E+07	 2.71447072E-02	-3.99101022E-02	 9.97091103E-01	-5.75520952E-02	 0.00000000E+00	 0.00000000E+00	 0.00000000E+00	 0.00000000E+00
4.00312695E+07	 2.71740963E-02	-3.99373190E-02	 9.97072413E-01	-5.75929674E-02	 0.00000000E+00	 0.00000000E+00	 0.00000000E+00	 0.00000000E+00
4.00625391E+07	 2.72259841E-02	-3.99638245E-02	 9.97094005E-01	-5.76592876E-02	 0.00000000E+00	 0.00000000E+00	 0.00000000E+00	 0.00000000E+00
4.00938086E+07	 2.72766786E-02	-3.99645415E-02	 9.97084363E-01	-5.77040208E-02	 0.00000000E+00	 0.00000000E+00	 0.00000000E+00	 0.00000000E+00
4.01250782E+07	 2.73201345E-02	-4.00019761E-02	 9.97040223E-01	-5.77217816E-02	 0.00000000E+00	 0.00000000E+00	 0.00000000E+00	 0.00000000E+00
4.01563477E+07	 2.73529262E-02	-4.00023130E-02	 9.97077771E-01	-5.77644995E-02	 0.00000000E+00	 0.00000000E+00	 0.00000000E+00	 0.00000000E+00
4.01876173E+07	 2.73870175E-02	-4.00279331E-02	 9.97042047E-01	-5.78382776E-02	 0.00000000E+00	 0.00000000E+00	 0.00000000E+00	 0.00000000E+00
4.02188868E+07	 2.74331819E-02	-4.00408175E-02	 9.97026009E-01	-5.78596417E-02	 0.00000000E+00	 0.00000000E+00	 0.00000000E+00	 0.00000000E+00
4.02501563E+07	 2.74663597E-02	-4.00638793E-02	 9.97084154E-01	-5.78971909E-02	 0.00000000E+00	 0.00000000E+00	 0.00000000E+00	 0.00000000E+00
4.02814259E+07	 2.74988969E-02	-4.00761818E-02	 9.97040169E-01	-5.79495938E-02	 0.00000000E+00	 0.00000000E+00	 0.00000000E+00	 0.00000000E+00
4.03126954E+07	 2.75556938E-02	-4.01062663E-02	 9.97049888E-01	-5.80040514E-02	 0.00000000E+00	 0.00000000E+00	 0.00000000E+00	 0.00000000E+00
4.03439650E+07	 2.75868481E-02	-4.01135892E-02	 9.97019884E-01	-5.80293053E-02	 0.00000000E+00	 0.00000000E+00	 0.00000000E+00	 0.00000000E+00
4.03752345E+07	 2.76311026E-02	-4.01323405E-02	 9.97042593E-01	-5.80670421E-02	 0.00000000E+00	 0.00000000E+00	 0.00000000E+00	 0.00000000E+00
4.04065041E+07	 2.76776286E-02	-4.01448038E-02	 9.97012594E-01	-5.81097253E-02	 0.00000000E+00	 0.00000000E+00	 0.00000000E+00	 0.00000000E+00
4.04377736E+07	 2.77044888E-02	-4.01843509E-02	 9.97017902E-01	-5.81792063E-02	 0.00000000E+00	 0.00000000E+00	 0.00000000E+00	 0.00000000E+00
4.04690432E+07	 2.77462248E-02	-4.01934832E-02	 9.97089221E-01	-5.82034386E-02	 0.00000000E+00	 0.00000000E+00	 0.00000000E+00	 0.00000000E+00
4.05003127E+07	 2.77965226E-02	-4.02183261E-02	 9.97011824E-01	-5.82956196E-02	 0.00000000E+00	 0.00000000E+00	 0.00000000E+00	 0.00000000E+00
4.05315822E+07	 2.78323467E-02	-4.02254456E-02	 9.97036441E-01	-5.83115986E-02	 0.00000000E+00	 0.00000000E+00	 0.00000000E+00	 0.00000000E+00
4.05628518E+07	 2.78767958E-02	-4.02509495E-02	 9.97004972E-01	-5.83374441E-02	 0.00000000E+00	 0.00000000E+00	 0.00000000E+00	 0.00000000E+00
4.05941213E+07	 2.79003795E-02	-4.02602619E-02	 9.97007369E-01	-5.83911818E-02	 0.00000000E+00	 0.00000000E+00	 0.00000000E+00	 0.00000000E+00
4.06253909E+07	 2.79396853E-02	-4.02601527E-02	 9.96999792E-01	-5.84517727E-02	 0.00000000E+00	 0.00000000E+00	 0.00000000E+00	 0.00000000E+00
4.06566604E+07	 2.79815508E-02	-4.03025344E-02	 9.96997402E-01	-5.84618579E-02	 0.00000000E+00	 0.00000000E+00	 0.00000000E+00	 0.00000000E+00
4.06879300E+07	 2.80197910E-02	-4.03025405E-02	 9.96986636E-01	-5.85205757E-02	 0.00000000E+00	 0.00000000E+00	 0.00000000E+00	 0.00000000E+00
4.07191995E+07	 2.80857562E-02	-4.03244424E-02	 9.97008449E-01	-5.85464094E-02	 0.00000000E+00	 0.00000000E+00	 0.00000000E+00	 0.00000000E+00
4.07504690E+07	 2.81206324E-02	-4.03523483E-02	 9.96996613E-01	-5.86255068E-02	 0.00000000E+00	 0.00000000E+00	 0.00000000E+00	 0.00000000E+00
4.07817386E+07	 2.81591779E-02	-4.03516602E-02	 9.96984839E-01	-5.86895358E-02	 0.00000000E+00	 0.00000000E+00	 0.00000000E+00	 0.00000000E+00
4.08130081E+07	 2.81830627E-02	-4.03873828E-02	 9.96973362E-01	-5.87416203E-02	 0.00000000E+00	 0.00000000E+00	 0.00000000E+00	 0.00000000E+00
4.08442777E+07	 2.82371634E-02	-4.04044762E-02	 9.96966836E-01	-5.87762275E-02	 0.00000000E+00	 0.00000000E+00	 0.00000000E+00	 0.00000000E+00
4.08755472E+07	 2.82833896E-02	-4.04198567E-02	 9.96986806E-01	-5.88019475E-02	 0.00000000E+00	 0.00000000E+00	 0.00000000E+00	 0.00000000E+00
4.09068168E+07	 2.83182309E-02	-4.04273232E-02	 9.96970144E-01	-5.88395604E-02	 0.00000000E+00	 0.00000000E+00	 0.00000000E+00	 0.00000000E+00
4.09380863E+07	 2.83479260E-02	-4.04475228E-02	 9.96978609E-01	-5.88891764E-02	 0.00000000E+00	 0.00000000E+00	 0.00000000E+00	 0.00000000E+00
4.09693558E+07	 2.84045994E-02	-4.04671925E-02	 9.96944413E-01	-5.89450119E-02	 0.00000000E+00	 0.00000000E+00	 0.00000000E+00	 0.00000000E+00
4.10006254E+07	 2.84520991E-02	-4.04904699E-02	 9.96944013E-01	-5.89459953E-02	 0.00000000E+00	 0.00000000E+00	 0.00000000E+00	 0.00000000E+00
4.10318949E+07	 2.84907113E-02	-4.04897427E-02	 9.96984717E-01	-5.90353556E-02	 0.00000000E+00	 0.00000000E+00	 0.00000000E+00	 0.00000000E+00
4.10631645E+07	 2.85157205E-02	-4.05090463E-02	 9.96959025E-01	-5.90695817E-02	 0.00000000E+00	 0.00000000E+00	 0.00000000E+00	 0.00000000E+00
4.10944340E+07	 2.85730742E-02	-4.05404048E-02	 9.96936132E-01	-5.91014639E-02	 0.00000000E+00	 0.00000000E+00	 0.00000000E+00	 0.00000000E+00
4.11257036E+07	 2.85961837E-02	-4.05518178E-02	 9.96924910E-01	-5.91500737E-02	 0.00000000E+00	 0.00000000E+00	 0.00000000E+00	 0.00000000E+00
4.11569731E+07	 2.86523700E-02	-4.05773933E-02	 9.96948389E-01	-5.92187008E-02	 0.00000000E+00	 0.00000000E+00	 0.00000000E+00	 0.00000000E+00
4.11882427E+07	 2.86858364E-02	-4.05712370E-02	 9.96924972E-01	-5.92298837E-02	 0.00000000E+00	 0.00000000E+00	 0.00000000E+00	 0.00000000E+00
4.12195122E+07	 2.87465915E-02	-4.06112504E-02	 9.96941264E-01	-5.93066584E-02	 0.00000000E+00	 0.00000000E+00	 0.00000000E+00	 0.00000000E+00
4.12507817E+07	 2.87812709E-02	-4.06121511E-02	 9.96909591E-01	-5.93448293E-02	 0.00000000E+00	 0.00000000E+00	 0.00000000E+00	 0.00000000E+00
4.12820513E+07	 2.88154418E-02	-4.06456822E-02	 9.96940979E-01	-5.94028101E-02	 0.00000000E+00	 0.00000000E+00	 0.00000000E+00	 0.00000000E+00
4.13133208E+07	 2.88637371E-02	-4.06581331E-02	 9.96930090E-01	-5.94031670E-02	 0.00000000E+00	 0.00000000E+00	 0.00000000E+00	 0.00000000E+00
4.13445904E+07	 2.88941095E-02	-4.06805529E-02	 9.96910304E-01	-5.94862995E-02	 0.00000000E+00	 0.00000000E+00	 0.00000000E+00	 0.00000000E+00
4.13758599E+07	 2.89388979E-02	-4.07006026E-02	 9.96896354E-01	-5.95188840E-02	 0.00000000E+00	 0.00000000E+00	 0.00000000E+00	 0.00000000E+00
4.14071295E+07	 2.89654324E-02	-4.07220011E-02	 9.96918775E-01	-5.95802247E-02	 0.00000000E+00	 0.00000000E+00	 0.00000000E+00	 0.00000000E+00
4.14383990E+07	 2.90176489E-02	-4.07212968E-02	 9.96886498E-01	-5.96054945E-02	 0.00000000E+00	 0.00000000E+00	 0.00000000E+00	 0.00000000E+00
4.14696685E+07	 2.90585935E-02	-4.07238284E-02	 9.96884858E-01	-5.96513951E-02	 0.00000000E+00	 0.00000000E+00	 0.00000000E+00	 0.00000000E+00
4.15009381E+07	 2.90916863E-02	-4.07660574E-02	 9.96891335E-01	-5.97194496E-02	 0.00000000E+00	 0.00000000E+00	 0.00000000E+00	 0.00000000E+00
4.15322076E+07	 2.91357483E-02	-4.07799362E-02	 9.96905632E-01	-5.97583106E-02	 0.00000000E+00	 0.00000000E+00	 0.00000000E+00	 0.00000000E+00
4.15634772E+07	 2.91844199E-02	-4.08015596E-02	 9.96876863E-01	-5.97986028E-02	 0.00000000E+00	 0.00000000E+00	 0.00000000E+00	 0.00000000E+00
4.15947467E+07	 2.92378657E-02	-4.08181868E-02	 9.96906220E-01	-5.98514442E-02	 0.00000000E+00	 0.00000000E+00	 0.00000000E+00	 0.00000000E+00
4.16260163E+07	 2.92573947E-02	-4.08332048E-02	 9.96870179E-01	-5.98966765E-02	 0.00000000E+00	 0.00000000E+00	 0.00000000E+00	 0.00000000E+00
4.16572858E+07	 2.93090307E-02	-4.08411182E-02	 9.96883788E-01	-5.99423255E-02	 0.00000000E+00	 0.00000000E+00	 0.00000000E+00	 0.00000000E+00
4.16885553E+07	 2.93546561E-02	-4.08482918E-02	 9.96873247E-01	-5.99929558E-02	 0.00000000E+00	 0.00000000E+00	 0.00000000E+00	 0.00000000E+00
4.17198249E+07	 2.93911175E-02	-4.08669396E-02	 9.96877580E-01	-6.00324848E-02	 0.00000000E+00	 0.00000000E+00	 0.00000000E+00	 0.00000000E+00
4.17510944E+07	 2.94246480E-02	-4.08619395E-02	 9.96855811E-01	-6.00329194E-02	 0.00000000E+00	 0.00000000E+00	 0.00000000E+00	 0.00000000E+00
4.17823640E+07	 2.94707133E-02	-4.09034403E-02	 9.96840645E-01	-6.01258354E-02	 0.00000000E+00	 0.00000000E+00	 0.00000000E+00	 0.00000000E+00
4.18136335E+07	 2.95097983E-02	-4.09286213E-02	 9.96871447E-01	-6.01412062E-02	 0.00000000E+00	 0.00000000E+00	 0.00000000E+00	 0.00000000E+00
4.18449031E+07	 2.95540188E-02	-4.09414863E-02	 9.96832213E-01	-6.01980662E-02	 0.00000000E+00	 0.00000000E+00	 0.00000000E+00	 0.00000000E+00
4.18761726E+07	 2.95962540E-02	-4.09464067E-02	 9.96853549E-01	-6.02327011E-02	 0.00000000E+00	 0.00000000E+00	 0.00000000E+00	 0.00000000E+00
4.19074422E+07	 2.96279238E-02	-4.09773655E-02	 9.96850094E-01	-6.02788985E-02	 0.00000000E+00	 0.00000000E+00	 0.00000000E+00	 0.00000000E+00
4.19387117E+07	 2.96918170E-02	-4.09833021E-02	 9.96827823E-01	-6.03640171E-02	 0.00000000E+00	 0.00000000E+00	 0.00000000E+00	 0.00000000E+00
4.19699812E+07	 2.97315515E-02	-4.10038923E-02	 9.96842723E-01	-6.03620020E-02	 0.00000000E+00	 0.00000000E+00	 0.00000000E+00	 0.00000000E+00
4.20012508E+07	 2.97720303E-02	-4.10166680E-02	 9.96832125E-01	-6.04451507E-02	 0.00000000E+00	 0.00000000E+00	 0.00000000E+00	 0.00000000E+00
4.20325203E+07	 2.98094879E-02	-4.10369576E-02	 9.96845527E-01	-6.04829173E-02	 0.00000000E+00	 0.00000000E+00	 0.00000000E+00	 0.00000000E+00
4.20637899E+07	 2.98565403E-02	-4.10528949E-02	 9.96823268E-01	-6.04949269E-02	 0.00000000E+00	 0.00000000E+00	 0.00000000E+00	 0.00000000E+00
4.20950594E+07	 2.98869717E-02	-4.10594658E-02	 9.96840438E-01	-6.05461407E-02	 0.00000000E+00	 0.00000000E+00	 0.00000000E+00	 0.00000000E+00
4.21263290E+07	 2.99375057E-02	-4.10967421E-02	 9.96818700E-01	-6.06159660E-02	 0.00000000E+00	 0.00000000E+00	 0.00000000E+00	 0.00000000E+00
4.21575985E+07	 2.99883346E-02	-4.10946403E-02	 9.96797678E-01	-6.06750693E-02	 0.00000000E+00	 0.00000000E+00	 0.00000000E+00	 0.00000000E+00
4.21888680E+07	 3.00170522E-02	-4.11188699E-02	 9.96814951E-01	-6.07236015E-02	 0.00000000E+00	 0.00000000E+00	 0.00000000E+00	 0.00000000E+00
4.22201376E+07	 3.00666216E-02	-4.11279182E-02	 9.96819147E-01	-6.07471062E-02	 0.00000000E+00	 0.00000000E+00	 0.00000000E+00	 0.00000000E+00
4.22514071E+07	 3.00918221E-02	-4.11309141E-02	 9.96814523E-01	-6.07973529E-02	 0.00000000E+00	 0.00000000E+00	 0.00000000E+00	 0.00000000E+00
4.22826767E+07	 3.01547276E-02	-4.11627471E-02	 9.96766981E-01	-6.08477096E-02	 0.00000000E+00	 0.00000000E+00	 0.00000000E+00	 0.00000000E+00
4.23139462E+07	 3.01704685E-02	-4.11702386E-02	 9.96796294E-01	-6.08868637E-02	 0.00000000E+00	 0.00000000E+00	 0.00000000E+00	 0.00000000E+00
4.23452158E+07	 3.02337440E-02	-4.11963860E-02	 9.96776357E-01	-6.09391117E-02	 0.00000000E+00	 0.00000000E+00	 0.00000000E+00	 0.00000000E+00
4.23764853E+07	 3.02697512E-02	-4.12214507E-02	 9.96749613E-01	-6.09889728E-02	 0.00000000E+00	 0.00000000E+00	 0.00000000E+00	 0.00000000E+00
4.24077548E+07	 3.03172848E-02	-4.12349211E-02	 9.96778473E-01	-6.10406317E-02	 0.00000000E+00	 0.00000000E+00	 0.00000000E+00	 0.00000000E+00
4.24390244E+07	 3.03552724E-02	-4.12547470E-02	 9.96765857E-01	-6.10858691E-02	 0.00000000E+00	 0.00000000E+00	 0.00000000E+00	 0.00000000E+00
4.24702939E+07	 3.03874556E-02	-4.12612214E-02	 9.96777630E-01	-6.11143726E-02	 0.00000000E+00	 0.00000000E+00	 0.00000000E+00	 0.00000000E+00
4.25015635E+07	 3.04168653E-02	-4.12719378E-02	 9.96757182E-01	-6.11473301E-02	 0.00000000E+00	 0.00000000E+00	 0.00000000E+00	 0.00000000E+00
4.25328330E+07	 3.04600273E-02	-4.12834925E-02	 9.96775867E-01	-6.11955891E-02	 0.00000000E+00	 0.00000000E+00	 0.00000000E+00	 0.00000000E+00
4.25641026E+07	 3.05340240E-02	-4.12902409E-02	 9.96735461E-01	-6.12549793E-02	 0.00000000E+00	 0.00000000E+00	 0.00000000E+00	 0.00000000E+00
4.25953721E+07	 3.05798162E-02	-4.13043152E-02	 9.96756910E-01	-6.12795054E-02	 0.00000000E+00	 0.00000000E+00	 0.00000000E+00	 0.00000000E+00
4.26266417E+07	 3.06020787E-02	-4.13562235E-02	 9.96729986E-01	-6.13312772E-02	 0.00000000E+00	 0.00000000E+00	 0.00000000E+00	 0.00000000E+00
4.26579112E+07	 3.06363418E-02	-4.13430564E-02	 9.96752439E-01	-6.13712969E-02	 0.00000000E+00	 0.00000000E+00	 0.00000000E+00	 0.00000000E+00
4.26891807E+07	 3.06706520E-02	-4.13513051E-02	 9.96766228E-01	-6.14196570E-02	 0.00000000E+00	 0.00000000E+00	 0.00000000E+00	 0.00000000E+00
4.27204503E+07	 3.07289661E-02	-4.14008646E-02	 9.96741737E-01	-6.14698862E-02	 0.00000000E+00	 0.00000000E+00	 0.00000000E+00	 0.00000000E+00
4.27517198E+07	 3.07570108E-02	-4.14144611E-02	 9.96719358E-01	-6.15111835E-02	 0.00000000E+00	 0.00000000E+00	 0.00000000E+00	 0.00000000E+00
4.27829894E+07	 3.08112844E-02	-4.14006915E-02	 9.96727919E-01	-6.15755444E-02	 0.00000000E+00	 0.00000000E+00	 0.00000000E+00	 0.00000000E+00
4.28142589E+07	 3.08425636E-02	-4.14263809E-02	 9.96722674E-01	-6.16029146E-02	 0.00000000E+00	 0.00000000E+00	 0.00000000E+00	 0.00000000E+00
4.28455285E+07	 3.08871026E-02	-4.14397951E-02	 9.96715638E-01	-6.16370366E-02	 0.00000000E+00	 0.00000000E+00	 0.00000000E+00	 0.00000000E+00
4.28767980E+07	 3.09366627E-02	-4.14621952E-02	 9.96746935E-01	-6.16776112E-02	 0.00000000E+00	 0.00000000E+00	 0.00000000E+00	 0.00000000E+00
4.29080675E+07	 3.09571579E-02	-4.14957616E-02	 9.96702410E-01	-6.17348073E-02	 0.00000000E+00	 0.00000000E+00	 0.00000000E+00	 0.00000000E+00
4.29393371E+07	 3.10296392E-02	-4.14948209E-02	 9.96669594E-01	-6.17574839E-02	 0.00000000E+00	 0.00000000E+00	 0.00000000E+00	 0.00000000E+00
4.29706066E+07	 3.10663367E-02	-4.15147385E-02	 9.96706941E-01	-6.18195171E-02	 0.00000000E+00	 0.00000000E+00	 0.00000000E+00	 0.00000000E+00
4.30018762E+07	 3.10982478E-02	-4.15222409E-02	 9.96682141E-01	-6.18899086E-02	 0.00000000E+00	 0.00000000E+00	 0.00000000E+00	 0.00000000E+00
4.30331457E+07	 3.11650190E-02	-4.15236195E-02	 9.96724409E-01	-6.19221702E-02	 0.00000000E+00	 0.00000000E+00	 0.00000000E+00	 0.00000000E+00
4.30644153E+07	 3.11986648E-02	-4.15584121E-02	 9.96700905E-01	-6.19801279E-02	 0.00000000E+00	 0.00000000E+00	 0.00000000E+00	 0.00000000E+00
4.30956848E+07	 3.12305197E-02	-4.15606476E-02	 9.96669488E-01	-6.20170655E-02	 0.00000000E+00	 0.00000000E+00	 0.00000000E+00	 0.00000000E+00
4.31269543E+07	 3.12801056E-02	-4.15779527E-02	 9.96683008E-01	-6.20872468E-02	 0.00000000E+00	 0.00000000E+00	 0.00000000E+00	 0.00000000E+00
4.31582239E+07	 3.13293546E-02	-4.16081291E-02	 9.96681110E-01	-6.21117413E-02	 0.00000000E+00	 0.00000000E+00	 0.00000000E+00	 0.00000000E+00
4.31894934E+07	 3.13766616E-02	-4.16113248E-02	 9.96648641E-01	-6.21720076E-02	 0.00000000E+00	 0.00000000E+00	 0.00000000E+00	 0.00000000E+00
4.32207630E+07	 3.13987395E-02	-4.16246608E-02	 9.96660030E-01	-6.22056439E-02	 0.00000000E+00	 0.00000000E+00	 0.00000000E+00	 0.00000000E+00
4.32520325E+07	 3.14583182E-02	-4.16583657E-02	 9.96670908E-01	-6.22485457E-02	 0.00000000E+00	 0.00000000E+00	 0.00000000E+00	 0.00000000E+00
4.32833021E+07	 3.14936374E-02	-4.16589721E-02	 9.96634896E-01	-6.22903345E-02	 0.00000000E+00	 0.00000000E+00	 0.00000000E+00	 0.00000000E+00
4.33145716E+07	 3.15201850E-02	-4.16797580E-02	 9.96636059E-01	-6.23242471E-02	 0.00000000E+00	 0.00000000E+00	 0.00000000E+00	 0.00000000E+00
4.33458412E+07	 3.15774569E-02	-4.16876937E-02	 9.96631361E-01	-6.23789044E-02	 0.00000000E+00	 0.00000000E+00	 0.00000000E+00	 0.00000000E+00
4.33771107E+07	 3.16219024E-02	-4.17002338E-02	 9.96634453E-01	-6.24287377E-02	 0.00000000E+00	 0.00000000E+00	 0.00000000E+00	 0.00000000E+00
4.34083802E+07	 3.16728701E-02	-4.17246895E-02	 9.96631835E-01	-6.24810316E-02	 0.00000000E+00	 0.00000000E+00	 0.00000000E+00	 0.00000000E+00
4.34396498E+07	 3.17277769E-02	-4.17338904E-02	 9.96613668E-01	-6.25139884E-02	 0.00000000E+00	 0.00000000E+00	 0.00000000E+00	 0.00000000E+00
4.34709193E+07	 3.17472019E-02	-4.17389924E-02	 9.96612467E-01	-6.25751950E-02	 0.00000000E+00	 0.00000000E+00	 0.00000000E+00	 0.00000000E+00
4.35021889E+07	 3.17910905E-02	-4.17654270E-02	 9.96623143E-01	-6.26003973E-02	 0.00000000E+00	 0.00000000E+00	 0.00000000E+00	 0.00000000E+00
4.35334584E+07	 3.18447297E-02	-4.17874986E-02	 9.96647247E-01	-6.26539080E-02	 0.00000000E+00	 0.00000000E+00	 0.00000000E+00	 0.00000000E+00
4.35647280E+07	 3.18784401E-02	-4.17982040E-02	 9.96607364E-01	-6.26642612E-02	 0.00000000E+00	 0.00000000E+00	 0.00000000E+00	 0.00000000E+00
4.35959975E+07	 3.19209133E-02	-4.18194615E-02	 9.96591459E-01	-6.27450597E-02	 0.00000000E+00	 0.00000000E+00	 0.00000000E+00	 0.00000000E+00
4.36272670E+07	 3.19658942E-02	-4.18187798E-02	 9.96589160E-01	-6.28095131E-02	 0.00000000E+00	 0.00000000E+00	 0.00000000E+00	 0.00000000E+00
4.36585366E+07	 3.20168423E-02	-4.18503560E-02	 9.96594123E-01	-6.28218947E-02	 0.00000000E+00	 0.00000000E+00	 0.00000000E+00	 0.00000000E+00
4.36898061E+07	 3.20602668E-02	-4.18625400E-02	 9.96601066E-01	-6.28871780E-02	 0.00000000E+00	 0.00000000E+00	 0.00000000E+00	 0.00000000E+00
4.37210757E+07	 3.20938788E-02	-4.18708692E-02	 9.96605562E-01	-6.28987919E-02	 0.00000000E+00	 0.00000000E+00	 0.00000000E+00	 0.00000000E+00
4.37523452E+07	 3.21506603E-02	-4.18760067E-02	 9.96561830E-01	-6.29515948E-02	 0.00000000E+00	 0.00000000E+00	 0.00000000E+00	 0.00000000E+00
4.37836148E+07	 3.21925452E-02	-4.18998309E-02	 9.96578489E-01	-6.30217304E-02	 0.00000000E+00	 0.00000000E+00	 0.00000000E+00	 0.00000000E+00
4.38148843E+07	 3.22079910E-02	-4.19245046E-02	 9.96565721E-01	-6.30619637E-02	 0.00000000E+00	 0.00000000E+00	 0.00000000E+00	 0.00000000E+00
4.38461538E+07	 3.22504026E-02	-4.19321381E-02	 9.96580468E-01	-6.31186158E-02	 0.00000000E+00	 0.00000000E+00	 0.00000000E+00	 0.00000000E+00
4.38774234E+07	 3.23180558E-02	-4.19465211E-02	 9.96579641E-01	-6.31417224E-02	 0.00000000E+00	 0.00000000E+00	 0.00000000E+00	 0.00000000E+00
4.39086929E+07	 3.23482661E-02	-4.19563758E-02	 9.96568247E-01	-6.31891037E-02	 0.00000000E+00	 0.00000000E+00	 0.00000000E+00	 0.00000000E+00
4.39399625E+07	 3.23893650E-02	-4.19571305E-02	 9.96555389E-01	-6.32328651E-02	 0.00000000E+00	 0.00000000E+00	 0.00000000E+00	 0.00000000E+00
4.39712320E+07	 3.24380601E-02	-4.19925513E-02	 9.96539982E-01	-6.32752769E-02	 0.00000000E+00	 0.00000000E+00	 0.00000000E+00	 0.00000000E+00
4.40025016E+07	 3.24738697E-02	-4.20192919E-02	 9.96543609E-01	-6.33502478E-02	 0.00000000E+00	 0.00000000E+00	 0.00000000E+00	 0.00000000E+00
4.40337711E+07	 3.25167681E-02	-4.20251297E-02	 9.96537178E-01	-6.33830318E-02	 0.00000000E+00	 0.00000000E+00	 0.00000000E+00	 0.00000000E+00
4.40650407E+07	 3.25541894E-02	-4.20186490E-02	 9.96540073E-01	-6.34176101E-02	 0.00000000E+00	 0.00000000E+00	 0.00000000E+00	 0.00000000E+00
4.40963102E+07	 3.25997501E-02	-4.20543809E-02	 9.96501557E-01	-6.34485319E-02	 0.00000000E+00	 0.00000000E+00	 0.00000000E+00	 0.00000000E+00
4.41275797E+07	 3.26536398E-02	-4.20632773E-02	 9.96517982E-01	-6.35218134E-02	 0.00000000E+00	 0.00000000E+00	 0.00000000E+00	 0.00000000E+00
4.41588493E+07	 3.26810753E-02	-4.20675736E-02	 9.96512437E-01	-6.35629194E-02	 0.00000000E+00	 0.00000000E+00	 0.00000000E+00	 0.00000000E+00
4.41901188E+07	 3.27185669E-02	-4.20872694E-02	 9.96503876E-01	-6.36046159E-02	 0.00000000E+00	 0.00000000E+00	 0.00000000E+00	 0.00000000E+00
4.42213884E+07	 3.27632551E-02	-4.20897550E-02	 9.96481493E-01	-6.36486279E-02	 0.00000000E+00	 0.00000000E+00	 0.00000000E+00	 0.00000000E+00
4.42526579E+07	 3.28228431E-02	-4.21202613E-02	 9.96474465E-01	-6.36919723E-02	 0.00000000E+00	 0.00000000E+00	 0.00000000E+00	 0.00000000E+00
