!Agilent Technologies,E5061B,MY49102235,A.02.00
!Date: Mon Jul 03 10:57:47 2023
!Data & Calibration Information:
!Freq	S11:SOLT2(ON)	S21:SOLT2(ON)	S12:SOLT2(ON)	S22:SOLT2(ON)
# Hz S RI R 50
40000000.000	-3.109861e-002	-3.734666e-002	7.552512e-001	-6.539478e-001	7.553515e-001	-6.529746e-001	-3.586421e-002	-3.169691e-002
40031269.543	-3.114141e-002	-3.741786e-002	7.549680e-001	-6.543524e-001	7.550325e-001	-6.533052e-001	-3.588659e-002	-3.167268e-002
40062539.087	-3.120747e-002	-3.742330e-002	7.542915e-001	-6.545132e-001	7.546039e-001	-6.537116e-001	-3.589276e-002	-3.171098e-002
40093808.630	-3.125225e-002	-3.739787e-002	7.540281e-001	-6.550915e-001	7.542294e-001	-6.543271e-001	-3.597614e-002	-3.166946e-002
40125078.174	-3.133584e-002	-3.738680e-002	7.536775e-001	-6.554502e-001	7.537737e-001	-6.546426e-001	-3.596473e-002	-3.159687e-002
40156347.717	-3.130176e-002	-3.742652e-002	7.534346e-001	-6.560048e-001	7.534261e-001	-6.552025e-001	-3.608413e-002	-3.167739e-002
40187617.261	-3.137977e-002	-3.749650e-002	7.530474e-001	-6.562554e-001	7.531953e-001	-6.556188e-001	-3.611072e-002	-3.179726e-002
40218886.804	-3.139220e-002	-3.744129e-002	7.526845e-001	-6.568371e-001	7.527157e-001	-6.558857e-001	-3.611724e-002	-3.173777e-002
40250156.348	-3.145252e-002	-3.745174e-002	7.523442e-001	-6.571365e-001	7.524102e-001	-6.564047e-001	-3.624390e-002	-3.176854e-002
40281425.891	-3.152671e-002	-3.748711e-002	7.519343e-001	-6.576098e-001	7.520231e-001	-6.567960e-001	-3.626573e-002	-3.171550e-002
40312695.435	-3.152534e-002	-3.747359e-002	7.515213e-001	-6.582152e-001	7.516611e-001	-6.571468e-001	-3.626255e-002	-3.173521e-002
40343964.978	-3.155423e-002	-3.742481e-002	7.511847e-001	-6.583144e-001	7.513021e-001	-6.575934e-001	-3.635996e-002	-3.168194e-002
40375234.522	-3.158094e-002	-3.742791e-002	7.507211e-001	-6.588867e-001	7.509799e-001	-6.579446e-001	-3.641849e-002	-3.170256e-002
40406504.065	-3.169931e-002	-3.741526e-002	7.502781e-001	-6.591444e-001	7.505117e-001	-6.585568e-001	-3.640112e-002	-3.178651e-002
40437773.609	-3.179291e-002	-3.753993e-002	7.502142e-001	-6.595786e-001	7.502680e-001	-6.588211e-001	-3.645411e-002	-3.178392e-002
40469043.152	-3.172342e-002	-3.753054e-002	7.497399e-001	-6.600418e-001	7.499045e-001	-6.592370e-001	-3.655570e-002	-3.170953e-002
40500312.695	-3.183044e-002	-3.760550e-002	7.491622e-001	-6.605476e-001	7.495246e-001	-6.596738e-001	-3.661502e-002	-3.169283e-002
40531582.239	-3.183621e-002	-3.752272e-002	7.488523e-001	-6.606515e-001	7.490055e-001	-6.603679e-001	-3.668539e-002	-3.168070e-002
40562851.782	-3.190382e-002	-3.748931e-002	7.484254e-001	-6.612144e-001	7.485897e-001	-6.605655e-001	-3.662355e-002	-3.182986e-002
40594121.326	-3.191612e-002	-3.754433e-002	7.483199e-001	-6.618103e-001	7.483407e-001	-6.608764e-001	-3.671038e-002	-3.169423e-002
40625390.869	-3.195004e-002	-3.749835e-002	7.479003e-001	-6.621290e-001	7.481604e-001	-6.614686e-001	-3.679719e-002	-3.178276e-002
40656660.413	-3.200618e-002	-3.754764e-002	7.474683e-001	-6.625465e-001	7.477893e-001	-6.616739e-001	-3.680364e-002	-3.173276e-002
40687929.956	-3.202813e-002	-3.753625e-002	7.473769e-001	-6.631565e-001	7.474136e-001	-6.621136e-001	-3.686248e-002	-3.176007e-002
40719199.500	-3.209542e-002	-3.747638e-002	7.466585e-001	-6.632924e-001	7.468741e-001	-6.628112e-001	-3.684272e-002	-3.177247e-002
40750469.043	-3.216155e-002	-3.752715e-002	7.462302e-001	-6.636022e-001	7.465236e-001	-6.630823e-001	-3.703967e-002	-3.172867e-002
40781738.587	-3.210760e-002	-3.764359e-002	7.460330e-001	-6.642626e-001	7.461776e-001	-6.635410e-001	-3.711345e-002	-3.173873e-002
40813008.130	-3.223582e-002	-3.759547e-002	7.457930e-001	-6.645703e-001	7.456808e-001	-6.639465e-001	-3.709964e-002	-3.173421e-002
40844277.674	-3.225347e-002	-3.754843e-002	7.452399e-001	-6.650408e-001	7.453543e-001	-6.643001e-001	-3.721699e-002	-3.173260e-002
40875547.217	-3.228410e-002	-3.761837e-002	7.448083e-001	-6.655578e-001	7.451355e-001	-6.646031e-001	-3.720413e-002	-3.174394e-002
40906816.760	-3.233857e-002	-3.755902e-002	7.446624e-001	-6.658872e-001	7.446660e-001	-6.650754e-001	-3.715493e-002	-3.178309e-002
40938086.304	-3.245019e-002	-3.763368e-002	7.440041e-001	-6.663612e-001	7.444178e-001	-6.655803e-001	-3.732153e-002	-3.175644e-002
40969355.847	-3.250044e-002	-3.758516e-002	7.435900e-001	-6.666327e-001	7.439233e-001	-6.659649e-001	-3.737173e-002	-3.170940e-002
41000625.391	-3.252123e-002	-3.756396e-002	7.431700e-001	-6.670099e-001	7.434223e-001	-6.662839e-001	-3.736705e-002	-3.171648e-002
41031894.934	-3.240303e-002	-3.752558e-002	7.431523e-001	-6.674247e-001	7.431351e-001	-6.668988e-001	-3.746700e-002	-3.172896e-002
41063164.478	-3.257084e-002	-3.757845e-002	7.427149e-001	-6.679458e-001	7.428944e-001	-6.672521e-001	-3.746568e-002	-3.176946e-002
41094434.021	-3.263121e-002	-3.764479e-002	7.422756e-001	-6.682642e-001	7.424110e-001	-6.675227e-001	-3.755683e-002	-3.174819e-002
41125703.565	-3.263397e-002	-3.763199e-002	7.419589e-001	-6.687371e-001	7.421571e-001	-6.678742e-001	-3.761724e-002	-3.172055e-002
41156973.108	-3.264186e-002	-3.767917e-002	7.416410e-001	-6.689830e-001	7.415414e-001	-6.684554e-001	-3.765872e-002	-3.173656e-002
41188242.652	-3.272797e-002	-3.757553e-002	7.411904e-001	-6.697456e-001	7.413265e-001	-6.688469e-001	-3.762245e-002	-3.178532e-002
41219512.195	-3.274204e-002	-3.770355e-002	7.407495e-001	-6.700647e-001	7.408323e-001	-6.692278e-001	-3.773125e-002	-3.181453e-002
41250781.739	-3.284021e-002	-3.767472e-002	7.401916e-001	-6.706372e-001	7.405163e-001	-6.696836e-001	-3.775724e-002	-3.174125e-002
41282051.282	-3.283640e-002	-3.772244e-002	7.400204e-001	-6.708806e-001	7.401121e-001	-6.700997e-001	-3.787751e-002	-3.179189e-002
41313320.826	-3.293998e-002	-3.762510e-002	7.395335e-001	-6.711525e-001	7.398051e-001	-6.704176e-001	-3.789278e-002	-3.179123e-002
41344590.369	-3.300161e-002	-3.773070e-002	7.390922e-001	-6.714082e-001	7.394789e-001	-6.709874e-001	-3.789140e-002	-3.170974e-002
41375859.912	-3.311018e-002	-3.766472e-002	7.388957e-001	-6.720244e-001	7.388033e-001	-6.712830e-001	-3.793979e-002	-3.176168e-002
41407129.456	-3.305974e-002	-3.769341e-002	7.386141e-001	-6.723035e-001	7.385929e-001	-6.715516e-001	-3.807916e-002	-3.168863e-002
41438398.999	-3.309690e-002	-3.777336e-002	7.382929e-001	-6.729804e-001	7.383707e-001	-6.721317e-001	-3.812792e-002	-3.171943e-002
41469668.543	-3.319710e-002	-3.759525e-002	7.377111e-001	-6.733693e-001	7.378465e-001	-6.726649e-001	-3.812720e-002	-3.173975e-002
41500938.086	-3.321421e-002	-3.772159e-002	7.374049e-001	-6.736483e-001	7.376063e-001	-6.728837e-001	-3.817592e-002	-3.182118e-002
41532207.630	-3.322079e-002	-3.773782e-002	7.370147e-001	-6.740834e-001	7.372156e-001	-6.733318e-001	-3.822615e-002	-3.176336e-002
41563477.173	-3.323618e-002	-3.777219e-002	7.365715e-001	-6.745784e-001	7.367749e-001	-6.736780e-001	-3.821162e-002	-3.180736e-002
41594746.717	-3.323733e-002	-3.775996e-002	7.361749e-001	-6.749368e-001	7.363993e-001	-6.741760e-001	-3.832086e-002	-3.172023e-002
41626016.260	-3.345741e-002	-3.781200e-002	7.358502e-001	-6.753335e-001	7.360045e-001	-6.745775e-001	-3.838686e-002	-3.173023e-002
41657285.804	-3.338145e-002	-3.779525e-002	7.355126e-001	-6.758044e-001	7.356594e-001	-6.749308e-001	-3.838351e-002	-3.174558e-002
41688555.347	-3.340402e-002	-3.777678e-002	7.350867e-001	-6.761349e-001	7.352858e-001	-6.754539e-001	-3.845069e-002	-3.173411e-002
41719824.891	-3.343529e-002	-3.770533e-002	7.347931e-001	-6.766120e-001	7.349051e-001	-6.757188e-001	-3.852657e-002	-3.170477e-002
41751094.434	-3.355734e-002	-3.764440e-002	7.344227e-001	-6.768773e-001	7.344212e-001	-6.764425e-001	-3.852659e-002	-3.180224e-002
41782363.977	-3.349963e-002	-3.779833e-002	7.340720e-001	-6.773800e-001	7.342165e-001	-6.765828e-001	-3.873443e-002	-3.174451e-002
41813633.521	-3.362554e-002	-3.780158e-002	7.335155e-001	-6.776660e-001	7.338606e-001	-6.770034e-001	-3.862322e-002	-3.168790e-002
41844903.064	-3.368884e-002	-3.776917e-002	7.333600e-001	-6.780427e-001	7.333402e-001	-6.775255e-001	-3.876535e-002	-3.173529e-002
41876172.608	-3.368402e-002	-3.779467e-002	7.326910e-001	-6.785865e-001	7.331536e-001	-6.778941e-001	-3.885203e-002	-3.169489e-002
41907442.151	-3.378494e-002	-3.774495e-002	7.324446e-001	-6.789238e-001	7.327405e-001	-6.783587e-001	-3.887974e-002	-3.172048e-002
41938711.695	-3.371705e-002	-3.778878e-002	7.319943e-001	-6.793948e-001	7.323450e-001	-6.785917e-001	-3.879786e-002	-3.176909e-002
41969981.238	-3.379782e-002	-3.788751e-002	7.316996e-001	-6.797640e-001	7.318221e-001	-6.792321e-001	-3.887083e-002	-3.169008e-002
42001250.782	-3.383623e-002	-3.777860e-002	7.313311e-001	-6.802446e-001	7.315103e-001	-6.793198e-001	-3.895015e-002	-3.169714e-002
42032520.325	-3.386556e-002	-3.775222e-002	7.308930e-001	-6.806383e-001	7.313036e-001	-6.797328e-001	-3.906014e-002	-3.169531e-002
42063789.869	-3.396943e-002	-3.781492e-002	7.306213e-001	-6.810134e-001	7.306771e-001	-6.804187e-001	-3.916295e-002	-3.171804e-002
42095059.412	-3.398547e-002	-3.782793e-002	7.302117e-001	-6.814525e-001	7.304750e-001	-6.807755e-001	-3.914869e-002	-3.165831e-002
42126328.956	-3.406997e-002	-3.783362e-002	7.297726e-001	-6.817053e-001	7.299511e-001	-6.810864e-001	-3.921752e-002	-3.170695e-002
42157598.499	-3.402727e-002	-3.786670e-002	7.293936e-001	-6.822239e-001	7.295516e-001	-6.816481e-001	-3.923250e-002	-3.167845e-002
42188868.043	-3.409729e-002	-3.787583e-002	7.291504e-001	-6.825094e-001	7.292640e-001	-6.819861e-001	-3.932034e-002	-3.166449e-002
42220137.586	-3.408724e-002	-3.784886e-002	7.286332e-001	-6.831196e-001	7.288411e-001	-6.822523e-001	-3.935082e-002	-3.169889e-002
42251407.129	-3.420085e-002	-3.789624e-002	7.283843e-001	-6.835579e-001	7.283990e-001	-6.828148e-001	-3.944716e-002	-3.163058e-002
42282676.673	-3.422231e-002	-3.789011e-002	7.278557e-001	-6.838487e-001	7.279698e-001	-6.831160e-001	-3.942519e-002	-3.165291e-002
42313946.216	-3.430157e-002	-3.784828e-002	7.275773e-001	-6.843585e-001	7.277421e-001	-6.836422e-001	-3.948302e-002	-3.166183e-002
42345215.760	-3.441334e-002	-3.794610e-002	7.271108e-001	-6.847076e-001	7.272529e-001	-6.840613e-001	-3.962845e-002	-3.162767e-002
42376485.303	-3.441646e-002	-3.792942e-002	7.266755e-001	-6.851269e-001	7.268548e-001	-6.843443e-001	-3.960277e-002	-3.159563e-002
42407754.847	-3.441634e-002	-3.787916e-002	7.262387e-001	-6.854596e-001	7.264947e-001	-6.847657e-001	-3.963184e-002	-3.161017e-002
42439024.390	-3.449155e-002	-3.795124e-002	7.259604e-001	-6.859096e-001	7.261105e-001	-6.850647e-001	-3.974007e-002	-3.169805e-002
42470293.934	-3.446158e-002	-3.796150e-002	7.256008e-001	-6.863158e-001	7.258353e-001	-6.856119e-001	-3.973654e-002	-3.167384e-002
42501563.477	-3.456256e-002	-3.786264e-002	7.252992e-001	-6.865935e-001	7.254618e-001	-6.861255e-001	-3.974001e-002	-3.165231e-002
42532833.021	-3.453237e-002	-3.790768e-002	7.248599e-001	-6.870428e-001	7.251327e-001	-6.865634e-001	-3.988477e-002	-3.167307e-002
42564102.564	-3.464151e-002	-3.792325e-002	7.244611e-001	-6.876180e-001	7.246046e-001	-6.868789e-001	-3.993835e-002	-3.168052e-002
42595372.108	-3.464765e-002	-3.791981e-002	7.239233e-001	-6.880319e-001	7.242634e-001	-6.873809e-001	-4.002973e-002	-3.165798e-002
42626641.651	-3.472359e-002	-3.805059e-002	7.236947e-001	-6.882423e-001	7.238652e-001	-6.875632e-001	-4.006056e-002	-3.165276e-002
42657911.194	-3.477673e-002	-3.796139e-002	7.232603e-001	-6.887717e-001	7.234954e-001	-6.880711e-001	-4.007359e-002	-3.163289e-002
42689180.738	-3.485361e-002	-3.791597e-002	7.229626e-001	-6.891034e-001	7.230848e-001	-6.884671e-001	-4.018096e-002	-3.166337e-002
42720450.281	-3.489358e-002	-3.800733e-002	7.223219e-001	-6.893193e-001	7.226238e-001	-6.888057e-001	-4.014795e-002	-3.162929e-002
42751719.825	-3.490894e-002	-3.808658e-002	7.221142e-001	-6.898794e-001	7.225067e-001	-6.891381e-001	-4.016291e-002	-3.165452e-002
42782989.368	-3.504911e-002	-3.799149e-002	7.217274e-001	-6.905191e-001	7.219645e-001	-6.896864e-001	-4.030651e-002	-3.159383e-002
42814258.912	-3.497313e-002	-3.798992e-002	7.215342e-001	-6.907429e-001	7.215878e-001	-6.900984e-001	-4.031426e-002	-3.174184e-002
42845528.455	-3.508698e-002	-3.796063e-002	7.209573e-001	-6.912495e-001	7.212247e-001	-6.904742e-001	-4.036177e-002	-3.160655e-002
42876797.999	-3.503514e-002	-3.801159e-002	7.206881e-001	-6.914539e-001	7.207762e-001	-6.909305e-001	-4.043753e-002	-3.169087e-002
42908067.542	-3.517759e-002	-3.802787e-002	7.202283e-001	-6.917446e-001	7.205123e-001	-6.911369e-001	-4.048417e-002	-3.171567e-002
42939337.086	-3.512042e-002	-3.797619e-002	7.198101e-001	-6.922220e-001	7.198418e-001	-6.916524e-001	-4.047306e-002	-3.171201e-002
42970606.629	-3.524642e-002	-3.807047e-002	7.193782e-001	-6.926866e-001	7.195423e-001	-6.920579e-001	-4.060929e-002	-3.175127e-002
43001876.173	-3.528646e-002	-3.805518e-002	7.190479e-001	-6.931838e-001	7.192712e-001	-6.925074e-001	-4.066270e-002	-3.156880e-002
43033145.716	-3.522808e-002	-3.801576e-002	7.185125e-001	-6.935861e-001	7.187920e-001	-6.929327e-001	-4.073169e-002	-3.160055e-002
43064415.260	-3.531061e-002	-3.808278e-002	7.181792e-001	-6.938618e-001	7.185620e-001	-6.933023e-001	-4.075633e-002	-3.166902e-002
43095684.803	-3.539900e-002	-3.804640e-002	7.177844e-001	-6.943719e-001	7.180659e-001	-6.936902e-001	-4.083161e-002	-3.165113e-002
43126954.346	-3.537269e-002	-3.802876e-002	7.175063e-001	-6.947299e-001	7.176683e-001	-6.941007e-001	-4.089575e-002	-3.158065e-002
43158223.890	-3.546441e-002	-3.807559e-002	7.171149e-001	-6.949639e-001	7.172061e-001	-6.944485e-001	-4.096164e-002	-3.157854e-002
43189493.433	-3.549882e-002	-3.812387e-002	7.168296e-001	-6.956498e-001	7.167136e-001	-6.950028e-001	-4.099285e-002	-3.153656e-002
43220762.977	-3.554555e-002	-3.804944e-002	7.163818e-001	-6.959979e-001	7.165518e-001	-6.952043e-001	-4.103721e-002	-3.164072e-002
43252032.520	-3.562387e-002	-3.816222e-002	7.158844e-001	-6.963560e-001	7.160283e-001	-6.957675e-001	-4.102176e-002	-3.164570e-002
43283302.064	-3.567020e-002	-3.805045e-002	7.155095e-001	-6.966588e-001	7.156040e-001	-6.959944e-001	-4.105524e-002	-3.157320e-002
43314571.607	-3.574549e-002	-3.816974e-002	7.151843e-001	-6.971546e-001	7.155380e-001	-6.964664e-001	-4.117879e-002	-3.148466e-002
43345841.151	-3.572008e-002	-3.811511e-002	7.146910e-001	-6.975035e-001	7.150019e-001	-6.968866e-001	-4.122433e-002	-3.151596e-002
43377110.694	-3.584685e-002	-3.816473e-002	7.143401e-001	-6.978464e-001	7.144767e-001	-6.973274e-001	-4.129213e-002	-3.156557e-002
43408380.238	-3.578393e-002	-3.821086e-002	7.140546e-001	-6.984687e-001	7.140896e-001	-6.975845e-001	-4.127609e-002	-3.157474e-002
43439649.781	-3.585311e-002	-3.819059e-002	7.135097e-001	-6.987332e-001	7.135994e-001	-6.980989e-001	-4.129429e-002	-3.155929e-002
43470919.325	-3.596403e-002	-3.818241e-002	7.130687e-001	-6.992361e-001	7.135020e-001	-6.985846e-001	-4.136541e-002	-3.146568e-002
43502188.868	-3.598939e-002	-3.822361e-002	7.127789e-001	-6.996149e-001	7.128592e-001	-6.989068e-001	-4.145491e-002	-3.149759e-002
43533458.412	-3.597331e-002	-3.813342e-002	7.123852e-001	-6.998165e-001	7.125030e-001	-6.992179e-001	-4.143563e-002	-3.155650e-002
43564727.955	-3.609690e-002	-3.816594e-002	7.120662e-001	-7.001863e-001	7.121671e-001	-6.998906e-001	-4.156929e-002	-3.157527e-002
43595997.498	-3.609492e-002	-3.823473e-002	7.115877e-001	-7.006052e-001	7.116345e-001	-7.000292e-001	-4.162042e-002	-3.152611e-002
43627267.042	-3.613159e-002	-3.826909e-002	7.113504e-001	-7.010258e-001	7.113753e-001	-7.005439e-001	-4.168450e-002	-3.147453e-002
43658536.585	-3.614531e-002	-3.826665e-002	7.107976e-001	-7.014195e-001	7.109572e-001	-7.008666e-001	-4.173567e-002	-3.150537e-002
43689806.129	-3.615255e-002	-3.828730e-002	7.103361e-001	-7.018602e-001	7.106151e-001	-7.012643e-001	-4.174898e-002	-3.155472e-002
43721075.672	-3.633771e-002	-3.812862e-002	7.099720e-001	-7.021831e-001	7.101899e-001	-7.016778e-001	-4.179134e-002	-3.155815e-002
43752345.216	-3.627957e-002	-3.828830e-002	7.098039e-001	-7.027080e-001	7.097104e-001	-7.021606e-001	-4.181456e-002	-3.148243e-002
43783614.759	-3.632974e-002	-3.829974e-002	7.091779e-001	-7.030490e-001	7.094708e-001	-7.024802e-001	-4.189475e-002	-3.154625e-002
43814884.303	-3.647678e-002	-3.824187e-002	7.089373e-001	-7.034066e-001	7.090306e-001	-7.028286e-001	-4.198972e-002	-3.146573e-002
43846153.846	-3.641865e-002	-3.829725e-002	7.086165e-001	-7.038024e-001	7.087667e-001	-7.032754e-001	-4.203925e-002	-3.148452e-002
43877423.390	-3.648808e-002	-3.830979e-002	7.080010e-001	-7.043833e-001	7.082293e-001	-7.036736e-001	-4.201501e-002	-3.148918e-002
43908692.933	-3.658149e-002	-3.821271e-002	7.075365e-001	-7.047889e-001	7.079823e-001	-7.039713e-001	-4.212139e-002	-3.141937e-002
43939962.477	-3.662426e-002	-3.824418e-002	7.073961e-001	-7.051511e-001	7.075129e-001	-7.044902e-001	-4.217015e-002	-3.144917e-002
43971232.020	-3.663601e-002	-3.830389e-002	7.068055e-001	-7.054351e-001	7.070485e-001	-7.049054e-001	-4.219662e-002	-3.144494e-002
44002501.563	-3.667339e-002	-3.833191e-002	7.063652e-001	-7.057376e-001	7.067574e-001	-7.050886e-001	-4.224038e-002	-3.137699e-002
44033771.107	-3.669165e-002	-3.833478e-002	7.060766e-001	-7.063094e-001	7.063379e-001	-7.054930e-001	-4.229981e-002	-3.142173e-002
44065040.650	-3.673151e-002	-3.823475e-002	7.057574e-001	-7.066849e-001	7.059466e-001	-7.059982e-001	-4.228058e-002	-3.135453e-002
44096310.194	-3.686166e-002	-3.831416e-002	7.054071e-001	-7.069729e-001	7.054806e-001	-7.063523e-001	-4.238159e-002	-3.143781e-002
44127579.737	-3.687019e-002	-3.834685e-002	7.049332e-001	-7.074256e-001	7.051394e-001	-7.066533e-001	-4.242106e-002	-3.143894e-002
44158849.281	-3.687844e-002	-3.832450e-002	7.045372e-001	-7.077220e-001	7.048256e-001	-7.071984e-001	-4.247033e-002	-3.142947e-002
44190118.824	-3.697550e-002	-3.833511e-002	7.040930e-001	-7.081476e-001	7.044217e-001	-7.076295e-001	-4.254518e-002	-3.139982e-002
44221388.368	-3.704299e-002	-3.834234e-002	7.038630e-001	-7.086077e-001	7.038533e-001	-7.079532e-001	-4.269538e-002	-3.138241e-002
44252657.911	-3.708076e-002	-3.832325e-002	7.033390e-001	-7.089766e-001	7.034999e-001	-7.084362e-001	-4.258784e-002	-3.141192e-002
44283927.455	-3.711697e-002	-3.835974e-002	7.029311e-001	-7.092845e-001	7.031769e-001	-7.087184e-001	-4.279899e-002	-3.145438e-002
44315196.998	-3.716651e-002	-3.835222e-002	7.026707e-001	-7.097972e-001	7.027822e-001	-7.091131e-001	-4.271491e-002	-3.145849e-002
44346466.542	-3.719824e-002	-3.837151e-002	7.020900e-001	-7.101733e-001	7.023591e-001	-7.095559e-001	-4.285294e-002	-3.138783e-002
44377736.085	-3.723353e-002	-3.834901e-002	7.017635e-001	-7.103441e-001	7.018170e-001	-7.098505e-001	-4.298350e-002	-3.134830e-002
44409005.629	-3.724962e-002	-3.829640e-002	7.012780e-001	-7.109992e-001	7.014508e-001	-7.102016e-001	-4.293342e-002	-3.138268e-002
44440275.172	-3.728674e-002	-3.845090e-002	7.008256e-001	-7.112212e-001	7.011824e-001	-7.106782e-001	-4.301567e-002	-3.132362e-002
44471544.715	-3.737876e-002	-3.843188e-002	7.004630e-001	-7.116644e-001	7.008299e-001	-7.110572e-001	-4.299875e-002	-3.132533e-002
44502814.259	-3.731957e-002	-3.847078e-002	7.001189e-001	-7.118524e-001	7.001826e-001	-7.114666e-001	-4.302884e-002	-3.133281e-002
44534083.802	-3.748747e-002	-3.839105e-002	6.996418e-001	-7.125330e-001	6.999093e-001	-7.118139e-001	-4.310148e-002	-3.139519e-002
44565353.346	-3.753908e-002	-3.838138e-002	6.992802e-001	-7.129003e-001	6.996372e-001	-7.121896e-001	-4.322237e-002	-3.124321e-002
44596622.889	-3.757381e-002	-3.844321e-002	6.989465e-001	-7.131829e-001	6.991644e-001	-7.125683e-001	-4.322587e-002	-3.129854e-002
44627892.433	-3.756741e-002	-3.842779e-002	6.985187e-001	-7.135473e-001	6.987113e-001	-7.130060e-001	-4.334254e-002	-3.136673e-002
44659161.976	-3.764589e-002	-3.839382e-002	6.979431e-001	-7.139991e-001	6.983730e-001	-7.133452e-001	-4.334411e-002	-3.128940e-002
44690431.520	-3.765993e-002	-3.850868e-002	6.977343e-001	-7.143872e-001	6.979066e-001	-7.137179e-001	-4.340376e-002	-3.128314e-002
