!Agilent Technologies,E5061B,MY49102235,A.02.00
!Date: Mon Jul 03 10:30:10 2023
!Data & Calibration Information:
!Freq	S11:SOLT2(ON)	S21:SOLT2(ON)	S12:SOLT2(ON)	S22:SOLT2(ON)
# Hz S RI R 50
40000000.000	-3.091201e-002	-3.716924e-002	7.553579e-001	-6.534982e-001	7.556670e-001	-6.525069e-001	-3.569362e-002	-3.176573e-002
40031269.543	-3.099049e-002	-3.720455e-002	7.552094e-001	-6.539231e-001	7.552288e-001	-6.529396e-001	-3.569352e-002	-3.170186e-002
40062539.087	-3.100624e-002	-3.722718e-002	7.545587e-001	-6.541436e-001	7.549596e-001	-6.534264e-001	-3.571171e-002	-3.177490e-002
40093808.630	-3.105533e-002	-3.724007e-002	7.541495e-001	-6.546767e-001	7.546632e-001	-6.539712e-001	-3.577708e-002	-3.167104e-002
40125078.174	-3.111492e-002	-3.717844e-002	7.538925e-001	-6.549841e-001	7.540762e-001	-6.543671e-001	-3.577445e-002	-3.162278e-002
40156347.717	-3.113479e-002	-3.722762e-002	7.537090e-001	-6.556114e-001	7.538067e-001	-6.547859e-001	-3.586121e-002	-3.172404e-002
40187617.261	-3.115152e-002	-3.735532e-002	7.532191e-001	-6.555976e-001	7.534873e-001	-6.551765e-001	-3.588239e-002	-3.184756e-002
40218886.804	-3.121047e-002	-3.727996e-002	7.529765e-001	-6.564139e-001	7.529553e-001	-6.554330e-001	-3.595781e-002	-3.179776e-002
40250156.348	-3.131120e-002	-3.723972e-002	7.526420e-001	-6.567102e-001	7.527621e-001	-6.559971e-001	-3.610165e-002	-3.181648e-002
40281425.891	-3.131355e-002	-3.729967e-002	7.523243e-001	-6.571146e-001	7.523450e-001	-6.563967e-001	-3.612934e-002	-3.174984e-002
40312695.435	-3.133255e-002	-3.731990e-002	7.517823e-001	-6.576555e-001	7.519749e-001	-6.567031e-001	-3.607867e-002	-3.180000e-002
40343964.978	-3.139717e-002	-3.728403e-002	7.514647e-001	-6.579293e-001	7.515957e-001	-6.571281e-001	-3.614555e-002	-3.172623e-002
40375234.522	-3.138879e-002	-3.724646e-002	7.509309e-001	-6.582988e-001	7.512220e-001	-6.575020e-001	-3.623529e-002	-3.176837e-002
40406504.065	-3.145754e-002	-3.726611e-002	7.506624e-001	-6.587673e-001	7.507737e-001	-6.581039e-001	-3.620286e-002	-3.181785e-002
40437773.609	-3.163854e-002	-3.735172e-002	7.503386e-001	-6.590798e-001	7.505023e-001	-6.584787e-001	-3.624842e-002	-3.180699e-002
40469043.152	-3.149964e-002	-3.733397e-002	7.498226e-001	-6.597135e-001	7.501331e-001	-6.588173e-001	-3.638814e-002	-3.174339e-002
40500312.695	-3.163467e-002	-3.745638e-002	7.495560e-001	-6.601699e-001	7.498843e-001	-6.591890e-001	-3.641992e-002	-3.174549e-002
40531582.239	-3.162476e-002	-3.730523e-002	7.490276e-001	-6.601942e-001	7.492719e-001	-6.599117e-001	-3.649658e-002	-3.170622e-002
40562851.782	-3.166123e-002	-3.733601e-002	7.485232e-001	-6.607478e-001	7.490038e-001	-6.601639e-001	-3.641341e-002	-3.189394e-002
40594121.326	-3.174347e-002	-3.735586e-002	7.484394e-001	-6.613061e-001	7.486544e-001	-6.605430e-001	-3.657073e-002	-3.172461e-002
40625390.869	-3.175702e-002	-3.729220e-002	7.481986e-001	-6.616816e-001	7.484965e-001	-6.610240e-001	-3.659798e-002	-3.185309e-002
40656660.413	-3.183752e-002	-3.743780e-002	7.476904e-001	-6.620646e-001	7.481710e-001	-6.613621e-001	-3.660685e-002	-3.179917e-002
40687929.956	-3.184209e-002	-3.737816e-002	7.476490e-001	-6.625443e-001	7.478211e-001	-6.617963e-001	-3.667104e-002	-3.180206e-002
40719199.500	-3.193843e-002	-3.734031e-002	7.470029e-001	-6.627786e-001	7.471804e-001	-6.623754e-001	-3.666778e-002	-3.181782e-002
40750469.043	-3.195028e-002	-3.736984e-002	7.463425e-001	-6.631183e-001	7.467277e-001	-6.627211e-001	-3.687610e-002	-3.177984e-002
40781738.587	-3.193875e-002	-3.744699e-002	7.462041e-001	-6.637444e-001	7.464826e-001	-6.631617e-001	-3.693600e-002	-3.177609e-002
40813008.130	-3.207388e-002	-3.742279e-002	7.460782e-001	-6.641411e-001	7.460777e-001	-6.636056e-001	-3.692271e-002	-3.177015e-002
40844277.674	-3.205154e-002	-3.742103e-002	7.455636e-001	-6.644776e-001	7.457819e-001	-6.637566e-001	-3.700949e-002	-3.178226e-002
40875547.217	-3.210717e-002	-3.742853e-002	7.449503e-001	-6.650942e-001	7.454582e-001	-6.642256e-001	-3.698371e-002	-3.173940e-002
40906816.760	-3.215893e-002	-3.738223e-002	7.448024e-001	-6.654337e-001	7.450409e-001	-6.645995e-001	-3.698042e-002	-3.183564e-002
40938086.304	-3.220217e-002	-3.749804e-002	7.443109e-001	-6.658944e-001	7.446691e-001	-6.651567e-001	-3.711605e-002	-3.180940e-002
40969355.847	-3.232890e-002	-3.742932e-002	7.437204e-001	-6.661796e-001	7.442405e-001	-6.656197e-001	-3.724199e-002	-3.179192e-002
41000625.391	-3.233748e-002	-3.740911e-002	7.431875e-001	-6.666269e-001	7.437001e-001	-6.658848e-001	-3.718897e-002	-3.175876e-002
41031894.934	-3.223889e-002	-3.738065e-002	7.434394e-001	-6.668545e-001	7.436219e-001	-6.665266e-001	-3.729734e-002	-3.181388e-002
41063164.478	-3.240777e-002	-3.742166e-002	7.428983e-001	-6.673863e-001	7.433347e-001	-6.668027e-001	-3.728292e-002	-3.185061e-002
41094434.021	-3.244168e-002	-3.753540e-002	7.425012e-001	-6.676951e-001	7.425985e-001	-6.671546e-001	-3.738329e-002	-3.183426e-002
41125703.565	-3.245118e-002	-3.749058e-002	7.422111e-001	-6.682684e-001	7.425625e-001	-6.675726e-001	-3.744704e-002	-3.180177e-002
41156973.108	-3.246561e-002	-3.752460e-002	7.417777e-001	-6.684486e-001	7.418866e-001	-6.679368e-001	-3.744950e-002	-3.188963e-002
41188242.652	-3.255683e-002	-3.744342e-002	7.413564e-001	-6.692386e-001	7.416820e-001	-6.682473e-001	-3.745554e-002	-3.182281e-002
41219512.195	-3.257880e-002	-3.758712e-002	7.410407e-001	-6.696029e-001	7.411613e-001	-6.688672e-001	-3.755556e-002	-3.192446e-002
41250781.739	-3.265557e-002	-3.752769e-002	7.403809e-001	-6.701886e-001	7.409555e-001	-6.692180e-001	-3.758505e-002	-3.181117e-002
41282051.282	-3.259698e-002	-3.752589e-002	7.402322e-001	-6.703429e-001	7.403622e-001	-6.697109e-001	-3.769957e-002	-3.185045e-002
41313320.826	-3.276269e-002	-3.748748e-002	7.395526e-001	-6.706733e-001	7.402155e-001	-6.700471e-001	-3.772684e-002	-3.182980e-002
41344590.369	-3.282848e-002	-3.758027e-002	7.394374e-001	-6.709755e-001	7.397557e-001	-6.706390e-001	-3.772582e-002	-3.175738e-002
41375859.912	-3.291870e-002	-3.752582e-002	7.390321e-001	-6.716221e-001	7.391132e-001	-6.707886e-001	-3.783248e-002	-3.182775e-002
41407129.456	-3.285295e-002	-3.754854e-002	7.387524e-001	-6.719398e-001	7.388753e-001	-6.711607e-001	-3.783406e-002	-3.178444e-002
41438398.999	-3.292367e-002	-3.757835e-002	7.384913e-001	-6.724197e-001	7.387797e-001	-6.716575e-001	-3.799942e-002	-3.178391e-002
41469668.543	-3.299928e-002	-3.743072e-002	7.380370e-001	-6.729183e-001	7.383223e-001	-6.722167e-001	-3.797182e-002	-3.179270e-002
41500938.086	-3.301734e-002	-3.760854e-002	7.376419e-001	-6.731871e-001	7.379768e-001	-6.724830e-001	-3.798753e-002	-3.188169e-002
41532207.630	-3.307693e-002	-3.759803e-002	7.372788e-001	-6.734565e-001	7.374814e-001	-6.729334e-001	-3.811036e-002	-3.182602e-002
41563477.173	-3.309093e-002	-3.763217e-002	7.367802e-001	-6.741253e-001	7.370901e-001	-6.733568e-001	-3.800440e-002	-3.189743e-002
41594746.717	-3.305521e-002	-3.760563e-002	7.364134e-001	-6.743326e-001	7.367032e-001	-6.738047e-001	-3.814812e-002	-3.182479e-002
41626016.260	-3.328657e-002	-3.761691e-002	7.360662e-001	-6.749038e-001	7.363455e-001	-6.740900e-001	-3.826200e-002	-3.180329e-002
41657285.804	-3.315447e-002	-3.766130e-002	7.356317e-001	-6.752962e-001	7.359805e-001	-6.745172e-001	-3.825009e-002	-3.183903e-002
41688555.347	-3.323682e-002	-3.763638e-002	7.352509e-001	-6.756039e-001	7.355946e-001	-6.750962e-001	-3.827830e-002	-3.181569e-002
41719824.891	-3.326530e-002	-3.758607e-002	7.350177e-001	-6.761514e-001	7.352951e-001	-6.752111e-001	-3.834745e-002	-3.178449e-002
41751094.434	-3.342997e-002	-3.745635e-002	7.346096e-001	-6.765603e-001	7.348015e-001	-6.760301e-001	-3.838028e-002	-3.187335e-002
41782363.977	-3.332332e-002	-3.767782e-002	7.342615e-001	-6.769103e-001	7.346101e-001	-6.762787e-001	-3.858852e-002	-3.179854e-002
41813633.521	-3.345578e-002	-3.767576e-002	7.336181e-001	-6.772469e-001	7.341823e-001	-6.765777e-001	-3.841534e-002	-3.175686e-002
41844903.064	-3.350141e-002	-3.761379e-002	7.335408e-001	-6.775343e-001	7.336482e-001	-6.770022e-001	-3.862920e-002	-3.181365e-002
41876172.608	-3.357369e-002	-3.767782e-002	7.328677e-001	-6.781316e-001	7.334219e-001	-6.774741e-001	-3.872482e-002	-3.178376e-002
41907442.151	-3.364769e-002	-3.761071e-002	7.325832e-001	-6.783540e-001	7.330225e-001	-6.780135e-001	-3.872506e-002	-3.176583e-002
41938711.695	-3.354639e-002	-3.762350e-002	7.322362e-001	-6.789388e-001	7.326360e-001	-6.783432e-001	-3.866116e-002	-3.183390e-002
41969981.238	-3.364078e-002	-3.776955e-002	7.319364e-001	-6.793451e-001	7.322765e-001	-6.787372e-001	-3.876249e-002	-3.176179e-002
42001250.782	-3.370229e-002	-3.763499e-002	7.316529e-001	-6.800042e-001	7.319397e-001	-6.788875e-001	-3.878897e-002	-3.172880e-002
42032520.325	-3.369215e-002	-3.762705e-002	7.311435e-001	-6.801599e-001	7.315637e-001	-6.793305e-001	-3.888883e-002	-3.176578e-002
42063789.869	-3.379584e-002	-3.771043e-002	7.308302e-001	-6.805433e-001	7.308886e-001	-6.800143e-001	-3.907165e-002	-3.180717e-002
42095059.412	-3.383347e-002	-3.767612e-002	7.303777e-001	-6.809667e-001	7.307570e-001	-6.803704e-001	-3.897803e-002	-3.172498e-002
42126328.956	-3.396539e-002	-3.769334e-002	7.299549e-001	-6.812325e-001	7.301649e-001	-6.806734e-001	-3.910411e-002	-3.178679e-002
42157598.499	-3.383219e-002	-3.777002e-002	7.295627e-001	-6.817111e-001	7.299006e-001	-6.811917e-001	-3.904118e-002	-3.178082e-002
42188868.043	-3.396612e-002	-3.777592e-002	7.293560e-001	-6.818932e-001	7.296273e-001	-6.815925e-001	-3.916673e-002	-3.172767e-002
42220137.586	-3.390531e-002	-3.772964e-002	7.289354e-001	-6.826544e-001	7.290754e-001	-6.818828e-001	-3.919293e-002	-3.181280e-002
42251407.129	-3.403623e-002	-3.780831e-002	7.286343e-001	-6.830096e-001	7.287182e-001	-6.824165e-001	-3.932254e-002	-3.170875e-002
42282676.673	-3.403505e-002	-3.779475e-002	7.278827e-001	-6.833802e-001	7.282684e-001	-6.826557e-001	-3.926098e-002	-3.174692e-002
42313946.216	-3.413128e-002	-3.771865e-002	7.278145e-001	-6.839148e-001	7.280959e-001	-6.833779e-001	-3.936983e-002	-3.171852e-002
42345215.760	-3.427586e-002	-3.782728e-002	7.273387e-001	-6.842608e-001	7.275523e-001	-6.836275e-001	-3.951196e-002	-3.170127e-002
42376485.303	-3.424302e-002	-3.780361e-002	7.269495e-001	-6.845981e-001	7.272823e-001	-6.837855e-001	-3.947858e-002	-3.165507e-002
42407754.847	-3.424101e-002	-3.778574e-002	7.264561e-001	-6.848929e-001	7.269617e-001	-6.842374e-001	-3.950444e-002	-3.164591e-002
42439024.390	-3.432620e-002	-3.783182e-002	7.261703e-001	-6.854177e-001	7.265801e-001	-6.846099e-001	-3.963850e-002	-3.181131e-002
42470293.934	-3.428682e-002	-3.786982e-002	7.257817e-001	-6.859330e-001	7.261979e-001	-6.851511e-001	-3.959138e-002	-3.174676e-002
42501563.477	-3.439349e-002	-3.774826e-002	7.255083e-001	-6.862875e-001	7.257788e-001	-6.856563e-001	-3.959457e-002	-3.180032e-002
42532833.021	-3.436186e-002	-3.778459e-002	7.251222e-001	-6.865962e-001	7.255114e-001	-6.861009e-001	-3.979755e-002	-3.176679e-002
42564102.564	-3.449479e-002	-3.779082e-002	7.245768e-001	-6.870927e-001	7.249608e-001	-6.864323e-001	-3.977407e-002	-3.173942e-002
42595372.108	-3.448718e-002	-3.779323e-002	7.241204e-001	-6.876763e-001	7.246064e-001	-6.868842e-001	-3.994983e-002	-3.175519e-002
42626641.651	-3.458028e-002	-3.795812e-002	7.240458e-001	-6.876747e-001	7.241276e-001	-6.871527e-001	-3.996046e-002	-3.171773e-002
42657911.194	-3.462623e-002	-3.781041e-002	7.235203e-001	-6.883014e-001	7.239542e-001	-6.875760e-001	-3.995957e-002	-3.175600e-002
42689180.738	-3.472289e-002	-3.777963e-002	7.232759e-001	-6.887047e-001	7.234055e-001	-6.879968e-001	-4.002411e-002	-3.172979e-002
42720450.281	-3.473498e-002	-3.794643e-002	7.225529e-001	-6.888632e-001	7.230015e-001	-6.884458e-001	-4.003698e-002	-3.174404e-002
42751719.825	-3.474787e-002	-3.799152e-002	7.225561e-001	-6.894351e-001	7.227978e-001	-6.886670e-001	-4.002478e-002	-3.173484e-002
42782989.368	-3.492840e-002	-3.786094e-002	7.219721e-001	-6.902036e-001	7.222345e-001	-6.892448e-001	-4.021097e-002	-3.168100e-002
42814258.912	-3.481249e-002	-3.786784e-002	7.216652e-001	-6.902123e-001	7.220090e-001	-6.895645e-001	-4.016469e-002	-3.183633e-002
42845528.455	-3.494359e-002	-3.781599e-002	7.211742e-001	-6.908472e-001	7.217174e-001	-6.899987e-001	-4.024200e-002	-3.171437e-002
42876797.999	-3.489233e-002	-3.792755e-002	7.209050e-001	-6.909228e-001	7.211062e-001	-6.905229e-001	-4.026768e-002	-3.183677e-002
42908067.542	-3.504093e-002	-3.790189e-002	7.203665e-001	-6.911222e-001	7.207286e-001	-6.907821e-001	-4.033571e-002	-3.177310e-002
42939337.086	-3.495095e-002	-3.783335e-002	7.200477e-001	-6.917931e-001	7.203485e-001	-6.911480e-001	-4.037794e-002	-3.184084e-002
42970606.629	-3.509266e-002	-3.799713e-002	7.196748e-001	-6.922313e-001	7.198947e-001	-6.916016e-001	-4.050655e-002	-3.179935e-002
43001876.173	-3.508226e-002	-3.794313e-002	7.192232e-001	-6.926722e-001	7.195898e-001	-6.919558e-001	-4.060560e-002	-3.168982e-002
43033145.716	-3.508579e-002	-3.791188e-002	7.187226e-001	-6.930855e-001	7.190874e-001	-6.924532e-001	-4.061319e-002	-3.165472e-002
43064415.260	-3.517882e-002	-3.801394e-002	7.185788e-001	-6.934961e-001	7.189748e-001	-6.928207e-001	-4.066435e-002	-3.173340e-002
43095684.803	-3.522030e-002	-3.793014e-002	7.180583e-001	-6.937491e-001	7.183383e-001	-6.933796e-001	-4.072379e-002	-3.170585e-002
43126954.346	-3.522659e-002	-3.794468e-002	7.178076e-001	-6.941975e-001	7.180581e-001	-6.937102e-001	-4.080944e-002	-3.164182e-002
43158223.890	-3.532211e-002	-3.799724e-002	7.174688e-001	-6.944569e-001	7.175676e-001	-6.939859e-001	-4.087672e-002	-3.166786e-002
43189493.433	-3.536366e-002	-3.807140e-002	7.171141e-001	-6.951328e-001	7.169511e-001	-6.945858e-001	-4.087597e-002	-3.168118e-002
43220762.977	-3.542844e-002	-3.796885e-002	7.166738e-001	-6.955763e-001	7.168462e-001	-6.948687e-001	-4.095564e-002	-3.177604e-002
43252032.520	-3.550689e-002	-3.807723e-002	7.160765e-001	-6.959261e-001	7.162782e-001	-6.953400e-001	-4.092072e-002	-3.172281e-002
43283302.064	-3.556330e-002	-3.795357e-002	7.158385e-001	-6.963077e-001	7.161409e-001	-6.955860e-001	-4.094794e-002	-3.166230e-002
43314571.607	-3.559656e-002	-3.804692e-002	7.155122e-001	-6.967270e-001	7.157796e-001	-6.959396e-001	-4.109140e-002	-3.156078e-002
43345841.151	-3.558571e-002	-3.805591e-002	7.150677e-001	-6.969908e-001	7.153132e-001	-6.964455e-001	-4.108557e-002	-3.161601e-002
43377110.694	-3.574782e-002	-3.811035e-002	7.146110e-001	-6.973734e-001	7.148682e-001	-6.969298e-001	-4.118982e-002	-3.164000e-002
43408380.238	-3.567203e-002	-3.809979e-002	7.142292e-001	-6.980222e-001	7.144605e-001	-6.973238e-001	-4.113712e-002	-3.167643e-002
43439649.781	-3.569089e-002	-3.806502e-002	7.137978e-001	-6.982110e-001	7.140026e-001	-6.977286e-001	-4.119349e-002	-3.166743e-002
43470919.325	-3.583914e-002	-3.816865e-002	7.132057e-001	-6.987193e-001	7.139290e-001	-6.982392e-001	-4.126272e-002	-3.154097e-002
43502188.868	-3.591085e-002	-3.812041e-002	7.130134e-001	-6.992065e-001	7.131862e-001	-6.984320e-001	-4.133227e-002	-3.164641e-002
43533458.412	-3.588596e-002	-3.804968e-002	7.126523e-001	-6.993466e-001	7.128731e-001	-6.988305e-001	-4.133119e-002	-3.166127e-002
43564727.955	-3.599019e-002	-3.806600e-002	7.123353e-001	-6.997537e-001	7.125064e-001	-6.994339e-001	-4.148170e-002	-3.164997e-002
43595997.498	-3.594096e-002	-3.816732e-002	7.118795e-001	-7.001385e-001	7.119300e-001	-6.996425e-001	-4.150897e-002	-3.159884e-002
43627267.042	-3.600274e-002	-3.817789e-002	7.115750e-001	-7.005131e-001	7.117070e-001	-7.001352e-001	-4.155747e-002	-3.156326e-002
43658536.585	-3.602787e-002	-3.818992e-002	7.110315e-001	-7.008065e-001	7.113238e-001	-7.004997e-001	-4.165573e-002	-3.162684e-002
43689806.129	-3.600310e-002	-3.818648e-002	7.105061e-001	-7.014867e-001	7.108889e-001	-7.008146e-001	-4.167771e-002	-3.167195e-002
43721075.672	-3.619710e-002	-3.804508e-002	7.102503e-001	-7.017680e-001	7.105286e-001	-7.013150e-001	-4.169546e-002	-3.162946e-002
43752345.216	-3.616017e-002	-3.819770e-002	7.100984e-001	-7.022360e-001	7.101903e-001	-7.016748e-001	-4.175600e-002	-3.160169e-002
43783614.759	-3.617769e-002	-3.820403e-002	7.095382e-001	-7.026013e-001	7.098070e-001	-7.019749e-001	-4.181067e-002	-3.163112e-002
43814884.303	-3.633894e-002	-3.816552e-002	7.091019e-001	-7.029051e-001	7.093806e-001	-7.024818e-001	-4.189768e-002	-3.152512e-002
43846153.846	-3.627698e-002	-3.826347e-002	7.089178e-001	-7.033347e-001	7.093793e-001	-7.029279e-001	-4.198461e-002	-3.158395e-002
43877423.390	-3.636534e-002	-3.824139e-002	7.081947e-001	-7.039256e-001	7.086683e-001	-7.033299e-001	-4.192615e-002	-3.160559e-002
43908692.933	-3.642983e-002	-3.814526e-002	7.077542e-001	-7.042854e-001	7.082938e-001	-7.036524e-001	-4.206152e-002	-3.150381e-002
43939962.477	-3.653770e-002	-3.815408e-002	7.076528e-001	-7.047573e-001	7.076934e-001	-7.040979e-001	-4.211327e-002	-3.152732e-002
43971232.020	-3.653934e-002	-3.821654e-002	7.071546e-001	-7.050659e-001	7.072914e-001	-7.044195e-001	-4.209983e-002	-3.156646e-002
44002501.563	-3.654903e-002	-3.828932e-002	7.065054e-001	-7.051902e-001	7.070126e-001	-7.047067e-001	-4.215029e-002	-3.151636e-002
44033771.107	-3.662999e-002	-3.827900e-002	7.063701e-001	-7.057592e-001	7.066652e-001	-7.052117e-001	-4.220393e-002	-3.151507e-002
44065040.650	-3.659798e-002	-3.817574e-002	7.058395e-001	-7.061111e-001	7.062576e-001	-7.056132e-001	-4.222228e-002	-3.148567e-002
44096310.194	-3.676192e-002	-3.826038e-002	7.057505e-001	-7.065472e-001	7.058289e-001	-7.058149e-001	-4.231908e-002	-3.155547e-002
44127579.737	-3.675747e-002	-3.833031e-002	7.051853e-001	-7.069909e-001	7.052770e-001	-7.061771e-001	-4.233642e-002	-3.150583e-002
44158849.281	-3.678712e-002	-3.825034e-002	7.047160e-001	-7.071047e-001	7.051827e-001	-7.067499e-001	-4.236490e-002	-3.159661e-002
44190118.824	-3.684932e-002	-3.825034e-002	7.042640e-001	-7.076955e-001	7.048259e-001	-7.073031e-001	-4.247982e-002	-3.149570e-002
44221388.368	-3.693088e-002	-3.829158e-002	7.041181e-001	-7.081203e-001	7.040453e-001	-7.075193e-001	-4.258520e-002	-3.151267e-002
44252657.911	-3.697348e-002	-3.821307e-002	7.036083e-001	-7.084790e-001	7.037419e-001	-7.079707e-001	-4.251286e-002	-3.155466e-002
44283927.455	-3.705163e-002	-3.828743e-002	7.031734e-001	-7.088705e-001	7.036134e-001	-7.081839e-001	-4.276788e-002	-3.155333e-002
44315196.998	-3.704676e-002	-3.830789e-002	7.028169e-001	-7.092286e-001	7.031796e-001	-7.086575e-001	-4.266263e-002	-3.158710e-002
44346466.542	-3.707542e-002	-3.833448e-002	7.023473e-001	-7.097028e-001	7.028304e-001	-7.091793e-001	-4.280165e-002	-3.150625e-002
44377736.085	-3.711504e-002	-3.829775e-002	7.019695e-001	-7.098423e-001	7.023810e-001	-7.094271e-001	-4.290920e-002	-3.145521e-002
44409005.629	-3.710804e-002	-3.822990e-002	7.013553e-001	-7.104744e-001	7.018037e-001	-7.096910e-001	-4.288004e-002	-3.150113e-002
44440275.172	-3.715158e-002	-3.835191e-002	7.011200e-001	-7.107653e-001	7.014080e-001	-7.102232e-001	-4.297227e-002	-3.144845e-002
44471544.715	-3.726495e-002	-3.835800e-002	7.006266e-001	-7.112855e-001	7.012512e-001	-7.106366e-001	-4.294042e-002	-3.144883e-002
44502814.259	-3.723193e-002	-3.843887e-002	7.004205e-001	-7.114118e-001	7.006843e-001	-7.110756e-001	-4.292367e-002	-3.145531e-002
44534083.802	-3.735735e-002	-3.835619e-002	7.000623e-001	-7.121193e-001	7.002412e-001	-7.114229e-001	-4.304316e-002	-3.153882e-002
44565353.346	-3.741274e-002	-3.835434e-002	6.996387e-001	-7.124403e-001	7.000131e-001	-7.116546e-001	-4.316750e-002	-3.136358e-002
44596622.889	-3.745411e-002	-3.837511e-002	6.992487e-001	-7.126553e-001	6.995561e-001	-7.120551e-001	-4.314402e-002	-3.140185e-002
44627892.433	-3.740159e-002	-3.835759e-002	6.987312e-001	-7.130742e-001	6.990475e-001	-7.126376e-001	-4.330592e-002	-3.146759e-002
44659161.976	-3.752219e-002	-3.834739e-002	6.982300e-001	-7.135837e-001	6.987987e-001	-7.131406e-001	-4.334157e-002	-3.143717e-002
44690431.520	-3.753274e-002	-3.843811e-002	6.980088e-001	-7.140554e-001	6.981935e-001	-7.132835e-001	-4.334168e-002	-3.138352e-002
