!Agilent Technologies,E5061B,MY49102235,A.02.00
!Date: Mon Jul 03 10:55:16 2023
!Data & Calibration Information:
!Freq	S11:SOLT2(ON)	S21:SOLT2(ON)	S12:SOLT2(ON)	S22:SOLT2(ON)
# Hz S RI R 50
40000000.000	5.978168e-002	-4.330769e-002	6.641068e-001	-6.473163e-001	6.641851e-001	-6.464799e-001	5.440496e-002	-4.498331e-002
40031269.543	5.976037e-002	-4.343076e-002	6.638021e-001	-6.476843e-001	6.638582e-001	-6.467276e-001	5.440992e-002	-4.502424e-002
40062539.087	5.972336e-002	-4.349616e-002	6.631567e-001	-6.477942e-001	6.634019e-001	-6.470783e-001	5.439902e-002	-4.514803e-002
40093808.630	5.969585e-002	-4.354480e-002	6.628542e-001	-6.483118e-001	6.630196e-001	-6.476028e-001	5.435349e-002	-4.517981e-002
40125078.174	5.965529e-002	-4.359218e-002	6.624765e-001	-6.485973e-001	6.625088e-001	-6.478571e-001	5.439058e-002	-4.517611e-002
40156347.717	5.969627e-002	-4.371010e-002	6.621965e-001	-6.490686e-001	6.621375e-001	-6.483829e-001	5.428808e-002	-4.532268e-002
40187617.261	5.965710e-002	-4.382941e-002	6.617962e-001	-6.492639e-001	6.619116e-001	-6.487405e-001	5.427354e-002	-4.549936e-002
40218886.804	5.966699e-002	-4.383722e-002	6.613612e-001	-6.497946e-001	6.614000e-001	-6.489131e-001	5.429722e-002	-4.552101e-002
40250156.348	5.963833e-002	-4.389901e-002	6.610226e-001	-6.500191e-001	6.610715e-001	-6.494031e-001	5.416716e-002	-4.561865e-002
40281425.891	5.959990e-002	-4.401147e-002	6.605962e-001	-6.504503e-001	6.606645e-001	-6.496848e-001	5.418702e-002	-4.563394e-002
40312695.435	5.961072e-002	-4.407122e-002	6.601443e-001	-6.509683e-001	6.602716e-001	-6.500121e-001	5.419994e-002	-4.572569e-002
40343964.978	5.960147e-002	-4.408664e-002	6.597926e-001	-6.510166e-001	6.598516e-001	-6.503762e-001	5.414066e-002	-4.574259e-002
40375234.522	5.960343e-002	-4.417163e-002	6.592628e-001	-6.514820e-001	6.595253e-001	-6.506654e-001	5.407817e-002	-4.583897e-002
40406504.065	5.952000e-002	-4.420050e-002	6.588513e-001	-6.517028e-001	6.590657e-001	-6.511680e-001	5.411088e-002	-4.598655e-002
40437773.609	5.945602e-002	-4.438724e-002	6.587386e-001	-6.521202e-001	6.587968e-001	-6.514150e-001	5.405702e-002	-4.607682e-002
40469043.152	5.953147e-002	-4.444070e-002	6.582406e-001	-6.524775e-001	6.584090e-001	-6.517508e-001	5.401358e-002	-4.606571e-002
40500312.695	5.944744e-002	-4.458058e-002	6.576781e-001	-6.529139e-001	6.580134e-001	-6.521318e-001	5.396402e-002	-4.611212e-002
40531582.239	5.947271e-002	-4.456339e-002	6.573360e-001	-6.529821e-001	6.574427e-001	-6.527405e-001	5.392431e-002	-4.617487e-002
40562851.782	5.944056e-002	-4.459239e-002	6.568829e-001	-6.534680e-001	6.570194e-001	-6.528443e-001	5.397397e-002	-4.639955e-002
40594121.326	5.944864e-002	-4.472479e-002	6.567269e-001	-6.539754e-001	6.567485e-001	-6.531425e-001	5.394151e-002	-4.633267e-002
40625390.869	5.942552e-002	-4.474074e-002	6.563087e-001	-6.542391e-001	6.565331e-001	-6.536680e-001	5.385439e-002	-4.649304e-002
40656660.413	5.939665e-002	-4.483667e-002	6.558391e-001	-6.546011e-001	6.561156e-001	-6.538321e-001	5.385850e-002	-4.649912e-002
40687929.956	5.941416e-002	-4.489975e-002	6.556901e-001	-6.551498e-001	6.557483e-001	-6.542139e-001	5.381854e-002	-4.660254e-002
40719199.500	5.936565e-002	-4.491226e-002	6.549848e-001	-6.552225e-001	6.551609e-001	-6.547983e-001	5.386472e-002	-4.669265e-002
40750469.043	5.932380e-002	-4.503264e-002	6.545456e-001	-6.554706e-001	6.547932e-001	-6.550183e-001	5.367860e-002	-4.671913e-002
40781738.587	5.937766e-002	-4.519534e-002	6.542880e-001	-6.560726e-001	6.543935e-001	-6.554020e-001	5.363630e-002	-4.678683e-002
40813008.130	5.928532e-002	-4.522869e-002	6.540355e-001	-6.562829e-001	6.538991e-001	-6.557501e-001	5.366584e-002	-4.686343e-002
40844277.674	5.930748e-002	-4.522524e-002	6.534745e-001	-6.566593e-001	6.535426e-001	-6.560641e-001	5.358406e-002	-4.692620e-002
40875547.217	5.928738e-002	-4.535657e-002	6.530112e-001	-6.571214e-001	6.533046e-001	-6.563033e-001	5.360544e-002	-4.701742e-002
40906816.760	5.926833e-002	-4.536726e-002	6.528330e-001	-6.574464e-001	6.528278e-001	-6.566694e-001	5.367154e-002	-4.713110e-002
40938086.304	5.917023e-002	-4.550343e-002	6.521550e-001	-6.578177e-001	6.525367e-001	-6.571398e-001	5.351789e-002	-4.716763e-002
40969355.847	5.916317e-002	-4.552843e-002	6.517257e-001	-6.580582e-001	6.520385e-001	-6.574214e-001	5.348615e-002	-4.720331e-002
41000625.391	5.915777e-002	-4.557610e-002	6.512985e-001	-6.583485e-001	6.515190e-001	-6.576963e-001	5.349306e-002	-4.727581e-002
41031894.934	5.930668e-002	-4.561445e-002	6.512453e-001	-6.586662e-001	6.511948e-001	-6.582256e-001	5.342997e-002	-4.734118e-002
41063164.478	5.915149e-002	-4.572038e-002	6.507591e-001	-6.591377e-001	6.509167e-001	-6.585403e-001	5.344028e-002	-4.746600e-002
41094434.021	5.910826e-002	-4.584147e-002	6.503200e-001	-6.594087e-001	6.504310e-001	-6.587441e-001	5.337687e-002	-4.752511e-002
41125703.565	5.912213e-002	-4.590259e-002	6.500009e-001	-6.598315e-001	6.501535e-001	-6.590678e-001	5.332965e-002	-4.755773e-002
41156973.108	5.915182e-002	-4.600629e-002	6.496216e-001	-6.600012e-001	6.495370e-001	-6.595346e-001	5.329982e-002	-4.765469e-002
41188242.652	5.909568e-002	-4.597300e-002	6.491483e-001	-6.606857e-001	6.492784e-001	-6.598571e-001	5.335900e-002	-4.777408e-002
41219512.195	5.910134e-002	-4.617685e-002	6.487027e-001	-6.609214e-001	6.487970e-001	-6.601934e-001	5.325823e-002	-4.786966e-002
41250781.739	5.902004e-002	-4.618969e-002	6.481362e-001	-6.614217e-001	6.483936e-001	-6.606052e-001	5.325656e-002	-4.787557e-002
41282051.282	5.902656e-002	-4.631108e-002	6.479191e-001	-6.615932e-001	6.479933e-001	-6.609118e-001	5.314854e-002	-4.799083e-002
41313320.826	5.897944e-002	-4.627746e-002	6.474123e-001	-6.618236e-001	6.476530e-001	-6.612014e-001	5.316379e-002	-4.806445e-002
41344590.369	5.892970e-002	-4.644037e-002	6.469941e-001	-6.620594e-001	6.473101e-001	-6.616946e-001	5.317514e-002	-4.807037e-002
41375859.912	5.885136e-002	-4.644153e-002	6.467133e-001	-6.625917e-001	6.466208e-001	-6.618791e-001	5.314029e-002	-4.817625e-002
41407129.456	5.890606e-002	-4.654049e-002	6.464268e-001	-6.627737e-001	6.463857e-001	-6.621333e-001	5.301916e-002	-4.817417e-002
41438398.999	5.890018e-002	-4.668500e-002	6.460665e-001	-6.633914e-001	6.461386e-001	-6.626078e-001	5.299130e-002	-4.827445e-002
41469668.543	5.883665e-002	-4.657289e-002	6.454642e-001	-6.637121e-001	6.456307e-001	-6.630656e-001	5.300110e-002	-4.837767e-002
41500938.086	5.883805e-002	-4.677800e-002	6.451657e-001	-6.639062e-001	6.453414e-001	-6.632594e-001	5.295435e-002	-4.850402e-002
41532207.630	5.884444e-002	-4.684684e-002	6.447427e-001	-6.642911e-001	6.449254e-001	-6.636453e-001	5.293576e-002	-4.853919e-002
41563477.173	5.884564e-002	-4.695460e-002	6.442968e-001	-6.647223e-001	6.444677e-001	-6.639317e-001	5.296015e-002	-4.864451e-002
41594746.717	5.886390e-002	-4.699502e-002	6.438692e-001	-6.650121e-001	6.440636e-001	-6.643394e-001	5.287460e-002	-4.863226e-002
41626016.260	5.866212e-002	-4.709042e-002	6.435136e-001	-6.653634e-001	6.436709e-001	-6.646718e-001	5.282336e-002	-4.871623e-002
41657285.804	5.876450e-002	-4.716928e-002	6.431716e-001	-6.657546e-001	6.432935e-001	-6.649647e-001	5.284549e-002	-4.880764e-002
41688555.347	5.877183e-002	-4.719681e-002	6.427070e-001	-6.660154e-001	6.428885e-001	-6.654123e-001	5.279474e-002	-4.887691e-002
41719824.891	5.876159e-002	-4.720820e-002	6.423546e-001	-6.664149e-001	6.424830e-001	-6.656202e-001	5.274144e-002	-4.890819e-002
41751094.434	5.866010e-002	-4.719765e-002	6.419696e-001	-6.666310e-001	6.420039e-001	-6.662486e-001	5.273741e-002	-4.908561e-002
41782363.977	5.873881e-002	-4.742052e-002	6.416273e-001	-6.670886e-001	6.417281e-001	-6.663540e-001	5.256282e-002	-4.908793e-002
41813633.521	5.863886e-002	-4.748708e-002	6.410733e-001	-6.673174e-001	6.413957e-001	-6.666762e-001	5.269301e-002	-4.912716e-002
41844903.064	5.860833e-002	-4.752168e-002	6.408640e-001	-6.676079e-001	6.408231e-001	-6.671606e-001	5.257805e-002	-4.922440e-002
41876172.608	5.860969e-002	-4.763631e-002	6.401924e-001	-6.680620e-001	6.406109e-001	-6.674647e-001	5.248823e-002	-4.924325e-002
41907442.151	5.854347e-002	-4.763794e-002	6.399270e-001	-6.683624e-001	6.401729e-001	-6.678637e-001	5.247683e-002	-4.934831e-002
41938711.695	5.863268e-002	-4.776042e-002	6.394676e-001	-6.687190e-001	6.397595e-001	-6.680584e-001	5.256887e-002	-4.946785e-002
41969981.238	5.854990e-002	-4.789645e-002	6.391379e-001	-6.690880e-001	6.392343e-001	-6.685943e-001	5.251721e-002	-4.950177e-002
42001250.782	5.856414e-002	-4.785373e-002	6.387518e-001	-6.694958e-001	6.389104e-001	-6.686570e-001	5.245813e-002	-4.956832e-002
42032520.325	5.854761e-002	-4.790634e-002	6.382996e-001	-6.697967e-001	6.386793e-001	-6.690128e-001	5.236180e-002	-4.963779e-002
42063789.869	5.846586e-002	-4.802289e-002	6.379773e-001	-6.701041e-001	6.380239e-001	-6.695586e-001	5.229127e-002	-4.972039e-002
42095059.412	5.847636e-002	-4.811188e-002	6.375522e-001	-6.704788e-001	6.377843e-001	-6.698945e-001	5.232023e-002	-4.972139e-002
42126328.956	5.840245e-002	-4.818061e-002	6.371235e-001	-6.706720e-001	6.372311e-001	-6.701316e-001	5.224250e-002	-4.985707e-002
42157598.499	5.846858e-002	-4.828793e-002	6.367112e-001	-6.711042e-001	6.368355e-001	-6.706071e-001	5.225478e-002	-4.990614e-002
42188868.043	5.840898e-002	-4.836185e-002	6.364463e-001	-6.713221e-001	6.365233e-001	-6.708654e-001	5.218921e-002	-4.996094e-002
42220137.586	5.845956e-002	-4.840009e-002	6.358925e-001	-6.718871e-001	6.360900e-001	-6.710824e-001	5.215549e-002	-5.006510e-002
42251407.129	5.836015e-002	-4.850506e-002	6.356056e-001	-6.722619e-001	6.356345e-001	-6.715750e-001	5.208819e-002	-5.007012e-002
42282676.673	5.836971e-002	-4.856662e-002	6.350989e-001	-6.724753e-001	6.351937e-001	-6.718255e-001	5.211079e-002	-5.018008e-002
42313946.216	5.831673e-002	-4.858531e-002	6.347706e-001	-6.729064e-001	6.349288e-001	-6.722894e-001	5.206417e-002	-5.025608e-002
42345215.760	5.821548e-002	-4.872703e-002	6.342726e-001	-6.731865e-001	6.344320e-001	-6.726310e-001	5.194475e-002	-5.027441e-002
42376485.303	5.823120e-002	-4.879970e-002	6.338615e-001	-6.735803e-001	6.339806e-001	-6.728377e-001	5.198472e-002	-5.033137e-002
42407754.847	5.824699e-002	-4.882584e-002	6.334373e-001	-6.738382e-001	6.336067e-001	-6.731983e-001	5.196293e-002	-5.041658e-002
42439024.390	5.817909e-002	-4.894970e-002	6.330800e-001	-6.742164e-001	6.332337e-001	-6.734323e-001	5.188272e-002	-5.056456e-002
42470293.934	5.822158e-002	-4.903365e-002	6.326935e-001	-6.745269e-001	6.329323e-001	-6.738941e-001	5.189291e-002	-5.060927e-002
42501563.477	5.815433e-002	-4.899710e-002	6.323738e-001	-6.747735e-001	6.325323e-001	-6.743387e-001	5.189527e-002	-5.068182e-002
42532833.021	5.819730e-002	-4.911294e-002	6.319611e-001	-6.751331e-001	6.321818e-001	-6.747369e-001	5.175700e-002	-5.075761e-002
42564102.564	5.811996e-002	-4.918838e-002	6.314920e-001	-6.756270e-001	6.316428e-001	-6.749800e-001	5.173335e-002	-5.085157e-002
42595372.108	5.813706e-002	-4.924482e-002	6.309695e-001	-6.759753e-001	6.312741e-001	-6.754217e-001	5.165105e-002	-5.089203e-002
42626641.651	5.805931e-002	-4.944922e-002	6.307425e-001	-6.761368e-001	6.308888e-001	-6.755431e-001	5.163712e-002	-5.093581e-002
42657911.194	5.804312e-002	-4.941420e-002	6.302535e-001	-6.765973e-001	6.304667e-001	-6.759872e-001	5.163982e-002	-5.101304e-002
42689180.738	5.798628e-002	-4.943885e-002	6.299422e-001	-6.768517e-001	6.300442e-001	-6.763162e-001	5.154605e-002	-5.109615e-002
42720450.281	5.795141e-002	-4.959664e-002	6.293173e-001	-6.770369e-001	6.295653e-001	-6.765681e-001	5.159189e-002	-5.114907e-002
42751719.825	5.795934e-002	-4.972924e-002	6.290583e-001	-6.775077e-001	6.294524e-001	-6.768312e-001	5.157908e-002	-5.126146e-002
42782989.368	5.785051e-002	-4.971123e-002	6.286435e-001	-6.780507e-001	6.288559e-001	-6.773261e-001	5.147998e-002	-5.126053e-002
42814258.912	5.793737e-002	-4.978635e-002	6.284329e-001	-6.782246e-001	6.284854e-001	-6.776402e-001	5.144478e-002	-5.147888e-002
42845528.455	5.785582e-002	-4.981196e-002	6.278438e-001	-6.786641e-001	6.280910e-001	-6.779975e-001	5.144667e-002	-5.142121e-002
42876797.999	5.791136e-002	-4.994051e-002	6.275449e-001	-6.788084e-001	6.276062e-001	-6.783565e-001	5.135727e-002	-5.156850e-002
42908067.542	5.779795e-002	-4.999929e-002	6.270724e-001	-6.790616e-001	6.273460e-001	-6.785185e-001	5.130280e-002	-5.167425e-002
42939337.086	5.785941e-002	-5.004226e-002	6.266356e-001	-6.794768e-001	6.266593e-001	-6.789294e-001	5.133701e-002	-5.172986e-002
42970606.629	5.776969e-002	-5.018433e-002	6.262148e-001	-6.798678e-001	6.263295e-001	-6.793054e-001	5.120834e-002	-5.184192e-002
43001876.173	5.774545e-002	-5.023692e-002	6.258483e-001	-6.802665e-001	6.260354e-001	-6.796836e-001	5.120014e-002	-5.176043e-002
43033145.716	5.782567e-002	-5.026661e-002	6.252684e-001	-6.805635e-001	6.255748e-001	-6.800332e-001	5.113620e-002	-5.185364e-002
43064415.260	5.778041e-002	-5.039663e-002	6.249410e-001	-6.808220e-001	6.252948e-001	-6.803062e-001	5.112030e-002	-5.198571e-002
43095684.803	5.768249e-002	-5.041939e-002	6.245221e-001	-6.812534e-001	6.247706e-001	-6.806568e-001	5.105692e-002	-5.204443e-002
43126954.346	5.774195e-002	-5.048121e-002	6.242059e-001	-6.815563e-001	6.243457e-001	-6.810107e-001	5.101337e-002	-5.203421e-002
43158223.890	5.766979e-002	-5.059296e-002	6.238124e-001	-6.817293e-001	6.239129e-001	-6.812866e-001	5.097232e-002	-5.211278e-002
43189493.433	5.762872e-002	-5.071386e-002	6.235134e-001	-6.823388e-001	6.233614e-001	-6.817321e-001	5.094624e-002	-5.214792e-002
43220762.977	5.762046e-002	-5.069982e-002	6.230093e-001	-6.826091e-001	6.231963e-001	-6.818901e-001	5.089773e-002	-5.231724e-002
43252032.520	5.755436e-002	-5.086122e-002	6.225365e-001	-6.828981e-001	6.226775e-001	-6.824006e-001	5.092762e-002	-5.241056e-002
43283302.064	5.753962e-002	-5.081773e-002	6.221574e-001	-6.831618e-001	6.222304e-001	-6.825482e-001	5.090613e-002	-5.240194e-002
43314571.607	5.747489e-002	-5.099776e-002	6.218130e-001	-6.835765e-001	6.221079e-001	-6.829722e-001	5.080623e-002	-5.239082e-002
43345841.151	5.751580e-002	-5.101409e-002	6.213053e-001	-6.838474e-001	6.215585e-001	-6.832860e-001	5.077224e-002	-5.250534e-002
43377110.694	5.742034e-002	-5.112239e-002	6.209586e-001	-6.841588e-001	6.210456e-001	-6.836661e-001	5.069289e-002	-5.260543e-002
43408380.238	5.747312e-002	-5.124369e-002	6.206180e-001	-6.846764e-001	6.206644e-001	-6.838747e-001	5.073187e-002	-5.269858e-002
43439649.781	5.742797e-002	-5.129122e-002	6.200765e-001	-6.848724e-001	6.201566e-001	-6.843223e-001	5.072154e-002	-5.277081e-002
43470919.325	5.735237e-002	-5.134045e-002	6.196010e-001	-6.853240e-001	6.199989e-001	-6.847455e-001	5.067891e-002	-5.274481e-002
43502188.868	5.733644e-002	-5.146041e-002	6.193146e-001	-6.856336e-001	6.193487e-001	-6.849682e-001	5.060965e-002	-5.284255e-002
43533458.412	5.737658e-002	-5.144610e-002	6.189062e-001	-6.857833e-001	6.190064e-001	-6.852369e-001	5.060922e-002	-5.299026e-002
43564727.955	5.725800e-002	-5.152265e-002	6.185424e-001	-6.860906e-001	6.186406e-001	-6.858387e-001	5.050605e-002	-5.306848e-002
43595997.498	5.726827e-002	-5.167300e-002	6.180775e-001	-6.864387e-001	6.180927e-001	-6.859060e-001	5.045417e-002	-5.309484e-002
43627267.042	5.724922e-002	-5.175088e-002	6.177952e-001	-6.868057e-001	6.178004e-001	-6.863571e-001	5.042235e-002	-5.311597e-002
43658536.585	5.723984e-002	-5.184313e-002	6.172446e-001	-6.871168e-001	6.173741e-001	-6.866540e-001	5.036848e-002	-5.321324e-002
43689806.129	5.726395e-002	-5.192555e-002	6.168093e-001	-6.874648e-001	6.170011e-001	-6.869489e-001	5.037380e-002	-5.334008e-002
43721075.672	5.711586e-002	-5.183335e-002	6.163672e-001	-6.877350e-001	6.165814e-001	-6.873258e-001	5.033421e-002	-5.340672e-002
43752345.216	5.718522e-002	-5.205389e-002	6.161831e-001	-6.881891e-001	6.161009e-001	-6.876990e-001	5.031557e-002	-5.342651e-002
43783614.759	5.715916e-002	-5.212108e-002	6.155748e-001	-6.884498e-001	6.158171e-001	-6.879564e-001	5.024936e-002	-5.354609e-002
43814884.303	5.701685e-002	-5.213960e-002	6.152695e-001	-6.887701e-001	6.153590e-001	-6.882511e-001	5.018356e-002	-5.354991e-002
43846153.846	5.708633e-002	-5.226535e-002	6.149379e-001	-6.890801e-001	6.150686e-001	-6.886300e-001	5.011863e-002	-5.363589e-002
43877423.390	5.703177e-002	-5.233521e-002	6.143436e-001	-6.895746e-001	6.145319e-001	-6.889170e-001	5.015257e-002	-5.370971e-002
43908692.933	5.696267e-002	-5.229928e-002	6.138517e-001	-6.898812e-001	6.142530e-001	-6.891789e-001	5.006843e-002	-5.371954e-002
43939962.477	5.694327e-002	-5.239473e-002	6.136581e-001	-6.902255e-001	6.137666e-001	-6.896226e-001	5.003495e-002	-5.382433e-002
43971232.020	5.694536e-002	-5.253748e-002	6.131121e-001	-6.904751e-001	6.133398e-001	-6.899626e-001	5.000737e-002	-5.391597e-002
44002501.563	5.691144e-002	-5.263572e-002	6.126564e-001	-6.906660e-001	6.129863e-001	-6.900968e-001	4.998568e-002	-5.391330e-002
44033771.107	5.691529e-002	-5.269796e-002	6.123167e-001	-6.911679e-001	6.125653e-001	-6.904584e-001	4.991872e-002	-5.401755e-002
44065040.650	5.689745e-002	-5.267361e-002	6.119655e-001	-6.914507e-001	6.121693e-001	-6.908595e-001	4.995465e-002	-5.404786e-002
44096310.194	5.678626e-002	-5.279785e-002	6.116227e-001	-6.917154e-001	6.116672e-001	-6.911429e-001	4.985222e-002	-5.417613e-002
44127579.737	5.678499e-002	-5.290749e-002	6.111092e-001	-6.920832e-001	6.113364e-001	-6.913939e-001	4.982608e-002	-5.426103e-002
44158849.281	5.679161e-002	-5.295222e-002	6.107324e-001	-6.923402e-001	6.109772e-001	-6.918386e-001	4.978095e-002	-5.432980e-002
44190118.824	5.672480e-002	-5.302634e-002	6.102793e-001	-6.926767e-001	6.105735e-001	-6.922437e-001	4.970870e-002	-5.437779e-002
44221388.368	5.665727e-002	-5.308260e-002	6.099917e-001	-6.930962e-001	6.099932e-001	-6.924724e-001	4.960779e-002	-5.441999e-002
44252657.911	5.665231e-002	-5.315249e-002	6.094777e-001	-6.933715e-001	6.096210e-001	-6.928778e-001	4.970164e-002	-5.453459e-002
44283927.455	5.662241e-002	-5.325006e-002	6.090504e-001	-6.936182e-001	6.092748e-001	-6.931411e-001	4.949193e-002	-5.463894e-002
44315196.998	5.658965e-002	-5.330180e-002	6.087489e-001	-6.940783e-001	6.088776e-001	-6.934363e-001	4.958070e-002	-5.470417e-002
44346466.542	5.656915e-002	-5.338628e-002	6.081847e-001	-6.943664e-001	6.084311e-001	-6.938279e-001	4.946231e-002	-5.472260e-002
44377736.085	5.655690e-002	-5.343326e-002	6.078289e-001	-6.945060e-001	6.078814e-001	-6.940598e-001	4.936548e-002	-5.474542e-002
44409005.629	5.654715e-002	-5.346675e-002	6.073399e-001	-6.950236e-001	6.075181e-001	-6.943204e-001	4.942356e-002	-5.485815e-002
44440275.172	5.651518e-002	-5.367154e-002	6.069055e-001	-6.952318e-001	6.072206e-001	-6.947558e-001	4.933284e-002	-5.489768e-002
44471544.715	5.646623e-002	-5.372043e-002	6.064971e-001	-6.956136e-001	6.068282e-001	-6.950535e-001	4.936763e-002	-5.496934e-002
44502814.259	5.651505e-002	-5.381814e-002	6.061765e-001	-6.957147e-001	6.061993e-001	-6.953878e-001	4.934564e-002	-5.505535e-002
44534083.802	5.638947e-002	-5.380923e-002	6.056439e-001	-6.963211e-001	6.058920e-001	-6.956535e-001	4.924926e-002	-5.517872e-002
44565353.346	5.635654e-002	-5.387703e-002	6.052930e-001	-6.966182e-001	6.055769e-001	-6.959935e-001	4.917353e-002	-5.509438e-002
44596622.889	5.630704e-002	-5.398876e-002	6.049270e-001	-6.968337e-001	6.051463e-001	-6.963118e-001	4.916934e-002	-5.523243e-002
44627892.433	5.633769e-002	-5.405390e-002	6.044918e-001	-6.971477e-001	6.046994e-001	-6.966659e-001	4.905015e-002	-5.536469e-002
44659161.976	5.628888e-002	-5.408528e-002	6.039170e-001	-6.975154e-001	6.043293e-001	-6.969353e-001	4.905497e-002	-5.536836e-002
44690431.520	5.628176e-002	-5.426897e-002	6.036790e-001	-6.978360e-001	6.038417e-001	-6.972375e-001	4.902537e-002	-5.543654e-002
44721701.063	5.624571e-002	-5.426619e-002	6.033878e-001	-6.981441e-001	6.034521e-001	-6.977466e-001	4.900712e-002	-5.543888e-002
44752970.607	5.612906e-002	-5.443401e-002	6.028046e-001	-6.985096e-001	6.029350e-001	-6.981001e-001	4.899848e-002	-5.561364e-002
