!Agilent Technologies,E5061B,MY49102235,A.02.00
!Date: Mon Jul 03 10:28:31 2023
!Data & Calibration Information:
!Freq	S11:SOLT2(ON)	S21:SOLT2(ON)	S12:SOLT2(ON)	S22:SOLT2(ON)
# Hz S RI R 50
40000000.000	-7.681656e-003	-9.706450e-003	7.318523e-001	-6.808176e-001	7.318064e-001	-6.799016e-001	-1.006254e-002	-6.436289e-003
40031269.543	-7.748555e-003	-9.796127e-003	7.316215e-001	-6.812450e-001	7.316245e-001	-6.801190e-001	-1.008313e-002	-6.393602e-003
40062539.087	-7.753295e-003	-9.734473e-003	7.307879e-001	-6.814439e-001	7.311120e-001	-6.805458e-001	-1.001845e-002	-6.457018e-003
40093808.630	-7.765152e-003	-9.733612e-003	7.305566e-001	-6.818256e-001	7.308241e-001	-6.810815e-001	-1.009578e-002	-6.415623e-003
40125078.174	-7.812170e-003	-9.702786e-003	7.302942e-001	-6.823742e-001	7.303679e-001	-6.813096e-001	-1.002212e-002	-6.344115e-003
40156347.717	-7.737987e-003	-9.755834e-003	7.298572e-001	-6.829136e-001	7.300725e-001	-6.820338e-001	-1.008403e-002	-6.367492e-003
40187617.261	-7.766755e-003	-9.758811e-003	7.293636e-001	-6.832934e-001	7.298261e-001	-6.824377e-001	-1.012521e-002	-6.532379e-003
40218886.804	-7.797590e-003	-9.742726e-003	7.291056e-001	-6.838004e-001	7.292000e-001	-6.826847e-001	-1.005484e-002	-6.475092e-003
40250156.348	-7.771882e-003	-9.736319e-003	7.287511e-001	-6.839821e-001	7.289370e-001	-6.833093e-001	-1.016681e-002	-6.473094e-003
40281425.891	-7.844988e-003	-9.747932e-003	7.281909e-001	-6.844512e-001	7.284214e-001	-6.836399e-001	-1.012487e-002	-6.429688e-003
40312695.435	-7.796024e-003	-9.711238e-003	7.276321e-001	-6.852269e-001	7.280034e-001	-6.840061e-001	-1.008738e-002	-6.440306e-003
40343964.978	-7.742503e-003	-9.751670e-003	7.274246e-001	-6.853316e-001	7.275074e-001	-6.843889e-001	-1.018580e-002	-6.396565e-003
40375234.522	-7.805074e-003	-9.712805e-003	7.269239e-001	-6.857550e-001	7.273513e-001	-6.847785e-001	-1.018218e-002	-6.386878e-003
40406504.065	-7.853046e-003	-9.648105e-003	7.263671e-001	-6.860892e-001	7.267664e-001	-6.854629e-001	-1.015455e-002	-6.462348e-003
40437773.609	-7.905433e-003	-9.775198e-003	7.264217e-001	-6.866298e-001	7.265088e-001	-6.857348e-001	-1.016452e-002	-6.512940e-003
40469043.152	-7.854168e-003	-9.714013e-003	7.258827e-001	-6.871130e-001	7.262011e-001	-6.861952e-001	-1.026672e-002	-6.420680e-003
40500312.695	-7.898304e-003	-9.802357e-003	7.251878e-001	-6.875660e-001	7.257057e-001	-6.864855e-001	-1.027050e-002	-6.394434e-003
40531582.239	-7.893946e-003	-9.717633e-003	7.250280e-001	-6.875755e-001	7.251192e-001	-6.873957e-001	-1.034165e-002	-6.341974e-003
40562851.782	-7.890926e-003	-9.684557e-003	7.245296e-001	-6.882392e-001	7.246339e-001	-6.875395e-001	-1.019975e-002	-6.460746e-003
40594121.326	-7.886693e-003	-9.774620e-003	7.243695e-001	-6.887065e-001	7.243633e-001	-6.879331e-001	-1.025207e-002	-6.403267e-003
40625390.869	-7.879743e-003	-9.701908e-003	7.239091e-001	-6.890930e-001	7.241878e-001	-6.884477e-001	-1.029609e-002	-6.483267e-003
40656660.413	-7.880708e-003	-9.732932e-003	7.234371e-001	-6.895345e-001	7.236148e-001	-6.885652e-001	-1.026859e-002	-6.403122e-003
40687929.956	-7.919198e-003	-9.704960e-003	7.232775e-001	-6.901133e-001	7.234650e-001	-6.892477e-001	-1.027863e-002	-6.407951e-003
40719199.500	-7.926189e-003	-9.683057e-003	7.224416e-001	-6.904258e-001	7.227280e-001	-6.896815e-001	-1.023025e-002	-6.438626e-003
40750469.043	-7.952633e-003	-9.730585e-003	7.220083e-001	-6.906522e-001	7.224187e-001	-6.900198e-001	-1.037793e-002	-6.407797e-003
40781738.587	-7.842476e-003	-9.831659e-003	7.217590e-001	-6.913516e-001	7.220539e-001	-6.905873e-001	-1.046886e-002	-6.401042e-003
40813008.130	-7.942347e-003	-9.834195e-003	7.215548e-001	-6.915777e-001	7.214524e-001	-6.908544e-001	-1.039842e-002	-6.387687e-003
40844277.674	-7.939321e-003	-9.707390e-003	7.207440e-001	-6.920601e-001	7.212190e-001	-6.912743e-001	-1.045819e-002	-6.380306e-003
40875547.217	-7.981523e-003	-9.763235e-003	7.205516e-001	-6.926680e-001	7.209667e-001	-6.916193e-001	-1.040454e-002	-6.360422e-003
40906816.760	-7.927855e-003	-9.732652e-003	7.203030e-001	-6.928501e-001	7.202456e-001	-6.920960e-001	-1.034352e-002	-6.401845e-003
40938086.304	-8.034521e-003	-9.714375e-003	7.195038e-001	-6.933757e-001	7.200203e-001	-6.926209e-001	-1.045959e-002	-6.467961e-003
40969355.847	-8.058833e-003	-9.716851e-003	7.191753e-001	-6.938287e-001	7.196316e-001	-6.930033e-001	-1.047579e-002	-6.354056e-003
41000625.391	-8.008925e-003	-9.641735e-003	7.185748e-001	-6.940146e-001	7.190929e-001	-6.933725e-001	-1.040129e-002	-6.319746e-003
41031894.934	-7.857848e-003	-9.624686e-003	7.187048e-001	-6.944040e-001	7.186711e-001	-6.938979e-001	-1.049596e-002	-6.377459e-003
41063164.478	-8.024810e-003	-9.697750e-003	7.183895e-001	-6.949865e-001	7.183895e-001	-6.943616e-001	-1.048483e-002	-6.397719e-003
41094434.021	-8.072536e-003	-9.732182e-003	7.177186e-001	-6.954393e-001	7.179144e-001	-6.944968e-001	-1.053614e-002	-6.384060e-003
41125703.565	-7.983232e-003	-9.729380e-003	7.174364e-001	-6.958968e-001	7.177423e-001	-6.948082e-001	-1.054457e-002	-6.331095e-003
41156973.108	-7.973544e-003	-9.759039e-003	7.169890e-001	-6.960609e-001	7.169787e-001	-6.953960e-001	-1.058382e-002	-6.366363e-003
41188242.652	-8.072595e-003	-9.636592e-003	7.165197e-001	-6.969489e-001	7.167646e-001	-6.958533e-001	-1.048228e-002	-6.402016e-003
41219512.195	-7.980316e-003	-9.744643e-003	7.161851e-001	-6.969988e-001	7.162278e-001	-6.962795e-001	-1.052904e-002	-6.481724e-003
41250781.739	-8.098706e-003	-9.673088e-003	7.154021e-001	-6.977391e-001	7.157907e-001	-6.967559e-001	-1.048848e-002	-6.361905e-003
41282051.282	-8.084759e-003	-9.769390e-003	7.153449e-001	-6.979364e-001	7.154808e-001	-6.971885e-001	-1.060483e-002	-6.460412e-003
41313320.826	-8.131709e-003	-9.604508e-003	7.147349e-001	-6.983276e-001	7.150426e-001	-6.974074e-001	-1.059861e-002	-6.385626e-003
41344590.369	-8.189426e-003	-9.760019e-003	7.142743e-001	-6.985683e-001	7.146595e-001	-6.980526e-001	-1.057643e-002	-6.338068e-003
41375859.912	-8.263676e-003	-9.675767e-003	7.139397e-001	-6.991511e-001	7.138454e-001	-6.982526e-001	-1.058187e-002	-6.390279e-003
41407129.456	-8.184378e-003	-9.703229e-003	7.138401e-001	-6.994037e-001	7.137360e-001	-6.986334e-001	-1.067576e-002	-6.284779e-003
41438398.999	-8.138291e-003	-9.803190e-003	7.133827e-001	-7.003155e-001	7.134535e-001	-6.992991e-001	-1.069291e-002	-6.316190e-003
41469668.543	-8.193016e-003	-9.524971e-003	7.129456e-001	-7.004547e-001	7.129584e-001	-6.997423e-001	-1.063824e-002	-6.378442e-003
41500938.086	-8.176565e-003	-9.710158e-003	7.124709e-001	-7.007766e-001	7.127533e-001	-6.999844e-001	-1.073489e-002	-6.403666e-003
41532207.630	-8.132304e-003	-9.704061e-003	7.119476e-001	-7.011216e-001	7.120887e-001	-7.005294e-001	-1.066547e-002	-6.408260e-003
41563477.173	-8.088660e-003	-9.764946e-003	7.114343e-001	-7.017327e-001	7.118699e-001	-7.007094e-001	-1.063526e-002	-6.436224e-003
41594746.717	-8.117575e-003	-9.766956e-003	7.111434e-001	-7.021489e-001	7.113807e-001	-7.012364e-001	-1.069717e-002	-6.340035e-003
41626016.260	-8.293658e-003	-9.829490e-003	7.106760e-001	-7.026565e-001	7.108683e-001	-7.016795e-001	-1.077720e-002	-6.352682e-003
41657285.804	-8.218335e-003	-9.782182e-003	7.102979e-001	-7.029850e-001	7.105987e-001	-7.021219e-001	-1.069905e-002	-6.352656e-003
41688555.347	-8.200678e-003	-9.732885e-003	7.099649e-001	-7.032855e-001	7.100532e-001	-7.027023e-001	-1.073762e-002	-6.331259e-003
41719824.891	-8.175281e-003	-9.639935e-003	7.095155e-001	-7.038273e-001	7.098041e-001	-7.028373e-001	-1.078734e-002	-6.281974e-003
41751094.434	-8.252943e-003	-9.582708e-003	7.091727e-001	-7.040015e-001	7.090943e-001	-7.037010e-001	-1.070060e-002	-6.414417e-003
41782363.977	-8.121555e-003	-9.712461e-003	7.088044e-001	-7.047611e-001	7.089483e-001	-7.036270e-001	-1.090622e-002	-6.338226e-003
41813633.521	-8.239022e-003	-9.717774e-003	7.081992e-001	-7.049737e-001	7.085889e-001	-7.042756e-001	-1.075184e-002	-6.278074e-003
41844903.064	-8.267832e-003	-9.734220e-003	7.080318e-001	-7.052663e-001	7.080753e-001	-7.047315e-001	-1.083997e-002	-6.304463e-003
41876172.608	-8.259010e-003	-9.724004e-003	7.072156e-001	-7.057722e-001	7.077443e-001	-7.051927e-001	-1.089007e-002	-6.279132e-003
41907442.151	-8.351041e-003	-9.665226e-003	7.069528e-001	-7.062762e-001	7.072966e-001	-7.053549e-001	-1.090249e-002	-6.286956e-003
41938711.695	-8.231537e-003	-9.689787e-003	7.063772e-001	-7.067361e-001	7.068941e-001	-7.056091e-001	-1.073500e-002	-6.378844e-003
41969981.238	-8.319043e-003	-9.783483e-003	7.061548e-001	-7.070725e-001	7.063200e-001	-7.065279e-001	-1.080819e-002	-6.272719e-003
42001250.782	-8.291171e-003	-9.651674e-003	7.057903e-001	-7.074817e-001	7.060670e-001	-7.064427e-001	-1.089497e-002	-6.313718e-003
42032520.325	-8.233819e-003	-9.641893e-003	7.052585e-001	-7.080551e-001	7.057365e-001	-7.069962e-001	-1.096500e-002	-6.274368e-003
42063789.869	-8.318159e-003	-9.711185e-003	7.049996e-001	-7.083092e-001	7.050937e-001	-7.074818e-001	-1.099608e-002	-6.268321e-003
42095059.412	-8.302729e-003	-9.712853e-003	7.045315e-001	-7.086477e-001	7.049413e-001	-7.079473e-001	-1.097487e-002	-6.262514e-003
42126328.956	-8.365397e-003	-9.682900e-003	7.040618e-001	-7.089090e-001	7.043037e-001	-7.083849e-001	-1.099113e-002	-6.247090e-003
42157598.499	-8.313721e-003	-9.699435e-003	7.036728e-001	-7.096238e-001	7.038661e-001	-7.089698e-001	-1.097363e-002	-6.283132e-003
42188868.043	-8.298022e-003	-9.768927e-003	7.032903e-001	-7.098172e-001	7.034744e-001	-7.091656e-001	-1.099077e-002	-6.241436e-003
42220137.586	-8.240224e-003	-9.663339e-003	7.028604e-001	-7.104019e-001	7.032508e-001	-7.095148e-001	-1.101842e-002	-6.250697e-003
42251407.129	-8.353627e-003	-9.716263e-003	7.026731e-001	-7.108616e-001	7.026927e-001	-7.100228e-001	-1.107639e-002	-6.224569e-003
42282676.673	-8.328489e-003	-9.752893e-003	7.020262e-001	-7.111617e-001	7.022188e-001	-7.103956e-001	-1.098594e-002	-6.233913e-003
42313946.216	-8.374596e-003	-9.663326e-003	7.015916e-001	-7.116632e-001	7.019100e-001	-7.110077e-001	-1.102306e-002	-6.276906e-003
42345215.760	-8.432185e-003	-9.783710e-003	7.011770e-001	-7.121612e-001	7.013194e-001	-7.113024e-001	-1.115579e-002	-6.182827e-003
42376485.303	-8.454686e-003	-9.724488e-003	7.007695e-001	-7.123948e-001	7.009777e-001	-7.116974e-001	-1.107380e-002	-6.157620e-003
42407754.847	-8.388814e-003	-9.655095e-003	7.002176e-001	-7.127390e-001	7.005450e-001	-7.121092e-001	-1.108583e-002	-6.193788e-003
42439024.390	-8.437017e-003	-9.795447e-003	6.999796e-001	-7.131848e-001	6.999688e-001	-7.122646e-001	-1.113366e-002	-6.238099e-003
42470293.934	-8.385166e-003	-9.776879e-003	6.995390e-001	-7.136832e-001	6.999221e-001	-7.129275e-001	-1.115108e-002	-6.268807e-003
42501563.477	-8.463465e-003	-9.681090e-003	6.992106e-001	-7.139402e-001	6.994033e-001	-7.133390e-001	-1.111538e-002	-6.260135e-003
42532833.021	-8.375559e-003	-9.713489e-003	6.987204e-001	-7.144550e-001	6.992055e-001	-7.139250e-001	-1.117612e-002	-6.256309e-003
42564102.564	-8.462966e-003	-9.715342e-003	6.982887e-001	-7.149041e-001	6.984200e-001	-7.141791e-001	-1.118344e-002	-6.294943e-003
42595372.108	-8.446926e-003	-9.705243e-003	6.976932e-001	-7.154591e-001	6.981496e-001	-7.147328e-001	-1.126630e-002	-6.211386e-003
42626641.651	-8.442155e-003	-9.825969e-003	6.974145e-001	-7.155546e-001	6.977339e-001	-7.149041e-001	-1.125890e-002	-6.237302e-003
42657911.194	-8.459999e-003	-9.752213e-003	6.969784e-001	-7.163249e-001	6.971595e-001	-7.153578e-001	-1.122459e-002	-6.167522e-003
42689180.738	-8.551044e-003	-9.652714e-003	6.966530e-001	-7.164569e-001	6.968199e-001	-7.158141e-001	-1.127540e-002	-6.199794e-003
42720450.281	-8.572456e-003	-9.815969e-003	6.960662e-001	-7.166759e-001	6.962927e-001	-7.160054e-001	-1.124098e-002	-6.231554e-003
42751719.825	-8.517790e-003	-9.915073e-003	6.957797e-001	-7.173485e-001	6.960803e-001	-7.164942e-001	-1.118791e-002	-6.215043e-003
42782989.368	-8.623950e-003	-9.760248e-003	6.952840e-001	-7.179035e-001	6.957144e-001	-7.168691e-001	-1.127905e-002	-6.135034e-003
42814258.912	-8.520673e-003	-9.734747e-003	6.950443e-001	-7.181333e-001	6.951116e-001	-7.174901e-001	-1.129446e-002	-6.331624e-003
42845528.455	-8.597189e-003	-9.715184e-003	6.944455e-001	-7.188070e-001	6.949143e-001	-7.177606e-001	-1.132393e-002	-6.192309e-003
42876797.999	-8.483296e-003	-9.742596e-003	6.941339e-001	-7.188788e-001	6.942712e-001	-7.182133e-001	-1.138189e-002	-6.238142e-003
42908067.542	-8.605432e-003	-9.753384e-003	6.936655e-001	-7.192304e-001	6.940338e-001	-7.185032e-001	-1.135641e-002	-6.257572e-003
42939337.086	-8.522945e-003	-9.673959e-003	6.931468e-001	-7.197531e-001	6.933026e-001	-7.190666e-001	-1.136831e-002	-6.318327e-003
42970606.629	-8.604565e-003	-9.829437e-003	6.927599e-001	-7.202154e-001	6.930618e-001	-7.195196e-001	-1.143774e-002	-6.329983e-003
43001876.173	-8.622839e-003	-9.783152e-003	6.925042e-001	-7.206821e-001	6.926851e-001	-7.198974e-001	-1.145370e-002	-6.141280e-003
43033145.716	-8.518739e-003	-9.763197e-003	6.916806e-001	-7.209872e-001	6.921180e-001	-7.202305e-001	-1.143575e-002	-6.175384e-003
43064415.260	-8.598077e-003	-9.746963e-003	6.913228e-001	-7.213554e-001	6.918918e-001	-7.206016e-001	-1.144144e-002	-6.250262e-003
43095684.803	-8.621820e-003	-9.770107e-003	6.909950e-001	-7.218474e-001	6.912865e-001	-7.211418e-001	-1.144452e-002	-6.203920e-003
43126954.346	-8.506933e-003	-9.749734e-003	6.907573e-001	-7.222214e-001	6.908220e-001	-7.216380e-001	-1.152502e-002	-6.174149e-003
43158223.890	-8.615734e-003	-9.775972e-003	6.903304e-001	-7.223968e-001	6.901094e-001	-7.217455e-001	-1.151610e-002	-6.187387e-003
43189493.433	-8.635420e-003	-9.760304e-003	6.897978e-001	-7.229991e-001	6.899014e-001	-7.224850e-001	-1.156596e-002	-6.137596e-003
43220762.977	-8.663999e-003	-9.746164e-003	6.895144e-001	-7.234103e-001	6.896919e-001	-7.226184e-001	-1.156898e-002	-6.229163e-003
43252032.520	-8.724101e-003	-9.869515e-003	6.889426e-001	-7.238898e-001	6.890803e-001	-7.231135e-001	-1.152258e-002	-6.211639e-003
43283302.064	-8.688912e-003	-9.706868e-003	6.884736e-001	-7.240822e-001	6.885588e-001	-7.234126e-001	-1.147006e-002	-6.127942e-003
43314571.607	-8.737924e-003	-9.825491e-003	6.881978e-001	-7.245699e-001	6.885794e-001	-7.237700e-001	-1.153908e-002	-6.025876e-003
43345841.151	-8.700997e-003	-9.833573e-003	6.876130e-001	-7.249558e-001	6.880985e-001	-7.242500e-001	-1.154747e-002	-6.109694e-003
43377110.694	-8.786341e-003	-9.830530e-003	6.872430e-001	-7.252539e-001	6.875596e-001	-7.247928e-001	-1.159988e-002	-6.125149e-003
43408380.238	-8.693890e-003	-9.841736e-003	6.868358e-001	-7.259429e-001	6.870396e-001	-7.248971e-001	-1.152792e-002	-6.175244e-003
43439649.781	-8.674870e-003	-9.880225e-003	6.864385e-001	-7.262370e-001	6.863633e-001	-7.254949e-001	-1.156308e-002	-6.148720e-003
43470919.325	-8.807709e-003	-9.848595e-003	6.858416e-001	-7.267644e-001	6.863613e-001	-7.260814e-001	-1.160271e-002	-6.069765e-003
43502188.868	-8.727496e-003	-9.884728e-003	6.856195e-001	-7.272303e-001	6.857983e-001	-7.262442e-001	-1.165511e-002	-6.110783e-003
43533458.412	-8.717403e-003	-9.809342e-003	6.852594e-001	-7.274173e-001	6.852848e-001	-7.267151e-001	-1.158671e-002	-6.136387e-003
43564727.955	-8.830077e-003	-9.789920e-003	6.848020e-001	-7.277152e-001	6.848724e-001	-7.273437e-001	-1.171799e-002	-6.174845e-003
43595997.498	-8.753506e-003	-9.876628e-003	6.842905e-001	-7.281482e-001	6.842533e-001	-7.273585e-001	-1.167938e-002	-6.090777e-003
43627267.042	-8.825908e-003	-9.908431e-003	6.839999e-001	-7.285743e-001	6.840256e-001	-7.278865e-001	-1.169063e-002	-6.067200e-003
43658536.585	-8.756481e-003	-9.910442e-003	6.833550e-001	-7.288886e-001	6.834375e-001	-7.282360e-001	-1.175507e-002	-6.116069e-003
43689806.129	-8.735703e-003	-9.893955e-003	6.828816e-001	-7.293792e-001	6.832479e-001	-7.285352e-001	-1.172988e-002	-6.151092e-003
43721075.672	-8.893956e-003	-9.758817e-003	6.825211e-001	-7.297536e-001	6.826018e-001	-7.293041e-001	-1.173322e-002	-6.139996e-003
43752345.216	-8.774517e-003	-9.860659e-003	6.822584e-001	-7.301426e-001	6.822302e-001	-7.294626e-001	-1.170441e-002	-6.099141e-003
43783614.759	-8.798709e-003	-9.863910e-003	6.816561e-001	-7.306159e-001	6.819593e-001	-7.299442e-001	-1.173151e-002	-6.129157e-003
43814884.303	-8.879962e-003	-9.855953e-003	6.813307e-001	-7.310061e-001	6.815624e-001	-7.303745e-001	-1.181250e-002	-6.046291e-003
43846153.846	-8.804065e-003	-9.863823e-003	6.810646e-001	-7.313803e-001	6.812397e-001	-7.308119e-001	-1.180962e-002	-6.038176e-003
43877423.390	-8.848428e-003	-9.890943e-003	6.802351e-001	-7.319195e-001	6.806341e-001	-7.310013e-001	-1.175833e-002	-6.068364e-003
43908692.933	-8.948061e-003	-9.797931e-003	6.799634e-001	-7.323242e-001	6.802601e-001	-7.314253e-001	-1.181764e-002	-6.032792e-003
43939962.477	-8.917638e-003	-9.786097e-003	6.796515e-001	-7.327281e-001	6.797986e-001	-7.320494e-001	-1.183904e-002	-6.041245e-003
43971232.020	-8.942578e-003	-9.881969e-003	6.790694e-001	-7.329944e-001	6.793836e-001	-7.324205e-001	-1.185794e-002	-6.071539e-003
44002501.563	-8.863560e-003	-9.933652e-003	6.786092e-001	-7.333447e-001	6.790913e-001	-7.325332e-001	-1.187330e-002	-5.936853e-003
44033771.107	-8.888394e-003	-9.925079e-003	6.781582e-001	-7.339279e-001	6.785024e-001	-7.329386e-001	-1.186659e-002	-5.988758e-003
44065040.650	-8.881379e-003	-9.838930e-003	6.779480e-001	-7.341144e-001	6.781962e-001	-7.334662e-001	-1.184057e-002	-5.960126e-003
44096310.194	-8.961535e-003	-9.850857e-003	6.774305e-001	-7.345519e-001	6.776639e-001	-7.338342e-001	-1.189417e-002	-5.995991e-003
44127579.737	-8.990573e-003	-9.869678e-003	6.770226e-001	-7.351598e-001	6.772886e-001	-7.342068e-001	-1.190856e-002	-6.025417e-003
44158849.281	-8.907676e-003	-9.895140e-003	6.764412e-001	-7.353182e-001	6.769936e-001	-7.346998e-001	-1.186373e-002	-6.017536e-003
44190118.824	-8.964987e-003	-9.913732e-003	6.760939e-001	-7.357301e-001	6.764198e-001	-7.352302e-001	-1.192466e-002	-6.017343e-003
44221388.368	-9.029394e-003	-9.880823e-003	6.757590e-001	-7.361031e-001	6.757396e-001	-7.354760e-001	-1.202689e-002	-6.014478e-003
44252657.911	-9.013290e-003	-9.830153e-003	6.753139e-001	-7.365076e-001	6.755007e-001	-7.359153e-001	-1.188380e-002	-5.977854e-003
44283927.455	-9.078464e-003	-9.905307e-003	6.746613e-001	-7.369540e-001	6.751034e-001	-7.362761e-001	-1.205612e-002	-6.054313e-003
44315196.998	-9.069356e-003	-9.871539e-003	6.745999e-001	-7.373589e-001	6.747433e-001	-7.367346e-001	-1.200367e-002	-6.064541e-003
44346466.542	-9.078733e-003	-9.902946e-003	6.738735e-001	-7.377828e-001	6.741910e-001	-7.371395e-001	-1.205180e-002	-5.982639e-003
44377736.085	-9.092872e-003	-9.881966e-003	6.734002e-001	-7.380859e-001	6.735778e-001	-7.373971e-001	-1.213316e-002	-5.922120e-003
44409005.629	-9.016123e-003	-9.805107e-003	6.730821e-001	-7.385659e-001	6.732307e-001	-7.377079e-001	-1.205249e-002	-5.988878e-003
44440275.172	-9.042458e-003	-9.931676e-003	6.725878e-001	-7.387520e-001	6.729199e-001	-7.382254e-001	-1.209658e-002	-5.936940e-003
44471544.715	-9.139364e-003	-9.894285e-003	6.721533e-001	-7.391389e-001	6.724631e-001	-7.385493e-001	-1.201574e-002	-5.973588e-003
44502814.259	-9.051279e-003	-9.950506e-003	6.718000e-001	-7.395203e-001	6.717908e-001	-7.390344e-001	-1.201792e-002	-5.935500e-003
44534083.802	-9.141082e-003	-9.915835e-003	6.712702e-001	-7.400537e-001	6.716013e-001	-7.393310e-001	-1.206372e-002	-6.012801e-003
44565353.346	-9.107414e-003	-9.876957e-003	6.708561e-001	-7.406742e-001	6.711451e-001	-7.398595e-001	-1.219625e-002	-5.888673e-003
44596622.889	-9.130451e-003	-9.965835e-003	6.704046e-001	-7.408071e-001	6.707673e-001	-7.402600e-001	-1.210776e-002	-5.886322e-003
44627892.433	-9.073014e-003	-9.908992e-003	6.700042e-001	-7.412731e-001	6.703332e-001	-7.405417e-001	-1.222632e-002	-6.028834e-003
44659161.976	-9.148742e-003	-9.883308e-003	6.694144e-001	-7.416142e-001	6.700644e-001	-7.407244e-001	-1.214824e-002	-5.970464e-003
44690431.520	-9.139669e-003	-9.942259e-003	6.691964e-001	-7.421287e-001	6.693219e-001	-7.413160e-001	-1.220056e-002	-5.925188e-003
