! COPPER MOUNTAIN TECHNOLOGIES, PLANAR TR1300/1, 00000000, 23.1.2/1.0
! Date: 7/3/2023 4:26:48 PM
! Data: Format [Calibration Info]
! Freq          	S11: Mag/Ang                   	S21: Mag/Ang                   	S12: Mag/Ang                   	S22: Mag/Ang                   
# HZ S MA R 50
4.00000000E+07	 5.03813138E-02	-1.29708955E+02	 9.98932676E-01	-4.07918180E+01	 0.00000000E+00	 0.00000000E+00	 0.00000000E+00	 0.00000000E+00
4.00312695E+07	 5.04672781E-02	-1.29701353E+02	 9.98958197E-01	-4.08190454E+01	 0.00000000E+00	 0.00000000E+00	 0.00000000E+00	 0.00000000E+00
4.00625391E+07	 5.05109177E-02	-1.29755812E+02	 9.98592100E-01	-4.08520422E+01	 0.00000000E+00	 0.00000000E+00	 0.00000000E+00	 0.00000000E+00
4.00938086E+07	 5.05367839E-02	-1.29808109E+02	 9.98752840E-01	-4.08866626E+01	 0.00000000E+00	 0.00000000E+00	 0.00000000E+00	 0.00000000E+00
4.01250782E+07	 5.05752815E-02	-1.29887677E+02	 9.98714536E-01	-4.09143719E+01	 0.00000000E+00	 0.00000000E+00	 0.00000000E+00	 0.00000000E+00
4.01563477E+07	 5.05894019E-02	-1.29837060E+02	 9.98906148E-01	-4.09479298E+01	 0.00000000E+00	 0.00000000E+00	 0.00000000E+00	 0.00000000E+00
4.01876173E+07	 5.06889187E-02	-1.29846421E+02	 9.98774720E-01	-4.09734416E+01	 0.00000000E+00	 0.00000000E+00	 0.00000000E+00	 0.00000000E+00
4.02188868E+07	 5.06565125E-02	-1.29899349E+02	 9.98855949E-01	-4.10140271E+01	 0.00000000E+00	 0.00000000E+00	 0.00000000E+00	 0.00000000E+00
4.02501563E+07	 5.07073390E-02	-1.29956148E+02	 9.98818390E-01	-4.10362562E+01	 0.00000000E+00	 0.00000000E+00	 0.00000000E+00	 0.00000000E+00
4.02814259E+07	 5.07744540E-02	-1.29985845E+02	 9.98853848E-01	-4.10732040E+01	 0.00000000E+00	 0.00000000E+00	 0.00000000E+00	 0.00000000E+00
4.03126954E+07	 5.07763406E-02	-1.29997197E+02	 9.98911476E-01	-4.11154171E+01	 0.00000000E+00	 0.00000000E+00	 0.00000000E+00	 0.00000000E+00
4.03439650E+07	 5.07569894E-02	-1.30061986E+02	 9.98720779E-01	-4.11319584E+01	 0.00000000E+00	 0.00000000E+00	 0.00000000E+00	 0.00000000E+00
4.03752345E+07	 5.07788269E-02	-1.30082622E+02	 9.98745314E-01	-4.11743935E+01	 0.00000000E+00	 0.00000000E+00	 0.00000000E+00	 0.00000000E+00
4.04065041E+07	 5.08352023E-02	-1.30191837E+02	 9.98566371E-01	-4.12021014E+01	 0.00000000E+00	 0.00000000E+00	 0.00000000E+00	 0.00000000E+00
4.04377736E+07	 5.10023836E-02	-1.30189013E+02	 9.98839132E-01	-4.12245830E+01	 0.00000000E+00	 0.00000000E+00	 0.00000000E+00	 0.00000000E+00
4.04690432E+07	 5.09512343E-02	-1.30136595E+02	 9.98809787E-01	-4.12612357E+01	 0.00000000E+00	 0.00000000E+00	 0.00000000E+00	 0.00000000E+00
4.05003127E+07	 5.10786140E-02	-1.30166122E+02	 9.98680037E-01	-4.13054841E+01	 0.00000000E+00	 0.00000000E+00	 0.00000000E+00	 0.00000000E+00
4.05315822E+07	 5.10174313E-02	-1.30248505E+02	 9.98531926E-01	-4.13218450E+01	 0.00000000E+00	 0.00000000E+00	 0.00000000E+00	 0.00000000E+00
4.05628518E+07	 5.10357927E-02	-1.30325531E+02	 9.98587661E-01	-4.13623797E+01	 0.00000000E+00	 0.00000000E+00	 0.00000000E+00	 0.00000000E+00
4.05941213E+07	 5.10896236E-02	-1.30300152E+02	 9.98866083E-01	-4.13894868E+01	 0.00000000E+00	 0.00000000E+00	 0.00000000E+00	 0.00000000E+00
4.06253909E+07	 5.10791346E-02	-1.30360693E+02	 9.98780796E-01	-4.14209127E+01	 0.00000000E+00	 0.00000000E+00	 0.00000000E+00	 0.00000000E+00
4.06566604E+07	 5.11504826E-02	-1.30375300E+02	 9.98739230E-01	-4.14534656E+01	 0.00000000E+00	 0.00000000E+00	 0.00000000E+00	 0.00000000E+00
4.06879300E+07	 5.11619198E-02	-1.30401973E+02	 9.99061151E-01	-4.14838874E+01	 0.00000000E+00	 0.00000000E+00	 0.00000000E+00	 0.00000000E+00
4.07191995E+07	 5.11714704E-02	-1.30505019E+02	 9.98637334E-01	-4.15171451E+01	 0.00000000E+00	 0.00000000E+00	 0.00000000E+00	 0.00000000E+00
4.07504690E+07	 5.12444769E-02	-1.30513609E+02	 9.98517574E-01	-4.15460875E+01	 0.00000000E+00	 0.00000000E+00	 0.00000000E+00	 0.00000000E+00
4.07817386E+07	 5.12931800E-02	-1.30406482E+02	 9.98813842E-01	-4.15848675E+01	 0.00000000E+00	 0.00000000E+00	 0.00000000E+00	 0.00000000E+00
4.08130081E+07	 5.13504910E-02	-1.30543086E+02	 9.98821320E-01	-4.16049743E+01	 0.00000000E+00	 0.00000000E+00	 0.00000000E+00	 0.00000000E+00
4.08442777E+07	 5.13198399E-02	-1.30592900E+02	 9.98694326E-01	-4.16459682E+01	 0.00000000E+00	 0.00000000E+00	 0.00000000E+00	 0.00000000E+00
4.08755472E+07	 5.13927623E-02	-1.30573216E+02	 9.98750694E-01	-4.16854586E+01	 0.00000000E+00	 0.00000000E+00	 0.00000000E+00	 0.00000000E+00
4.09068168E+07	 5.13874041E-02	-1.30660959E+02	 9.98866173E-01	-4.17051323E+01	 0.00000000E+00	 0.00000000E+00	 0.00000000E+00	 0.00000000E+00
4.09380863E+07	 5.15162014E-02	-1.30698177E+02	 9.98689189E-01	-4.17499599E+01	 0.00000000E+00	 0.00000000E+00	 0.00000000E+00	 0.00000000E+00
4.09693558E+07	 5.15190261E-02	-1.30771735E+02	 9.98568322E-01	-4.17773822E+01	 0.00000000E+00	 0.00000000E+00	 0.00000000E+00	 0.00000000E+00
4.10006254E+07	 5.15151995E-02	-1.30807695E+02	 9.98480045E-01	-4.18080928E+01	 0.00000000E+00	 0.00000000E+00	 0.00000000E+00	 0.00000000E+00
4.10318949E+07	 5.14079772E-02	-1.30738616E+02	 9.98753525E-01	-4.18266813E+01	 0.00000000E+00	 0.00000000E+00	 0.00000000E+00	 0.00000000E+00
4.10631645E+07	 5.15649091E-02	-1.30841341E+02	 9.98764292E-01	-4.18657570E+01	 0.00000000E+00	 0.00000000E+00	 0.00000000E+00	 0.00000000E+00
4.10944340E+07	 5.16512842E-02	-1.30849015E+02	 9.98655131E-01	-4.18966618E+01	 0.00000000E+00	 0.00000000E+00	 0.00000000E+00	 0.00000000E+00
4.11257036E+07	 5.16449701E-02	-1.30857434E+02	 9.98757308E-01	-4.19289829E+01	 0.00000000E+00	 0.00000000E+00	 0.00000000E+00	 0.00000000E+00
4.11569731E+07	 5.16830095E-02	-1.30835298E+02	 9.98670452E-01	-4.19522096E+01	 0.00000000E+00	 0.00000000E+00	 0.00000000E+00	 0.00000000E+00
4.11882427E+07	 5.16672843E-02	-1.30980903E+02	 9.98849628E-01	-4.20007057E+01	 0.00000000E+00	 0.00000000E+00	 0.00000000E+00	 0.00000000E+00
4.12195122E+07	 5.17682754E-02	-1.30888268E+02	 9.98754392E-01	-4.20303116E+01	 0.00000000E+00	 0.00000000E+00	 0.00000000E+00	 0.00000000E+00
4.12507817E+07	 5.18204972E-02	-1.31006498E+02	 9.98700945E-01	-4.20755096E+01	 0.00000000E+00	 0.00000000E+00	 0.00000000E+00	 0.00000000E+00
4.12820513E+07	 5.18535359E-02	-1.30968529E+02	 9.98730982E-01	-4.20933559E+01	 0.00000000E+00	 0.00000000E+00	 0.00000000E+00	 0.00000000E+00
4.13133208E+07	 5.18482206E-02	-1.31120876E+02	 9.98560871E-01	-4.21244579E+01	 0.00000000E+00	 0.00000000E+00	 0.00000000E+00	 0.00000000E+00
4.13445904E+07	 5.19662941E-02	-1.31099861E+02	 9.98432904E-01	-4.21534350E+01	 0.00000000E+00	 0.00000000E+00	 0.00000000E+00	 0.00000000E+00
4.13758599E+07	 5.19990748E-02	-1.31235533E+02	 9.98676080E-01	-4.21863181E+01	 0.00000000E+00	 0.00000000E+00	 0.00000000E+00	 0.00000000E+00
4.14071295E+07	 5.19872057E-02	-1.31176517E+02	 9.98645168E-01	-4.22081077E+01	 0.00000000E+00	 0.00000000E+00	 0.00000000E+00	 0.00000000E+00
4.14383990E+07	 5.20754335E-02	-1.31146474E+02	 9.98850683E-01	-4.22495548E+01	 0.00000000E+00	 0.00000000E+00	 0.00000000E+00	 0.00000000E+00
4.14696685E+07	 5.20038394E-02	-1.31365528E+02	 9.98699789E-01	-4.22873925E+01	 0.00000000E+00	 0.00000000E+00	 0.00000000E+00	 0.00000000E+00
4.15009381E+07	 5.21132742E-02	-1.31285312E+02	 9.98671682E-01	-4.23111601E+01	 0.00000000E+00	 0.00000000E+00	 0.00000000E+00	 0.00000000E+00
4.15322076E+07	 5.21276273E-02	-1.31287403E+02	 9.98685082E-01	-4.23455984E+01	 0.00000000E+00	 0.00000000E+00	 0.00000000E+00	 0.00000000E+00
4.15634772E+07	 5.21744665E-02	-1.31273380E+02	 9.98699189E-01	-4.23829768E+01	 0.00000000E+00	 0.00000000E+00	 0.00000000E+00	 0.00000000E+00
4.15947467E+07	 5.21633904E-02	-1.31287757E+02	 9.98640761E-01	-4.24136718E+01	 0.00000000E+00	 0.00000000E+00	 0.00000000E+00	 0.00000000E+00
4.16260163E+07	 5.23410277E-02	-1.31427759E+02	 9.98659979E-01	-4.24433747E+01	 0.00000000E+00	 0.00000000E+00	 0.00000000E+00	 0.00000000E+00
4.16572858E+07	 5.22813022E-02	-1.31372473E+02	 9.98735035E-01	-4.24771192E+01	 0.00000000E+00	 0.00000000E+00	 0.00000000E+00	 0.00000000E+00
4.16885553E+07	 5.22822763E-02	-1.31409220E+02	 9.98647522E-01	-4.25063591E+01	 0.00000000E+00	 0.00000000E+00	 0.00000000E+00	 0.00000000E+00
4.17198249E+07	 5.22635591E-02	-1.31493103E+02	 9.98752430E-01	-4.25397531E+01	 0.00000000E+00	 0.00000000E+00	 0.00000000E+00	 0.00000000E+00
4.17510944E+07	 5.22928717E-02	-1.31634429E+02	 9.98639961E-01	-4.25631210E+01	 0.00000000E+00	 0.00000000E+00	 0.00000000E+00	 0.00000000E+00
4.17823640E+07	 5.23673409E-02	-1.31477522E+02	 9.98741854E-01	-4.25990990E+01	 0.00000000E+00	 0.00000000E+00	 0.00000000E+00	 0.00000000E+00
4.18136335E+07	 5.24589867E-02	-1.31584715E+02	 9.98531884E-01	-4.26325348E+01	 0.00000000E+00	 0.00000000E+00	 0.00000000E+00	 0.00000000E+00
4.18449031E+07	 5.24763446E-02	-1.31646519E+02	 9.98661036E-01	-4.26527610E+01	 0.00000000E+00	 0.00000000E+00	 0.00000000E+00	 0.00000000E+00
4.18761726E+07	 5.24968157E-02	-1.31629398E+02	 9.98545711E-01	-4.27030896E+01	 0.00000000E+00	 0.00000000E+00	 0.00000000E+00	 0.00000000E+00
4.19074422E+07	 5.25302939E-02	-1.31759226E+02	 9.98611118E-01	-4.27252388E+01	 0.00000000E+00	 0.00000000E+00	 0.00000000E+00	 0.00000000E+00
4.19387117E+07	 5.25172644E-02	-1.31663439E+02	 9.98571840E-01	-4.27642140E+01	 0.00000000E+00	 0.00000000E+00	 0.00000000E+00	 0.00000000E+00
4.19699812E+07	 5.26401453E-02	-1.31671313E+02	 9.98625983E-01	-4.27908799E+01	 0.00000000E+00	 0.00000000E+00	 0.00000000E+00	 0.00000000E+00
4.20012508E+07	 5.25837131E-02	-1.31777331E+02	 9.98698132E-01	-4.28260380E+01	 0.00000000E+00	 0.00000000E+00	 0.00000000E+00	 0.00000000E+00
4.20325203E+07	 5.25923789E-02	-1.31817235E+02	 9.98632286E-01	-4.28583125E+01	 0.00000000E+00	 0.00000000E+00	 0.00000000E+00	 0.00000000E+00
4.20637899E+07	 5.27122758E-02	-1.31861730E+02	 9.98668619E-01	-4.28841447E+01	 0.00000000E+00	 0.00000000E+00	 0.00000000E+00	 0.00000000E+00
4.20950594E+07	 5.27249482E-02	-1.31856336E+02	 9.98668136E-01	-4.29193603E+01	 0.00000000E+00	 0.00000000E+00	 0.00000000E+00	 0.00000000E+00
4.21263290E+07	 5.27932474E-02	-1.31933488E+02	 9.98529019E-01	-4.29465973E+01	 0.00000000E+00	 0.00000000E+00	 0.00000000E+00	 0.00000000E+00
4.21575985E+07	 5.27905819E-02	-1.31874153E+02	 9.98601685E-01	-4.29841931E+01	 0.00000000E+00	 0.00000000E+00	 0.00000000E+00	 0.00000000E+00
4.21888680E+07	 5.28458647E-02	-1.31915546E+02	 9.98623885E-01	-4.30046247E+01	 0.00000000E+00	 0.00000000E+00	 0.00000000E+00	 0.00000000E+00
4.22201376E+07	 5.28148189E-02	-1.31930578E+02	 9.98653453E-01	-4.30515605E+01	 0.00000000E+00	 0.00000000E+00	 0.00000000E+00	 0.00000000E+00
4.22514071E+07	 5.29270987E-02	-1.31995453E+02	 9.98799669E-01	-4.30793631E+01	 0.00000000E+00	 0.00000000E+00	 0.00000000E+00	 0.00000000E+00
4.22826767E+07	 5.29429968E-02	-1.32013429E+02	 9.98598026E-01	-4.31117220E+01	 0.00000000E+00	 0.00000000E+00	 0.00000000E+00	 0.00000000E+00
4.23139462E+07	 5.29603555E-02	-1.32111721E+02	 9.98760495E-01	-4.31424527E+01	 0.00000000E+00	 0.00000000E+00	 0.00000000E+00	 0.00000000E+00
4.23452158E+07	 5.31062447E-02	-1.32123153E+02	 9.98604543E-01	-4.31771120E+01	 0.00000000E+00	 0.00000000E+00	 0.00000000E+00	 0.00000000E+00
4.23764853E+07	 5.31095745E-02	-1.32151823E+02	 9.98625830E-01	-4.32116322E+01	 0.00000000E+00	 0.00000000E+00	 0.00000000E+00	 0.00000000E+00
4.24077548E+07	 5.30710348E-02	-1.32189032E+02	 9.98543431E-01	-4.32422823E+01	 0.00000000E+00	 0.00000000E+00	 0.00000000E+00	 0.00000000E+00
4.24390244E+07	 5.31740284E-02	-1.32190590E+02	 9.98625907E-01	-4.32725890E+01	 0.00000000E+00	 0.00000000E+00	 0.00000000E+00	 0.00000000E+00
4.24702939E+07	 5.31580169E-02	-1.32166844E+02	 9.98644308E-01	-4.33036742E+01	 0.00000000E+00	 0.00000000E+00	 0.00000000E+00	 0.00000000E+00
4.25015635E+07	 5.31601096E-02	-1.32322272E+02	 9.98619436E-01	-4.33267995E+01	 0.00000000E+00	 0.00000000E+00	 0.00000000E+00	 0.00000000E+00
4.25328330E+07	 5.31706893E-02	-1.32263778E+02	 9.98635559E-01	-4.33607812E+01	 0.00000000E+00	 0.00000000E+00	 0.00000000E+00	 0.00000000E+00
4.25641026E+07	 5.32508564E-02	-1.32328544E+02	 9.98690781E-01	-4.34021981E+01	 0.00000000E+00	 0.00000000E+00	 0.00000000E+00	 0.00000000E+00
4.25953721E+07	 5.32584335E-02	-1.32342061E+02	 9.98619511E-01	-4.34395202E+01	 0.00000000E+00	 0.00000000E+00	 0.00000000E+00	 0.00000000E+00
4.26266417E+07	 5.34101353E-02	-1.32313621E+02	 9.98571037E-01	-4.34570917E+01	 0.00000000E+00	 0.00000000E+00	 0.00000000E+00	 0.00000000E+00
4.26579112E+07	 5.33785557E-02	-1.32423410E+02	 9.98647792E-01	-4.34966088E+01	 0.00000000E+00	 0.00000000E+00	 0.00000000E+00	 0.00000000E+00
4.26891807E+07	 5.34011437E-02	-1.32525123E+02	 9.98673521E-01	-4.35226969E+01	 0.00000000E+00	 0.00000000E+00	 0.00000000E+00	 0.00000000E+00
4.27204503E+07	 5.34974637E-02	-1.32485283E+02	 9.98365276E-01	-4.35564207E+01	 0.00000000E+00	 0.00000000E+00	 0.00000000E+00	 0.00000000E+00
4.27517198E+07	 5.35700860E-02	-1.32439427E+02	 9.98560502E-01	-4.35888262E+01	 0.00000000E+00	 0.00000000E+00	 0.00000000E+00	 0.00000000E+00
4.27829894E+07	 5.35988290E-02	-1.32609383E+02	 9.98729534E-01	-4.36296509E+01	 0.00000000E+00	 0.00000000E+00	 0.00000000E+00	 0.00000000E+00
4.28142589E+07	 5.35423150E-02	-1.32557221E+02	 9.98737465E-01	-4.36466960E+01	 0.00000000E+00	 0.00000000E+00	 0.00000000E+00	 0.00000000E+00
4.28455285E+07	 5.35983043E-02	-1.32676864E+02	 9.98701629E-01	-4.36902808E+01	 0.00000000E+00	 0.00000000E+00	 0.00000000E+00	 0.00000000E+00
4.28767980E+07	 5.36127733E-02	-1.32594878E+02	 9.98626225E-01	-4.37088894E+01	 0.00000000E+00	 0.00000000E+00	 0.00000000E+00	 0.00000000E+00
4.29080675E+07	 5.37058404E-02	-1.32697728E+02	 9.98497000E-01	-4.37402530E+01	 0.00000000E+00	 0.00000000E+00	 0.00000000E+00	 0.00000000E+00
4.29393371E+07	 5.36341650E-02	-1.32696835E+02	 9.98541274E-01	-4.37754456E+01	 0.00000000E+00	 0.00000000E+00	 0.00000000E+00	 0.00000000E+00
4.29706066E+07	 5.37952148E-02	-1.32722373E+02	 9.98563309E-01	-4.38111722E+01	 0.00000000E+00	 0.00000000E+00	 0.00000000E+00	 0.00000000E+00
4.30018762E+07	 5.38143272E-02	-1.32767959E+02	 9.98638674E-01	-4.38461833E+01	 0.00000000E+00	 0.00000000E+00	 0.00000000E+00	 0.00000000E+00
4.30331457E+07	 5.37299396E-02	-1.32759101E+02	 9.98536430E-01	-4.38846339E+01	 0.00000000E+00	 0.00000000E+00	 0.00000000E+00	 0.00000000E+00
4.30644153E+07	 5.38456171E-02	-1.32763963E+02	 9.98490887E-01	-4.39092859E+01	 0.00000000E+00	 0.00000000E+00	 0.00000000E+00	 0.00000000E+00
4.30956848E+07	 5.38846380E-02	-1.32866685E+02	 9.98571378E-01	-4.39458992E+01	 0.00000000E+00	 0.00000000E+00	 0.00000000E+00	 0.00000000E+00
4.31269543E+07	 5.38606301E-02	-1.32854571E+02	 9.98618530E-01	-4.39714110E+01	 0.00000000E+00	 0.00000000E+00	 0.00000000E+00	 0.00000000E+00
4.31582239E+07	 5.39540124E-02	-1.32889966E+02	 9.98498266E-01	-4.39964680E+01	 0.00000000E+00	 0.00000000E+00	 0.00000000E+00	 0.00000000E+00
4.31894934E+07	 5.40211724E-02	-1.32886421E+02	 9.98756941E-01	-4.40355256E+01	 0.00000000E+00	 0.00000000E+00	 0.00000000E+00	 0.00000000E+00
4.32207630E+07	 5.39913037E-02	-1.32979456E+02	 9.98688276E-01	-4.40683600E+01	 0.00000000E+00	 0.00000000E+00	 0.00000000E+00	 0.00000000E+00
4.32520325E+07	 5.41334761E-02	-1.32965766E+02	 9.98592324E-01	-4.41018475E+01	 0.00000000E+00	 0.00000000E+00	 0.00000000E+00	 0.00000000E+00
4.32833021E+07	 5.40777881E-02	-1.33077419E+02	 9.98539772E-01	-4.41305459E+01	 0.00000000E+00	 0.00000000E+00	 0.00000000E+00	 0.00000000E+00
4.33145716E+07	 5.42195793E-02	-1.33048678E+02	 9.98637152E-01	-4.41618565E+01	 0.00000000E+00	 0.00000000E+00	 0.00000000E+00	 0.00000000E+00
4.33458412E+07	 5.41555271E-02	-1.33070794E+02	 9.98544189E-01	-4.41965696E+01	 0.00000000E+00	 0.00000000E+00	 0.00000000E+00	 0.00000000E+00
4.33771107E+07	 5.42775578E-02	-1.33134603E+02	 9.98533358E-01	-4.42245918E+01	 0.00000000E+00	 0.00000000E+00	 0.00000000E+00	 0.00000000E+00
4.34083802E+07	 5.42827095E-02	-1.33062583E+02	 9.98746937E-01	-4.42620078E+01	 0.00000000E+00	 0.00000000E+00	 0.00000000E+00	 0.00000000E+00
4.34396498E+07	 5.43113602E-02	-1.33122532E+02	 9.98526662E-01	-4.42948383E+01	 0.00000000E+00	 0.00000000E+00	 0.00000000E+00	 0.00000000E+00
4.34709193E+07	 5.43820949E-02	-1.33215560E+02	 9.98578996E-01	-4.43331089E+01	 0.00000000E+00	 0.00000000E+00	 0.00000000E+00	 0.00000000E+00
4.35021889E+07	 5.44319405E-02	-1.33203932E+02	 9.98646308E-01	-4.43594687E+01	 0.00000000E+00	 0.00000000E+00	 0.00000000E+00	 0.00000000E+00
4.35334584E+07	 5.43598996E-02	-1.33255588E+02	 9.98522004E-01	-4.43838161E+01	 0.00000000E+00	 0.00000000E+00	 0.00000000E+00	 0.00000000E+00
4.35647280E+07	 5.44713494E-02	-1.33333033E+02	 9.98535668E-01	-4.44111240E+01	 0.00000000E+00	 0.00000000E+00	 0.00000000E+00	 0.00000000E+00
4.35959975E+07	 5.45115910E-02	-1.33282542E+02	 9.98480097E-01	-4.44481592E+01	 0.00000000E+00	 0.00000000E+00	 0.00000000E+00	 0.00000000E+00
4.36272670E+07	 5.45625503E-02	-1.33290365E+02	 9.98595414E-01	-4.44763643E+01	 0.00000000E+00	 0.00000000E+00	 0.00000000E+00	 0.00000000E+00
4.36585366E+07	 5.45869677E-02	-1.33294946E+02	 9.98507700E-01	-4.45119403E+01	 0.00000000E+00	 0.00000000E+00	 0.00000000E+00	 0.00000000E+00
4.36898061E+07	 5.45991217E-02	-1.33292186E+02	 9.98484375E-01	-4.45495195E+01	 0.00000000E+00	 0.00000000E+00	 0.00000000E+00	 0.00000000E+00
4.37210757E+07	 5.46201176E-02	-1.33543084E+02	 9.98448799E-01	-4.45772631E+01	 0.00000000E+00	 0.00000000E+00	 0.00000000E+00	 0.00000000E+00
4.37523452E+07	 5.46808660E-02	-1.33390151E+02	 9.98678825E-01	-4.46051421E+01	 0.00000000E+00	 0.00000000E+00	 0.00000000E+00	 0.00000000E+00
4.37836148E+07	 5.47241935E-02	-1.33419399E+02	 9.98478580E-01	-4.46433918E+01	 0.00000000E+00	 0.00000000E+00	 0.00000000E+00	 0.00000000E+00
4.38148843E+07	 5.47991597E-02	-1.33583425E+02	 9.98553426E-01	-4.46694708E+01	 0.00000000E+00	 0.00000000E+00	 0.00000000E+00	 0.00000000E+00
4.38461538E+07	 5.47919457E-02	-1.33493806E+02	 9.98606628E-01	-4.46986268E+01	 0.00000000E+00	 0.00000000E+00	 0.00000000E+00	 0.00000000E+00
4.38774234E+07	 5.48617422E-02	-1.33541391E+02	 9.98600015E-01	-4.47459352E+01	 0.00000000E+00	 0.00000000E+00	 0.00000000E+00	 0.00000000E+00
4.39086929E+07	 5.48551003E-02	-1.33679035E+02	 9.98570085E-01	-4.47795015E+01	 0.00000000E+00	 0.00000000E+00	 0.00000000E+00	 0.00000000E+00
4.39399625E+07	 5.48985088E-02	-1.33680552E+02	 9.98693885E-01	-4.48019667E+01	 0.00000000E+00	 0.00000000E+00	 0.00000000E+00	 0.00000000E+00
4.39712320E+07	 5.49564029E-02	-1.33655093E+02	 9.98501930E-01	-4.48376145E+01	 0.00000000E+00	 0.00000000E+00	 0.00000000E+00	 0.00000000E+00
4.40025016E+07	 5.50045544E-02	-1.33661141E+02	 9.98386583E-01	-4.48662654E+01	 0.00000000E+00	 0.00000000E+00	 0.00000000E+00	 0.00000000E+00
4.40337711E+07	 5.50208916E-02	-1.33682810E+02	 9.98573836E-01	-4.49020833E+01	 0.00000000E+00	 0.00000000E+00	 0.00000000E+00	 0.00000000E+00
4.40650407E+07	 5.49701159E-02	-1.33787610E+02	 9.98602332E-01	-4.49297514E+01	 0.00000000E+00	 0.00000000E+00	 0.00000000E+00	 0.00000000E+00
4.40963102E+07	 5.51250501E-02	-1.33821033E+02	 9.98577773E-01	-4.49553303E+01	 0.00000000E+00	 0.00000000E+00	 0.00000000E+00	 0.00000000E+00
4.41275797E+07	 5.51572453E-02	-1.33801165E+02	 9.98574223E-01	-4.49935815E+01	 0.00000000E+00	 0.00000000E+00	 0.00000000E+00	 0.00000000E+00
4.41588493E+07	 5.51451189E-02	-1.33830515E+02	 9.98501948E-01	-4.50211599E+01	 0.00000000E+00	 0.00000000E+00	 0.00000000E+00	 0.00000000E+00
4.41901188E+07	 5.52173479E-02	-1.33901094E+02	 9.98480368E-01	-4.50561652E+01	 0.00000000E+00	 0.00000000E+00	 0.00000000E+00	 0.00000000E+00
4.42213884E+07	 5.52722228E-02	-1.33943952E+02	 9.98636222E-01	-4.50859304E+01	 0.00000000E+00	 0.00000000E+00	 0.00000000E+00	 0.00000000E+00
4.42526579E+07	 5.52972440E-02	-1.33978739E+02	 9.98528413E-01	-4.51185815E+01	 0.00000000E+00	 0.00000000E+00	 0.00000000E+00	 0.00000000E+00
