!Agilent Technologies,E5061B,MY49102235,A.02.00
!Date: Mon Jul 03 10:34:21 2023
!Data & Calibration Information:
!Freq	S11:SOLT2(ON)	S21:SOLT2(ON)	S12:SOLT2(ON)	S22:SOLT2(ON)
# Hz S RI R 50
40000000.000	6.239712e-002	-4.365823e-002	6.621188e-001	-6.464088e-001	6.621721e-001	-6.454643e-001	5.685248e-002	-4.575507e-002
40031269.543	6.239421e-002	-4.380213e-002	6.618176e-001	-6.467479e-001	6.617799e-001	-6.457050e-001	5.683480e-002	-4.584272e-002
40062539.087	6.234246e-002	-4.386938e-002	6.610355e-001	-6.468151e-001	6.613829e-001	-6.461468e-001	5.685334e-002	-4.591089e-002
40093808.630	6.233390e-002	-4.389157e-002	6.608237e-001	-6.474053e-001	6.610508e-001	-6.466184e-001	5.681070e-002	-4.597687e-002
40125078.174	6.229681e-002	-4.397743e-002	6.604672e-001	-6.475731e-001	6.604384e-001	-6.467240e-001	5.685644e-002	-4.597021e-002
40156347.717	6.235011e-002	-4.405529e-002	6.602858e-001	-6.480668e-001	6.602190e-001	-6.472860e-001	5.674361e-002	-4.610177e-002
40187617.261	6.226904e-002	-4.416809e-002	6.598259e-001	-6.482539e-001	6.600994e-001	-6.477752e-001	5.675105e-002	-4.631100e-002
40218886.804	6.225279e-002	-4.416724e-002	6.592703e-001	-6.487993e-001	6.594140e-001	-6.480200e-001	5.680452e-002	-4.629972e-002
40250156.348	6.225088e-002	-4.428830e-002	6.590063e-001	-6.490041e-001	6.591331e-001	-6.482624e-001	5.659573e-002	-4.639636e-002
40281425.891	6.228224e-002	-4.439284e-002	6.586255e-001	-6.493482e-001	6.586576e-001	-6.486320e-001	5.662342e-002	-4.644471e-002
40312695.435	6.226673e-002	-4.447607e-002	6.581791e-001	-6.500603e-001	6.584346e-001	-6.489613e-001	5.668821e-002	-4.653660e-002
40343964.978	6.224618e-002	-4.440364e-002	6.577877e-001	-6.499637e-001	6.578142e-001	-6.492844e-001	5.662283e-002	-4.656988e-002
40375234.522	6.222886e-002	-4.454820e-002	6.572189e-001	-6.505187e-001	6.576337e-001	-6.495407e-001	5.655347e-002	-4.663681e-002
40406504.065	6.217661e-002	-4.458066e-002	6.567869e-001	-6.506268e-001	6.570724e-001	-6.501537e-001	5.659342e-002	-4.678172e-002
40437773.609	6.207434e-002	-4.473024e-002	6.568554e-001	-6.510390e-001	6.568330e-001	-6.503122e-001	5.652956e-002	-4.681463e-002
40469043.152	6.214358e-002	-4.480902e-002	6.561391e-001	-6.514788e-001	6.565276e-001	-6.506252e-001	5.647624e-002	-4.685146e-002
40500312.695	6.208144e-002	-4.495256e-002	6.557224e-001	-6.519713e-001	6.560469e-001	-6.509845e-001	5.645778e-002	-4.693035e-002
40531582.239	6.208079e-002	-4.499772e-002	6.553393e-001	-6.520979e-001	6.555669e-001	-6.516104e-001	5.637655e-002	-4.702509e-002
40562851.782	6.209095e-002	-4.497763e-002	6.548422e-001	-6.525518e-001	6.550896e-001	-6.517704e-001	5.642482e-002	-4.721435e-002
40594121.326	6.206178e-002	-4.511399e-002	6.546284e-001	-6.529021e-001	6.547413e-001	-6.521360e-001	5.638307e-002	-4.716029e-002
40625390.869	6.205829e-002	-4.515742e-002	6.541884e-001	-6.532603e-001	6.545202e-001	-6.526339e-001	5.633212e-002	-4.731461e-002
40656660.413	6.200115e-002	-4.521806e-002	6.537325e-001	-6.535707e-001	6.542078e-001	-6.526779e-001	5.630803e-002	-4.732440e-002
40687929.956	6.209979e-002	-4.533582e-002	6.536528e-001	-6.541978e-001	6.537886e-001	-6.530776e-001	5.628995e-002	-4.739949e-002
40719199.500	6.195977e-002	-4.533205e-002	6.529761e-001	-6.543098e-001	6.532018e-001	-6.538003e-001	5.631640e-002	-4.752006e-002
40750469.043	6.197210e-002	-4.545567e-002	6.525231e-001	-6.544461e-001	6.530239e-001	-6.540598e-001	5.614907e-002	-4.753873e-002
40781738.587	6.201245e-002	-4.557700e-002	6.523569e-001	-6.550280e-001	6.524296e-001	-6.543214e-001	5.605954e-002	-4.765926e-002
40813008.130	6.189968e-002	-4.563017e-002	6.519957e-001	-6.553351e-001	6.520184e-001	-6.547804e-001	5.613137e-002	-4.771509e-002
40844277.674	6.189061e-002	-4.563890e-002	6.515771e-001	-6.556353e-001	6.517069e-001	-6.551013e-001	5.601986e-002	-4.776972e-002
40875547.217	6.195508e-002	-4.582840e-002	6.509419e-001	-6.560817e-001	6.513774e-001	-6.553375e-001	5.603335e-002	-4.787846e-002
40906816.760	6.189315e-002	-4.584865e-002	6.508145e-001	-6.565514e-001	6.508832e-001	-6.555995e-001	5.605394e-002	-4.799640e-002
40938086.304	6.178184e-002	-4.589772e-002	6.501635e-001	-6.568674e-001	6.506246e-001	-6.560970e-001	5.598532e-002	-4.798965e-002
40969355.847	6.176154e-002	-4.593047e-002	6.497344e-001	-6.570057e-001	6.501753e-001	-6.565265e-001	5.593435e-002	-4.806932e-002
41000625.391	6.181723e-002	-4.597785e-002	6.492873e-001	-6.573735e-001	6.495458e-001	-6.566472e-001	5.597115e-002	-4.812048e-002
41031894.934	6.194990e-002	-4.604334e-002	6.493117e-001	-6.576373e-001	6.492907e-001	-6.570901e-001	5.586815e-002	-4.820879e-002
41063164.478	6.177063e-002	-4.613976e-002	6.489653e-001	-6.581502e-001	6.489965e-001	-6.575581e-001	5.588379e-002	-4.835201e-002
41094434.021	6.176210e-002	-4.624768e-002	6.484811e-001	-6.585175e-001	6.485242e-001	-6.577407e-001	5.579897e-002	-4.839347e-002
41125703.565	6.174158e-002	-4.633337e-002	6.481387e-001	-6.588243e-001	6.482278e-001	-6.581224e-001	5.573711e-002	-4.841417e-002
41156973.108	6.179336e-002	-4.643093e-002	6.475613e-001	-6.589883e-001	6.475783e-001	-6.584351e-001	5.571855e-002	-4.854303e-002
41188242.652	6.167507e-002	-4.640737e-002	6.470876e-001	-6.596019e-001	6.473563e-001	-6.587991e-001	5.583044e-002	-4.861022e-002
41219512.195	6.172040e-002	-4.658642e-002	6.467672e-001	-6.599716e-001	6.468492e-001	-6.591722e-001	5.570226e-002	-4.876088e-002
41250781.739	6.162433e-002	-4.663304e-002	6.461026e-001	-6.603581e-001	6.464393e-001	-6.596641e-001	5.572861e-002	-4.872416e-002
41282051.282	6.164224e-002	-4.672150e-002	6.459457e-001	-6.605654e-001	6.461483e-001	-6.597574e-001	5.555191e-002	-4.885041e-002
41313320.826	6.158986e-002	-4.670311e-002	6.453399e-001	-6.608131e-001	6.456119e-001	-6.601047e-001	5.560472e-002	-4.897321e-002
41344590.369	6.154579e-002	-4.690840e-002	6.449547e-001	-6.609527e-001	6.453862e-001	-6.606540e-001	5.564286e-002	-4.893316e-002
41375859.912	6.150925e-002	-4.689462e-002	6.447316e-001	-6.616594e-001	6.446277e-001	-6.609106e-001	5.555474e-002	-4.907821e-002
41407129.456	6.153547e-002	-4.700948e-002	6.444655e-001	-6.616293e-001	6.443489e-001	-6.611058e-001	5.546268e-002	-4.907503e-002
41438398.999	6.152614e-002	-4.714060e-002	6.441098e-001	-6.624446e-001	6.442697e-001	-6.614755e-001	5.538800e-002	-4.911001e-002
41469668.543	6.145790e-002	-4.707793e-002	6.434043e-001	-6.626872e-001	6.436582e-001	-6.620613e-001	5.547111e-002	-4.926920e-002
41500938.086	6.150718e-002	-4.723831e-002	6.431242e-001	-6.630187e-001	6.434056e-001	-6.622516e-001	5.540859e-002	-4.938811e-002
41532207.630	6.143460e-002	-4.733387e-002	6.427571e-001	-6.632227e-001	6.430274e-001	-6.624256e-001	5.537132e-002	-4.945149e-002
41563477.173	6.149143e-002	-4.737690e-002	6.422337e-001	-6.637405e-001	6.425321e-001	-6.627437e-001	5.541635e-002	-4.953732e-002
41594746.717	6.146003e-002	-4.744361e-002	6.419770e-001	-6.638554e-001	6.421542e-001	-6.632025e-001	5.535747e-002	-4.954674e-002
41626016.260	6.126524e-002	-4.756624e-002	6.414251e-001	-6.642696e-001	6.416747e-001	-6.637188e-001	5.529362e-002	-4.963141e-002
41657285.804	6.135637e-002	-4.767890e-002	6.410928e-001	-6.648545e-001	6.413210e-001	-6.637405e-001	5.528007e-002	-4.967139e-002
41688555.347	6.136695e-002	-4.764919e-002	6.407766e-001	-6.649551e-001	6.409656e-001	-6.643650e-001	5.522724e-002	-4.978463e-002
41719824.891	6.140798e-002	-4.766145e-002	6.404223e-001	-6.654832e-001	6.405075e-001	-6.646844e-001	5.516533e-002	-4.977101e-002
41751094.434	6.127017e-002	-4.767199e-002	6.399872e-001	-6.654793e-001	6.401930e-001	-6.651651e-001	5.519833e-002	-5.000785e-002
41782363.977	6.135225e-002	-4.788181e-002	6.396939e-001	-6.659179e-001	6.397747e-001	-6.652872e-001	5.502940e-002	-5.000465e-002
41813633.521	6.126426e-002	-4.796774e-002	6.390756e-001	-6.662912e-001	6.395240e-001	-6.655004e-001	5.511485e-002	-5.007668e-002
41844903.064	6.124127e-002	-4.796501e-002	6.389215e-001	-6.665308e-001	6.388391e-001	-6.660306e-001	5.499773e-002	-5.012039e-002
41876172.608	6.123928e-002	-4.812001e-002	6.382066e-001	-6.670604e-001	6.386186e-001	-6.662996e-001	5.490479e-002	-5.017070e-002
41907442.151	6.114428e-002	-4.814854e-002	6.378602e-001	-6.672139e-001	6.382611e-001	-6.668392e-001	5.493869e-002	-5.028588e-002
41938711.695	6.123657e-002	-4.824130e-002	6.374577e-001	-6.676909e-001	6.376978e-001	-6.668410e-001	5.494280e-002	-5.039626e-002
41969981.238	6.118752e-002	-4.836788e-002	6.371920e-001	-6.679757e-001	6.371523e-001	-6.674865e-001	5.493947e-002	-5.040045e-002
42001250.782	6.122761e-002	-4.834583e-002	6.368338e-001	-6.685178e-001	6.369376e-001	-6.675244e-001	5.486839e-002	-5.049748e-002
42032520.325	6.115380e-002	-4.843496e-002	6.364907e-001	-6.686937e-001	6.367084e-001	-6.677571e-001	5.477072e-002	-5.055345e-002
42063789.869	6.111719e-002	-4.854946e-002	6.360881e-001	-6.691192e-001	6.360201e-001	-6.684226e-001	5.472404e-002	-5.064536e-002
42095059.412	6.104576e-002	-4.862686e-002	6.355973e-001	-6.692759e-001	6.358216e-001	-6.688161e-001	5.472386e-002	-5.063872e-002
42126328.956	6.104796e-002	-4.865770e-002	6.351771e-001	-6.695519e-001	6.352768e-001	-6.690517e-001	5.465309e-002	-5.078427e-002
42157598.499	6.106608e-002	-4.883052e-002	6.347413e-001	-6.699966e-001	6.348733e-001	-6.695689e-001	5.469887e-002	-5.083469e-002
42188868.043	6.103149e-002	-4.891701e-002	6.344700e-001	-6.703215e-001	6.345684e-001	-6.697591e-001	5.458780e-002	-5.086880e-002
42220137.586	6.105362e-002	-4.889897e-002	6.338436e-001	-6.707176e-001	6.340949e-001	-6.699527e-001	5.456393e-002	-5.097591e-002
42251407.129	6.102596e-002	-4.901143e-002	6.336050e-001	-6.710969e-001	6.336990e-001	-6.705596e-001	5.449967e-002	-5.100061e-002
42282676.673	6.099944e-002	-4.910529e-002	6.332500e-001	-6.713618e-001	6.332753e-001	-6.706517e-001	5.452538e-002	-5.113273e-002
42313946.216	6.094505e-002	-4.911885e-002	6.328485e-001	-6.719452e-001	6.329876e-001	-6.712581e-001	5.447381e-002	-5.122008e-002
42345215.760	6.081963e-002	-4.930038e-002	6.324233e-001	-6.721452e-001	6.324680e-001	-6.714231e-001	5.434170e-002	-5.117285e-002
42376485.303	6.082799e-002	-4.932688e-002	6.318866e-001	-6.723927e-001	6.320021e-001	-6.716843e-001	5.443717e-002	-5.129500e-002
42407754.847	6.087235e-002	-4.936861e-002	6.314102e-001	-6.727063e-001	6.317661e-001	-6.722261e-001	5.439717e-002	-5.138609e-002
42439024.390	6.081806e-002	-4.944219e-002	6.311961e-001	-6.730130e-001	6.312359e-001	-6.722915e-001	5.430880e-002	-5.154201e-002
42470293.934	6.084599e-002	-4.958154e-002	6.307992e-001	-6.734017e-001	6.310486e-001	-6.727382e-001	5.427549e-002	-5.157185e-002
42501563.477	6.077295e-002	-4.952467e-002	6.303953e-001	-6.736603e-001	6.305635e-001	-6.732015e-001	5.428930e-002	-5.158443e-002
42532833.021	6.079850e-002	-4.966681e-002	6.300689e-001	-6.741024e-001	6.302613e-001	-6.735874e-001	5.416180e-002	-5.170630e-002
42564102.564	6.071717e-002	-4.975212e-002	6.294863e-001	-6.746043e-001	6.297638e-001	-6.739260e-001	5.414464e-002	-5.178573e-002
42595372.108	6.075409e-002	-4.978155e-002	6.289793e-001	-6.748426e-001	6.293653e-001	-6.742048e-001	5.403820e-002	-5.187870e-002
42626641.651	6.064462e-002	-4.997966e-002	6.288875e-001	-6.750846e-001	6.291073e-001	-6.742840e-001	5.400135e-002	-5.188905e-002
42657911.194	6.065367e-002	-4.996266e-002	6.284149e-001	-6.754055e-001	6.286868e-001	-6.749073e-001	5.399497e-002	-5.202486e-002
42689180.738	6.056192e-002	-5.004621e-002	6.281390e-001	-6.758042e-001	6.281049e-001	-6.750783e-001	5.394515e-002	-5.207858e-002
42720450.281	6.057890e-002	-5.015251e-002	6.275250e-001	-6.759440e-001	6.275745e-001	-6.753822e-001	5.400858e-002	-5.215480e-002
42751719.825	6.055880e-002	-5.028309e-002	6.271210e-001	-6.764283e-001	6.274051e-001	-6.756254e-001	5.394825e-002	-5.229812e-002
42782989.368	6.042437e-002	-5.026896e-002	6.268379e-001	-6.770527e-001	6.270386e-001	-6.761157e-001	5.383407e-002	-5.224239e-002
42814258.912	6.055176e-002	-5.034583e-002	6.265038e-001	-6.770257e-001	6.265673e-001	-6.764759e-001	5.384537e-002	-5.242903e-002
42845528.455	6.049923e-002	-5.035955e-002	6.259059e-001	-6.774376e-001	6.262603e-001	-6.768821e-001	5.382410e-002	-5.237301e-002
42876797.999	6.053194e-002	-5.045142e-002	6.255449e-001	-6.776970e-001	6.257262e-001	-6.771937e-001	5.373340e-002	-5.251853e-002
42908067.542	6.041286e-002	-5.061608e-002	6.252689e-001	-6.779091e-001	6.253765e-001	-6.773687e-001	5.368965e-002	-5.265094e-002
42939337.086	6.045262e-002	-5.060761e-002	6.247544e-001	-6.782362e-001	6.247343e-001	-6.777967e-001	5.375294e-002	-5.273322e-002
42970606.629	6.038270e-002	-5.075888e-002	6.242591e-001	-6.787382e-001	6.245268e-001	-6.782325e-001	5.357314e-002	-5.278913e-002
43001876.173	6.036010e-002	-5.084744e-002	6.238115e-001	-6.792331e-001	6.242096e-001	-6.786789e-001	5.359265e-002	-5.271881e-002
43033145.716	6.042626e-002	-5.089576e-002	6.233888e-001	-6.793610e-001	6.235863e-001	-6.788780e-001	5.354963e-002	-5.281971e-002
43064415.260	6.035815e-002	-5.101928e-002	6.229632e-001	-6.795274e-001	6.234906e-001	-6.791227e-001	5.346137e-002	-5.299745e-002
43095684.803	6.027348e-002	-5.102540e-002	6.226414e-001	-6.800951e-001	6.227824e-001	-6.794264e-001	5.344495e-002	-5.306224e-002
43126954.346	6.034010e-002	-5.113285e-002	6.223341e-001	-6.803782e-001	6.224908e-001	-6.797595e-001	5.335016e-002	-5.301943e-002
43158223.890	6.025938e-002	-5.120824e-002	6.219575e-001	-6.805347e-001	6.218830e-001	-6.801081e-001	5.331382e-002	-5.317357e-002
43189493.433	6.024735e-002	-5.133964e-002	6.216036e-001	-6.812469e-001	6.214327e-001	-6.805443e-001	5.331678e-002	-5.321433e-002
43220762.977	6.020484e-002	-5.128436e-002	6.210849e-001	-6.814998e-001	6.212881e-001	-6.806691e-001	5.325174e-002	-5.332332e-002
43252032.520	6.016035e-002	-5.144862e-002	6.207824e-001	-6.817387e-001	6.207962e-001	-6.810555e-001	5.329634e-002	-5.345656e-002
43283302.064	6.011790e-002	-5.142951e-002	6.202767e-001	-6.821655e-001	6.203426e-001	-6.813867e-001	5.330013e-002	-5.344316e-002
43314571.607	6.006088e-002	-5.159753e-002	6.197867e-001	-6.822279e-001	6.201298e-001	-6.818971e-001	5.319115e-002	-5.342421e-002
43345841.151	6.013394e-002	-5.164206e-002	6.192516e-001	-6.827980e-001	6.195950e-001	-6.821334e-001	5.317566e-002	-5.347865e-002
43377110.694	6.001439e-002	-5.173896e-002	6.191108e-001	-6.830476e-001	6.192037e-001	-6.825199e-001	5.302781e-002	-5.363423e-002
43408380.238	6.011031e-002	-5.187752e-002	6.186193e-001	-6.835835e-001	6.187233e-001	-6.826916e-001	5.313367e-002	-5.373772e-002
43439649.781	6.005424e-002	-5.189546e-002	6.180697e-001	-6.836399e-001	6.181810e-001	-6.831247e-001	5.312615e-002	-5.382157e-002
43470919.325	5.994390e-002	-5.199953e-002	6.176090e-001	-6.841039e-001	6.180382e-001	-6.835031e-001	5.304967e-002	-5.380657e-002
43502188.868	5.983385e-002	-5.203135e-002	6.173702e-001	-6.844671e-001	6.175460e-001	-6.837530e-001	5.298261e-002	-5.385534e-002
43533458.412	5.994718e-002	-5.209342e-002	6.168921e-001	-6.844364e-001	6.170517e-001	-6.841347e-001	5.294471e-002	-5.406354e-002
43564727.955	5.989062e-002	-5.215682e-002	6.164663e-001	-6.850182e-001	6.168159e-001	-6.846311e-001	5.285355e-002	-5.408076e-002
43595997.498	5.982716e-002	-5.225380e-002	6.160220e-001	-6.851840e-001	6.163872e-001	-6.846924e-001	5.285702e-002	-5.409537e-002
43627267.042	5.984435e-002	-5.243215e-002	6.158188e-001	-6.856208e-001	6.159046e-001	-6.851836e-001	5.278916e-002	-5.415489e-002
43658536.585	5.980010e-002	-5.254171e-002	6.153147e-001	-6.859593e-001	6.155081e-001	-6.853693e-001	5.275215e-002	-5.424367e-002
43689806.129	5.988131e-002	-5.260563e-002	6.148453e-001	-6.863485e-001	6.152658e-001	-6.858511e-001	5.272382e-002	-5.435561e-002
43721075.672	5.969373e-002	-5.250466e-002	6.144555e-001	-6.864879e-001	6.146518e-001	-6.860867e-001	5.271374e-002	-5.447980e-002
43752345.216	5.977371e-002	-5.272150e-002	6.143087e-001	-6.870496e-001	6.142423e-001	-6.865369e-001	5.262638e-002	-5.444666e-002
43783614.759	5.978163e-002	-5.276413e-002	6.136589e-001	-6.871366e-001	6.139464e-001	-6.867270e-001	5.265350e-002	-5.459005e-002
43814884.303	5.959215e-002	-5.281058e-002	6.133596e-001	-6.876229e-001	6.135986e-001	-6.870484e-001	5.249451e-002	-5.454447e-002
43846153.846	5.968727e-002	-5.290640e-002	6.130265e-001	-6.879851e-001	6.131179e-001	-6.873630e-001	5.247101e-002	-5.468270e-002
43877423.390	5.964055e-002	-5.296120e-002	6.124127e-001	-6.884414e-001	6.125257e-001	-6.878214e-001	5.247272e-002	-5.474707e-002
43908692.933	5.952620e-002	-5.292114e-002	6.119684e-001	-6.886808e-001	6.123746e-001	-6.879431e-001	5.243208e-002	-5.475492e-002
43939962.477	5.950447e-002	-5.301171e-002	6.117523e-001	-6.890898e-001	6.119021e-001	-6.884473e-001	5.237029e-002	-5.488232e-002
43971232.020	5.954469e-002	-5.323738e-002	6.110555e-001	-6.892349e-001	6.113895e-001	-6.886854e-001	5.236476e-002	-5.500946e-002
44002501.563	5.954095e-002	-5.327739e-002	6.107123e-001	-6.894173e-001	6.109648e-001	-6.888690e-001	5.235116e-002	-5.499134e-002
44033771.107	5.948563e-002	-5.333540e-002	6.103473e-001	-6.899100e-001	6.107048e-001	-6.893339e-001	5.224096e-002	-5.512238e-002
44065040.650	5.950210e-002	-5.333536e-002	6.098553e-001	-6.902414e-001	6.101687e-001	-6.896683e-001	5.229988e-002	-5.516472e-002
44096310.194	5.934246e-002	-5.348083e-002	6.096420e-001	-6.905959e-001	6.098236e-001	-6.898945e-001	5.216486e-002	-5.526095e-002
44127579.737	5.936485e-002	-5.358086e-002	6.093237e-001	-6.908425e-001	6.093901e-001	-6.902254e-001	5.211686e-002	-5.530669e-002
44158849.281	5.937911e-002	-5.361622e-002	6.087418e-001	-6.910223e-001	6.091331e-001	-6.906313e-001	5.211949e-002	-5.542797e-002
44190118.824	5.927505e-002	-5.373449e-002	6.083438e-001	-6.914255e-001	6.086332e-001	-6.910026e-001	5.203689e-002	-5.551660e-002
44221388.368	5.927274e-002	-5.375741e-002	6.080576e-001	-6.918280e-001	6.079420e-001	-6.912512e-001	5.188924e-002	-5.554844e-002
44252657.911	5.922211e-002	-5.388223e-002	6.077325e-001	-6.922985e-001	6.076875e-001	-6.915661e-001	5.201662e-002	-5.562300e-002
44283927.455	5.917843e-002	-5.392134e-002	6.070755e-001	-6.923781e-001	6.073987e-001	-6.918414e-001	5.187102e-002	-5.571294e-002
44315196.998	5.914601e-002	-5.399447e-002	6.068316e-001	-6.927915e-001	6.068573e-001	-6.920930e-001	5.188384e-002	-5.579676e-002
44346466.542	5.912837e-002	-5.409040e-002	6.062415e-001	-6.931964e-001	6.064950e-001	-6.925296e-001	5.181414e-002	-5.582952e-002
44377736.085	5.912305e-002	-5.413626e-002	6.059538e-001	-6.931846e-001	6.059611e-001	-6.927338e-001	5.170930e-002	-5.581500e-002
44409005.629	5.914091e-002	-5.420009e-002	6.054504e-001	-6.937343e-001	6.054955e-001	-6.930833e-001	5.169420e-002	-5.597951e-002
44440275.172	5.906674e-002	-5.435724e-002	6.050019e-001	-6.939392e-001	6.053186e-001	-6.935855e-001	5.163790e-002	-5.602310e-002
44471544.715	5.899508e-002	-5.445048e-002	6.046147e-001	-6.943493e-001	6.049290e-001	-6.939092e-001	5.166134e-002	-5.609422e-002
44502814.259	5.908565e-002	-5.454941e-002	6.042617e-001	-6.946262e-001	6.043311e-001	-6.941189e-001	5.167555e-002	-5.613953e-002
44534083.802	5.899117e-002	-5.451203e-002	6.038143e-001	-6.951422e-001	6.039943e-001	-6.943246e-001	5.160252e-002	-5.632089e-002
44565353.346	5.891438e-002	-5.457245e-002	6.033595e-001	-6.953778e-001	6.037080e-001	-6.947097e-001	5.149214e-002	-5.623767e-002
44596622.889	5.885557e-002	-5.477168e-002	6.029179e-001	-6.956570e-001	6.033328e-001	-6.949924e-001	5.148341e-002	-5.635196e-002
44627892.433	5.896921e-002	-5.478245e-002	6.026574e-001	-6.959084e-001	6.027704e-001	-6.953864e-001	5.135734e-002	-5.643340e-002
44659161.976	5.882291e-002	-5.482150e-002	6.019181e-001	-6.962659e-001	6.023867e-001	-6.956563e-001	5.137768e-002	-5.650290e-002
44690431.520	5.880587e-002	-5.504373e-002	6.018251e-001	-6.965691e-001	6.019045e-001	-6.959946e-001	5.134185e-002	-5.654359e-002
44721701.063	5.875558e-002	-5.502812e-002	6.012719e-001	-6.969405e-001	6.014502e-001	-6.966322e-001	5.135620e-002	-5.661142e-002
44752970.607	5.869643e-002	-5.512789e-002	6.008142e-001	-6.971574e-001	6.011992e-001	-6.969026e-001	5.128817e-002	-5.671231e-002
