!Agilent Technologies,E5061B,MY49102235,A.02.00
!Date: Mon Jul 03 10:32:54 2023
!Data & Calibration Information:
!Freq	S11:SOLT2(ON)	S21:SOLT2(ON)	S12:SOLT2(ON)	S22:SOLT2(ON)
# Hz S RI R 50
40000000.000	-2.998784e-002	-3.598865e-002	7.544699e-001	-6.547442e-001	7.547748e-001	-6.539051e-001	-3.466403e-002	-3.055633e-002
40031269.543	-3.007653e-002	-3.604521e-002	7.542376e-001	-6.551956e-001	7.543247e-001	-6.540891e-001	-3.467433e-002	-3.052076e-002
40062539.087	-3.011277e-002	-3.609964e-002	7.537027e-001	-6.553093e-001	7.541308e-001	-6.546180e-001	-3.469820e-002	-3.054664e-002
40093808.630	-3.008446e-002	-3.605159e-002	7.533249e-001	-6.559715e-001	7.537621e-001	-6.552794e-001	-3.477032e-002	-3.052941e-002
40125078.174	-3.020874e-002	-3.603564e-002	7.530685e-001	-6.562474e-001	7.530585e-001	-6.554929e-001	-3.478757e-002	-3.044183e-002
40156347.717	-3.022263e-002	-3.606811e-002	7.527981e-001	-6.569578e-001	7.527300e-001	-6.560538e-001	-3.486227e-002	-3.050844e-002
40187617.261	-3.025996e-002	-3.617812e-002	7.523398e-001	-6.569838e-001	7.525333e-001	-6.564356e-001	-3.493227e-002	-3.062527e-002
40218886.804	-3.026510e-002	-3.607557e-002	7.519995e-001	-6.576869e-001	7.521726e-001	-6.566995e-001	-3.494281e-002	-3.057533e-002
40250156.348	-3.031362e-002	-3.609998e-002	7.516516e-001	-6.579684e-001	7.517323e-001	-6.571937e-001	-3.503897e-002	-3.059733e-002
40281425.891	-3.033688e-002	-3.612026e-002	7.512891e-001	-6.584117e-001	7.514059e-001	-6.574683e-001	-3.504626e-002	-3.056628e-002
40312695.435	-3.036094e-002	-3.611928e-002	7.507902e-001	-6.591221e-001	7.510518e-001	-6.580973e-001	-3.503388e-002	-3.052686e-002
40343964.978	-3.042287e-002	-3.608831e-002	7.506094e-001	-6.591962e-001	7.506110e-001	-6.583232e-001	-3.509433e-002	-3.051868e-002
40375234.522	-3.046560e-002	-3.608765e-002	7.500047e-001	-6.596982e-001	7.504219e-001	-6.588124e-001	-3.521355e-002	-3.048825e-002
40406504.065	-3.055425e-002	-3.607918e-002	7.495945e-001	-6.600189e-001	7.499062e-001	-6.595202e-001	-3.524571e-002	-3.058788e-002
40437773.609	-3.062597e-002	-3.617510e-002	7.496011e-001	-6.605051e-001	7.495879e-001	-6.596093e-001	-3.518602e-002	-3.057109e-002
40469043.152	-3.056832e-002	-3.616280e-002	7.490366e-001	-6.609984e-001	7.492624e-001	-6.601922e-001	-3.537341e-002	-3.054675e-002
40500312.695	-3.071057e-002	-3.626321e-002	7.484908e-001	-6.614930e-001	7.489213e-001	-6.605533e-001	-3.539287e-002	-3.052514e-002
40531582.239	-3.071505e-002	-3.617731e-002	7.480369e-001	-6.615875e-001	7.483496e-001	-6.611543e-001	-3.549398e-002	-3.049137e-002
40562851.782	-3.076870e-002	-3.621310e-002	7.477627e-001	-6.620901e-001	7.480209e-001	-6.612240e-001	-3.540795e-002	-3.069015e-002
40594121.326	-3.076804e-002	-3.621550e-002	7.475881e-001	-6.627048e-001	7.476623e-001	-6.617314e-001	-3.550192e-002	-3.052200e-002
40625390.869	-3.082873e-002	-3.616523e-002	7.472679e-001	-6.629734e-001	7.474562e-001	-6.622918e-001	-3.554397e-002	-3.066596e-002
40656660.413	-3.086374e-002	-3.618462e-002	7.468804e-001	-6.634115e-001	7.471887e-001	-6.626768e-001	-3.558219e-002	-3.056311e-002
40687929.956	-3.083766e-002	-3.619335e-002	7.466686e-001	-6.640292e-001	7.468083e-001	-6.629069e-001	-3.562610e-002	-3.059696e-002
40719199.500	-3.093241e-002	-3.613083e-002	7.458527e-001	-6.641984e-001	7.462221e-001	-6.637170e-001	-3.559239e-002	-3.054343e-002
40750469.043	-3.099253e-002	-3.617750e-002	7.455073e-001	-6.645363e-001	7.457147e-001	-6.639398e-001	-3.577568e-002	-3.058565e-002
40781738.587	-3.094830e-002	-3.628693e-002	7.452782e-001	-6.651578e-001	7.454788e-001	-6.643801e-001	-3.588818e-002	-3.056133e-002
40813008.130	-3.107985e-002	-3.626120e-002	7.451910e-001	-6.654759e-001	7.451265e-001	-6.646993e-001	-3.584955e-002	-3.053626e-002
40844277.674	-3.111057e-002	-3.616811e-002	7.445481e-001	-6.658881e-001	7.448029e-001	-6.652131e-001	-3.595213e-002	-3.059158e-002
40875547.217	-3.115480e-002	-3.625634e-002	7.439540e-001	-6.663331e-001	7.444659e-001	-6.652828e-001	-3.596987e-002	-3.058784e-002
40906816.760	-3.121509e-002	-3.621149e-002	7.438254e-001	-6.668650e-001	7.439665e-001	-6.659375e-001	-3.592526e-002	-3.064310e-002
40938086.304	-3.128355e-002	-3.626514e-002	7.433624e-001	-6.671535e-001	7.439191e-001	-6.665266e-001	-3.611745e-002	-3.058776e-002
40969355.847	-3.133060e-002	-3.623142e-002	7.429331e-001	-6.675623e-001	7.433788e-001	-6.669071e-001	-3.609630e-002	-3.054162e-002
41000625.391	-3.133979e-002	-3.621337e-002	7.424759e-001	-6.678648e-001	7.428044e-001	-6.671714e-001	-3.616285e-002	-3.054850e-002
41031894.934	-3.125829e-002	-3.621866e-002	7.424587e-001	-6.682496e-001	7.424681e-001	-6.677372e-001	-3.625858e-002	-3.057860e-002
41063164.478	-3.138360e-002	-3.625901e-002	7.420482e-001	-6.686616e-001	7.423688e-001	-6.682131e-001	-3.624940e-002	-3.056550e-002
41094434.021	-3.144065e-002	-3.627847e-002	7.416104e-001	-6.691514e-001	7.417500e-001	-6.684175e-001	-3.628568e-002	-3.059187e-002
41125703.565	-3.146697e-002	-3.626514e-002	7.412963e-001	-6.696016e-001	7.414553e-001	-6.687935e-001	-3.642810e-002	-3.053706e-002
41156973.108	-3.148641e-002	-3.631189e-002	7.409721e-001	-6.697958e-001	7.409248e-001	-6.693572e-001	-3.643829e-002	-3.056246e-002
41188242.652	-3.155858e-002	-3.619714e-002	7.404121e-001	-6.706428e-001	7.408038e-001	-6.696060e-001	-3.639790e-002	-3.061909e-002
41219512.195	-3.151213e-002	-3.634217e-002	7.401137e-001	-6.708538e-001	7.401932e-001	-6.699605e-001	-3.647897e-002	-3.065048e-002
41250781.739	-3.167291e-002	-3.634789e-002	7.394116e-001	-6.714706e-001	7.398688e-001	-6.704974e-001	-3.656997e-002	-3.062098e-002
41282051.282	-3.167069e-002	-3.637079e-002	7.392918e-001	-6.718095e-001	7.394895e-001	-6.710613e-001	-3.665726e-002	-3.063723e-002
41313320.826	-3.173167e-002	-3.628071e-002	7.387991e-001	-6.721001e-001	7.391488e-001	-6.714061e-001	-3.662337e-002	-3.060303e-002
41344590.369	-3.181712e-002	-3.638981e-002	7.383317e-001	-6.722532e-001	7.388564e-001	-6.719110e-001	-3.666888e-002	-3.050603e-002
41375859.912	-3.191324e-002	-3.635006e-002	7.379540e-001	-6.729259e-001	7.381415e-001	-6.723064e-001	-3.670971e-002	-3.062595e-002
41407129.456	-3.188502e-002	-3.634678e-002	7.378185e-001	-6.732165e-001	7.379092e-001	-6.723402e-001	-3.683343e-002	-3.055738e-002
41438398.999	-3.190440e-002	-3.643867e-002	7.375092e-001	-6.740197e-001	7.376829e-001	-6.728511e-001	-3.689258e-002	-3.054715e-002
41469668.543	-3.199645e-002	-3.629802e-002	7.370236e-001	-6.742479e-001	7.372162e-001	-6.735963e-001	-3.690786e-002	-3.057492e-002
41500938.086	-3.205333e-002	-3.634923e-002	7.366352e-001	-6.746038e-001	7.369337e-001	-6.738837e-001	-3.696588e-002	-3.065315e-002
41532207.630	-3.201092e-002	-3.641376e-002	7.362997e-001	-6.750254e-001	7.364544e-001	-6.741331e-001	-3.699898e-002	-3.058897e-002
41563477.173	-3.202094e-002	-3.643470e-002	7.358959e-001	-6.753224e-001	7.360674e-001	-6.746452e-001	-3.696750e-002	-3.068312e-002
41594746.717	-3.202697e-002	-3.641490e-002	7.354708e-001	-6.757890e-001	7.356595e-001	-6.749978e-001	-3.708789e-002	-3.058596e-002
41626016.260	-3.230054e-002	-3.649606e-002	7.351255e-001	-6.761411e-001	7.352802e-001	-6.754595e-001	-3.718082e-002	-3.054466e-002
41657285.804	-3.217617e-002	-3.645991e-002	7.348684e-001	-6.766830e-001	7.349597e-001	-6.757723e-001	-3.717097e-002	-3.056621e-002
41688555.347	-3.216960e-002	-3.642812e-002	7.342968e-001	-6.770021e-001	7.345800e-001	-6.763786e-001	-3.716460e-002	-3.055420e-002
41719824.891	-3.222482e-002	-3.639400e-002	7.340584e-001	-6.774834e-001	7.341864e-001	-6.764703e-001	-3.727265e-002	-3.053986e-002
41751094.434	-3.233587e-002	-3.625317e-002	7.336459e-001	-6.777633e-001	7.336827e-001	-6.774189e-001	-3.734672e-002	-3.062122e-002
41782363.977	-3.233357e-002	-3.649423e-002	7.335286e-001	-6.781709e-001	7.335975e-001	-6.773948e-001	-3.747016e-002	-3.059191e-002
41813633.521	-3.240037e-002	-3.648793e-002	7.328488e-001	-6.785318e-001	7.332735e-001	-6.779200e-001	-3.737907e-002	-3.053050e-002
41844903.064	-3.246408e-002	-3.640850e-002	7.326317e-001	-6.788895e-001	7.327808e-001	-6.783260e-001	-3.749590e-002	-3.057022e-002
41876172.608	-3.248029e-002	-3.647269e-002	7.318307e-001	-6.795920e-001	7.325770e-001	-6.787400e-001	-3.762098e-002	-3.053269e-002
41907442.151	-3.258596e-002	-3.640219e-002	7.319674e-001	-6.799134e-001	7.321074e-001	-6.793308e-001	-3.767466e-002	-3.059919e-002
41938711.695	-3.256689e-002	-3.643882e-002	7.312111e-001	-6.801723e-001	7.316545e-001	-6.795667e-001	-3.751397e-002	-3.066246e-002
41969981.238	-3.257100e-002	-3.657336e-002	7.310334e-001	-6.808421e-001	7.311585e-001	-6.800707e-001	-3.761258e-002	-3.054849e-002
42001250.782	-3.268230e-002	-3.642849e-002	7.305954e-001	-6.812229e-001	7.308583e-001	-6.802770e-001	-3.763005e-002	-3.056897e-002
42032520.325	-3.263382e-002	-3.646334e-002	7.302526e-001	-6.814866e-001	7.305690e-001	-6.805540e-001	-3.783428e-002	-3.054953e-002
42063789.869	-3.277973e-002	-3.650544e-002	7.298269e-001	-6.818878e-001	7.300691e-001	-6.811762e-001	-3.790155e-002	-3.059050e-002
42095059.412	-3.276635e-002	-3.647745e-002	7.294436e-001	-6.822524e-001	7.298095e-001	-6.816935e-001	-3.788372e-002	-3.049684e-002
42126328.956	-3.286687e-002	-3.651713e-002	7.291865e-001	-6.825558e-001	7.292083e-001	-6.818433e-001	-3.796148e-002	-3.056591e-002
42157598.499	-3.281129e-002	-3.653612e-002	7.286053e-001	-6.831102e-001	7.287867e-001	-6.824940e-001	-3.796717e-002	-3.052071e-002
42188868.043	-3.287633e-002	-3.656536e-002	7.283466e-001	-6.833191e-001	7.285731e-001	-6.829363e-001	-3.806775e-002	-3.044064e-002
42220137.586	-3.282951e-002	-3.651515e-002	7.278500e-001	-6.840437e-001	7.281569e-001	-6.830791e-001	-3.811355e-002	-3.051186e-002
42251407.129	-3.298559e-002	-3.657367e-002	7.276308e-001	-6.843998e-001	7.277052e-001	-6.835874e-001	-3.818076e-002	-3.049174e-002
42282676.673	-3.300336e-002	-3.657156e-002	7.270865e-001	-6.848058e-001	7.272402e-001	-6.839544e-001	-3.819946e-002	-3.051487e-002
42313946.216	-3.308001e-002	-3.654979e-002	7.268541e-001	-6.851254e-001	7.271338e-001	-6.846404e-001	-3.820008e-002	-3.050378e-002
42345215.760	-3.315518e-002	-3.658201e-002	7.262027e-001	-6.856121e-001	7.264836e-001	-6.849057e-001	-3.836698e-002	-3.044186e-002
42376485.303	-3.323680e-002	-3.659953e-002	7.258536e-001	-6.860540e-001	7.260586e-001	-6.851963e-001	-3.837370e-002	-3.043920e-002
42407754.847	-3.320208e-002	-3.658232e-002	7.255361e-001	-6.862899e-001	7.258115e-001	-6.856887e-001	-3.840900e-002	-3.046681e-002
42439024.390	-3.321721e-002	-3.660917e-002	7.250677e-001	-6.868308e-001	7.253430e-001	-6.859173e-001	-3.848543e-002	-3.052671e-002
42470293.934	-3.320740e-002	-3.666382e-002	7.248407e-001	-6.871428e-001	7.251479e-001	-6.865073e-001	-3.848488e-002	-3.048253e-002
42501563.477	-3.330812e-002	-3.652959e-002	7.246152e-001	-6.874801e-001	7.245810e-001	-6.870321e-001	-3.844690e-002	-3.048710e-002
42532833.021	-3.329789e-002	-3.656524e-002	7.241803e-001	-6.879698e-001	7.243485e-001	-6.873853e-001	-3.860204e-002	-3.048662e-002
42564102.564	-3.345435e-002	-3.655721e-002	7.235918e-001	-6.886030e-001	7.240165e-001	-6.878142e-001	-3.867451e-002	-3.052557e-002
42595372.108	-3.344494e-002	-3.664436e-002	7.232093e-001	-6.888914e-001	7.235751e-001	-6.881617e-001	-3.874259e-002	-3.051358e-002
42626641.651	-3.352505e-002	-3.671889e-002	7.229038e-001	-6.890613e-001	7.231274e-001	-6.883185e-001	-3.874150e-002	-3.051446e-002
42657911.194	-3.360186e-002	-3.665925e-002	7.224146e-001	-6.895934e-001	7.228377e-001	-6.888555e-001	-3.880844e-002	-3.045739e-002
42689180.738	-3.360118e-002	-3.662115e-002	7.221960e-001	-6.900322e-001	7.224845e-001	-6.892446e-001	-3.886614e-002	-3.050215e-002
42720450.281	-3.367864e-002	-3.669064e-002	7.216316e-001	-6.901764e-001	7.218889e-001	-6.896578e-001	-3.889398e-002	-3.046204e-002
42751719.825	-3.367584e-002	-3.679168e-002	7.211542e-001	-6.907135e-001	7.217540e-001	-6.898650e-001	-3.889237e-002	-3.051040e-002
42782989.368	-3.384452e-002	-3.665016e-002	7.209271e-001	-6.913552e-001	7.211766e-001	-6.905828e-001	-3.901613e-002	-3.043762e-002
42814258.912	-3.379256e-002	-3.665900e-002	7.208610e-001	-6.917017e-001	7.207725e-001	-6.909592e-001	-3.902907e-002	-3.056193e-002
42845528.455	-3.383659e-002	-3.663842e-002	7.201473e-001	-6.920759e-001	7.205316e-001	-6.914495e-001	-3.913021e-002	-3.044166e-002
42876797.999	-3.384789e-002	-3.673757e-002	7.198979e-001	-6.922702e-001	7.201477e-001	-6.916423e-001	-3.914701e-002	-3.054543e-002
42908067.542	-3.388712e-002	-3.671887e-002	7.193457e-001	-6.926865e-001	7.197959e-001	-6.921065e-001	-3.920601e-002	-3.054433e-002
42939337.086	-3.388652e-002	-3.664768e-002	7.191298e-001	-6.931987e-001	7.191388e-001	-6.925327e-001	-3.919039e-002	-3.052045e-002
42970606.629	-3.399049e-002	-3.675243e-002	7.187312e-001	-6.935238e-001	7.188178e-001	-6.930115e-001	-3.931720e-002	-3.060191e-002
43001876.173	-3.407573e-002	-3.669867e-002	7.182433e-001	-6.940984e-001	7.184971e-001	-6.935046e-001	-3.937983e-002	-3.040598e-002
43033145.716	-3.402722e-002	-3.667726e-002	7.177307e-001	-6.944970e-001	7.180713e-001	-6.937611e-001	-3.943441e-002	-3.046935e-002
43064415.260	-3.407577e-002	-3.677680e-002	7.174148e-001	-6.945884e-001	7.178052e-001	-6.940738e-001	-3.951697e-002	-3.049921e-002
43095684.803	-3.416130e-002	-3.668979e-002	7.169121e-001	-6.952865e-001	7.175146e-001	-6.945104e-001	-3.957572e-002	-3.049300e-002
43126954.346	-3.418075e-002	-3.668100e-002	7.166198e-001	-6.955936e-001	7.168426e-001	-6.949482e-001	-3.957966e-002	-3.041343e-002
43158223.890	-3.426878e-002	-3.677013e-002	7.163215e-001	-6.958765e-001	7.164224e-001	-6.954042e-001	-3.966298e-002	-3.043215e-002
43189493.433	-3.420779e-002	-3.679016e-002	7.160102e-001	-6.965426e-001	7.161010e-001	-6.959158e-001	-3.972141e-002	-3.037266e-002
43220762.977	-3.432308e-002	-3.675797e-002	7.156034e-001	-6.967989e-001	7.158297e-001	-6.961559e-001	-3.979312e-002	-3.049132e-002
43252032.520	-3.437611e-002	-3.689113e-002	7.150980e-001	-6.971447e-001	7.152505e-001	-6.967128e-001	-3.974611e-002	-3.054464e-002
43283302.064	-3.440185e-002	-3.676700e-002	7.147275e-001	-6.976989e-001	7.150501e-001	-6.968529e-001	-3.973629e-002	-3.042795e-002
43314571.607	-3.453621e-002	-3.689474e-002	7.144009e-001	-6.978945e-001	7.149043e-001	-6.973606e-001	-3.989337e-002	-3.040369e-002
43345841.151	-3.448099e-002	-3.680959e-002	7.140248e-001	-6.983029e-001	7.143455e-001	-6.977692e-001	-3.999114e-002	-3.031673e-002
43377110.694	-3.460225e-002	-3.683571e-002	7.135262e-001	-6.987153e-001	7.137337e-001	-6.981754e-001	-4.005368e-002	-3.043299e-002
43408380.238	-3.457360e-002	-3.691826e-002	7.133390e-001	-6.993866e-001	7.133610e-001	-6.985244e-001	-4.000278e-002	-3.040590e-002
43439649.781	-3.463907e-002	-3.689128e-002	7.127115e-001	-6.996563e-001	7.129412e-001	-6.990515e-001	-4.000604e-002	-3.037608e-002
43470919.325	-3.476149e-002	-3.688819e-002	7.123878e-001	-7.000678e-001	7.127132e-001	-6.995123e-001	-4.006800e-002	-3.027940e-002
43502188.868	-3.475567e-002	-3.691264e-002	7.120219e-001	-7.004894e-001	7.122341e-001	-6.997652e-001	-4.015321e-002	-3.036528e-002
43533458.412	-3.474886e-002	-3.684361e-002	7.116551e-001	-7.007219e-001	7.117867e-001	-7.000841e-001	-4.017126e-002	-3.041003e-002
43564727.955	-3.482043e-002	-3.683352e-002	7.114016e-001	-7.010168e-001	7.114979e-001	-7.008307e-001	-4.032163e-002	-3.040253e-002
43595997.498	-3.490174e-002	-3.687366e-002	7.108342e-001	-7.014124e-001	7.110480e-001	-7.010378e-001	-4.038120e-002	-3.031803e-002
43627267.042	-3.485939e-002	-3.695626e-002	7.105947e-001	-7.019064e-001	7.106671e-001	-7.015357e-001	-4.047427e-002	-3.032377e-002
43658536.585	-3.486073e-002	-3.696346e-002	7.100153e-001	-7.023823e-001	7.102457e-001	-7.018006e-001	-4.051627e-002	-3.035891e-002
43689806.129	-3.490518e-002	-3.699171e-002	7.095008e-001	-7.027134e-001	7.099524e-001	-7.021304e-001	-4.050071e-002	-3.035387e-002
43721075.672	-3.509244e-002	-3.684421e-002	7.091368e-001	-7.030153e-001	7.095228e-001	-7.026239e-001	-4.047523e-002	-3.046410e-002
43752345.216	-3.499528e-002	-3.701715e-002	7.090720e-001	-7.034253e-001	7.090446e-001	-7.031392e-001	-4.049239e-002	-3.037512e-002
43783614.759	-3.509170e-002	-3.695889e-002	7.084775e-001	-7.038792e-001	7.087555e-001	-7.033275e-001	-4.059368e-002	-3.042067e-002
43814884.303	-3.519035e-002	-3.698983e-002	7.082345e-001	-7.042775e-001	7.083003e-001	-7.038368e-001	-4.067326e-002	-3.035787e-002
43846153.846	-3.514684e-002	-3.705086e-002	7.077275e-001	-7.046716e-001	7.080697e-001	-7.041757e-001	-4.075010e-002	-3.032867e-002
43877423.390	-3.522036e-002	-3.703012e-002	7.072822e-001	-7.052658e-001	7.075654e-001	-7.046559e-001	-4.072136e-002	-3.031085e-002
43908692.933	-3.537268e-002	-3.690270e-002	7.067135e-001	-7.056997e-001	7.072383e-001	-7.050408e-001	-4.083300e-002	-3.026415e-002
43939962.477	-3.534261e-002	-3.699742e-002	7.065335e-001	-7.060189e-001	7.068483e-001	-7.054076e-001	-4.089365e-002	-3.025619e-002
43971232.020	-3.544079e-002	-3.700054e-002	7.059664e-001	-7.062706e-001	7.063331e-001	-7.057647e-001	-4.089900e-002	-3.032079e-002
44002501.563	-3.543835e-002	-3.701352e-002	7.055290e-001	-7.066148e-001	7.058899e-001	-7.060197e-001	-4.096457e-002	-3.024444e-002
44033771.107	-3.540583e-002	-3.704391e-002	7.053043e-001	-7.071523e-001	7.056164e-001	-7.064474e-001	-4.104203e-002	-3.027956e-002
44065040.650	-3.545866e-002	-3.693967e-002	7.048633e-001	-7.075800e-001	7.051765e-001	-7.068115e-001	-4.099129e-002	-3.017834e-002
44096310.194	-3.559938e-002	-3.703838e-002	7.046085e-001	-7.078029e-001	7.047683e-001	-7.070563e-001	-4.104436e-002	-3.029280e-002
44127579.737	-3.561999e-002	-3.704645e-002	7.040328e-001	-7.083763e-001	7.044052e-001	-7.075846e-001	-4.114861e-002	-3.028389e-002
44158849.281	-3.560369e-002	-3.701120e-002	7.036464e-001	-7.085200e-001	7.040604e-001	-7.079966e-001	-4.115073e-002	-3.029224e-002
44190118.824	-3.571794e-002	-3.702375e-002	7.032187e-001	-7.090619e-001	7.037667e-001	-7.084812e-001	-4.124720e-002	-3.022529e-002
44221388.368	-3.580508e-002	-3.700985e-002	7.030448e-001	-7.095346e-001	7.032401e-001	-7.089368e-001	-4.139564e-002	-3.024385e-002
44252657.911	-3.584277e-002	-3.706350e-002	7.024862e-001	-7.099024e-001	7.026812e-001	-7.094797e-001	-4.129845e-002	-3.027632e-002
44283927.455	-3.585861e-002	-3.706764e-002	7.020902e-001	-7.101150e-001	7.025118e-001	-7.095899e-001	-4.148773e-002	-3.032291e-002
44315196.998	-3.592455e-002	-3.705330e-002	7.020832e-001	-7.107004e-001	7.021379e-001	-7.100085e-001	-4.142943e-002	-3.033936e-002
44346466.542	-3.594631e-002	-3.711717e-002	7.013616e-001	-7.111108e-001	7.014447e-001	-7.103622e-001	-4.154746e-002	-3.024966e-002
44377736.085	-3.602111e-002	-3.702878e-002	7.009604e-001	-7.111962e-001	7.011766e-001	-7.107681e-001	-4.166515e-002	-3.018048e-002
44409005.629	-3.598680e-002	-3.695817e-002	7.003288e-001	-7.119644e-001	7.005994e-001	-7.111789e-001	-4.162769e-002	-3.021916e-002
44440275.172	-3.599058e-002	-3.714871e-002	6.999033e-001	-7.120591e-001	7.004054e-001	-7.116057e-001	-4.167752e-002	-3.016509e-002
44471544.715	-3.609384e-002	-3.711796e-002	6.995558e-001	-7.126090e-001	7.000274e-001	-7.118221e-001	-4.171872e-002	-3.020123e-002
44502814.259	-3.599226e-002	-3.716768e-002	6.992169e-001	-7.126967e-001	6.995674e-001	-7.122318e-001	-4.172852e-002	-3.016061e-002
44534083.802	-3.622750e-002	-3.707807e-002	6.988704e-001	-7.133780e-001	6.991310e-001	-7.127442e-001	-4.180556e-002	-3.029246e-002
44565353.346	-3.627375e-002	-3.709469e-002	6.985036e-001	-7.137833e-001	6.988708e-001	-7.129588e-001	-4.185003e-002	-3.007113e-002
44596622.889	-3.628689e-002	-3.710898e-002	6.980320e-001	-7.141734e-001	6.984996e-001	-7.133927e-001	-4.191160e-002	-3.017846e-002
44627892.433	-3.628724e-002	-3.712334e-002	6.976650e-001	-7.145875e-001	6.980433e-001	-7.139843e-001	-4.202362e-002	-3.022547e-002
44659161.976	-3.638461e-002	-3.711745e-002	6.971260e-001	-7.149966e-001	6.978218e-001	-7.142220e-001	-4.208852e-002	-3.017672e-002
44690431.520	-3.639740e-002	-3.723728e-002	6.968523e-001	-7.152636e-001	6.969584e-001	-7.145807e-001	-4.207670e-002	-3.012689e-002
