!Agilent Technologies,E5061B,MY49102235,A.02.00
!Date: Mon Jul 03 10:29:35 2023
!Data & Calibration Information:
!Freq	S11:SOLT2(ON)	S21:SOLT2(ON)	S12:SOLT2(ON)	S22:SOLT2(ON)
# Hz S RI R 50
40000000.000	-2.818704e-002	-3.361357e-002	7.527217e-001	-6.570768e-001	7.527475e-001	-6.560774e-001	-3.263836e-002	-2.848567e-002
40031269.543	-2.827993e-002	-3.368874e-002	7.525220e-001	-6.574714e-001	7.526092e-001	-6.562082e-001	-3.262875e-002	-2.849500e-002
40062539.087	-2.828617e-002	-3.370229e-002	7.517083e-001	-6.577456e-001	7.521956e-001	-6.569154e-001	-3.265388e-002	-2.844598e-002
40093808.630	-2.833458e-002	-3.365093e-002	7.514437e-001	-6.583900e-001	7.517139e-001	-6.573978e-001	-3.272362e-002	-2.845341e-002
40125078.174	-2.840142e-002	-3.361391e-002	7.510251e-001	-6.586642e-001	7.512522e-001	-6.577781e-001	-3.265662e-002	-2.836753e-002
40156347.717	-2.837165e-002	-3.369939e-002	7.508982e-001	-6.589960e-001	7.509528e-001	-6.583316e-001	-3.279425e-002	-2.846596e-002
40187617.261	-2.845591e-002	-3.373290e-002	7.504083e-001	-6.592978e-001	7.507276e-001	-6.586687e-001	-3.285969e-002	-2.855821e-002
40218886.804	-2.847001e-002	-3.371499e-002	7.501300e-001	-6.599601e-001	7.502249e-001	-6.588985e-001	-3.281834e-002	-2.848756e-002
40250156.348	-2.851145e-002	-3.366774e-002	7.498361e-001	-6.603636e-001	7.499205e-001	-6.594655e-001	-3.296191e-002	-2.855281e-002
40281425.891	-2.857442e-002	-3.372281e-002	7.493946e-001	-6.607061e-001	7.493946e-001	-6.599494e-001	-3.306067e-002	-2.849397e-002
40312695.435	-2.856795e-002	-3.377157e-002	7.489366e-001	-6.613193e-001	7.491698e-001	-6.601811e-001	-3.292665e-002	-2.848695e-002
40343964.978	-2.860510e-002	-3.365453e-002	7.485896e-001	-6.613720e-001	7.488086e-001	-6.606572e-001	-3.305768e-002	-2.847578e-002
40375234.522	-2.866952e-002	-3.368638e-002	7.481796e-001	-6.620394e-001	7.483528e-001	-6.609776e-001	-3.310330e-002	-2.845503e-002
40406504.065	-2.874788e-002	-3.364877e-002	7.476377e-001	-6.623862e-001	7.479055e-001	-6.617480e-001	-3.314439e-002	-2.855948e-002
40437773.609	-2.882117e-002	-3.377150e-002	7.476062e-001	-6.628048e-001	7.476785e-001	-6.618799e-001	-3.312165e-002	-2.862086e-002
40469043.152	-2.874283e-002	-3.376121e-002	7.470954e-001	-6.630567e-001	7.474323e-001	-6.624198e-001	-3.321940e-002	-2.846673e-002
40500312.695	-2.885960e-002	-3.384456e-002	7.466374e-001	-6.636625e-001	7.470144e-001	-6.626879e-001	-3.328766e-002	-2.844499e-002
40531582.239	-2.884910e-002	-3.376465e-002	7.461532e-001	-6.636535e-001	7.464904e-001	-6.635087e-001	-3.336359e-002	-2.845101e-002
40562851.782	-2.887323e-002	-3.371014e-002	7.458020e-001	-6.643951e-001	7.459616e-001	-6.637026e-001	-3.332646e-002	-2.856371e-002
40594121.326	-2.893904e-002	-3.381870e-002	7.457413e-001	-6.650416e-001	7.457833e-001	-6.639957e-001	-3.334262e-002	-2.842393e-002
40625390.869	-2.896875e-002	-3.375405e-002	7.452571e-001	-6.652688e-001	7.455167e-001	-6.645390e-001	-3.349532e-002	-2.857029e-002
40656660.413	-2.900447e-002	-3.378623e-002	7.448308e-001	-6.657278e-001	7.450957e-001	-6.647997e-001	-3.347898e-002	-2.848287e-002
40687929.956	-2.902857e-002	-3.381505e-002	7.448383e-001	-6.663481e-001	7.447102e-001	-6.652541e-001	-3.352926e-002	-2.852391e-002
40719199.500	-2.908686e-002	-3.376409e-002	7.440171e-001	-6.665487e-001	7.442515e-001	-6.660053e-001	-3.351964e-002	-2.850220e-002
40750469.043	-2.918088e-002	-3.382688e-002	7.436831e-001	-6.668451e-001	7.438881e-001	-6.662066e-001	-3.372101e-002	-2.844286e-002
40781738.587	-2.911297e-002	-3.388997e-002	7.434722e-001	-6.673651e-001	7.436137e-001	-6.666921e-001	-3.377606e-002	-2.849108e-002
40813008.130	-2.921786e-002	-3.386585e-002	7.432362e-001	-6.677001e-001	7.432182e-001	-6.670750e-001	-3.375556e-002	-2.852485e-002
40844277.674	-2.921302e-002	-3.380125e-002	7.424777e-001	-6.681402e-001	7.427380e-001	-6.675091e-001	-3.383896e-002	-2.849972e-002
40875547.217	-2.924951e-002	-3.380346e-002	7.420930e-001	-6.687356e-001	7.425043e-001	-6.677236e-001	-3.384795e-002	-2.849647e-002
40906816.760	-2.928937e-002	-3.381179e-002	7.419670e-001	-6.690479e-001	7.420068e-001	-6.682277e-001	-3.377614e-002	-2.857030e-002
40938086.304	-2.945438e-002	-3.387822e-002	7.413415e-001	-6.695467e-001	7.418335e-001	-6.687757e-001	-3.395873e-002	-2.849761e-002
40969355.847	-2.948829e-002	-3.391190e-002	7.408475e-001	-6.696104e-001	7.412894e-001	-6.691417e-001	-3.404096e-002	-2.850955e-002
41000625.391	-2.949160e-002	-3.376613e-002	7.404163e-001	-6.702111e-001	7.407000e-001	-6.694635e-001	-3.400842e-002	-2.848070e-002
41031894.934	-2.938113e-002	-3.379207e-002	7.404984e-001	-6.704695e-001	7.404486e-001	-6.700220e-001	-3.407181e-002	-2.852458e-002
41063164.478	-2.952698e-002	-3.376862e-002	7.399427e-001	-6.710265e-001	7.402067e-001	-6.703635e-001	-3.408738e-002	-2.854130e-002
41094434.021	-2.958010e-002	-3.386366e-002	7.394233e-001	-6.713388e-001	7.398768e-001	-6.707536e-001	-3.413316e-002	-2.850954e-002
41125703.565	-2.956651e-002	-3.390954e-002	7.391773e-001	-6.719705e-001	7.395046e-001	-6.709369e-001	-3.420094e-002	-2.849801e-002
41156973.108	-2.960032e-002	-3.388099e-002	7.388563e-001	-6.719877e-001	7.390197e-001	-6.715910e-001	-3.424270e-002	-2.848361e-002
41188242.652	-2.970281e-002	-3.384024e-002	7.384643e-001	-6.728768e-001	7.386980e-001	-6.718351e-001	-3.424499e-002	-2.854307e-002
41219512.195	-2.966336e-002	-3.395374e-002	7.381157e-001	-6.731051e-001	7.380806e-001	-6.723001e-001	-3.430550e-002	-2.861055e-002
41250781.739	-2.979688e-002	-3.393104e-002	7.375115e-001	-6.738138e-001	7.379855e-001	-6.728196e-001	-3.438085e-002	-2.851895e-002
41282051.282	-2.980849e-002	-3.393670e-002	7.374461e-001	-6.739956e-001	7.375456e-001	-6.732177e-001	-3.447098e-002	-2.855267e-002
41313320.826	-2.990301e-002	-3.386738e-002	7.368201e-001	-6.743655e-001	7.371555e-001	-6.735971e-001	-3.449108e-002	-2.859471e-002
41344590.369	-2.991408e-002	-3.398071e-002	7.364176e-001	-6.746663e-001	7.368506e-001	-6.740794e-001	-3.452571e-002	-2.847551e-002
41375859.912	-3.000800e-002	-3.392845e-002	7.361708e-001	-6.752619e-001	7.363156e-001	-6.745406e-001	-3.454357e-002	-2.851060e-002
41407129.456	-2.999349e-002	-3.396026e-002	7.357867e-001	-6.752874e-001	7.360444e-001	-6.745422e-001	-3.466015e-002	-2.846421e-002
41438398.999	-3.001336e-002	-3.399012e-002	7.355612e-001	-6.761126e-001	7.357247e-001	-6.753578e-001	-3.468767e-002	-2.855264e-002
41469668.543	-3.009585e-002	-3.381511e-002	7.349040e-001	-6.765287e-001	7.352450e-001	-6.757467e-001	-3.472300e-002	-2.852073e-002
41500938.086	-3.012013e-002	-3.400326e-002	7.345663e-001	-6.767853e-001	7.350242e-001	-6.759710e-001	-3.471435e-002	-2.856749e-002
41532207.630	-3.013010e-002	-3.398535e-002	7.342263e-001	-6.771429e-001	7.345236e-001	-6.764338e-001	-3.477566e-002	-2.854953e-002
41563477.173	-3.016384e-002	-3.400480e-002	7.338594e-001	-6.776675e-001	7.341543e-001	-6.768285e-001	-3.477674e-002	-2.854396e-002
41594746.717	-3.011621e-002	-3.400642e-002	7.335463e-001	-6.780207e-001	7.337153e-001	-6.774409e-001	-3.489386e-002	-2.853876e-002
41626016.260	-3.041973e-002	-3.403816e-002	7.329305e-001	-6.784033e-001	7.333763e-001	-6.777707e-001	-3.494768e-002	-2.855222e-002
41657285.804	-3.028415e-002	-3.400924e-002	7.326891e-001	-6.788423e-001	7.330394e-001	-6.781394e-001	-3.495298e-002	-2.856569e-002
41688555.347	-3.027396e-002	-3.400217e-002	7.324470e-001	-6.792635e-001	7.326892e-001	-6.785268e-001	-3.499797e-002	-2.848237e-002
41719824.891	-3.031777e-002	-3.394382e-002	7.321059e-001	-6.798411e-001	7.322316e-001	-6.788239e-001	-3.506162e-002	-2.846316e-002
41751094.434	-3.042073e-002	-3.383637e-002	7.315933e-001	-6.800863e-001	7.316401e-001	-6.796053e-001	-3.505980e-002	-2.858730e-002
41782363.977	-3.038436e-002	-3.400936e-002	7.313115e-001	-6.805918e-001	7.315481e-001	-6.798041e-001	-3.526644e-002	-2.852271e-002
41813633.521	-3.049275e-002	-3.400188e-002	7.306333e-001	-6.808210e-001	7.312459e-001	-6.800176e-001	-3.518923e-002	-2.847394e-002
41844903.064	-3.051657e-002	-3.399957e-002	7.306466e-001	-6.811770e-001	7.306034e-001	-6.806864e-001	-3.529318e-002	-2.850630e-002
41876172.608	-3.053207e-002	-3.406467e-002	7.299227e-001	-6.816167e-001	7.304022e-001	-6.809836e-001	-3.536896e-002	-2.842427e-002
41907442.151	-3.064335e-002	-3.400396e-002	7.297425e-001	-6.820379e-001	7.299737e-001	-6.815072e-001	-3.539442e-002	-2.849915e-002
41938711.695	-3.057921e-002	-3.398033e-002	7.292284e-001	-6.825941e-001	7.295728e-001	-6.817367e-001	-3.528713e-002	-2.848656e-002
41969981.238	-3.066669e-002	-3.410018e-002	7.288882e-001	-6.828724e-001	7.291270e-001	-6.825099e-001	-3.538698e-002	-2.848490e-002
42001250.782	-3.069044e-002	-3.400097e-002	7.285363e-001	-6.835406e-001	7.288385e-001	-6.826312e-001	-3.547853e-002	-2.845499e-002
42032520.325	-3.068945e-002	-3.403028e-002	7.280618e-001	-6.836186e-001	7.287161e-001	-6.829139e-001	-3.556658e-002	-2.850965e-002
42063789.869	-3.077352e-002	-3.404855e-002	7.278621e-001	-6.841856e-001	7.279115e-001	-6.836263e-001	-3.567076e-002	-2.849016e-002
42095059.412	-3.083176e-002	-3.406568e-002	7.273958e-001	-6.845400e-001	7.277675e-001	-6.839571e-001	-3.568825e-002	-2.842800e-002
42126328.956	-3.092588e-002	-3.409918e-002	7.269225e-001	-6.849203e-001	7.273313e-001	-6.842704e-001	-3.569554e-002	-2.846512e-002
42157598.499	-3.088764e-002	-3.411566e-002	7.264414e-001	-6.854630e-001	7.267397e-001	-6.848322e-001	-3.576186e-002	-2.846504e-002
42188868.043	-3.096709e-002	-3.414415e-002	7.263822e-001	-6.856865e-001	7.264446e-001	-6.850968e-001	-3.576597e-002	-2.842124e-002
42220137.586	-3.089482e-002	-3.407436e-002	7.257312e-001	-6.862461e-001	7.260560e-001	-6.853227e-001	-3.584525e-002	-2.845696e-002
42251407.129	-3.099953e-002	-3.415074e-002	7.254797e-001	-6.867545e-001	7.255434e-001	-6.860614e-001	-3.595207e-002	-2.839603e-002
42282676.673	-3.105245e-002	-3.412635e-002	7.251234e-001	-6.870127e-001	7.253159e-001	-6.862610e-001	-3.592681e-002	-2.843478e-002
42313946.216	-3.113313e-002	-3.412116e-002	7.247523e-001	-6.875713e-001	7.250438e-001	-6.868384e-001	-3.594706e-002	-2.844362e-002
42345215.760	-3.124830e-002	-3.413403e-002	7.242834e-001	-6.878167e-001	7.245572e-001	-6.872884e-001	-3.616452e-002	-2.839800e-002
42376485.303	-3.120491e-002	-3.418984e-002	7.237288e-001	-6.882538e-001	7.240633e-001	-6.874844e-001	-3.609663e-002	-2.836971e-002
42407754.847	-3.122281e-002	-3.413784e-002	7.236255e-001	-6.886492e-001	7.238492e-001	-6.880144e-001	-3.611930e-002	-2.838726e-002
42439024.390	-3.130666e-002	-3.421251e-002	7.231090e-001	-6.891485e-001	7.233100e-001	-6.883055e-001	-3.624168e-002	-2.842875e-002
42470293.934	-3.129967e-002	-3.418801e-002	7.227058e-001	-6.895278e-001	7.229834e-001	-6.888642e-001	-3.617738e-002	-2.842570e-002
42501563.477	-3.136022e-002	-3.409805e-002	7.223948e-001	-6.897027e-001	7.226393e-001	-6.892103e-001	-3.620028e-002	-2.847370e-002
42532833.021	-3.135319e-002	-3.417302e-002	7.220089e-001	-6.903075e-001	7.224300e-001	-6.896169e-001	-3.637348e-002	-2.845758e-002
42564102.564	-3.142614e-002	-3.419764e-002	7.216074e-001	-6.907851e-001	7.217739e-001	-6.899932e-001	-3.640077e-002	-2.852573e-002
42595372.108	-3.144288e-002	-3.416661e-002	7.209283e-001	-6.911745e-001	7.214262e-001	-6.907194e-001	-3.648173e-002	-2.847829e-002
42626641.651	-3.153031e-002	-3.427891e-002	7.208505e-001	-6.914821e-001	7.210986e-001	-6.907571e-001	-3.650603e-002	-2.841072e-002
42657911.194	-3.154692e-002	-3.418679e-002	7.204141e-001	-6.918434e-001	7.207030e-001	-6.912908e-001	-3.654422e-002	-2.839411e-002
42689180.738	-3.166820e-002	-3.416473e-002	7.200519e-001	-6.923919e-001	7.201938e-001	-6.916586e-001	-3.660394e-002	-2.842481e-002
42720450.281	-3.162657e-002	-3.422843e-002	7.194863e-001	-6.925995e-001	7.197921e-001	-6.920382e-001	-3.653971e-002	-2.841354e-002
42751719.825	-3.171893e-002	-3.429884e-002	7.190719e-001	-6.931170e-001	7.196004e-001	-6.921795e-001	-3.658003e-002	-2.843664e-002
42782989.368	-3.184134e-002	-3.421750e-002	7.188403e-001	-6.937082e-001	7.190902e-001	-6.929219e-001	-3.674874e-002	-2.831999e-002
42814258.912	-3.174432e-002	-3.422993e-002	7.185939e-001	-6.938536e-001	7.188209e-001	-6.933210e-001	-3.671563e-002	-2.855620e-002
42845528.455	-3.185286e-002	-3.412615e-002	7.180431e-001	-6.943618e-001	7.185333e-001	-6.933997e-001	-3.678612e-002	-2.837073e-002
42876797.999	-3.174673e-002	-3.423567e-002	7.177918e-001	-6.945020e-001	7.178007e-001	-6.940606e-001	-3.692036e-002	-2.845627e-002
42908067.542	-3.194607e-002	-3.430832e-002	7.172678e-001	-6.948510e-001	7.176684e-001	-6.943367e-001	-3.689290e-002	-2.846734e-002
42939337.086	-3.186828e-002	-3.418698e-002	7.169139e-001	-6.954149e-001	7.169863e-001	-6.946892e-001	-3.687257e-002	-2.852403e-002
42970606.629	-3.200658e-002	-3.428594e-002	7.166016e-001	-6.958520e-001	7.167598e-001	-6.951200e-001	-3.707646e-002	-2.850845e-002
43001876.173	-3.208145e-002	-3.430555e-002	7.160995e-001	-6.964570e-001	7.164204e-001	-6.955788e-001	-3.706344e-002	-2.833748e-002
43033145.716	-3.196665e-002	-3.426126e-002	7.155674e-001	-6.968125e-001	7.159900e-001	-6.961477e-001	-3.714420e-002	-2.836754e-002
43064415.260	-3.204924e-002	-3.432672e-002	7.151903e-001	-6.971456e-001	7.157117e-001	-6.966089e-001	-3.716278e-002	-2.839616e-002
43095684.803	-3.209592e-002	-3.426938e-002	7.148105e-001	-6.976056e-001	7.151401e-001	-6.969047e-001	-3.721815e-002	-2.841410e-002
43126954.346	-3.207185e-002	-3.427277e-002	7.145073e-001	-6.978135e-001	7.148404e-001	-6.972844e-001	-3.730629e-002	-2.840957e-002
43158223.890	-3.218371e-002	-3.434316e-002	7.140677e-001	-6.982716e-001	7.144467e-001	-6.975251e-001	-3.732209e-002	-2.835280e-002
43189493.433	-3.218920e-002	-3.436337e-002	7.138673e-001	-6.989525e-001	7.139305e-001	-6.981404e-001	-3.737879e-002	-2.829477e-002
43220762.977	-3.227453e-002	-3.430863e-002	7.134173e-001	-6.991517e-001	7.136969e-001	-6.982473e-001	-3.744595e-002	-2.840237e-002
43252032.520	-3.238284e-002	-3.441266e-002	7.130797e-001	-6.994509e-001	7.132194e-001	-6.989036e-001	-3.739499e-002	-2.843450e-002
43283302.064	-3.240637e-002	-3.431993e-002	7.126351e-001	-6.998772e-001	7.128022e-001	-6.992319e-001	-3.742859e-002	-2.834350e-002
43314571.607	-3.241090e-002	-3.439539e-002	7.122229e-001	-7.001734e-001	7.126065e-001	-6.996240e-001	-3.758704e-002	-2.826739e-002
43345841.151	-3.242501e-002	-3.434089e-002	7.118057e-001	-7.007035e-001	7.120629e-001	-7.001108e-001	-3.761289e-002	-2.826949e-002
43377110.694	-3.254565e-002	-3.439988e-002	7.113585e-001	-7.010541e-001	7.115972e-001	-7.005319e-001	-3.766500e-002	-2.829087e-002
43408380.238	-3.249378e-002	-3.444518e-002	7.110405e-001	-7.016510e-001	7.113065e-001	-7.007023e-001	-3.763145e-002	-2.836845e-002
43439649.781	-3.253183e-002	-3.438929e-002	7.104648e-001	-7.019961e-001	7.108607e-001	-7.012957e-001	-3.768870e-002	-2.836841e-002
43470919.325	-3.265114e-002	-3.439589e-002	7.099344e-001	-7.023911e-001	7.105508e-001	-7.016157e-001	-3.774316e-002	-2.824437e-002
43502188.868	-3.269530e-002	-3.447384e-002	7.098546e-001	-7.027354e-001	7.099645e-001	-7.020433e-001	-3.780200e-002	-2.834148e-002
43533458.412	-3.264931e-002	-3.436631e-002	7.093745e-001	-7.029904e-001	7.095673e-001	-7.023670e-001	-3.780768e-002	-2.836573e-002
43564727.955	-3.275823e-002	-3.438782e-002	7.091618e-001	-7.032499e-001	7.092121e-001	-7.030355e-001	-3.790567e-002	-2.839890e-002
43595997.498	-3.275868e-002	-3.443097e-002	7.086362e-001	-7.038608e-001	7.086322e-001	-7.031991e-001	-3.794818e-002	-2.830128e-002
43627267.042	-3.277690e-002	-3.453213e-002	7.083420e-001	-7.040849e-001	7.085544e-001	-7.036592e-001	-3.808251e-002	-2.824917e-002
43658536.585	-3.284309e-002	-3.448190e-002	7.077741e-001	-7.046150e-001	7.080533e-001	-7.039380e-001	-3.809097e-002	-2.833848e-002
43689806.129	-3.280123e-002	-3.454849e-002	7.074780e-001	-7.050336e-001	7.076064e-001	-7.045211e-001	-3.809413e-002	-2.832066e-002
43721075.672	-3.301196e-002	-3.437157e-002	7.068641e-001	-7.054188e-001	7.073220e-001	-7.049576e-001	-3.816093e-002	-2.833225e-002
43752345.216	-3.292087e-002	-3.451002e-002	7.067475e-001	-7.058404e-001	7.066256e-001	-7.051413e-001	-3.811810e-002	-2.827353e-002
43783614.759	-3.300987e-002	-3.446767e-002	7.061694e-001	-7.062502e-001	7.065365e-001	-7.057544e-001	-3.822150e-002	-2.833374e-002
43814884.303	-3.313059e-002	-3.446800e-002	7.059213e-001	-7.065364e-001	7.061298e-001	-7.059889e-001	-3.829253e-002	-2.821896e-002
43846153.846	-3.306128e-002	-3.451701e-002	7.055279e-001	-7.071504e-001	7.058588e-001	-7.065223e-001	-3.833162e-002	-2.823611e-002
43877423.390	-3.317428e-002	-3.455722e-002	7.049497e-001	-7.075419e-001	7.052923e-001	-7.070040e-001	-3.836740e-002	-2.827485e-002
43908692.933	-3.324331e-002	-3.441096e-002	7.044648e-001	-7.080449e-001	7.049136e-001	-7.071911e-001	-3.848429e-002	-2.823272e-002
43939962.477	-3.330295e-002	-3.443668e-002	7.043707e-001	-7.083044e-001	7.045655e-001	-7.076839e-001	-3.852381e-002	-2.822545e-002
43971232.020	-3.326245e-002	-3.451822e-002	7.037151e-001	-7.086873e-001	7.040655e-001	-7.081741e-001	-3.850520e-002	-2.822987e-002
44002501.563	-3.332021e-002	-3.454776e-002	7.033708e-001	-7.090098e-001	7.038995e-001	-7.082864e-001	-3.858719e-002	-2.817212e-002
44033771.107	-3.330411e-002	-3.454755e-002	7.030186e-001	-7.095955e-001	7.034184e-001	-7.087977e-001	-3.861066e-002	-2.821806e-002
44065040.650	-3.332878e-002	-3.447828e-002	7.026847e-001	-7.099370e-001	7.029096e-001	-7.092781e-001	-3.860306e-002	-2.812696e-002
44096310.194	-3.352022e-002	-3.452876e-002	7.023448e-001	-7.101525e-001	7.025146e-001	-7.096144e-001	-3.868928e-002	-2.819410e-002
44127579.737	-3.347957e-002	-3.461987e-002	7.018896e-001	-7.105756e-001	7.020689e-001	-7.098944e-001	-3.875787e-002	-2.822856e-002
44158849.281	-3.345984e-002	-3.455098e-002	7.014329e-001	-7.109640e-001	7.019223e-001	-7.103792e-001	-3.879885e-002	-2.821968e-002
44190118.824	-3.360705e-002	-3.454715e-002	7.010825e-001	-7.113426e-001	7.013629e-001	-7.108149e-001	-3.882657e-002	-2.814451e-002
44221388.368	-3.368910e-002	-3.459205e-002	7.009079e-001	-7.119138e-001	7.009187e-001	-7.110362e-001	-3.900794e-002	-2.818958e-002
44252657.911	-3.363790e-002	-3.456669e-002	7.002394e-001	-7.121358e-001	7.004665e-001	-7.116811e-001	-3.885305e-002	-2.816887e-002
44283927.455	-3.372447e-002	-3.458676e-002	6.999804e-001	-7.125766e-001	7.002816e-001	-7.119028e-001	-3.910110e-002	-2.830338e-002
44315196.998	-3.373553e-002	-3.454515e-002	6.995770e-001	-7.130035e-001	6.997043e-001	-7.121794e-001	-3.901050e-002	-2.822100e-002
44346466.542	-3.379641e-002	-3.458728e-002	6.989770e-001	-7.133352e-001	6.992985e-001	-7.128087e-001	-3.912029e-002	-2.817317e-002
44377736.085	-3.384518e-002	-3.452635e-002	6.986453e-001	-7.136019e-001	6.987122e-001	-7.130050e-001	-3.927837e-002	-2.810247e-002
44409005.629	-3.389457e-002	-3.451270e-002	6.981282e-001	-7.142246e-001	6.984094e-001	-7.133431e-001	-3.921375e-002	-2.816091e-002
44440275.172	-3.386339e-002	-3.471070e-002	6.978907e-001	-7.144124e-001	6.980631e-001	-7.140160e-001	-3.929590e-002	-2.817740e-002
44471544.715	-3.402542e-002	-3.467141e-002	6.972466e-001	-7.148879e-001	6.978518e-001	-7.141943e-001	-3.922047e-002	-2.809193e-002
44502814.259	-3.392010e-002	-3.474601e-002	6.969671e-001	-7.150666e-001	6.971439e-001	-7.146423e-001	-3.925425e-002	-2.813788e-002
44534083.802	-3.403494e-002	-3.462650e-002	6.965374e-001	-7.157015e-001	6.967603e-001	-7.149937e-001	-3.933717e-002	-2.820869e-002
44565353.346	-3.409140e-002	-3.458601e-002	6.959598e-001	-7.160172e-001	6.966112e-001	-7.153187e-001	-3.945641e-002	-2.805232e-002
44596622.889	-3.419083e-002	-3.466929e-002	6.958047e-001	-7.165543e-001	6.961784e-001	-7.157554e-001	-3.946044e-002	-2.810081e-002
44627892.433	-3.415781e-002	-3.462910e-002	6.954489e-001	-7.166741e-001	6.956318e-001	-7.163512e-001	-3.956127e-002	-2.819129e-002
44659161.976	-3.420142e-002	-3.467416e-002	6.949294e-001	-7.172679e-001	6.953088e-001	-7.164522e-001	-3.958670e-002	-2.807461e-002
44690431.520	-3.425222e-002	-3.470808e-002	6.945231e-001	-7.176618e-001	6.947658e-001	-7.169770e-001	-3.962746e-002	-2.808907e-002
