! COPPER MOUNTAIN TECHNOLOGIES, PLANAR TR1300/1, 00000000, 23.1.2/1.0
! Date: 7/3/2023 3:34:56 PM
! Data: Format [Calibration Info]
! Freq          	S11: Mag/Ang                   	S21: Mag/Ang                   	S12: Mag/Ang                   	S22: Mag/Ang                   
# HZ S MA R 50
4.00000000E+07	 7.61540651E-02	-3.49798446E+01	 9.25335421E-01	-4.43121479E+01	 0.00000000E+00	 0.00000000E+00	 0.00000000E+00	 0.00000000E+00
4.00312695E+07	 7.62342707E-02	-3.50697129E+01	 9.25356894E-01	-4.43401996E+01	 0.00000000E+00	 0.00000000E+00	 0.00000000E+00	 0.00000000E+00
4.00625391E+07	 7.62306029E-02	-3.51334309E+01	 9.24844693E-01	-4.43770414E+01	 0.00000000E+00	 0.00000000E+00	 0.00000000E+00	 0.00000000E+00
4.00938086E+07	 7.62363759E-02	-3.51507718E+01	 9.25106256E-01	-4.44123424E+01	 0.00000000E+00	 0.00000000E+00	 0.00000000E+00	 0.00000000E+00
4.01250782E+07	 7.62555368E-02	-3.52195641E+01	 9.24969103E-01	-4.44352211E+01	 0.00000000E+00	 0.00000000E+00	 0.00000000E+00	 0.00000000E+00
4.01563477E+07	 7.63439899E-02	-3.52442320E+01	 9.25185341E-01	-4.44649174E+01	 0.00000000E+00	 0.00000000E+00	 0.00000000E+00	 0.00000000E+00
4.01876173E+07	 7.63429991E-02	-3.53484819E+01	 9.24988290E-01	-4.44931430E+01	 0.00000000E+00	 0.00000000E+00	 0.00000000E+00	 0.00000000E+00
4.02188868E+07	 7.63292536E-02	-3.53550185E+01	 9.24974519E-01	-4.45413613E+01	 0.00000000E+00	 0.00000000E+00	 0.00000000E+00	 0.00000000E+00
4.02501563E+07	 7.63978113E-02	-3.54298949E+01	 9.24930065E-01	-4.45618745E+01	 0.00000000E+00	 0.00000000E+00	 0.00000000E+00	 0.00000000E+00
4.02814259E+07	 7.64839961E-02	-3.54800877E+01	 9.24900337E-01	-4.45936147E+01	 0.00000000E+00	 0.00000000E+00	 0.00000000E+00	 0.00000000E+00
4.03126954E+07	 7.65197129E-02	-3.55375768E+01	 9.25082765E-01	-4.46444328E+01	 0.00000000E+00	 0.00000000E+00	 0.00000000E+00	 0.00000000E+00
4.03439650E+07	 7.64609062E-02	-3.55023617E+01	 9.24736432E-01	-4.46572156E+01	 0.00000000E+00	 0.00000000E+00	 0.00000000E+00	 0.00000000E+00
4.03752345E+07	 7.65308640E-02	-3.55979985E+01	 9.24722262E-01	-4.47064474E+01	 0.00000000E+00	 0.00000000E+00	 0.00000000E+00	 0.00000000E+00
4.04065041E+07	 7.65072943E-02	-3.56405418E+01	 9.24491355E-01	-4.47300433E+01	 0.00000000E+00	 0.00000000E+00	 0.00000000E+00	 0.00000000E+00
4.04377736E+07	 7.65115551E-02	-3.57761998E+01	 9.24830144E-01	-4.47451989E+01	 0.00000000E+00	 0.00000000E+00	 0.00000000E+00	 0.00000000E+00
4.04690432E+07	 7.66137899E-02	-3.57937261E+01	 9.24631356E-01	-4.47958009E+01	 0.00000000E+00	 0.00000000E+00	 0.00000000E+00	 0.00000000E+00
4.05003127E+07	 7.66474908E-02	-3.59079276E+01	 9.24682887E-01	-4.48356484E+01	 0.00000000E+00	 0.00000000E+00	 0.00000000E+00	 0.00000000E+00
4.05315822E+07	 7.66734589E-02	-3.59355460E+01	 9.24500551E-01	-4.48579525E+01	 0.00000000E+00	 0.00000000E+00	 0.00000000E+00	 0.00000000E+00
4.05628518E+07	 7.66698981E-02	-3.59189341E+01	 9.24468582E-01	-4.48996247E+01	 0.00000000E+00	 0.00000000E+00	 0.00000000E+00	 0.00000000E+00
4.05941213E+07	 7.67263751E-02	-3.60141776E+01	 9.24564489E-01	-4.49243539E+01	 0.00000000E+00	 0.00000000E+00	 0.00000000E+00	 0.00000000E+00
4.06253909E+07	 7.67490973E-02	-3.60419347E+01	 9.24506075E-01	-4.49593283E+01	 0.00000000E+00	 0.00000000E+00	 0.00000000E+00	 0.00000000E+00
4.06566604E+07	 7.67386184E-02	-3.61036461E+01	 9.24402965E-01	-4.49929087E+01	 0.00000000E+00	 0.00000000E+00	 0.00000000E+00	 0.00000000E+00
4.06879300E+07	 7.68877135E-02	-3.61312337E+01	 9.24790108E-01	-4.50238760E+01	 0.00000000E+00	 0.00000000E+00	 0.00000000E+00	 0.00000000E+00
4.07191995E+07	 7.67724420E-02	-3.61905771E+01	 9.24391206E-01	-4.50584534E+01	 0.00000000E+00	 0.00000000E+00	 0.00000000E+00	 0.00000000E+00
4.07504690E+07	 7.68554430E-02	-3.62595269E+01	 9.24167784E-01	-4.50843017E+01	 0.00000000E+00	 0.00000000E+00	 0.00000000E+00	 0.00000000E+00
4.07817386E+07	 7.69597745E-02	-3.63145962E+01	 9.24462658E-01	-4.51170601E+01	 0.00000000E+00	 0.00000000E+00	 0.00000000E+00	 0.00000000E+00
4.08130081E+07	 7.69004733E-02	-3.63962759E+01	 9.24425490E-01	-4.51463540E+01	 0.00000000E+00	 0.00000000E+00	 0.00000000E+00	 0.00000000E+00
4.08442777E+07	 7.68983537E-02	-3.64055216E+01	 9.24343207E-01	-4.51778724E+01	 0.00000000E+00	 0.00000000E+00	 0.00000000E+00	 0.00000000E+00
4.08755472E+07	 7.70627938E-02	-3.64904687E+01	 9.24212397E-01	-4.52253114E+01	 0.00000000E+00	 0.00000000E+00	 0.00000000E+00	 0.00000000E+00
4.09068168E+07	 7.70250656E-02	-3.65299745E+01	 9.24456194E-01	-4.52514201E+01	 0.00000000E+00	 0.00000000E+00	 0.00000000E+00	 0.00000000E+00
4.09380863E+07	 7.69649040E-02	-3.66086518E+01	 9.24222569E-01	-4.52938735E+01	 0.00000000E+00	 0.00000000E+00	 0.00000000E+00	 0.00000000E+00
4.09693558E+07	 7.69681486E-02	-3.66372335E+01	 9.24019091E-01	-4.53188167E+01	 0.00000000E+00	 0.00000000E+00	 0.00000000E+00	 0.00000000E+00
4.10006254E+07	 7.70411099E-02	-3.66407931E+01	 9.23966404E-01	-4.53545673E+01	 0.00000000E+00	 0.00000000E+00	 0.00000000E+00	 0.00000000E+00
4.10318949E+07	 7.71866521E-02	-3.66210269E+01	 9.24171252E-01	-4.53649839E+01	 0.00000000E+00	 0.00000000E+00	 0.00000000E+00	 0.00000000E+00
4.10631645E+07	 7.71005070E-02	-3.67580043E+01	 9.24293052E-01	-4.54026020E+01	 0.00000000E+00	 0.00000000E+00	 0.00000000E+00	 0.00000000E+00
4.10944340E+07	 7.71583106E-02	-3.68259996E+01	 9.24214821E-01	-4.54399638E+01	 0.00000000E+00	 0.00000000E+00	 0.00000000E+00	 0.00000000E+00
4.11257036E+07	 7.71932891E-02	-3.68860398E+01	 9.24193288E-01	-4.54684342E+01	 0.00000000E+00	 0.00000000E+00	 0.00000000E+00	 0.00000000E+00
4.11569731E+07	 7.72932766E-02	-3.69208442E+01	 9.23905416E-01	-4.55010925E+01	 0.00000000E+00	 0.00000000E+00	 0.00000000E+00	 0.00000000E+00
4.11882427E+07	 7.71845726E-02	-3.69596102E+01	 9.24011379E-01	-4.55487108E+01	 0.00000000E+00	 0.00000000E+00	 0.00000000E+00	 0.00000000E+00
4.12195122E+07	 7.73285349E-02	-3.70454236E+01	 9.24051040E-01	-4.55789456E+01	 0.00000000E+00	 0.00000000E+00	 0.00000000E+00	 0.00000000E+00
4.12507817E+07	 7.72800004E-02	-3.71159218E+01	 9.23862214E-01	-4.56251605E+01	 0.00000000E+00	 0.00000000E+00	 0.00000000E+00	 0.00000000E+00
4.12820513E+07	 7.73476846E-02	-3.71601687E+01	 9.23900695E-01	-4.56411060E+01	 0.00000000E+00	 0.00000000E+00	 0.00000000E+00	 0.00000000E+00
4.13133208E+07	 7.72948338E-02	-3.71727583E+01	 9.23654448E-01	-4.56787165E+01	 0.00000000E+00	 0.00000000E+00	 0.00000000E+00	 0.00000000E+00
4.13445904E+07	 7.73839923E-02	-3.73135890E+01	 9.23485266E-01	-4.57018660E+01	 0.00000000E+00	 0.00000000E+00	 0.00000000E+00	 0.00000000E+00
4.13758599E+07	 7.73465786E-02	-3.73218783E+01	 9.23835482E-01	-4.57423790E+01	 0.00000000E+00	 0.00000000E+00	 0.00000000E+00	 0.00000000E+00
4.14071295E+07	 7.74371053E-02	-3.73776997E+01	 9.23628232E-01	-4.57528984E+01	 0.00000000E+00	 0.00000000E+00	 0.00000000E+00	 0.00000000E+00
4.14383990E+07	 7.75093676E-02	-3.74589084E+01	 9.23964438E-01	-4.58039755E+01	 0.00000000E+00	 0.00000000E+00	 0.00000000E+00	 0.00000000E+00
4.14696685E+07	 7.74170845E-02	-3.74528073E+01	 9.23646804E-01	-4.58458431E+01	 0.00000000E+00	 0.00000000E+00	 0.00000000E+00	 0.00000000E+00
4.15009381E+07	 7.75537950E-02	-3.75247289E+01	 9.23689630E-01	-4.58726325E+01	 0.00000000E+00	 0.00000000E+00	 0.00000000E+00	 0.00000000E+00
4.15322076E+07	 7.75545313E-02	-3.76133800E+01	 9.23580554E-01	-4.58977907E+01	 0.00000000E+00	 0.00000000E+00	 0.00000000E+00	 0.00000000E+00
4.15634772E+07	 7.76258115E-02	-3.76129379E+01	 9.23588424E-01	-4.59434624E+01	 0.00000000E+00	 0.00000000E+00	 0.00000000E+00	 0.00000000E+00
4.15947467E+07	 7.76416861E-02	-3.76660767E+01	 9.23492534E-01	-4.59598649E+01	 0.00000000E+00	 0.00000000E+00	 0.00000000E+00	 0.00000000E+00
4.16260163E+07	 7.75627283E-02	-3.78257107E+01	 9.23406877E-01	-4.60023476E+01	 0.00000000E+00	 0.00000000E+00	 0.00000000E+00	 0.00000000E+00
4.16572858E+07	 7.77038071E-02	-3.78501183E+01	 9.23597036E-01	-4.60423812E+01	 0.00000000E+00	 0.00000000E+00	 0.00000000E+00	 0.00000000E+00
4.16885553E+07	 7.76939371E-02	-3.78280305E+01	 9.23450018E-01	-4.60608364E+01	 0.00000000E+00	 0.00000000E+00	 0.00000000E+00	 0.00000000E+00
4.17198249E+07	 7.77338654E-02	-3.78166207E+01	 9.23584653E-01	-4.60993962E+01	 0.00000000E+00	 0.00000000E+00	 0.00000000E+00	 0.00000000E+00
4.17510944E+07	 7.76315166E-02	-3.78851283E+01	 9.23280193E-01	-4.61186837E+01	 0.00000000E+00	 0.00000000E+00	 0.00000000E+00	 0.00000000E+00
4.17823640E+07	 7.78252293E-02	-3.79699364E+01	 9.23393164E-01	-4.61506655E+01	 0.00000000E+00	 0.00000000E+00	 0.00000000E+00	 0.00000000E+00
4.18136335E+07	 7.78088275E-02	-3.80596827E+01	 9.23234307E-01	-4.61943870E+01	 0.00000000E+00	 0.00000000E+00	 0.00000000E+00	 0.00000000E+00
4.18449031E+07	 7.77890438E-02	-3.80685385E+01	 9.23300596E-01	-4.62115805E+01	 0.00000000E+00	 0.00000000E+00	 0.00000000E+00	 0.00000000E+00
4.18761726E+07	 7.78831482E-02	-3.81592124E+01	 9.23188627E-01	-4.62663553E+01	 0.00000000E+00	 0.00000000E+00	 0.00000000E+00	 0.00000000E+00
4.19074422E+07	 7.78261195E-02	-3.82189395E+01	 9.23060141E-01	-4.62884783E+01	 0.00000000E+00	 0.00000000E+00	 0.00000000E+00	 0.00000000E+00
4.19387117E+07	 7.79560166E-02	-3.82305376E+01	 9.23127000E-01	-4.63269945E+01	 0.00000000E+00	 0.00000000E+00	 0.00000000E+00	 0.00000000E+00
4.19699812E+07	 7.79959257E-02	-3.83258780E+01	 9.23149598E-01	-4.63511284E+01	 0.00000000E+00	 0.00000000E+00	 0.00000000E+00	 0.00000000E+00
4.20012508E+07	 7.80137136E-02	-3.82949149E+01	 9.23294827E-01	-4.63904324E+01	 0.00000000E+00	 0.00000000E+00	 0.00000000E+00	 0.00000000E+00
4.20325203E+07	 7.80111056E-02	-3.83798863E+01	 9.23185613E-01	-4.64133801E+01	 0.00000000E+00	 0.00000000E+00	 0.00000000E+00	 0.00000000E+00
4.20637899E+07	 7.80535776E-02	-3.84624589E+01	 9.23216429E-01	-4.64496845E+01	 0.00000000E+00	 0.00000000E+00	 0.00000000E+00	 0.00000000E+00
4.20950594E+07	 7.80458604E-02	-3.85395682E+01	 9.22991960E-01	-4.64784680E+01	 0.00000000E+00	 0.00000000E+00	 0.00000000E+00	 0.00000000E+00
4.21263290E+07	 7.80667995E-02	-3.85562664E+01	 9.22902863E-01	-4.65091835E+01	 0.00000000E+00	 0.00000000E+00	 0.00000000E+00	 0.00000000E+00
4.21575985E+07	 7.81887831E-02	-3.86470228E+01	 9.22925762E-01	-4.65478116E+01	 0.00000000E+00	 0.00000000E+00	 0.00000000E+00	 0.00000000E+00
4.21888680E+07	 7.82158337E-02	-3.87123294E+01	 9.22975132E-01	-4.65739089E+01	 0.00000000E+00	 0.00000000E+00	 0.00000000E+00	 0.00000000E+00
4.22201376E+07	 7.82218242E-02	-3.86918809E+01	 9.22832492E-01	-4.66190595E+01	 0.00000000E+00	 0.00000000E+00	 0.00000000E+00	 0.00000000E+00
4.22514071E+07	 7.82706079E-02	-3.87687932E+01	 9.22944389E-01	-4.66459979E+01	 0.00000000E+00	 0.00000000E+00	 0.00000000E+00	 0.00000000E+00
4.22826767E+07	 7.83087555E-02	-3.88344872E+01	 9.22893401E-01	-4.66733134E+01	 0.00000000E+00	 0.00000000E+00	 0.00000000E+00	 0.00000000E+00
4.23139462E+07	 7.82749037E-02	-3.88671842E+01	 9.23042564E-01	-4.67162911E+01	 0.00000000E+00	 0.00000000E+00	 0.00000000E+00	 0.00000000E+00
4.23452158E+07	 7.82914737E-02	-3.90282177E+01	 9.22896744E-01	-4.67440206E+01	 0.00000000E+00	 0.00000000E+00	 0.00000000E+00	 0.00000000E+00
4.23764853E+07	 7.83146567E-02	-3.90394273E+01	 9.22709390E-01	-4.67788236E+01	 0.00000000E+00	 0.00000000E+00	 0.00000000E+00	 0.00000000E+00
4.24077548E+07	 7.83753957E-02	-3.90426964E+01	 9.22611840E-01	-4.68137198E+01	 0.00000000E+00	 0.00000000E+00	 0.00000000E+00	 0.00000000E+00
4.24390244E+07	 7.83796311E-02	-3.91094700E+01	 9.22689013E-01	-4.68364474E+01	 0.00000000E+00	 0.00000000E+00	 0.00000000E+00	 0.00000000E+00
4.24702939E+07	 7.84892579E-02	-3.91755401E+01	 9.22701187E-01	-4.68709355E+01	 0.00000000E+00	 0.00000000E+00	 0.00000000E+00	 0.00000000E+00
4.25015635E+07	 7.83967116E-02	-3.91770404E+01	 9.22613914E-01	-4.69002203E+01	 0.00000000E+00	 0.00000000E+00	 0.00000000E+00	 0.00000000E+00
4.25328330E+07	 7.85063667E-02	-3.92456775E+01	 9.22713858E-01	-4.69337764E+01	 0.00000000E+00	 0.00000000E+00	 0.00000000E+00	 0.00000000E+00
4.25641026E+07	 7.84974406E-02	-3.93314567E+01	 9.22683024E-01	-4.69814883E+01	 0.00000000E+00	 0.00000000E+00	 0.00000000E+00	 0.00000000E+00
4.25953721E+07	 7.85446508E-02	-3.93309926E+01	 9.22511515E-01	-4.70146084E+01	 0.00000000E+00	 0.00000000E+00	 0.00000000E+00	 0.00000000E+00
4.26266417E+07	 7.85858534E-02	-3.94933014E+01	 9.22625983E-01	-4.70290252E+01	 0.00000000E+00	 0.00000000E+00	 0.00000000E+00	 0.00000000E+00
4.26579112E+07	 7.85820277E-02	-3.94795396E+01	 9.22538821E-01	-4.70640866E+01	 0.00000000E+00	 0.00000000E+00	 0.00000000E+00	 0.00000000E+00
4.26891807E+07	 7.85644276E-02	-3.95691125E+01	 9.22642900E-01	-4.70934956E+01	 0.00000000E+00	 0.00000000E+00	 0.00000000E+00	 0.00000000E+00
4.27204503E+07	 7.86452630E-02	-3.96209301E+01	 9.22327446E-01	-4.71273459E+01	 0.00000000E+00	 0.00000000E+00	 0.00000000E+00	 0.00000000E+00
4.27517198E+07	 7.87131336E-02	-3.97034754E+01	 9.22407716E-01	-4.71662042E+01	 0.00000000E+00	 0.00000000E+00	 0.00000000E+00	 0.00000000E+00
4.27829894E+07	 7.86007177E-02	-3.97581500E+01	 9.22673350E-01	-4.72054573E+01	 0.00000000E+00	 0.00000000E+00	 0.00000000E+00	 0.00000000E+00
4.28142589E+07	 7.87478142E-02	-3.97418679E+01	 9.22426588E-01	-4.72195459E+01	 0.00000000E+00	 0.00000000E+00	 0.00000000E+00	 0.00000000E+00
4.28455285E+07	 7.87162061E-02	-3.97739919E+01	 9.22323098E-01	-4.72641858E+01	 0.00000000E+00	 0.00000000E+00	 0.00000000E+00	 0.00000000E+00
4.28767980E+07	 7.88001367E-02	-3.98101160E+01	 9.22268749E-01	-4.72915943E+01	 0.00000000E+00	 0.00000000E+00	 0.00000000E+00	 0.00000000E+00
4.29080675E+07	 7.88143465E-02	-3.99574932E+01	 9.22237467E-01	-4.73131318E+01	 0.00000000E+00	 0.00000000E+00	 0.00000000E+00	 0.00000000E+00
4.29393371E+07	 7.88393902E-02	-3.99342178E+01	 9.22129277E-01	-4.73504102E+01	 0.00000000E+00	 0.00000000E+00	 0.00000000E+00	 0.00000000E+00
4.29706066E+07	 7.88830423E-02	-4.00510664E+01	 9.22163200E-01	-4.73941765E+01	 0.00000000E+00	 0.00000000E+00	 0.00000000E+00	 0.00000000E+00
4.30018762E+07	 7.89227713E-02	-4.01108376E+01	 9.22224697E-01	-4.74354585E+01	 0.00000000E+00	 0.00000000E+00	 0.00000000E+00	 0.00000000E+00
4.30331457E+07	 7.90045017E-02	-4.01067258E+01	 9.22033060E-01	-4.74601805E+01	 0.00000000E+00	 0.00000000E+00	 0.00000000E+00	 0.00000000E+00
4.30644153E+07	 7.90321024E-02	-4.02070260E+01	 9.21868014E-01	-4.74866627E+01	 0.00000000E+00	 0.00000000E+00	 0.00000000E+00	 0.00000000E+00
4.30956848E+07	 7.89714115E-02	-4.02500735E+01	 9.22069226E-01	-4.75252404E+01	 0.00000000E+00	 0.00000000E+00	 0.00000000E+00	 0.00000000E+00
4.31269543E+07	 7.90916937E-02	-4.02783002E+01	 9.22070619E-01	-4.75512032E+01	 0.00000000E+00	 0.00000000E+00	 0.00000000E+00	 0.00000000E+00
4.31582239E+07	 7.90789272E-02	-4.03577833E+01	 9.21931998E-01	-4.75750376E+01	 0.00000000E+00	 0.00000000E+00	 0.00000000E+00	 0.00000000E+00
4.31894934E+07	 7.91549229E-02	-4.04358998E+01	 9.22219266E-01	-4.76211182E+01	 0.00000000E+00	 0.00000000E+00	 0.00000000E+00	 0.00000000E+00
4.32207630E+07	 7.90867141E-02	-4.04253924E+01	 9.22056631E-01	-4.76555201E+01	 0.00000000E+00	 0.00000000E+00	 0.00000000E+00	 0.00000000E+00
4.32520325E+07	 7.91595112E-02	-4.05367805E+01	 9.22029524E-01	-4.76794133E+01	 0.00000000E+00	 0.00000000E+00	 0.00000000E+00	 0.00000000E+00
4.32833021E+07	 7.91148305E-02	-4.05462433E+01	 9.22004856E-01	-4.77205060E+01	 0.00000000E+00	 0.00000000E+00	 0.00000000E+00	 0.00000000E+00
4.33145716E+07	 7.91808967E-02	-4.06654516E+01	 9.21721466E-01	-4.77456515E+01	 0.00000000E+00	 0.00000000E+00	 0.00000000E+00	 0.00000000E+00
4.33458412E+07	 7.92653335E-02	-4.06554535E+01	 9.21783951E-01	-4.77940977E+01	 0.00000000E+00	 0.00000000E+00	 0.00000000E+00	 0.00000000E+00
4.33771107E+07	 7.92379138E-02	-4.07649289E+01	 9.21874290E-01	-4.78110014E+01	 0.00000000E+00	 0.00000000E+00	 0.00000000E+00	 0.00000000E+00
4.34083802E+07	 7.94010482E-02	-4.07954619E+01	 9.21941560E-01	-4.78560000E+01	 0.00000000E+00	 0.00000000E+00	 0.00000000E+00	 0.00000000E+00
4.34396498E+07	 7.93703377E-02	-4.08317113E+01	 9.21614706E-01	-4.78836870E+01	 0.00000000E+00	 0.00000000E+00	 0.00000000E+00	 0.00000000E+00
4.34709193E+07	 7.93550393E-02	-4.09406549E+01	 9.21650163E-01	-4.79242765E+01	 0.00000000E+00	 0.00000000E+00	 0.00000000E+00	 0.00000000E+00
4.35021889E+07	 7.92928180E-02	-4.10101312E+01	 9.21759825E-01	-4.79504229E+01	 0.00000000E+00	 0.00000000E+00	 0.00000000E+00	 0.00000000E+00
4.35334584E+07	 7.94190707E-02	-4.09902710E+01	 9.21416870E-01	-4.79712203E+01	 0.00000000E+00	 0.00000000E+00	 0.00000000E+00	 0.00000000E+00
4.35647280E+07	 7.94180095E-02	-4.10515615E+01	 9.21564232E-01	-4.80151018E+01	 0.00000000E+00	 0.00000000E+00	 0.00000000E+00	 0.00000000E+00
4.35959975E+07	 7.94339266E-02	-4.11343749E+01	 9.21390372E-01	-4.80425354E+01	 0.00000000E+00	 0.00000000E+00	 0.00000000E+00	 0.00000000E+00
4.36272670E+07	 7.95642921E-02	-4.12229637E+01	 9.21579446E-01	-4.80700861E+01	 0.00000000E+00	 0.00000000E+00	 0.00000000E+00	 0.00000000E+00
4.36585366E+07	 7.96032867E-02	-4.13032652E+01	 9.21494624E-01	-4.81074685E+01	 0.00000000E+00	 0.00000000E+00	 0.00000000E+00	 0.00000000E+00
4.36898061E+07	 7.97064840E-02	-4.12992514E+01	 9.21471110E-01	-4.81453541E+01	 0.00000000E+00	 0.00000000E+00	 0.00000000E+00	 0.00000000E+00
4.37210757E+07	 7.94989354E-02	-4.13338061E+01	 9.21314929E-01	-4.81691945E+01	 0.00000000E+00	 0.00000000E+00	 0.00000000E+00	 0.00000000E+00
4.37523452E+07	 7.97022771E-02	-4.14128801E+01	 9.21635683E-01	-4.81992835E+01	 0.00000000E+00	 0.00000000E+00	 0.00000000E+00	 0.00000000E+00
4.37836148E+07	 7.97364202E-02	-4.14320888E+01	 9.21267579E-01	-4.82330163E+01	 0.00000000E+00	 0.00000000E+00	 0.00000000E+00	 0.00000000E+00
4.38148843E+07	 7.96252579E-02	-4.15473711E+01	 9.21431089E-01	-4.82670395E+01	 0.00000000E+00	 0.00000000E+00	 0.00000000E+00	 0.00000000E+00
4.38461538E+07	 7.97599985E-02	-4.15535670E+01	 9.21479781E-01	-4.82974868E+01	 0.00000000E+00	 0.00000000E+00	 0.00000000E+00	 0.00000000E+00
4.38774234E+07	 7.97614187E-02	-4.16052868E+01	 9.21412436E-01	-4.83448592E+01	 0.00000000E+00	 0.00000000E+00	 0.00000000E+00	 0.00000000E+00
4.39086929E+07	 7.96493286E-02	-4.16383579E+01	 9.21296134E-01	-4.83753996E+01	 0.00000000E+00	 0.00000000E+00	 0.00000000E+00	 0.00000000E+00
4.39399625E+07	 7.96933080E-02	-4.16974025E+01	 9.21458425E-01	-4.84023367E+01	 0.00000000E+00	 0.00000000E+00	 0.00000000E+00	 0.00000000E+00
4.39712320E+07	 7.98735797E-02	-4.17990816E+01	 9.21104539E-01	-4.84407420E+01	 0.00000000E+00	 0.00000000E+00	 0.00000000E+00	 0.00000000E+00
4.40025016E+07	 7.98974656E-02	-4.18222586E+01	 9.21013424E-01	-4.84642453E+01	 0.00000000E+00	 0.00000000E+00	 0.00000000E+00	 0.00000000E+00
4.40337711E+07	 7.98949627E-02	-4.18797148E+01	 9.21140399E-01	-4.85015610E+01	 0.00000000E+00	 0.00000000E+00	 0.00000000E+00	 0.00000000E+00
4.40650407E+07	 7.99071995E-02	-4.18718098E+01	 9.21062798E-01	-4.85381432E+01	 0.00000000E+00	 0.00000000E+00	 0.00000000E+00	 0.00000000E+00
4.40963102E+07	 7.98857105E-02	-4.20259246E+01	 9.21187313E-01	-4.85626845E+01	 0.00000000E+00	 0.00000000E+00	 0.00000000E+00	 0.00000000E+00
4.41275797E+07	 7.99693315E-02	-4.20684236E+01	 9.21161621E-01	-4.85876777E+01	 0.00000000E+00	 0.00000000E+00	 0.00000000E+00	 0.00000000E+00
4.41588493E+07	 8.00036109E-02	-4.20803799E+01	 9.20911721E-01	-4.86222289E+01	 0.00000000E+00	 0.00000000E+00	 0.00000000E+00	 0.00000000E+00
4.41901188E+07	 8.00057933E-02	-4.21931863E+01	 9.20951357E-01	-4.86573902E+01	 0.00000000E+00	 0.00000000E+00	 0.00000000E+00	 0.00000000E+00
4.42213884E+07	 8.00194779E-02	-4.22064561E+01	 9.21064616E-01	-4.86872955E+01	 0.00000000E+00	 0.00000000E+00	 0.00000000E+00	 0.00000000E+00
4.42526579E+07	 8.00659292E-02	-4.22969599E+01	 9.21203563E-01	-4.87218021E+01	 0.00000000E+00	 0.00000000E+00	 0.00000000E+00	 0.00000000E+00
