!Agilent Technologies,E5061B,MY49102235,A.02.00
!Date: Mon Jul 03 11:01:40 2023
!Data & Calibration Information:
!Freq	S11:SOLT2(ON)	S21:SOLT2(ON)	S12:SOLT2(ON)	S22:SOLT2(ON)
# Hz S RI R 50
40000000.000	6.420775e-002	-3.987468e-002	6.599515e-001	-6.505622e-001	6.600398e-001	-6.497128e-001	5.900883e-002	-4.191186e-002
40031269.543	6.418583e-002	-3.999495e-002	6.596291e-001	-6.509120e-001	6.596944e-001	-6.499435e-001	5.902816e-002	-4.195649e-002
40062539.087	6.416509e-002	-4.006050e-002	6.589859e-001	-6.510144e-001	6.592736e-001	-6.503019e-001	5.902502e-002	-4.208186e-002
40093808.630	6.414257e-002	-4.011731e-002	6.586790e-001	-6.515307e-001	6.588475e-001	-6.508310e-001	5.899104e-002	-4.211397e-002
40125078.174	6.411256e-002	-4.015760e-002	6.582806e-001	-6.518142e-001	6.583462e-001	-6.510733e-001	5.903154e-002	-4.210691e-002
40156347.717	6.415182e-002	-4.028250e-002	6.580233e-001	-6.523163e-001	6.579974e-001	-6.515869e-001	5.892108e-002	-4.225633e-002
40187617.261	6.411791e-002	-4.039526e-002	6.576020e-001	-6.524960e-001	6.577532e-001	-6.519666e-001	5.891813e-002	-4.243444e-002
40218886.804	6.413370e-002	-4.040899e-002	6.571569e-001	-6.530335e-001	6.572146e-001	-6.521272e-001	5.894754e-002	-4.246525e-002
40250156.348	6.411282e-002	-4.047932e-002	6.568285e-001	-6.532356e-001	6.568876e-001	-6.526267e-001	5.882294e-002	-4.255469e-002
40281425.891	6.406450e-002	-4.057862e-002	6.563909e-001	-6.536523e-001	6.564360e-001	-6.529120e-001	5.884225e-002	-4.256794e-002
40312695.435	6.409535e-002	-4.064521e-002	6.559463e-001	-6.541746e-001	6.560668e-001	-6.532178e-001	5.885426e-002	-4.267296e-002
40343964.978	6.409365e-002	-4.067017e-002	6.555939e-001	-6.542654e-001	6.556657e-001	-6.536003e-001	5.880504e-002	-4.268471e-002
40375234.522	6.409648e-002	-4.074717e-002	6.550517e-001	-6.547028e-001	6.553415e-001	-6.538689e-001	5.874879e-002	-4.278602e-002
40406504.065	6.401806e-002	-4.077129e-002	6.546182e-001	-6.549273e-001	6.548561e-001	-6.543978e-001	5.879016e-002	-4.293190e-002
40437773.609	6.395946e-002	-4.095973e-002	6.545227e-001	-6.553269e-001	6.545787e-001	-6.546110e-001	5.873482e-002	-4.302471e-002
40469043.152	6.403684e-002	-4.101883e-002	6.540194e-001	-6.557176e-001	6.541891e-001	-6.549559e-001	5.869771e-002	-4.301497e-002
40500312.695	6.395955e-002	-4.115716e-002	6.534301e-001	-6.561273e-001	6.537674e-001	-6.553497e-001	5.865565e-002	-4.306826e-002
40531582.239	6.399042e-002	-4.114751e-002	6.530945e-001	-6.561892e-001	6.532016e-001	-6.559275e-001	5.862376e-002	-4.312514e-002
40562851.782	6.396431e-002	-4.118611e-002	6.526127e-001	-6.566861e-001	6.528187e-001	-6.560590e-001	5.867133e-002	-4.335131e-002
40594121.326	6.397664e-002	-4.130741e-002	6.524901e-001	-6.571834e-001	6.524923e-001	-6.563383e-001	5.864597e-002	-4.328801e-002
40625390.869	6.396756e-002	-4.132894e-002	6.520294e-001	-6.574689e-001	6.522806e-001	-6.568570e-001	5.856022e-002	-4.344626e-002
40656660.413	6.392984e-002	-4.142309e-002	6.515794e-001	-6.578213e-001	6.518592e-001	-6.570482e-001	5.857606e-002	-4.346615e-002
40687929.956	6.395494e-002	-4.148588e-002	6.514076e-001	-6.583544e-001	6.514828e-001	-6.574197e-001	5.854589e-002	-4.357010e-002
40719199.500	6.390957e-002	-4.150737e-002	6.507194e-001	-6.584421e-001	6.508982e-001	-6.580058e-001	5.858744e-002	-4.365655e-002
40750469.043	6.388581e-002	-4.161582e-002	6.502739e-001	-6.586906e-001	6.505088e-001	-6.582246e-001	5.841021e-002	-4.368023e-002
40781738.587	6.393844e-002	-4.179323e-002	6.500030e-001	-6.592921e-001	6.501324e-001	-6.586167e-001	5.837005e-002	-4.374526e-002
40813008.130	6.384681e-002	-4.181547e-002	6.497671e-001	-6.595020e-001	6.496310e-001	-6.589476e-001	5.840473e-002	-4.383218e-002
40844277.674	6.387681e-002	-4.181959e-002	6.491608e-001	-6.598743e-001	6.492831e-001	-6.592476e-001	5.832782e-002	-4.388896e-002
40875547.217	6.386315e-002	-4.194690e-002	6.487217e-001	-6.603625e-001	6.490496e-001	-6.594917e-001	5.834814e-002	-4.398903e-002
40906816.760	6.385027e-002	-4.196857e-002	6.484946e-001	-6.606457e-001	6.485249e-001	-6.598762e-001	5.842147e-002	-4.410060e-002
40938086.304	6.375575e-002	-4.210022e-002	6.478661e-001	-6.610245e-001	6.482659e-001	-6.603351e-001	5.827344e-002	-4.414369e-002
40969355.847	6.375577e-002	-4.212454e-002	6.474393e-001	-6.612395e-001	6.477557e-001	-6.606560e-001	5.825430e-002	-4.418214e-002
41000625.391	6.375794e-002	-4.216618e-002	6.469914e-001	-6.615485e-001	6.472364e-001	-6.609090e-001	5.826703e-002	-4.425300e-002
41031894.934	6.390489e-002	-4.222042e-002	6.469014e-001	-6.619019e-001	6.468825e-001	-6.614356e-001	5.820907e-002	-4.432378e-002
41063164.478	6.374868e-002	-4.232285e-002	6.464365e-001	-6.623329e-001	6.466083e-001	-6.617401e-001	5.822387e-002	-4.444763e-002
41094434.021	6.372306e-002	-4.243966e-002	6.460020e-001	-6.626410e-001	6.461013e-001	-6.619487e-001	5.815267e-002	-4.450359e-002
41125703.565	6.373918e-002	-4.250371e-002	6.456464e-001	-6.630249e-001	6.458445e-001	-6.622563e-001	5.812212e-002	-4.453924e-002
41156973.108	6.376623e-002	-4.261366e-002	6.452836e-001	-6.631818e-001	6.452069e-001	-6.627225e-001	5.808874e-002	-4.464579e-002
41188242.652	6.371697e-002	-4.257451e-002	6.448001e-001	-6.638846e-001	6.449450e-001	-6.630405e-001	5.816237e-002	-4.475942e-002
41219512.195	6.372853e-002	-4.277894e-002	6.443773e-001	-6.641324e-001	6.444660e-001	-6.634033e-001	5.805925e-002	-4.485794e-002
41250781.739	6.365076e-002	-4.279360e-002	6.437666e-001	-6.646105e-001	6.440596e-001	-6.637671e-001	5.807284e-002	-4.486745e-002
41282051.282	6.366493e-002	-4.291387e-002	6.435604e-001	-6.648063e-001	6.436690e-001	-6.641160e-001	5.796675e-002	-4.498684e-002
41313320.826	6.362437e-002	-4.288465e-002	6.430572e-001	-6.650389e-001	6.432754e-001	-6.643796e-001	5.798081e-002	-4.506188e-002
41344590.369	6.356845e-002	-4.306200e-002	6.426233e-001	-6.652427e-001	6.429491e-001	-6.648543e-001	5.800558e-002	-4.506053e-002
41375859.912	6.350803e-002	-4.306066e-002	6.423435e-001	-6.657896e-001	6.422712e-001	-6.650332e-001	5.796558e-002	-4.517693e-002
41407129.456	6.355986e-002	-4.315561e-002	6.420497e-001	-6.659858e-001	6.420255e-001	-6.652910e-001	5.785201e-002	-4.517669e-002
41438398.999	6.356725e-002	-4.330921e-002	6.416688e-001	-6.665748e-001	6.417317e-001	-6.658011e-001	5.782682e-002	-4.527825e-002
41469668.543	6.351535e-002	-4.319195e-002	6.410832e-001	-6.668839e-001	6.412216e-001	-6.662502e-001	5.784370e-002	-4.537308e-002
41500938.086	6.352111e-002	-4.339492e-002	6.407694e-001	-6.671213e-001	6.409676e-001	-6.664590e-001	5.780204e-002	-4.550283e-002
41532207.630	6.352867e-002	-4.346174e-002	6.403472e-001	-6.674824e-001	6.405165e-001	-6.668189e-001	5.778792e-002	-4.554071e-002
41563477.173	6.353340e-002	-4.358060e-002	6.398879e-001	-6.679309e-001	6.400940e-001	-6.670849e-001	5.781638e-002	-4.565861e-002
41594746.717	6.355419e-002	-4.362005e-002	6.394530e-001	-6.681906e-001	6.396688e-001	-6.675099e-001	5.773344e-002	-4.563836e-002
41626016.260	6.336270e-002	-4.370972e-002	6.391090e-001	-6.685620e-001	6.392633e-001	-6.678415e-001	5.768933e-002	-4.573614e-002
41657285.804	6.346609e-002	-4.380746e-002	6.387292e-001	-6.689148e-001	6.388763e-001	-6.681318e-001	5.771917e-002	-4.581502e-002
41688555.347	6.347870e-002	-4.382346e-002	6.382966e-001	-6.691886e-001	6.384709e-001	-6.686060e-001	5.766808e-002	-4.588789e-002
41719824.891	6.347868e-002	-4.383321e-002	6.379547e-001	-6.696288e-001	6.380591e-001	-6.687983e-001	5.762762e-002	-4.591860e-002
41751094.434	6.338095e-002	-4.383438e-002	6.375505e-001	-6.698225e-001	6.375710e-001	-6.693871e-001	5.762731e-002	-4.610158e-002
41782363.977	6.346138e-002	-4.405309e-002	6.371916e-001	-6.702684e-001	6.373108e-001	-6.695146e-001	5.745323e-002	-4.610898e-002
41813633.521	6.336614e-002	-4.411792e-002	6.366337e-001	-6.704799e-001	6.369443e-001	-6.698668e-001	5.759292e-002	-4.615014e-002
41844903.064	6.333976e-002	-4.416126e-002	6.364056e-001	-6.708143e-001	6.363995e-001	-6.703103e-001	5.748774e-002	-4.624051e-002
41876172.608	6.334713e-002	-4.426817e-002	6.357141e-001	-6.712340e-001	6.361742e-001	-6.706351e-001	5.740008e-002	-4.627213e-002
41907442.151	6.328831e-002	-4.427781e-002	6.354898e-001	-6.715436e-001	6.357244e-001	-6.710246e-001	5.738713e-002	-4.637206e-002
41938711.695	6.338443e-002	-4.439531e-002	6.349935e-001	-6.719148e-001	6.353288e-001	-6.712061e-001	5.748441e-002	-4.649749e-002
41969981.238	6.331108e-002	-4.453212e-002	6.346688e-001	-6.722657e-001	6.347746e-001	-6.717443e-001	5.744177e-002	-4.652611e-002
42001250.782	6.331714e-002	-4.449245e-002	6.342772e-001	-6.726443e-001	6.344452e-001	-6.717912e-001	5.738621e-002	-4.660503e-002
42032520.325	6.330944e-002	-4.454663e-002	6.338228e-001	-6.729699e-001	6.342120e-001	-6.721711e-001	5.729279e-002	-4.666692e-002
42063789.869	6.323227e-002	-4.467758e-002	6.335119e-001	-6.732838e-001	6.335523e-001	-6.727174e-001	5.722759e-002	-4.675891e-002
42095059.412	6.325293e-002	-4.475681e-002	6.330666e-001	-6.736223e-001	6.333132e-001	-6.730467e-001	5.726397e-002	-4.675571e-002
42126328.956	6.317992e-002	-4.481580e-002	6.326290e-001	-6.738323e-001	6.327549e-001	-6.732762e-001	5.718934e-002	-4.689088e-002
42157598.499	6.324194e-002	-4.492936e-002	6.321915e-001	-6.742702e-001	6.323303e-001	-6.737360e-001	5.720002e-002	-4.694268e-002
42188868.043	6.320421e-002	-4.501118e-002	6.319518e-001	-6.744835e-001	6.320359e-001	-6.740182e-001	5.714383e-002	-4.699698e-002
42220137.586	6.325048e-002	-4.505130e-002	6.313732e-001	-6.750462e-001	6.316114e-001	-6.742299e-001	5.711882e-002	-4.710708e-002
42251407.129	6.315620e-002	-4.515433e-002	6.310940e-001	-6.754134e-001	6.311522e-001	-6.746989e-001	5.705476e-002	-4.710965e-002
42282676.673	6.316998e-002	-4.521923e-002	6.305814e-001	-6.756528e-001	6.307053e-001	-6.749696e-001	5.708212e-002	-4.721962e-002
42313946.216	6.311732e-002	-4.524524e-002	6.302621e-001	-6.760665e-001	6.304263e-001	-6.754224e-001	5.704697e-002	-4.730633e-002
42345215.760	6.302549e-002	-4.539064e-002	6.297592e-001	-6.763375e-001	6.299114e-001	-6.757740e-001	5.692586e-002	-4.732725e-002
42376485.303	6.304503e-002	-4.546130e-002	6.293332e-001	-6.767277e-001	6.294800e-001	-6.760068e-001	5.698486e-002	-4.738964e-002
42407754.847	6.307110e-002	-4.549104e-002	6.288899e-001	-6.769931e-001	6.290876e-001	-6.763352e-001	5.695859e-002	-4.747404e-002
42439024.390	6.300607e-002	-4.560832e-002	6.285539e-001	-6.773569e-001	6.286814e-001	-6.765905e-001	5.688809e-002	-4.762225e-002
42470293.934	6.305302e-002	-4.570034e-002	6.281770e-001	-6.776954e-001	6.283941e-001	-6.770438e-001	5.689443e-002	-4.766826e-002
42501563.477	6.299215e-002	-4.565925e-002	6.278285e-001	-6.779446e-001	6.279935e-001	-6.774832e-001	5.690880e-002	-4.773953e-002
42532833.021	6.304375e-002	-4.577880e-002	6.274036e-001	-6.782842e-001	6.276399e-001	-6.778604e-001	5.676863e-002	-4.781129e-002
42564102.564	6.296539e-002	-4.585382e-002	6.269358e-001	-6.787938e-001	6.270891e-001	-6.781068e-001	5.675190e-002	-4.792052e-002
42595372.108	6.299476e-002	-4.591674e-002	6.263994e-001	-6.791415e-001	6.266987e-001	-6.785407e-001	5.667259e-002	-4.796066e-002
42626641.651	6.292425e-002	-4.612292e-002	6.261579e-001	-6.792855e-001	6.263173e-001	-6.786708e-001	5.666098e-002	-4.800717e-002
42657911.194	6.291297e-002	-4.609911e-002	6.256808e-001	-6.797374e-001	6.259070e-001	-6.791038e-001	5.667363e-002	-4.808642e-002
42689180.738	6.286822e-002	-4.612129e-002	6.253514e-001	-6.800339e-001	6.254853e-001	-6.794454e-001	5.657578e-002	-4.816641e-002
42720450.281	6.282383e-002	-4.627265e-002	6.247371e-001	-6.801987e-001	6.249993e-001	-6.797080e-001	5.663958e-002	-4.822714e-002
42751719.825	6.283872e-002	-4.641314e-002	6.244731e-001	-6.806615e-001	6.248387e-001	-6.799745e-001	5.662497e-002	-4.833827e-002
42782989.368	6.273848e-002	-4.638663e-002	6.240396e-001	-6.811875e-001	6.242670e-001	-6.804642e-001	5.651891e-002	-4.834172e-002
42814258.912	6.283782e-002	-4.646990e-002	6.238153e-001	-6.813767e-001	6.238722e-001	-6.807822e-001	5.650533e-002	-4.856500e-002
42845528.455	6.275838e-002	-4.649986e-002	6.232259e-001	-6.817922e-001	6.235060e-001	-6.811055e-001	5.651003e-002	-4.851092e-002
42876797.999	6.280521e-002	-4.663308e-002	6.229335e-001	-6.819669e-001	6.230100e-001	-6.814941e-001	5.642827e-002	-4.865307e-002
42908067.542	6.270945e-002	-4.668666e-002	6.224447e-001	-6.821913e-001	6.227412e-001	-6.816540e-001	5.638013e-002	-4.876414e-002
42939337.086	6.278034e-002	-4.673872e-002	6.220306e-001	-6.826120e-001	6.220713e-001	-6.820522e-001	5.641057e-002	-4.882684e-002
42970606.629	6.268405e-002	-4.687545e-002	6.215896e-001	-6.830206e-001	6.217162e-001	-6.824180e-001	5.628336e-002	-4.894013e-002
43001876.173	6.267023e-002	-4.693362e-002	6.212133e-001	-6.834176e-001	6.214167e-001	-6.827988e-001	5.628795e-002	-4.884859e-002
43033145.716	6.275141e-002	-4.696362e-002	6.206564e-001	-6.836960e-001	6.209327e-001	-6.831545e-001	5.623121e-002	-4.895111e-002
43064415.260	6.270646e-002	-4.709165e-002	6.203167e-001	-6.839456e-001	6.206547e-001	-6.834339e-001	5.620775e-002	-4.908773e-002
43095684.803	6.261023e-002	-4.712165e-002	6.198710e-001	-6.843835e-001	6.201253e-001	-6.837530e-001	5.615726e-002	-4.914472e-002
43126954.346	6.268399e-002	-4.718995e-002	6.195774e-001	-6.846790e-001	6.197132e-001	-6.841133e-001	5.612430e-002	-4.914005e-002
43158223.890	6.261997e-002	-4.729436e-002	6.191548e-001	-6.848670e-001	6.192539e-001	-6.843994e-001	5.607631e-002	-4.921544e-002
43189493.433	6.258051e-002	-4.742500e-002	6.188674e-001	-6.854524e-001	6.187177e-001	-6.848545e-001	5.605176e-002	-4.925934e-002
43220762.977	6.258301e-002	-4.741238e-002	6.183669e-001	-6.857247e-001	6.185204e-001	-6.849911e-001	5.601368e-002	-4.942406e-002
43252032.520	6.251321e-002	-4.757251e-002	6.178889e-001	-6.860307e-001	6.180241e-001	-6.854987e-001	5.604487e-002	-4.952272e-002
43283302.064	6.249471e-002	-4.752664e-002	6.174736e-001	-6.862804e-001	6.175611e-001	-6.856525e-001	5.602146e-002	-4.952513e-002
43314571.607	6.243993e-002	-4.770930e-002	6.171331e-001	-6.867000e-001	6.174466e-001	-6.860866e-001	5.593810e-002	-4.950684e-002
43345841.151	6.248902e-002	-4.773135e-002	6.166330e-001	-6.869908e-001	6.168992e-001	-6.863938e-001	5.591267e-002	-4.962461e-002
43377110.694	6.239492e-002	-4.782914e-002	6.162566e-001	-6.872948e-001	6.163787e-001	-6.867595e-001	5.583943e-002	-4.973143e-002
43408380.238	6.245893e-002	-4.796336e-002	6.159290e-001	-6.878096e-001	6.159887e-001	-6.869882e-001	5.587681e-002	-4.982451e-002
43439649.781	6.242279e-002	-4.800916e-002	6.153778e-001	-6.879690e-001	6.154722e-001	-6.874085e-001	5.586821e-002	-4.990352e-002
43470919.325	6.234579e-002	-4.805866e-002	6.149203e-001	-6.884120e-001	6.153120e-001	-6.878329e-001	5.583433e-002	-4.988178e-002
43502188.868	6.233138e-002	-4.817979e-002	6.145873e-001	-6.887421e-001	6.146661e-001	-6.880617e-001	5.576877e-002	-4.998874e-002
43533458.412	6.238317e-002	-4.816955e-002	6.141762e-001	-6.888876e-001	6.143081e-001	-6.883026e-001	5.578569e-002	-5.012294e-002
43564727.955	6.227296e-002	-4.824637e-002	6.138431e-001	-6.892250e-001	6.139049e-001	-6.889109e-001	5.567073e-002	-5.020733e-002
43595997.498	6.227889e-002	-4.840385e-002	6.133364e-001	-6.895267e-001	6.133809e-001	-6.889961e-001	5.563395e-002	-5.023167e-002
43627267.042	6.225993e-002	-4.847981e-002	6.130763e-001	-6.898966e-001	6.130744e-001	-6.894542e-001	5.559841e-002	-5.024767e-002
43658536.585	6.227141e-002	-4.858021e-002	6.125163e-001	-6.901954e-001	6.126541e-001	-6.897181e-001	5.555869e-002	-5.035508e-002
43689806.129	6.229040e-002	-4.866597e-002	6.120483e-001	-6.905747e-001	6.122906e-001	-6.900219e-001	5.556968e-002	-5.048025e-002
43721075.672	6.216273e-002	-4.855653e-002	6.116060e-001	-6.908472e-001	6.118323e-001	-6.903772e-001	5.552654e-002	-5.055361e-002
43752345.216	6.221956e-002	-4.878978e-002	6.114259e-001	-6.912857e-001	6.113450e-001	-6.907861e-001	5.551740e-002	-5.056757e-002
43783614.759	6.219375e-002	-4.886145e-002	6.108238e-001	-6.915398e-001	6.110862e-001	-6.910597e-001	5.544920e-002	-5.069589e-002
43814884.303	6.207088e-002	-4.887973e-002	6.105055e-001	-6.918461e-001	6.106166e-001	-6.913090e-001	5.539844e-002	-5.070287e-002
43846153.846	6.214272e-002	-4.900559e-002	6.101788e-001	-6.921740e-001	6.103280e-001	-6.917195e-001	5.533008e-002	-5.079371e-002
43877423.390	6.209267e-002	-4.907655e-002	6.095725e-001	-6.926527e-001	6.097873e-001	-6.920021e-001	5.537112e-002	-5.087677e-002
43908692.933	6.203236e-002	-4.905329e-002	6.090822e-001	-6.929986e-001	6.094937e-001	-6.922515e-001	5.529420e-002	-5.088204e-002
43939962.477	6.201603e-002	-4.914435e-002	6.088957e-001	-6.932937e-001	6.090093e-001	-6.926849e-001	5.525880e-002	-5.099721e-002
43971232.020	6.202073e-002	-4.928909e-002	6.083225e-001	-6.935433e-001	6.085547e-001	-6.930350e-001	5.524605e-002	-5.107902e-002
44002501.563	6.200109e-002	-4.938723e-002	6.078664e-001	-6.937302e-001	6.082024e-001	-6.931576e-001	5.522532e-002	-5.108013e-002
44033771.107	6.199692e-002	-4.945872e-002	6.075257e-001	-6.942619e-001	6.077672e-001	-6.935068e-001	5.516389e-002	-5.119304e-002
44065040.650	6.199302e-002	-4.943430e-002	6.071722e-001	-6.945355e-001	6.073719e-001	-6.939294e-001	5.521145e-002	-5.121690e-002
44096310.194	6.187885e-002	-4.955455e-002	6.067973e-001	-6.948065e-001	6.068892e-001	-6.942035e-001	5.510770e-002	-5.135493e-002
44127579.737	6.188886e-002	-4.967262e-002	6.063425e-001	-6.951859e-001	6.065410e-001	-6.944441e-001	5.507281e-002	-5.143286e-002
44158849.281	6.189217e-002	-4.971620e-002	6.059201e-001	-6.954045e-001	6.061856e-001	-6.949076e-001	5.504542e-002	-5.150784e-002
44190118.824	6.182708e-002	-4.979707e-002	6.054529e-001	-6.957756e-001	6.057678e-001	-6.952936e-001	5.497524e-002	-5.155923e-002
44221388.368	6.176650e-002	-4.985018e-002	6.051718e-001	-6.961746e-001	6.051931e-001	-6.955317e-001	5.488657e-002	-5.160995e-002
44252657.911	6.177603e-002	-4.992274e-002	6.046684e-001	-6.964325e-001	6.048154e-001	-6.959514e-001	5.497756e-002	-5.172845e-002
44283927.455	6.174982e-002	-5.002259e-002	6.042220e-001	-6.966905e-001	6.044504e-001	-6.961783e-001	5.477287e-002	-5.182787e-002
44315196.998	6.171580e-002	-5.006781e-002	6.039332e-001	-6.971497e-001	6.040646e-001	-6.965074e-001	5.486331e-002	-5.189068e-002
44346466.542	6.170241e-002	-5.015865e-002	6.033665e-001	-6.974259e-001	6.035943e-001	-6.968681e-001	5.475033e-002	-5.191425e-002
44377736.085	6.169228e-002	-5.020900e-002	6.029905e-001	-6.975724e-001	6.030341e-001	-6.971232e-001	5.466356e-002	-5.194135e-002
44409005.629	6.169985e-002	-5.025133e-002	6.024819e-001	-6.980914e-001	6.026627e-001	-6.973645e-001	5.472208e-002	-5.206673e-002
44440275.172	6.166207e-002	-5.045099e-002	6.020486e-001	-6.982688e-001	6.023857e-001	-6.978054e-001	5.463866e-002	-5.209836e-002
44471544.715	6.161091e-002	-5.050725e-002	6.016215e-001	-6.986472e-001	6.019863e-001	-6.981045e-001	5.467602e-002	-5.217271e-002
44502814.259	6.167500e-002	-5.060666e-002	6.013026e-001	-6.987993e-001	6.013382e-001	-6.984283e-001	5.466505e-002	-5.227044e-002
44534083.802	6.154917e-002	-5.059570e-002	6.007653e-001	-6.993866e-001	6.010228e-001	-6.987053e-001	5.457452e-002	-5.239066e-002
44565353.346	6.152532e-002	-5.066558e-002	6.003998e-001	-6.996881e-001	6.007075e-001	-6.990203e-001	5.450005e-002	-5.230500e-002
44596622.889	6.147244e-002	-5.077270e-002	6.000513e-001	-6.999148e-001	6.002836e-001	-6.993378e-001	5.450208e-002	-5.244879e-002
44627892.433	6.152450e-002	-5.084629e-002	5.996028e-001	-7.002132e-001	5.998196e-001	-6.996880e-001	5.437705e-002	-5.258822e-002
44659161.976	6.146585e-002	-5.087848e-002	5.990156e-001	-7.005703e-001	5.994470e-001	-6.999459e-001	5.439840e-002	-5.258153e-002
44690431.520	6.146375e-002	-5.106687e-002	5.987905e-001	-7.009030e-001	5.989594e-001	-7.002720e-001	5.435956e-002	-5.265665e-002
44721701.063	6.143025e-002	-5.106377e-002	5.985045e-001	-7.012181e-001	5.985497e-001	-7.007931e-001	5.434763e-002	-5.267256e-002
44752970.607	6.132447e-002	-5.122638e-002	5.979265e-001	-7.015394e-001	5.980529e-001	-7.011340e-001	5.434080e-002	-5.284378e-002
