!Agilent Technologies,E5061B,MY49102235,A.02.00
!Date: Mon Jul 03 10:34:00 2023
!Data & Calibration Information:
!Freq	S11:SOLT2(ON)	S21:SOLT2(ON)	S12:SOLT2(ON)	S22:SOLT2(ON)
# Hz S RI R 50
40000000.000	6.393530e-002	-4.036147e-002	6.605388e-001	-6.496219e-001	6.606064e-001	-6.487463e-001	5.861393e-002	-4.256440e-002
40031269.543	6.391279e-002	-4.054999e-002	6.603425e-001	-6.500059e-001	6.603072e-001	-6.490287e-001	5.865228e-002	-4.264370e-002
40062539.087	6.387375e-002	-4.056801e-002	6.595997e-001	-6.500879e-001	6.598805e-001	-6.493883e-001	5.863730e-002	-4.275803e-002
40093808.630	6.382590e-002	-4.062943e-002	6.592773e-001	-6.506496e-001	6.595399e-001	-6.498481e-001	5.857822e-002	-4.283379e-002
40125078.174	6.381367e-002	-4.065971e-002	6.589712e-001	-6.508421e-001	6.590785e-001	-6.501474e-001	5.866506e-002	-4.278472e-002
40156347.717	6.390425e-002	-4.076188e-002	6.587311e-001	-6.514942e-001	6.587258e-001	-6.505948e-001	5.854049e-002	-4.292949e-002
40187617.261	6.378921e-002	-4.087933e-002	6.583313e-001	-6.517054e-001	6.583730e-001	-6.511063e-001	5.852048e-002	-4.312320e-002
40218886.804	6.378276e-002	-4.087953e-002	6.578294e-001	-6.521629e-001	6.578616e-001	-6.512804e-001	5.857265e-002	-4.309916e-002
40250156.348	6.379777e-002	-4.095300e-002	6.575254e-001	-6.523290e-001	6.574579e-001	-6.516839e-001	5.845664e-002	-4.321258e-002
40281425.891	6.378004e-002	-4.110093e-002	6.570098e-001	-6.526365e-001	6.572349e-001	-6.519963e-001	5.847520e-002	-4.322081e-002
40312695.435	6.374944e-002	-4.113507e-002	6.565884e-001	-6.532465e-001	6.568293e-001	-6.522815e-001	5.845143e-002	-4.335940e-002
40343964.978	6.375863e-002	-4.111596e-002	6.560521e-001	-6.532746e-001	6.563163e-001	-6.527856e-001	5.834915e-002	-4.331827e-002
40375234.522	6.378837e-002	-4.121195e-002	6.557090e-001	-6.537969e-001	6.559420e-001	-6.529353e-001	5.836684e-002	-4.342720e-002
40406504.065	6.374385e-002	-4.130204e-002	6.552452e-001	-6.539917e-001	6.555016e-001	-6.535260e-001	5.842876e-002	-4.359570e-002
40437773.609	6.362897e-002	-4.144316e-002	6.551494e-001	-6.544214e-001	6.553112e-001	-6.537648e-001	5.834633e-002	-4.366296e-002
40469043.152	6.371586e-002	-4.152488e-002	6.546192e-001	-6.548044e-001	6.549785e-001	-6.540444e-001	5.828163e-002	-4.368575e-002
40500312.695	6.363965e-002	-4.161682e-002	6.539333e-001	-6.551323e-001	6.544730e-001	-6.544292e-001	5.824410e-002	-4.373248e-002
40531582.239	6.363440e-002	-4.161079e-002	6.537135e-001	-6.553010e-001	6.539239e-001	-6.549632e-001	5.822229e-002	-4.372536e-002
40562851.782	6.365864e-002	-4.167887e-002	6.531991e-001	-6.556785e-001	6.533758e-001	-6.551579e-001	5.827622e-002	-4.399818e-002
40594121.326	6.367948e-002	-4.181973e-002	6.530735e-001	-6.563668e-001	6.532372e-001	-6.554628e-001	5.824622e-002	-4.389761e-002
40625390.869	6.366839e-002	-4.183291e-002	6.525206e-001	-6.566316e-001	6.527865e-001	-6.560017e-001	5.814570e-002	-4.410466e-002
40656660.413	6.361477e-002	-4.191949e-002	6.523618e-001	-6.568354e-001	6.526097e-001	-6.562220e-001	5.817531e-002	-4.412037e-002
40687929.956	6.367384e-002	-4.199763e-002	6.521596e-001	-6.574518e-001	6.522009e-001	-6.563909e-001	5.809786e-002	-4.424550e-002
40719199.500	6.364661e-002	-4.201926e-002	6.513579e-001	-6.575772e-001	6.515939e-001	-6.570472e-001	5.816863e-002	-4.435838e-002
40750469.043	6.358848e-002	-4.209671e-002	6.509691e-001	-6.577681e-001	6.511744e-001	-6.573469e-001	5.794502e-002	-4.433824e-002
40781738.587	6.355987e-002	-4.227877e-002	6.506384e-001	-6.584630e-001	6.507516e-001	-6.576734e-001	5.794124e-002	-4.443253e-002
40813008.130	6.353236e-002	-4.231005e-002	6.504073e-001	-6.585670e-001	6.502815e-001	-6.580225e-001	5.798695e-002	-4.447943e-002
40844277.674	6.357010e-002	-4.228370e-002	6.498481e-001	-6.589902e-001	6.498812e-001	-6.582653e-001	5.787665e-002	-4.459103e-002
40875547.217	6.354357e-002	-4.248532e-002	6.492738e-001	-6.594330e-001	6.498509e-001	-6.585546e-001	5.796440e-002	-4.468558e-002
40906816.760	6.351597e-002	-4.247347e-002	6.490407e-001	-6.598272e-001	6.493153e-001	-6.589882e-001	5.799638e-002	-4.475020e-002
40938086.304	6.344953e-002	-4.262414e-002	6.486104e-001	-6.600441e-001	6.489462e-001	-6.593268e-001	5.780516e-002	-4.479292e-002
40969355.847	6.342948e-002	-4.262698e-002	6.481197e-001	-6.605423e-001	6.484211e-001	-6.597001e-001	5.786973e-002	-4.483848e-002
41000625.391	6.346554e-002	-4.264050e-002	6.476746e-001	-6.606612e-001	6.478385e-001	-6.599551e-001	5.780547e-002	-4.494628e-002
41031894.934	6.361253e-002	-4.270894e-002	6.476823e-001	-6.609255e-001	6.475418e-001	-6.604824e-001	5.772217e-002	-4.501129e-002
41063164.478	6.345221e-002	-4.276633e-002	6.471156e-001	-6.613102e-001	6.472606e-001	-6.608619e-001	5.777564e-002	-4.509869e-002
41094434.021	6.338353e-002	-4.292310e-002	6.465936e-001	-6.616583e-001	6.467924e-001	-6.610086e-001	5.777407e-002	-4.515162e-002
41125703.565	6.341012e-002	-4.293982e-002	6.464771e-001	-6.621280e-001	6.466453e-001	-6.613530e-001	5.768642e-002	-4.518225e-002
41156973.108	6.346203e-002	-4.308823e-002	6.459044e-001	-6.623028e-001	6.459723e-001	-6.619373e-001	5.764078e-002	-4.528818e-002
41188242.652	6.337954e-002	-4.306648e-002	6.454452e-001	-6.630418e-001	6.457425e-001	-6.620621e-001	5.775448e-002	-4.539208e-002
41219512.195	6.339145e-002	-4.333715e-002	6.449605e-001	-6.631415e-001	6.452826e-001	-6.623864e-001	5.764506e-002	-4.548557e-002
41250781.739	6.327233e-002	-4.333162e-002	6.444529e-001	-6.635289e-001	6.448449e-001	-6.628628e-001	5.763695e-002	-4.549870e-002
41282051.282	6.337406e-002	-4.340456e-002	6.443239e-001	-6.637670e-001	6.443243e-001	-6.632980e-001	5.754591e-002	-4.567975e-002
41313320.826	6.328734e-002	-4.339189e-002	6.437619e-001	-6.641401e-001	6.439694e-001	-6.636107e-001	5.751855e-002	-4.571472e-002
41344590.369	6.323182e-002	-4.356041e-002	6.433365e-001	-6.641417e-001	6.437434e-001	-6.639440e-001	5.753999e-002	-4.571424e-002
41375859.912	6.317007e-002	-4.355026e-002	6.430540e-001	-6.648304e-001	6.428091e-001	-6.640531e-001	5.752931e-002	-4.582747e-002
41407129.456	6.321277e-002	-4.367971e-002	6.427296e-001	-6.650183e-001	6.427362e-001	-6.643532e-001	5.741594e-002	-4.581641e-002
41438398.999	6.325479e-002	-4.379835e-002	6.423578e-001	-6.657573e-001	6.423681e-001	-6.648451e-001	5.738569e-002	-4.593213e-002
41469668.543	6.315515e-002	-4.368742e-002	6.417994e-001	-6.660297e-001	6.419213e-001	-6.653761e-001	5.741714e-002	-4.605168e-002
41500938.086	6.314483e-002	-4.392386e-002	6.413491e-001	-6.661682e-001	6.415856e-001	-6.655834e-001	5.736819e-002	-4.617281e-002
41532207.630	6.317611e-002	-4.393195e-002	6.410923e-001	-6.664874e-001	6.413261e-001	-6.658476e-001	5.732164e-002	-4.623359e-002
41563477.173	6.317617e-002	-4.410872e-002	6.405542e-001	-6.670344e-001	6.407871e-001	-6.661463e-001	5.734361e-002	-4.629404e-002
41594746.717	6.318211e-002	-4.415910e-002	6.401023e-001	-6.673145e-001	6.403440e-001	-6.664876e-001	5.730468e-002	-4.629839e-002
41626016.260	6.301542e-002	-4.425019e-002	6.397484e-001	-6.675591e-001	6.399684e-001	-6.669174e-001	5.721406e-002	-4.642161e-002
41657285.804	6.313773e-002	-4.429155e-002	6.395358e-001	-6.679915e-001	6.395993e-001	-6.673062e-001	5.722721e-002	-4.649288e-002
41688555.347	6.314229e-002	-4.437717e-002	6.390958e-001	-6.681776e-001	6.391839e-001	-6.675185e-001	5.719156e-002	-4.656227e-002
41719824.891	6.310737e-002	-4.431427e-002	6.386034e-001	-6.687295e-001	6.388016e-001	-6.678553e-001	5.720978e-002	-4.661086e-002
41751094.434	6.307608e-002	-4.437381e-002	6.382218e-001	-6.689504e-001	6.382656e-001	-6.685606e-001	5.717744e-002	-4.678582e-002
41782363.977	6.312290e-002	-4.457045e-002	6.379090e-001	-6.695111e-001	6.380724e-001	-6.686344e-001	5.697299e-002	-4.676815e-002
41813633.521	6.302069e-002	-4.461132e-002	6.374389e-001	-6.694951e-001	6.375777e-001	-6.689301e-001	5.707479e-002	-4.682563e-002
41844903.064	6.297385e-002	-4.469984e-002	6.372283e-001	-6.698412e-001	6.371210e-001	-6.694935e-001	5.700481e-002	-4.690434e-002
41876172.608	6.299467e-002	-4.476245e-002	6.364354e-001	-6.703348e-001	6.368971e-001	-6.698053e-001	5.692812e-002	-4.693130e-002
41907442.151	6.292383e-002	-4.474331e-002	6.362770e-001	-6.705640e-001	6.365115e-001	-6.699691e-001	5.689390e-002	-4.704030e-002
41938711.695	6.309087e-002	-4.486481e-002	6.358019e-001	-6.709872e-001	6.360902e-001	-6.703349e-001	5.701926e-002	-4.717059e-002
41969981.238	6.296506e-002	-4.503835e-002	6.354379e-001	-6.712089e-001	6.356626e-001	-6.708012e-001	5.698974e-002	-4.720343e-002
42001250.782	6.300847e-002	-4.499878e-002	6.350533e-001	-6.717155e-001	6.351448e-001	-6.710371e-001	5.696375e-002	-4.724137e-002
42032520.325	6.295080e-002	-4.505290e-002	6.346185e-001	-6.718899e-001	6.349673e-001	-6.713846e-001	5.685746e-002	-4.730048e-002
42063789.869	6.277359e-002	-4.518728e-002	6.341501e-001	-6.722428e-001	6.343605e-001	-6.717612e-001	5.678771e-002	-4.741552e-002
42095059.412	6.288232e-002	-4.524172e-002	6.338107e-001	-6.727502e-001	6.340351e-001	-6.721097e-001	5.676479e-002	-4.745362e-002
42126328.956	6.283578e-002	-4.527763e-002	6.333764e-001	-6.728938e-001	6.335109e-001	-6.724267e-001	5.669545e-002	-4.757434e-002
42157598.499	6.283327e-002	-4.545048e-002	6.328913e-001	-6.733773e-001	6.330450e-001	-6.728350e-001	5.673871e-002	-4.759773e-002
42188868.043	6.283816e-002	-4.545952e-002	6.326400e-001	-6.736593e-001	6.327977e-001	-6.730890e-001	5.666874e-002	-4.762551e-002
42220137.586	6.286768e-002	-4.553591e-002	6.320912e-001	-6.741401e-001	6.324545e-001	-6.732339e-001	5.664056e-002	-4.776888e-002
42251407.129	6.279845e-002	-4.568487e-002	6.317920e-001	-6.744796e-001	6.320114e-001	-6.737684e-001	5.657062e-002	-4.774503e-002
42282676.673	6.280761e-002	-4.572485e-002	6.312436e-001	-6.747111e-001	6.314732e-001	-6.741021e-001	5.661226e-002	-4.787109e-002
42313946.216	6.274066e-002	-4.569681e-002	6.310451e-001	-6.751194e-001	6.311931e-001	-6.744736e-001	5.654849e-002	-4.795008e-002
42345215.760	6.258702e-002	-4.588213e-002	6.304781e-001	-6.754489e-001	6.306773e-001	-6.749263e-001	5.645793e-002	-4.793893e-002
42376485.303	6.268709e-002	-4.598692e-002	6.299631e-001	-6.758105e-001	6.302441e-001	-6.749887e-001	5.646945e-002	-4.802948e-002
42407754.847	6.272019e-002	-4.595131e-002	6.296417e-001	-6.761513e-001	6.298376e-001	-6.755020e-001	5.649741e-002	-4.811801e-002
42439024.390	6.262320e-002	-4.615117e-002	6.293391e-001	-6.765234e-001	6.295128e-001	-6.755191e-001	5.641240e-002	-4.827662e-002
42470293.934	6.268060e-002	-4.620039e-002	6.288448e-001	-6.767343e-001	6.292184e-001	-6.760699e-001	5.639204e-002	-4.830983e-002
42501563.477	6.256928e-002	-4.617200e-002	6.285166e-001	-6.769787e-001	6.286814e-001	-6.766867e-001	5.638257e-002	-4.839002e-002
42532833.021	6.269251e-002	-4.629945e-002	6.281317e-001	-6.773319e-001	6.283743e-001	-6.769970e-001	5.627845e-002	-4.848857e-002
42564102.564	6.259669e-002	-4.639231e-002	6.276066e-001	-6.778666e-001	6.280194e-001	-6.771894e-001	5.626296e-002	-4.855524e-002
42595372.108	6.263657e-002	-4.647331e-002	6.272193e-001	-6.782417e-001	6.275153e-001	-6.776353e-001	5.615366e-002	-4.863213e-002
42626641.651	6.255528e-002	-4.661119e-002	6.268198e-001	-6.784630e-001	6.272663e-001	-6.777586e-001	5.614409e-002	-4.866005e-002
42657911.194	6.249254e-002	-4.655458e-002	6.263680e-001	-6.787217e-001	6.268235e-001	-6.782260e-001	5.619752e-002	-4.874982e-002
42689180.738	6.247880e-002	-4.665408e-002	6.259815e-001	-6.791267e-001	6.262472e-001	-6.785942e-001	5.603086e-002	-4.886765e-002
42720450.281	6.244567e-002	-4.679301e-002	6.255005e-001	-6.792919e-001	6.256541e-001	-6.787353e-001	5.609119e-002	-4.889279e-002
42751719.825	6.248718e-002	-4.691079e-002	6.252016e-001	-6.797807e-001	6.256835e-001	-6.790713e-001	5.610664e-002	-4.898715e-002
42782989.368	6.231768e-002	-4.690691e-002	6.247403e-001	-6.802644e-001	6.250016e-001	-6.794951e-001	5.600308e-002	-4.898466e-002
42814258.912	6.246446e-002	-4.695453e-002	6.245607e-001	-6.804375e-001	6.246454e-001	-6.797985e-001	5.600386e-002	-4.923238e-002
42845528.455	6.234549e-002	-4.701658e-002	6.238147e-001	-6.809482e-001	6.243767e-001	-6.799591e-001	5.602781e-002	-4.915069e-002
42876797.999	6.242086e-002	-4.712018e-002	6.235664e-001	-6.811432e-001	6.236785e-001	-6.805902e-001	5.589097e-002	-4.931397e-002
42908067.542	6.234014e-002	-4.719347e-002	6.232320e-001	-6.813409e-001	6.235420e-001	-6.806897e-001	5.587278e-002	-4.946697e-002
42939337.086	6.239931e-002	-4.725558e-002	6.227417e-001	-6.817681e-001	6.228738e-001	-6.812691e-001	5.591223e-002	-4.945831e-002
42970606.629	6.228423e-002	-4.741120e-002	6.222720e-001	-6.820701e-001	6.224523e-001	-6.814446e-001	5.581945e-002	-4.963571e-002
43001876.173	6.227279e-002	-4.746522e-002	6.218336e-001	-6.825456e-001	6.221262e-001	-6.820706e-001	5.574831e-002	-4.952902e-002
43033145.716	6.232845e-002	-4.744762e-002	6.214771e-001	-6.828113e-001	6.217222e-001	-6.821994e-001	5.570232e-002	-4.961677e-002
43064415.260	6.231235e-002	-4.759488e-002	6.210853e-001	-6.829240e-001	6.213114e-001	-6.826237e-001	5.566543e-002	-4.975684e-002
43095684.803	6.220395e-002	-4.765375e-002	6.205595e-001	-6.834252e-001	6.208698e-001	-6.828481e-001	5.563354e-002	-4.981114e-002
43126954.346	6.223772e-002	-4.771686e-002	6.202217e-001	-6.837964e-001	6.204905e-001	-6.831025e-001	5.558958e-002	-4.979393e-002
43158223.890	6.218292e-002	-4.779499e-002	6.198072e-001	-6.838319e-001	6.201009e-001	-6.834350e-001	5.558829e-002	-4.989152e-002
43189493.433	6.222561e-002	-4.789646e-002	6.196967e-001	-6.843283e-001	6.194594e-001	-6.839071e-001	5.551754e-002	-4.991176e-002
43220762.977	6.216228e-002	-4.793034e-002	6.192714e-001	-6.847747e-001	6.193085e-001	-6.840826e-001	5.553756e-002	-5.009519e-002
43252032.520	6.209733e-002	-4.807586e-002	6.185926e-001	-6.850710e-001	6.187010e-001	-6.845613e-001	5.551201e-002	-5.021013e-002
43283302.064	6.209133e-002	-4.804365e-002	6.182342e-001	-6.854185e-001	6.183725e-001	-6.847660e-001	5.551165e-002	-5.018297e-002
43314571.607	6.198268e-002	-4.824323e-002	6.177915e-001	-6.858300e-001	6.182474e-001	-6.851137e-001	5.540314e-002	-5.016885e-002
43345841.151	6.204719e-002	-4.824523e-002	6.175259e-001	-6.861561e-001	6.177296e-001	-6.855395e-001	5.537747e-002	-5.027440e-002
43377110.694	6.197193e-002	-4.836354e-002	6.170181e-001	-6.864402e-001	6.171883e-001	-6.858864e-001	5.529260e-002	-5.038496e-002
43408380.238	6.206551e-002	-4.849514e-002	6.167222e-001	-6.869869e-001	6.168541e-001	-6.860894e-001	5.539459e-002	-5.045951e-002
43439649.781	6.204497e-002	-4.854946e-002	6.160249e-001	-6.870379e-001	6.161939e-001	-6.865763e-001	5.528736e-002	-5.060534e-002
43470919.325	6.191060e-002	-4.858982e-002	6.155376e-001	-6.876952e-001	6.160561e-001	-6.870284e-001	5.526227e-002	-5.052096e-002
43502188.868	6.190001e-002	-4.872385e-002	6.153238e-001	-6.877940e-001	6.154315e-001	-6.872821e-001	5.524431e-002	-5.068216e-002
43533458.412	6.197695e-002	-4.870770e-002	6.148742e-001	-6.879585e-001	6.150698e-001	-6.874787e-001	5.523754e-002	-5.081132e-002
43564727.955	6.184811e-002	-4.877912e-002	6.146846e-001	-6.885252e-001	6.147869e-001	-6.879500e-001	5.511306e-002	-5.088737e-002
43595997.498	6.183941e-002	-4.891199e-002	6.141509e-001	-6.886334e-001	6.142449e-001	-6.880964e-001	5.512035e-002	-5.089397e-002
43627267.042	6.182374e-002	-4.897594e-002	6.138083e-001	-6.890228e-001	6.138853e-001	-6.884552e-001	5.501903e-002	-5.092717e-002
43658536.585	6.188862e-002	-4.908849e-002	6.131988e-001	-6.892737e-001	6.135038e-001	-6.888311e-001	5.502164e-002	-5.106953e-002
43689806.129	6.186054e-002	-4.918405e-002	6.127002e-001	-6.897458e-001	6.131818e-001	-6.891723e-001	5.501233e-002	-5.116304e-002
43721075.672	6.170368e-002	-4.913506e-002	6.123224e-001	-6.900106e-001	6.126539e-001	-6.894566e-001	5.493198e-002	-5.121718e-002
43752345.216	6.181354e-002	-4.928941e-002	6.122888e-001	-6.902812e-001	6.122030e-001	-6.898669e-001	5.496451e-002	-5.125029e-002
43783614.759	6.174532e-002	-4.940972e-002	6.115469e-001	-6.906626e-001	6.118718e-001	-6.901001e-001	5.487596e-002	-5.138062e-002
43814884.303	6.161437e-002	-4.936766e-002	6.111558e-001	-6.909525e-001	6.114344e-001	-6.903652e-001	5.486895e-002	-5.132523e-002
43846153.846	6.165895e-002	-4.955206e-002	6.109097e-001	-6.911290e-001	6.110481e-001	-6.906307e-001	5.481015e-002	-5.147108e-002
43877423.390	6.170902e-002	-4.958570e-002	6.103318e-001	-6.917168e-001	6.106371e-001	-6.911978e-001	5.482159e-002	-5.159530e-002
43908692.933	6.161790e-002	-4.956942e-002	6.098463e-001	-6.920595e-001	6.103090e-001	-6.912393e-001	5.466943e-002	-5.151672e-002
43939962.477	6.156718e-002	-4.963865e-002	6.094923e-001	-6.924105e-001	6.098376e-001	-6.918929e-001	5.476015e-002	-5.169945e-002
43971232.020	6.159313e-002	-4.982406e-002	6.091702e-001	-6.926630e-001	6.093520e-001	-6.921533e-001	5.465642e-002	-5.174322e-002
44002501.563	6.154982e-002	-4.987726e-002	6.088045e-001	-6.929018e-001	6.090151e-001	-6.922506e-001	5.463293e-002	-5.174103e-002
44033771.107	6.157168e-002	-5.000318e-002	6.082291e-001	-6.934160e-001	6.086454e-001	-6.925520e-001	5.461905e-002	-5.188845e-002
44065040.650	6.158345e-002	-4.999810e-002	6.078588e-001	-6.936439e-001	6.080634e-001	-6.930900e-001	5.465239e-002	-5.192671e-002
44096310.194	6.145563e-002	-5.005171e-002	6.075858e-001	-6.940018e-001	6.076383e-001	-6.934312e-001	5.454051e-002	-5.202804e-002
44127579.737	6.144237e-002	-5.014119e-002	6.070695e-001	-6.943581e-001	6.073700e-001	-6.934898e-001	5.449793e-002	-5.212420e-002
44158849.281	6.142067e-002	-5.027703e-002	6.066971e-001	-6.946206e-001	6.069953e-001	-6.939903e-001	5.444447e-002	-5.219915e-002
44190118.824	6.137684e-002	-5.032261e-002	6.062251e-001	-6.949217e-001	6.065944e-001	-6.942912e-001	5.438589e-002	-5.221654e-002
44221388.368	6.127881e-002	-5.039545e-002	6.058934e-001	-6.954114e-001	6.059692e-001	-6.945143e-001	5.429973e-002	-5.227915e-002
44252657.911	6.133605e-002	-5.042754e-002	6.054278e-001	-6.955743e-001	6.057004e-001	-6.949248e-001	5.439697e-002	-5.238049e-002
44283927.455	6.129910e-002	-5.056956e-002	6.049459e-001	-6.957332e-001	6.052769e-001	-6.953962e-001	5.422645e-002	-5.247940e-002
44315196.998	6.126431e-002	-5.059949e-002	6.047800e-001	-6.961867e-001	6.048740e-001	-6.956360e-001	5.423547e-002	-5.258888e-002
44346466.542	6.122954e-002	-5.066590e-002	6.042173e-001	-6.965059e-001	6.043444e-001	-6.959764e-001	5.415543e-002	-5.258699e-002
44377736.085	6.121233e-002	-5.069722e-002	6.037948e-001	-6.967420e-001	6.038073e-001	-6.961556e-001	5.403959e-002	-5.257373e-002
44409005.629	6.126012e-002	-5.072564e-002	6.033455e-001	-6.972326e-001	6.034876e-001	-6.965547e-001	5.412147e-002	-5.274040e-002
44440275.172	6.122475e-002	-5.095349e-002	6.029242e-001	-6.973867e-001	6.031561e-001	-6.968919e-001	5.407792e-002	-5.277822e-002
44471544.715	6.118139e-002	-5.101545e-002	6.024479e-001	-6.978304e-001	6.027716e-001	-6.972434e-001	5.407775e-002	-5.283302e-002
44502814.259	6.120112e-002	-5.115424e-002	6.021478e-001	-6.978044e-001	6.021395e-001	-6.974139e-001	5.405578e-002	-5.294823e-002
44534083.802	6.112326e-002	-5.114124e-002	6.014730e-001	-6.985106e-001	6.018843e-001	-6.978025e-001	5.401396e-002	-5.305438e-002
44565353.346	6.104742e-002	-5.120446e-002	6.011756e-001	-6.988462e-001	6.015015e-001	-6.981569e-001	5.392670e-002	-5.293556e-002
44596622.889	6.103741e-002	-5.129756e-002	6.009179e-001	-6.988960e-001	6.010402e-001	-6.983775e-001	5.389558e-002	-5.313630e-002
44627892.433	6.104127e-002	-5.137279e-002	6.005528e-001	-6.994002e-001	6.005039e-001	-6.987948e-001	5.380223e-002	-5.322666e-002
44659161.976	6.100652e-002	-5.145199e-002	5.998704e-001	-6.996994e-001	6.002688e-001	-6.989808e-001	5.378632e-002	-5.326878e-002
44690431.520	6.098053e-002	-5.159139e-002	5.995464e-001	-7.000671e-001	5.998265e-001	-6.994152e-001	5.376082e-002	-5.330962e-002
44721701.063	6.098161e-002	-5.162412e-002	5.992723e-001	-7.003440e-001	5.993140e-001	-6.999102e-001	5.379156e-002	-5.337307e-002
44752970.607	6.083898e-002	-5.176809e-002	5.986172e-001	-7.005891e-001	5.989871e-001	-7.000686e-001	5.376432e-002	-5.354076e-002
