!Agilent Technologies,E5061B,MY49102235,A.02.00
!Date: Mon Jul 03 10:59:15 2023
!Data & Calibration Information:
!Freq	S11:SOLT2(ON)	S21:SOLT2(ON)	S12:SOLT2(ON)	S22:SOLT2(ON)
# Hz S RI R 50
40000000.000	-2.435471e-002	-2.883942e-002	7.485053e-001	-6.623596e-001	7.486110e-001	-6.614292e-001	-2.844042e-002	-2.371688e-002
40031269.543	-2.439110e-002	-2.891314e-002	7.482223e-001	-6.627699e-001	7.482515e-001	-6.617214e-001	-2.845725e-002	-2.370192e-002
40062539.087	-2.444759e-002	-2.890702e-002	7.475386e-001	-6.629473e-001	7.478221e-001	-6.621596e-001	-2.845076e-002	-2.372956e-002
40093808.630	-2.447957e-002	-2.888973e-002	7.472638e-001	-6.635266e-001	7.474672e-001	-6.627687e-001	-2.852168e-002	-2.368504e-002
40125078.174	-2.455515e-002	-2.887995e-002	7.469087e-001	-6.638693e-001	7.469795e-001	-6.631114e-001	-2.850263e-002	-2.361478e-002
40156347.717	-2.451581e-002	-2.890786e-002	7.466690e-001	-6.644584e-001	7.466425e-001	-6.636791e-001	-2.861724e-002	-2.368484e-002
40187617.261	-2.457912e-002	-2.897746e-002	7.462658e-001	-6.647003e-001	7.464151e-001	-6.640944e-001	-2.862956e-002	-2.380406e-002
40218886.804	-2.457697e-002	-2.891712e-002	7.458500e-001	-6.652990e-001	7.458881e-001	-6.643594e-001	-2.861939e-002	-2.374729e-002
40250156.348	-2.463181e-002	-2.891964e-002	7.455261e-001	-6.655914e-001	7.456006e-001	-6.648696e-001	-2.874006e-002	-2.377377e-002
40281425.891	-2.469198e-002	-2.895152e-002	7.451192e-001	-6.660732e-001	7.451831e-001	-6.652569e-001	-2.874665e-002	-2.372065e-002
40312695.435	-2.469003e-002	-2.894606e-002	7.446913e-001	-6.666693e-001	7.448324e-001	-6.656366e-001	-2.873398e-002	-2.372795e-002
40343964.978	-2.470676e-002	-2.889424e-002	7.443469e-001	-6.668026e-001	7.444470e-001	-6.660795e-001	-2.881880e-002	-2.367826e-002
40375234.522	-2.472017e-002	-2.889467e-002	7.438483e-001	-6.673526e-001	7.441000e-001	-6.664174e-001	-2.887952e-002	-2.370049e-002
40406504.065	-2.482585e-002	-2.886732e-002	7.434098e-001	-6.675926e-001	7.436409e-001	-6.670146e-001	-2.884657e-002	-2.378098e-002
40437773.609	-2.491382e-002	-2.898984e-002	7.433526e-001	-6.680616e-001	7.434127e-001	-6.672945e-001	-2.888310e-002	-2.378979e-002
40469043.152	-2.483195e-002	-2.898459e-002	7.428507e-001	-6.685361e-001	7.430275e-001	-6.677037e-001	-2.896855e-002	-2.370071e-002
40500312.695	-2.492697e-002	-2.905677e-002	7.422404e-001	-6.690358e-001	7.426299e-001	-6.681608e-001	-2.902211e-002	-2.368598e-002
40531582.239	-2.492999e-002	-2.896117e-002	7.419588e-001	-6.691181e-001	7.420977e-001	-6.688489e-001	-2.907880e-002	-2.366776e-002
40562851.782	-2.497971e-002	-2.893244e-002	7.415371e-001	-6.697084e-001	7.416802e-001	-6.690234e-001	-2.901817e-002	-2.382175e-002
40594121.326	-2.498551e-002	-2.898512e-002	7.414218e-001	-6.702841e-001	7.414135e-001	-6.693730e-001	-2.908331e-002	-2.368009e-002
40625390.869	-2.501362e-002	-2.894032e-002	7.409804e-001	-6.706029e-001	7.412265e-001	-6.699645e-001	-2.916557e-002	-2.377204e-002
40656660.413	-2.506257e-002	-2.898137e-002	7.405445e-001	-6.710452e-001	7.408320e-001	-6.702001e-001	-2.915991e-002	-2.371594e-002
40687929.956	-2.507159e-002	-2.897313e-002	7.404278e-001	-6.716488e-001	7.404493e-001	-6.706196e-001	-2.920298e-002	-2.373278e-002
40719199.500	-2.513283e-002	-2.890508e-002	7.397016e-001	-6.718089e-001	7.398936e-001	-6.713116e-001	-2.917840e-002	-2.375205e-002
40750469.043	-2.517825e-002	-2.896107e-002	7.392641e-001	-6.721113e-001	7.395233e-001	-6.715877e-001	-2.936867e-002	-2.370904e-002
40781738.587	-2.512470e-002	-2.906644e-002	7.390468e-001	-6.727614e-001	7.391623e-001	-6.720314e-001	-2.942913e-002	-2.371021e-002
40813008.130	-2.524397e-002	-2.901722e-002	7.387988e-001	-6.730667e-001	7.386685e-001	-6.724354e-001	-2.940163e-002	-2.370747e-002
40844277.674	-2.524590e-002	-2.896631e-002	7.382344e-001	-6.735350e-001	7.383305e-001	-6.728290e-001	-2.951360e-002	-2.370254e-002
40875547.217	-2.526926e-002	-2.903170e-002	7.378021e-001	-6.740823e-001	7.381033e-001	-6.731120e-001	-2.948151e-002	-2.371449e-002
40906816.760	-2.530952e-002	-2.896301e-002	7.376341e-001	-6.744219e-001	7.376261e-001	-6.735819e-001	-2.941881e-002	-2.375155e-002
40938086.304	-2.541154e-002	-2.903862e-002	7.369656e-001	-6.748615e-001	7.373866e-001	-6.741181e-001	-2.958965e-002	-2.372356e-002
40969355.847	-2.545229e-002	-2.899269e-002	7.365487e-001	-6.751538e-001	7.368708e-001	-6.744836e-001	-2.962712e-002	-2.368597e-002
41000625.391	-2.546186e-002	-2.896693e-002	7.361123e-001	-6.755364e-001	7.363541e-001	-6.748285e-001	-2.960788e-002	-2.368191e-002
41031894.934	-2.532725e-002	-2.892658e-002	7.360751e-001	-6.759594e-001	7.361030e-001	-6.754350e-001	-2.969601e-002	-2.368859e-002
41063164.478	-2.549751e-002	-2.897987e-002	7.356504e-001	-6.764330e-001	7.358006e-001	-6.758057e-001	-2.968662e-002	-2.372875e-002
41094434.021	-2.555120e-002	-2.904022e-002	7.351982e-001	-6.767958e-001	7.353382e-001	-6.760712e-001	-2.976412e-002	-2.370330e-002
41125703.565	-2.553696e-002	-2.902665e-002	7.348859e-001	-6.772889e-001	7.350594e-001	-6.764301e-001	-2.981795e-002	-2.367730e-002
41156973.108	-2.553848e-002	-2.906509e-002	7.345116e-001	-6.775108e-001	7.344456e-001	-6.770102e-001	-2.984383e-002	-2.369435e-002
41188242.652	-2.561058e-002	-2.895624e-002	7.340772e-001	-6.782895e-001	7.341986e-001	-6.773880e-001	-2.979488e-002	-2.374202e-002
41219512.195	-2.560396e-002	-2.907985e-002	7.336343e-001	-6.786050e-001	7.337356e-001	-6.777674e-001	-2.990324e-002	-2.376573e-002
41250781.739	-2.570384e-002	-2.905766e-002	7.330750e-001	-6.791759e-001	7.333497e-001	-6.782374e-001	-2.991262e-002	-2.369086e-002
41282051.282	-2.569100e-002	-2.910788e-002	7.328702e-001	-6.794180e-001	7.329945e-001	-6.786506e-001	-3.002850e-002	-2.374901e-002
41313320.826	-2.577660e-002	-2.899897e-002	7.323862e-001	-6.797197e-001	7.326227e-001	-6.790094e-001	-3.002946e-002	-2.373676e-002
41344590.369	-2.583533e-002	-2.910135e-002	7.319406e-001	-6.799872e-001	7.323017e-001	-6.795531e-001	-3.000737e-002	-2.365127e-002
41375859.912	-2.593459e-002	-2.903061e-002	7.317129e-001	-6.805967e-001	7.316158e-001	-6.798528e-001	-3.005150e-002	-2.370982e-002
41407129.456	-2.587513e-002	-2.906163e-002	7.314271e-001	-6.808463e-001	7.314043e-001	-6.801040e-001	-3.018922e-002	-2.363877e-002
41438398.999	-2.589884e-002	-2.914370e-002	7.310883e-001	-6.815411e-001	7.311610e-001	-6.806827e-001	-3.022394e-002	-2.365616e-002
41469668.543	-2.598360e-002	-2.895845e-002	7.305151e-001	-6.819054e-001	7.306460e-001	-6.812243e-001	-3.020458e-002	-2.368560e-002
41500938.086	-2.599333e-002	-2.908148e-002	7.301882e-001	-6.821995e-001	7.303775e-001	-6.814946e-001	-3.024658e-002	-2.375861e-002
41532207.630	-2.599180e-002	-2.909305e-002	7.297781e-001	-6.826715e-001	7.299563e-001	-6.819279e-001	-3.027821e-002	-2.370019e-002
41563477.173	-2.599944e-002	-2.913150e-002	7.293439e-001	-6.831421e-001	7.295326e-001	-6.822435e-001	-3.025380e-002	-2.374602e-002
41594746.717	-2.598463e-002	-2.911213e-002	7.289316e-001	-6.835040e-001	7.291327e-001	-6.827563e-001	-3.035619e-002	-2.364968e-002
41626016.260	-2.619589e-002	-2.916055e-002	7.285995e-001	-6.839222e-001	7.287457e-001	-6.831560e-001	-3.041768e-002	-2.367269e-002
41657285.804	-2.611933e-002	-2.914231e-002	7.282612e-001	-6.843794e-001	7.283792e-001	-6.835295e-001	-3.040404e-002	-2.367849e-002
41688555.347	-2.612515e-002	-2.911290e-002	7.278381e-001	-6.847152e-001	7.279870e-001	-6.840579e-001	-3.045214e-002	-2.366510e-002
41719824.891	-2.615310e-002	-2.904224e-002	7.274810e-001	-6.851976e-001	7.276013e-001	-6.843175e-001	-3.052005e-002	-2.362563e-002
41751094.434	-2.625838e-002	-2.898209e-002	7.271106e-001	-6.854655e-001	7.271078e-001	-6.850090e-001	-3.050445e-002	-2.373482e-002
41782363.977	-2.618735e-002	-2.913118e-002	7.267368e-001	-6.859872e-001	7.268765e-001	-6.851703e-001	-3.071340e-002	-2.366884e-002
41813633.521	-2.630900e-002	-2.912993e-002	7.262154e-001	-6.862774e-001	7.265434e-001	-6.855819e-001	-3.058122e-002	-2.361899e-002
41844903.064	-2.635817e-002	-2.909497e-002	7.260361e-001	-6.866337e-001	7.260082e-001	-6.861286e-001	-3.071139e-002	-2.365627e-002
41876172.608	-2.634875e-002	-2.913132e-002	7.253572e-001	-6.871974e-001	7.258280e-001	-6.865101e-001	-3.079644e-002	-2.361670e-002
41907442.151	-2.644056e-002	-2.907204e-002	7.251111e-001	-6.875216e-001	7.253770e-001	-6.869553e-001	-3.080104e-002	-2.364008e-002
41938711.695	-2.635290e-002	-2.911119e-002	7.246408e-001	-6.880076e-001	7.249750e-001	-6.872257e-001	-3.071146e-002	-2.368867e-002
41969981.238	-2.643537e-002	-2.920575e-002	7.243361e-001	-6.883650e-001	7.244234e-001	-6.878715e-001	-3.077856e-002	-2.361547e-002
42001250.782	-2.645656e-002	-2.909110e-002	7.239542e-001	-6.888672e-001	7.241358e-001	-6.879401e-001	-3.084404e-002	-2.362097e-002
42032520.325	-2.647769e-002	-2.906220e-002	7.235162e-001	-6.892455e-001	7.239226e-001	-6.883624e-001	-3.094374e-002	-2.361626e-002
42063789.869	-2.657280e-002	-2.912745e-002	7.232261e-001	-6.896182e-001	7.232730e-001	-6.890227e-001	-3.103342e-002	-2.363050e-002
42095059.412	-2.657040e-002	-2.913864e-002	7.227726e-001	-6.900517e-001	7.230654e-001	-6.894007e-001	-3.100906e-002	-2.357593e-002
42126328.956	-2.665395e-002	-2.914056e-002	7.223652e-001	-6.903139e-001	7.225107e-001	-6.896977e-001	-3.107473e-002	-2.362157e-002
42157598.499	-2.659408e-002	-2.917061e-002	7.219518e-001	-6.908331e-001	7.221131e-001	-6.902736e-001	-3.106814e-002	-2.359384e-002
42188868.043	-2.665586e-002	-2.917863e-002	7.217064e-001	-6.911259e-001	7.218122e-001	-6.906018e-001	-3.114426e-002	-2.356676e-002
42220137.586	-2.663089e-002	-2.915527e-002	7.211563e-001	-6.917420e-001	7.213967e-001	-6.908823e-001	-3.116148e-002	-2.361496e-002
42251407.129	-2.673762e-002	-2.919310e-002	7.209033e-001	-6.921791e-001	7.209311e-001	-6.914354e-001	-3.124866e-002	-2.353523e-002
42282676.673	-2.674364e-002	-2.918618e-002	7.203911e-001	-6.924710e-001	7.204949e-001	-6.917388e-001	-3.122160e-002	-2.356164e-002
42313946.216	-2.681926e-002	-2.913697e-002	7.201016e-001	-6.929723e-001	7.202504e-001	-6.922735e-001	-3.126808e-002	-2.356789e-002
42345215.760	-2.691379e-002	-2.922968e-002	7.195891e-001	-6.933291e-001	7.197700e-001	-6.926907e-001	-3.140030e-002	-2.352885e-002
42376485.303	-2.691177e-002	-2.921792e-002	7.191940e-001	-6.937593e-001	7.193431e-001	-6.929922e-001	-3.136777e-002	-2.350142e-002
42407754.847	-2.690124e-002	-2.916661e-002	7.187530e-001	-6.941196e-001	7.189737e-001	-6.934123e-001	-3.138665e-002	-2.351097e-002
42439024.390	-2.696425e-002	-2.923423e-002	7.184206e-001	-6.945374e-001	7.185760e-001	-6.937023e-001	-3.148361e-002	-2.359949e-002
42470293.934	-2.693442e-002	-2.923555e-002	7.180708e-001	-6.949594e-001	7.182888e-001	-6.942573e-001	-3.146742e-002	-2.357844e-002
42501563.477	-2.701458e-002	-2.913847e-002	7.177627e-001	-6.952114e-001	7.179055e-001	-6.947664e-001	-3.146054e-002	-2.355848e-002
42532833.021	-2.697957e-002	-2.917992e-002	7.173344e-001	-6.956920e-001	7.175804e-001	-6.952222e-001	-3.159079e-002	-2.357070e-002
42564102.564	-2.707850e-002	-2.919461e-002	7.168641e-001	-6.962595e-001	7.170568e-001	-6.955536e-001	-3.163897e-002	-2.358086e-002
42595372.108	-2.707223e-002	-2.918556e-002	7.163534e-001	-6.966713e-001	7.166773e-001	-6.960152e-001	-3.171163e-002	-2.355756e-002
42626641.651	-2.714175e-002	-2.931908e-002	7.160983e-001	-6.968696e-001	7.163019e-001	-6.962166e-001	-3.173734e-002	-2.353804e-002
42657911.194	-2.718281e-002	-2.922165e-002	7.156678e-001	-6.974247e-001	7.159012e-001	-6.967439e-001	-3.174242e-002	-2.352868e-002
42689180.738	-2.724519e-002	-2.917913e-002	7.153749e-001	-6.977551e-001	7.154721e-001	-6.971297e-001	-3.183652e-002	-2.355228e-002
42720450.281	-2.728534e-002	-2.926404e-002	7.147358e-001	-6.979726e-001	7.150085e-001	-6.974753e-001	-3.178582e-002	-2.351737e-002
42751719.825	-2.728693e-002	-2.934335e-002	7.144669e-001	-6.985548e-001	7.148849e-001	-6.977939e-001	-3.179742e-002	-2.354402e-002
42782989.368	-2.740841e-002	-2.925107e-002	7.140991e-001	-6.991606e-001	7.143107e-001	-6.983578e-001	-3.191745e-002	-2.348004e-002
42814258.912	-2.732082e-002	-2.924867e-002	7.138794e-001	-6.993902e-001	7.139411e-001	-6.987546e-001	-3.191864e-002	-2.362591e-002
42845528.455	-2.742811e-002	-2.920207e-002	7.132944e-001	-6.999212e-001	7.135592e-001	-6.991544e-001	-3.195688e-002	-2.348985e-002
42876797.999	-2.736950e-002	-2.926057e-002	7.130015e-001	-7.001326e-001	7.131077e-001	-6.996166e-001	-3.202883e-002	-2.357516e-002
42908067.542	-2.749367e-002	-2.926834e-002	7.125562e-001	-7.004112e-001	7.128300e-001	-6.998184e-001	-3.206320e-002	-2.359532e-002
42939337.086	-2.743035e-002	-2.921457e-002	7.121356e-001	-7.009243e-001	7.121573e-001	-7.003310e-001	-3.204418e-002	-2.359452e-002
42970606.629	-2.755140e-002	-2.930842e-002	7.117140e-001	-7.013797e-001	7.118310e-001	-7.007422e-001	-3.217204e-002	-2.363548e-002
43001876.173	-2.757827e-002	-2.929357e-002	7.113569e-001	-7.018708e-001	7.115609e-001	-7.012347e-001	-3.220648e-002	-2.344133e-002
43033145.716	-2.749966e-002	-2.923721e-002	7.107818e-001	-7.022591e-001	7.110485e-001	-7.016283e-001	-3.226913e-002	-2.348038e-002
43064415.260	-2.757895e-002	-2.931434e-002	7.104518e-001	-7.025374e-001	7.108201e-001	-7.019932e-001	-3.228388e-002	-2.354815e-002
43095684.803	-2.766286e-002	-2.927423e-002	7.100470e-001	-7.030719e-001	7.103056e-001	-7.023967e-001	-3.233955e-002	-2.352560e-002
43126954.346	-2.762347e-002	-2.926183e-002	7.097606e-001	-7.034276e-001	7.099099e-001	-7.028188e-001	-3.239695e-002	-2.345594e-002
43158223.890	-2.769525e-002	-2.930358e-002	7.093227e-001	-7.036512e-001	7.094301e-001	-7.031423e-001	-3.245335e-002	-2.345090e-002
43189493.433	-2.773929e-002	-2.935356e-002	7.090624e-001	-7.043328e-001	7.089409e-001	-7.036993e-001	-3.247432e-002	-2.341039e-002
43220762.977	-2.776327e-002	-2.926868e-002	7.085905e-001	-7.046917e-001	7.087482e-001	-7.038959e-001	-3.250503e-002	-2.350505e-002
43252032.520	-2.783181e-002	-2.938366e-002	7.081019e-001	-7.050311e-001	7.082298e-001	-7.044826e-001	-3.247361e-002	-2.351774e-002
43283302.064	-2.787241e-002	-2.926605e-002	7.077115e-001	-7.053884e-001	7.078066e-001	-7.046759e-001	-3.248967e-002	-2.343592e-002
43314571.607	-2.793737e-002	-2.938166e-002	7.073892e-001	-7.058417e-001	7.077141e-001	-7.051679e-001	-3.260824e-002	-2.334596e-002
43345841.151	-2.789612e-002	-2.932813e-002	7.068959e-001	-7.062119e-001	7.071621e-001	-7.056062e-001	-3.264937e-002	-2.338684e-002
43377110.694	-2.801626e-002	-2.936284e-002	7.065250e-001	-7.065465e-001	7.066509e-001	-7.060105e-001	-3.270947e-002	-2.342711e-002
43408380.238	-2.794802e-002	-2.941463e-002	7.062026e-001	-7.071813e-001	7.062598e-001	-7.063094e-001	-3.267800e-002	-2.344469e-002
43439649.781	-2.799518e-002	-2.939398e-002	7.056530e-001	-7.074336e-001	7.057247e-001	-7.068154e-001	-3.268957e-002	-2.342683e-002
43470919.325	-2.809658e-002	-2.938339e-002	7.052082e-001	-7.079394e-001	7.056102e-001	-7.073083e-001	-3.274282e-002	-2.333674e-002
43502188.868	-2.811454e-002	-2.941952e-002	7.049214e-001	-7.083239e-001	7.049623e-001	-7.076219e-001	-3.281640e-002	-2.335723e-002
43533458.412	-2.808559e-002	-2.932627e-002	7.045232e-001	-7.085382e-001	7.046159e-001	-7.079699e-001	-3.279297e-002	-2.342713e-002
43564727.955	-2.820037e-002	-2.936100e-002	7.041832e-001	-7.089200e-001	7.042621e-001	-7.085920e-001	-3.291376e-002	-2.343482e-002
43595997.498	-2.818796e-002	-2.942893e-002	7.036787e-001	-7.093122e-001	7.036956e-001	-7.087295e-001	-3.295701e-002	-2.339530e-002
43627267.042	-2.822261e-002	-2.945272e-002	7.034486e-001	-7.097468e-001	7.034463e-001	-7.092678e-001	-3.300616e-002	-2.333756e-002
43658536.585	-2.822648e-002	-2.945833e-002	7.029122e-001	-7.101359e-001	7.030180e-001	-7.096138e-001	-3.304512e-002	-2.336637e-002
43689806.129	-2.821875e-002	-2.947777e-002	7.024296e-001	-7.105715e-001	7.026639e-001	-7.099790e-001	-3.305881e-002	-2.341854e-002
43721075.672	-2.839415e-002	-2.931950e-002	7.020321e-001	-7.109142e-001	7.022437e-001	-7.104324e-001	-3.308288e-002	-2.341314e-002
43752345.216	-2.832633e-002	-2.946216e-002	7.018601e-001	-7.114300e-001	7.017568e-001	-7.109019e-001	-3.309961e-002	-2.334459e-002
43783614.759	-2.835861e-002	-2.947786e-002	7.012321e-001	-7.117353e-001	7.015106e-001	-7.112400e-001	-3.316183e-002	-2.340625e-002
43814884.303	-2.849841e-002	-2.941846e-002	7.009379e-001	-7.121344e-001	7.010536e-001	-7.115550e-001	-3.324287e-002	-2.332442e-002
43846153.846	-2.842317e-002	-2.947856e-002	7.006023e-001	-7.125207e-001	7.007793e-001	-7.120306e-001	-3.328659e-002	-2.334438e-002
43877423.390	-2.848992e-002	-2.948245e-002	7.000033e-001	-7.131200e-001	7.002339e-001	-7.124026e-001	-3.325217e-002	-2.335046e-002
43908692.933	-2.857422e-002	-2.937923e-002	6.995718e-001	-7.134841e-001	6.999640e-001	-7.127315e-001	-3.334387e-002	-2.327791e-002
43939962.477	-2.860448e-002	-2.941348e-002	6.993778e-001	-7.138914e-001	6.994901e-001	-7.132364e-001	-3.337818e-002	-2.330283e-002
43971232.020	-2.860105e-002	-2.947239e-002	6.987877e-001	-7.141888e-001	6.990294e-001	-7.136448e-001	-3.339472e-002	-2.330786e-002
44002501.563	-2.863168e-002	-2.950056e-002	6.983599e-001	-7.144767e-001	6.987020e-001	-7.138439e-001	-3.343413e-002	-2.323380e-002
44033771.107	-2.864493e-002	-2.949794e-002	6.980531e-001	-7.150520e-001	6.982747e-001	-7.142529e-001	-3.348164e-002	-2.327174e-002
44065040.650	-2.866839e-002	-2.939019e-002	6.976701e-001	-7.154044e-001	6.978795e-001	-7.147628e-001	-3.344482e-002	-2.321711e-002
44096310.194	-2.879059e-002	-2.947360e-002	6.973426e-001	-7.157015e-001	6.974080e-001	-7.151010e-001	-3.354307e-002	-2.328352e-002
44127579.737	-2.878206e-002	-2.950677e-002	6.968492e-001	-7.161706e-001	6.970726e-001	-7.154166e-001	-3.357176e-002	-2.329922e-002
44158849.281	-2.878783e-002	-2.947843e-002	6.964592e-001	-7.164560e-001	6.967145e-001	-7.159752e-001	-3.361055e-002	-2.327956e-002
44190118.824	-2.887540e-002	-2.948993e-002	6.960222e-001	-7.168849e-001	6.963181e-001	-7.163800e-001	-3.367738e-002	-2.325908e-002
44221388.368	-2.893238e-002	-2.949342e-002	6.957619e-001	-7.173784e-001	6.957259e-001	-7.167140e-001	-3.380279e-002	-2.322327e-002
44252657.911	-2.895344e-002	-2.948039e-002	6.952255e-001	-7.177169e-001	6.953746e-001	-7.171984e-001	-3.369009e-002	-2.326144e-002
44283927.455	-2.898582e-002	-2.950578e-002	6.947999e-001	-7.180326e-001	6.950295e-001	-7.174845e-001	-3.389205e-002	-2.330648e-002
44315196.998	-2.902320e-002	-2.948810e-002	6.945191e-001	-7.185622e-001	6.946286e-001	-7.178886e-001	-3.379511e-002	-2.330430e-002
44346466.542	-2.904350e-002	-2.950833e-002	6.939543e-001	-7.189451e-001	6.941730e-001	-7.183291e-001	-3.392079e-002	-2.323512e-002
44377736.085	-2.906868e-002	-2.948904e-002	6.935816e-001	-7.191128e-001	6.936465e-001	-7.186398e-001	-3.403370e-002	-2.319452e-002
44409005.629	-2.907568e-002	-2.943330e-002	6.931005e-001	-7.197364e-001	6.932626e-001	-7.189852e-001	-3.397617e-002	-2.323774e-002
44440275.172	-2.910219e-002	-2.959030e-002	6.926616e-001	-7.199931e-001	6.930012e-001	-7.194555e-001	-3.404299e-002	-2.317110e-002
44471544.715	-2.917711e-002	-2.956857e-002	6.922803e-001	-7.204327e-001	6.926122e-001	-7.198625e-001	-3.401789e-002	-2.317248e-002
44502814.259	-2.911597e-002	-2.960526e-002	6.919158e-001	-7.206250e-001	6.919734e-001	-7.202523e-001	-3.403317e-002	-2.317870e-002
44534083.802	-2.926624e-002	-2.952131e-002	6.914232e-001	-7.213069e-001	6.916613e-001	-7.205731e-001	-3.410214e-002	-2.324078e-002
44565353.346	-2.930885e-002	-2.951254e-002	6.910793e-001	-7.216710e-001	6.913891e-001	-7.209831e-001	-3.421592e-002	-2.308879e-002
44596622.889	-2.933734e-002	-2.957290e-002	6.907212e-001	-7.219426e-001	6.909354e-001	-7.213617e-001	-3.420208e-002	-2.314822e-002
44627892.433	-2.931948e-002	-2.955108e-002	6.902832e-001	-7.223430e-001	6.904693e-001	-7.217866e-001	-3.431376e-002	-2.321403e-002
44659161.976	-2.939121e-002	-2.951175e-002	6.897039e-001	-7.227880e-001	6.901443e-001	-7.221370e-001	-3.430756e-002	-2.313210e-002
44690431.520	-2.939007e-002	-2.963100e-002	6.894678e-001	-7.231759e-001	6.896171e-001	-7.225219e-001	-3.434173e-002	-2.312582e-002
