!Agilent Technologies,E5061B,MY49102235,A.02.00
!Date: Mon Jul 03 10:59:46 2023
!Data & Calibration Information:
!Freq	S11:SOLT2(ON)	S21:SOLT2(ON)	S12:SOLT2(ON)	S22:SOLT2(ON)
# Hz S RI R 50
40000000.000	-7.799097e-003	-9.854552e-003	7.317199e-001	-6.811611e-001	7.317958e-001	-6.802633e-001	-1.022691e-002	-6.297902e-003
40031269.543	-7.821057e-003	-9.916711e-003	7.313730e-001	-6.815746e-001	7.314528e-001	-6.805202e-001	-1.021540e-002	-6.260806e-003
40062539.087	-7.855794e-003	-9.905527e-003	7.307004e-001	-6.817336e-001	7.309856e-001	-6.809489e-001	-1.018372e-002	-6.310810e-003
40093808.630	-7.863582e-003	-9.884035e-003	7.304188e-001	-6.823306e-001	7.305780e-001	-6.815727e-001	-1.022452e-002	-6.261668e-003
40125078.174	-7.912891e-003	-9.855086e-003	7.299932e-001	-6.826741e-001	7.300976e-001	-6.818992e-001	-1.017753e-002	-6.178680e-003
40156347.717	-7.849165e-003	-9.893557e-003	7.297242e-001	-6.832809e-001	7.296838e-001	-6.824955e-001	-1.026523e-002	-6.251121e-003
40187617.261	-7.893998e-003	-9.955972e-003	7.293320e-001	-6.835090e-001	7.294636e-001	-6.829157e-001	-1.026133e-002	-6.373694e-003
40218886.804	-7.860541e-003	-9.888150e-003	7.288734e-001	-6.841185e-001	7.289131e-001	-6.831749e-001	-1.022153e-002	-6.310563e-003
40250156.348	-7.888255e-003	-9.886001e-003	7.285192e-001	-6.843911e-001	7.285962e-001	-6.837095e-001	-1.031926e-002	-6.342105e-003
40281425.891	-7.927133e-003	-9.910104e-003	7.280855e-001	-6.849231e-001	7.281592e-001	-6.841045e-001	-1.030442e-002	-6.277277e-003
40312695.435	-7.893241e-003	-9.908862e-003	7.276099e-001	-6.855021e-001	7.277832e-001	-6.844788e-001	-1.026466e-002	-6.292120e-003
40343964.978	-7.893117e-003	-9.846932e-003	7.272954e-001	-6.856262e-001	7.273756e-001	-6.849063e-001	-1.032062e-002	-6.225220e-003
40375234.522	-7.873617e-003	-9.838757e-003	7.267561e-001	-6.862070e-001	7.269986e-001	-6.852750e-001	-1.034481e-002	-6.253281e-003
40406504.065	-7.957481e-003	-9.811181e-003	7.262945e-001	-6.864596e-001	7.265246e-001	-6.858649e-001	-1.030061e-002	-6.337947e-003
40437773.609	-8.028220e-003	-9.921353e-003	7.262167e-001	-6.869336e-001	7.262391e-001	-6.861565e-001	-1.031503e-002	-6.342745e-003
40469043.152	-7.922762e-003	-9.912085e-003	7.256805e-001	-6.873791e-001	7.258570e-001	-6.865920e-001	-1.037491e-002	-6.243378e-003
40500312.695	-7.990230e-003	-9.987272e-003	7.250515e-001	-6.878846e-001	7.254259e-001	-6.870427e-001	-1.040360e-002	-6.231342e-003
40531582.239	-7.962958e-003	-9.882337e-003	7.247353e-001	-6.880065e-001	7.248734e-001	-6.877325e-001	-1.042951e-002	-6.211277e-003
40562851.782	-7.989333e-003	-9.848796e-003	7.242637e-001	-6.885841e-001	7.244436e-001	-6.879062e-001	-1.033934e-002	-6.366566e-003
40594121.326	-7.973331e-003	-9.897740e-003	7.241256e-001	-6.891817e-001	7.241270e-001	-6.882672e-001	-1.037595e-002	-6.217443e-003
40625390.869	-7.978664e-003	-9.846208e-003	7.237069e-001	-6.894855e-001	7.239527e-001	-6.888711e-001	-1.043705e-002	-6.320462e-003
40656660.413	-7.997690e-003	-9.873964e-003	7.232180e-001	-6.899284e-001	7.234998e-001	-6.891004e-001	-1.041184e-002	-6.252477e-003
40687929.956	-7.979945e-003	-9.858172e-003	7.230524e-001	-6.905593e-001	7.231305e-001	-6.895446e-001	-1.042698e-002	-6.278078e-003
40719199.500	-8.018996e-003	-9.794999e-003	7.223334e-001	-6.906956e-001	7.225484e-001	-6.902128e-001	-1.037785e-002	-6.290525e-003
40750469.043	-8.040887e-003	-9.839929e-003	7.218797e-001	-6.909746e-001	7.221395e-001	-6.905109e-001	-1.053435e-002	-6.241983e-003
40781738.587	-7.966108e-003	-9.947472e-003	7.216104e-001	-6.916747e-001	7.217427e-001	-6.909828e-001	-1.056782e-002	-6.238391e-003
40813008.130	-8.061516e-003	-9.902818e-003	7.213622e-001	-6.919877e-001	7.212160e-001	-6.914006e-001	-1.052267e-002	-6.238549e-003
40844277.674	-8.039244e-003	-9.832278e-003	7.207746e-001	-6.924650e-001	7.208782e-001	-6.917388e-001	-1.059312e-002	-6.224188e-003
40875547.217	-8.039811e-003	-9.895397e-003	7.203087e-001	-6.929991e-001	7.206347e-001	-6.920606e-001	-1.054673e-002	-6.238094e-003
40906816.760	-8.057678e-003	-9.824827e-003	7.201031e-001	-6.933798e-001	7.200948e-001	-6.925285e-001	-1.045627e-002	-6.280538e-003
40938086.304	-8.128722e-003	-9.896840e-003	7.194478e-001	-6.937999e-001	7.198381e-001	-6.930766e-001	-1.059689e-002	-6.252394e-003
40969355.847	-8.145874e-003	-9.834517e-003	7.189895e-001	-6.941220e-001	7.193306e-001	-6.934292e-001	-1.060193e-002	-6.207617e-003
41000625.391	-8.129165e-003	-9.810320e-003	7.185314e-001	-6.944784e-001	7.187598e-001	-6.937749e-001	-1.056683e-002	-6.204974e-003
41031894.934	-7.969470e-003	-9.761386e-003	7.184714e-001	-6.948864e-001	7.184539e-001	-6.943785e-001	-1.062532e-002	-6.208323e-003
41063164.478	-8.114654e-003	-9.817797e-003	7.180089e-001	-6.953913e-001	7.181725e-001	-6.947543e-001	-1.058722e-002	-6.249512e-003
41094434.021	-8.145746e-003	-9.864444e-003	7.175518e-001	-6.957631e-001	7.176671e-001	-6.950376e-001	-1.064444e-002	-6.223709e-003
41125703.565	-8.107222e-003	-9.849861e-003	7.171761e-001	-6.962543e-001	7.173701e-001	-6.954003e-001	-1.067648e-002	-6.198519e-003
41156973.108	-8.077208e-003	-9.882974e-003	7.167961e-001	-6.964712e-001	7.167276e-001	-6.959420e-001	-1.067669e-002	-6.210866e-003
41188242.652	-8.130256e-003	-9.771220e-003	7.163272e-001	-6.972486e-001	7.164615e-001	-6.963459e-001	-1.059647e-002	-6.254473e-003
41219512.195	-8.100096e-003	-9.904573e-003	7.158628e-001	-6.975682e-001	7.159504e-001	-6.967311e-001	-1.068321e-002	-6.282162e-003
41250781.739	-8.182629e-003	-9.856853e-003	7.152847e-001	-6.981356e-001	7.155907e-001	-6.972247e-001	-1.065667e-002	-6.207799e-003
41282051.282	-8.146093e-003	-9.913213e-003	7.150601e-001	-6.983763e-001	7.151511e-001	-6.976090e-001	-1.074921e-002	-6.258146e-003
41313320.826	-8.189871e-003	-9.791854e-003	7.145475e-001	-6.986829e-001	7.147668e-001	-6.979979e-001	-1.072461e-002	-6.248459e-003
41344590.369	-8.234395e-003	-9.895619e-003	7.140723e-001	-6.989608e-001	7.144355e-001	-6.985454e-001	-1.067617e-002	-6.165219e-003
41375859.912	-8.307024e-003	-9.832976e-003	7.138423e-001	-6.995789e-001	7.137261e-001	-6.988422e-001	-1.069781e-002	-6.215400e-003
41407129.456	-8.228526e-003	-9.851326e-003	7.135096e-001	-6.998290e-001	7.134912e-001	-6.991194e-001	-1.080542e-002	-6.133998e-003
41438398.999	-8.229414e-003	-9.925155e-003	7.131330e-001	-7.005140e-001	7.132198e-001	-6.996931e-001	-1.081550e-002	-6.165054e-003
41469668.543	-8.282570e-003	-9.732589e-003	7.125343e-001	-7.008949e-001	7.126697e-001	-7.002254e-001	-1.078186e-002	-6.184875e-003
41500938.086	-8.266619e-003	-9.855890e-003	7.122160e-001	-7.012211e-001	7.124207e-001	-7.004941e-001	-1.079718e-002	-6.260945e-003
41532207.630	-8.244304e-003	-9.854366e-003	7.117626e-001	-7.016525e-001	7.119547e-001	-7.009306e-001	-1.079523e-002	-6.206046e-003
41563477.173	-8.228165e-003	-9.893146e-003	7.113145e-001	-7.021459e-001	7.114993e-001	-7.012819e-001	-1.074666e-002	-6.247888e-003
41594746.717	-8.193731e-003	-9.867406e-003	7.108689e-001	-7.025113e-001	7.111019e-001	-7.017839e-001	-1.082674e-002	-6.157658e-003
41626016.260	-8.391115e-003	-9.907309e-003	7.105114e-001	-7.029349e-001	7.106593e-001	-7.021988e-001	-1.085504e-002	-6.167900e-003
41657285.804	-8.263849e-003	-9.891846e-003	7.101284e-001	-7.033965e-001	7.102699e-001	-7.025389e-001	-1.080811e-002	-6.171041e-003
41688555.347	-8.253787e-003	-9.852096e-003	7.096826e-001	-7.037282e-001	7.098525e-001	-7.031067e-001	-1.084336e-002	-6.164134e-003
41719824.891	-8.253494e-003	-9.798697e-003	7.093283e-001	-7.042280e-001	7.094384e-001	-7.033702e-001	-1.087967e-002	-6.114850e-003
41751094.434	-8.341400e-003	-9.718046e-003	7.089334e-001	-7.044941e-001	7.089283e-001	-7.040623e-001	-1.085086e-002	-6.230094e-003
41782363.977	-8.243495e-003	-9.863740e-003	7.085528e-001	-7.050300e-001	7.086960e-001	-7.042243e-001	-1.101393e-002	-6.162540e-003
41813633.521	-8.332551e-003	-9.856231e-003	7.079487e-001	-7.052962e-001	7.082992e-001	-7.046411e-001	-1.085604e-002	-6.106419e-003
41844903.064	-8.356943e-003	-9.815134e-003	7.077675e-001	-7.057037e-001	7.077514e-001	-7.051779e-001	-1.097000e-002	-6.148183e-003
41876172.608	-8.327933e-003	-9.852599e-003	7.070616e-001	-7.062195e-001	7.075395e-001	-7.055627e-001	-1.102396e-002	-6.098685e-003
41907442.151	-8.390125e-003	-9.785346e-003	7.068079e-001	-7.065510e-001	7.070771e-001	-7.060040e-001	-1.100804e-002	-6.134756e-003
41938711.695	-8.283259e-003	-9.827420e-003	7.062917e-001	-7.070270e-001	7.066257e-001	-7.062987e-001	-1.089182e-002	-6.180695e-003
41969981.238	-8.335918e-003	-9.907281e-003	7.059683e-001	-7.074274e-001	7.060933e-001	-7.069320e-001	-1.092203e-002	-6.107047e-003
42001250.782	-8.332506e-003	-9.788318e-003	7.055604e-001	-7.079163e-001	7.057470e-001	-7.070075e-001	-1.096048e-002	-6.115674e-003
42032520.325	-8.332948e-003	-9.767039e-003	7.050869e-001	-7.083098e-001	7.054998e-001	-7.074495e-001	-1.103645e-002	-6.098168e-003
42063789.869	-8.401731e-003	-9.817832e-003	7.048006e-001	-7.086825e-001	7.048379e-001	-7.080969e-001	-1.109481e-002	-6.112803e-003
42095059.412	-8.373345e-003	-9.829025e-003	7.043192e-001	-7.091224e-001	7.045713e-001	-7.084910e-001	-1.104948e-002	-6.054414e-003
42126328.956	-8.436150e-003	-9.827956e-003	7.038794e-001	-7.093688e-001	7.040316e-001	-7.087832e-001	-1.108879e-002	-6.105674e-003
42157598.499	-8.356503e-003	-9.856971e-003	7.034559e-001	-7.099075e-001	7.035843e-001	-7.093617e-001	-1.105959e-002	-6.074375e-003
42188868.043	-8.389583e-003	-9.855879e-003	7.031705e-001	-7.101938e-001	7.032617e-001	-7.096901e-001	-1.110896e-002	-6.052328e-003
42220137.586	-8.337804e-003	-9.830872e-003	7.026070e-001	-7.108262e-001	7.028495e-001	-7.099639e-001	-1.111276e-002	-6.089886e-003
42251407.129	-8.422305e-003	-9.862863e-003	7.023268e-001	-7.112843e-001	7.023426e-001	-7.105202e-001	-1.115739e-002	-6.024003e-003
42282676.673	-8.397245e-003	-9.853057e-003	7.017767e-001	-7.115613e-001	7.018954e-001	-7.108485e-001	-1.109975e-002	-6.054934e-003
42313946.216	-8.449729e-003	-9.796170e-003	7.014790e-001	-7.121153e-001	7.016335e-001	-7.113774e-001	-1.113354e-002	-6.051047e-003
42345215.760	-8.526285e-003	-9.885886e-003	7.009376e-001	-7.124061e-001	7.011049e-001	-7.118255e-001	-1.123983e-002	-6.012891e-003
42376485.303	-8.495326e-003	-9.874990e-003	7.005113e-001	-7.128678e-001	7.006538e-001	-7.121002e-001	-1.117540e-002	-5.982382e-003
42407754.847	-8.456412e-003	-9.820915e-003	7.000228e-001	-7.132030e-001	7.002736e-001	-7.125345e-001	-1.116513e-002	-5.992928e-003
42439024.390	-8.502226e-003	-9.879810e-003	6.997046e-001	-7.136421e-001	6.998527e-001	-7.128330e-001	-1.124360e-002	-6.075857e-003
42470293.934	-8.441224e-003	-9.884516e-003	6.993103e-001	-7.140685e-001	6.995467e-001	-7.133728e-001	-1.119752e-002	-6.051440e-003
42501563.477	-8.506402e-003	-9.786381e-003	6.989730e-001	-7.143611e-001	6.991143e-001	-7.138895e-001	-1.115042e-002	-6.044634e-003
42532833.021	-8.433949e-003	-9.818346e-003	6.985134e-001	-7.148008e-001	6.987544e-001	-7.143489e-001	-1.128157e-002	-6.053712e-003
42564102.564	-8.512756e-003	-9.821005e-003	6.980575e-001	-7.153846e-001	6.982165e-001	-7.146666e-001	-1.128425e-002	-6.057867e-003
42595372.108	-8.475725e-003	-9.812486e-003	6.975068e-001	-7.158186e-001	6.978226e-001	-7.151594e-001	-1.134259e-002	-6.041091e-003
42626641.651	-8.530112e-003	-9.946827e-003	6.972454e-001	-7.159987e-001	6.974229e-001	-7.153763e-001	-1.133992e-002	-6.016798e-003
42657911.194	-8.532722e-003	-9.839738e-003	6.967517e-001	-7.165518e-001	6.969705e-001	-7.158872e-001	-1.131191e-002	-6.002303e-003
42689180.738	-8.581915e-003	-9.787244e-003	6.964255e-001	-7.169087e-001	6.965646e-001	-7.162964e-001	-1.138406e-002	-6.027220e-003
42720450.281	-8.592027e-003	-9.883121e-003	6.957670e-001	-7.171141e-001	6.960436e-001	-7.166101e-001	-1.130520e-002	-6.004939e-003
42751719.825	-8.575495e-003	-9.950936e-003	6.954902e-001	-7.177147e-001	6.958902e-001	-7.169420e-001	-1.127909e-002	-6.022870e-003
42782989.368	-8.674020e-003	-9.856660e-003	6.950879e-001	-7.183051e-001	6.953193e-001	-7.175271e-001	-1.138768e-002	-5.956289e-003
42814258.912	-8.562798e-003	-9.846108e-003	6.948521e-001	-7.185511e-001	6.948871e-001	-7.179228e-001	-1.136329e-002	-6.109213e-003
42845528.455	-8.638759e-003	-9.802188e-003	6.942414e-001	-7.190682e-001	6.945114e-001	-7.183361e-001	-1.136522e-002	-5.966641e-003
42876797.999	-8.549286e-003	-9.862949e-003	6.939178e-001	-7.192640e-001	6.940055e-001	-7.187747e-001	-1.141721e-002	-6.046864e-003
42908067.542	-8.662724e-003	-9.865995e-003	6.934348e-001	-7.195684e-001	6.937380e-001	-7.189882e-001	-1.142531e-002	-6.082703e-003
42939337.086	-8.565015e-003	-9.809772e-003	6.930182e-001	-7.200607e-001	6.930260e-001	-7.194934e-001	-1.138130e-002	-6.085799e-003
42970606.629	-8.659058e-003	-9.889797e-003	6.925692e-001	-7.205354e-001	6.926589e-001	-7.199248e-001	-1.148294e-002	-6.118833e-003
43001876.173	-8.657772e-003	-9.875602e-003	6.921521e-001	-7.210258e-001	6.923519e-001	-7.203853e-001	-1.148318e-002	-5.933779e-003
43033145.716	-8.554737e-003	-9.822630e-003	6.915570e-001	-7.214170e-001	6.918654e-001	-7.208058e-001	-1.151563e-002	-5.958403e-003
43064415.260	-8.605955e-003	-9.887354e-003	6.911898e-001	-7.217132e-001	6.915723e-001	-7.211609e-001	-1.151058e-002	-6.023558e-003
43095684.803	-8.671625e-003	-9.852203e-003	6.907690e-001	-7.222425e-001	6.910536e-001	-7.215702e-001	-1.154287e-002	-6.006045e-003
43126954.346	-8.601407e-003	-9.829331e-003	6.904853e-001	-7.225992e-001	6.905880e-001	-7.220071e-001	-1.156756e-002	-5.939197e-003
43158223.890	-8.658400e-003	-9.864740e-003	6.900423e-001	-7.228319e-001	6.901204e-001	-7.223304e-001	-1.160251e-002	-5.928245e-003
43189493.433	-8.664787e-003	-9.924997e-003	6.897282e-001	-7.235087e-001	6.895750e-001	-7.228828e-001	-1.159417e-002	-5.891820e-003
43220762.977	-8.668259e-003	-9.836142e-003	6.892129e-001	-7.238376e-001	6.893984e-001	-7.230944e-001	-1.160974e-002	-5.994547e-003
43252032.520	-8.725805e-003	-9.934143e-003	6.887250e-001	-7.242384e-001	6.888398e-001	-7.236784e-001	-1.154413e-002	-6.009334e-003
43283302.064	-8.725627e-003	-9.814921e-003	6.883020e-001	-7.245494e-001	6.883864e-001	-7.238865e-001	-1.153265e-002	-5.927994e-003
43314571.607	-8.773065e-003	-9.919729e-003	6.879431e-001	-7.250498e-001	6.882805e-001	-7.244021e-001	-1.162091e-002	-5.831588e-003
43345841.151	-8.704482e-003	-9.876545e-003	6.874209e-001	-7.254130e-001	6.876778e-001	-7.248062e-001	-1.162981e-002	-5.867142e-003
43377110.694	-8.797384e-003	-9.906595e-003	6.870443e-001	-7.257406e-001	6.871613e-001	-7.252310e-001	-1.167387e-002	-5.919294e-003
43408380.238	-8.707672e-003	-9.957864e-003	6.866955e-001	-7.263631e-001	6.867315e-001	-7.255199e-001	-1.162279e-002	-5.932241e-003
43439649.781	-8.731816e-003	-9.930049e-003	6.861088e-001	-7.266171e-001	6.861962e-001	-7.260187e-001	-1.159272e-002	-5.918306e-003
43470919.325	-8.804342e-003	-9.919492e-003	6.856219e-001	-7.271298e-001	6.860396e-001	-7.265057e-001	-1.161732e-002	-5.830564e-003
43502188.868	-8.795753e-003	-9.954753e-003	6.853147e-001	-7.275437e-001	6.853750e-001	-7.268215e-001	-1.166454e-002	-5.848248e-003
43533458.412	-8.738252e-003	-9.861875e-003	6.848815e-001	-7.277462e-001	6.850014e-001	-7.271571e-001	-1.161760e-002	-5.913437e-003
43564727.955	-8.833991e-003	-9.881826e-003	6.845308e-001	-7.281465e-001	6.846209e-001	-7.278268e-001	-1.171584e-002	-5.924864e-003
43595997.498	-8.797803e-003	-9.953352e-003	6.840235e-001	-7.285142e-001	6.840338e-001	-7.279927e-001	-1.172889e-002	-5.885132e-003
43627267.042	-8.810732e-003	-9.970789e-003	6.837316e-001	-7.289780e-001	6.837274e-001	-7.284929e-001	-1.174699e-002	-5.819189e-003
43658536.585	-8.778942e-003	-9.983224e-003	6.831837e-001	-7.293500e-001	6.832973e-001	-7.288390e-001	-1.177119e-002	-5.853023e-003
43689806.129	-8.744125e-003	-9.993064e-003	6.826753e-001	-7.297888e-001	6.828949e-001	-7.292256e-001	-1.174706e-002	-5.904443e-003
43721075.672	-8.896259e-003	-9.819696e-003	6.822452e-001	-7.301348e-001	6.824693e-001	-7.296589e-001	-1.175459e-002	-5.912674e-003
43752345.216	-8.794490e-003	-9.977069e-003	6.820668e-001	-7.306600e-001	6.819490e-001	-7.301315e-001	-1.173303e-002	-5.836930e-003
43783614.759	-8.814799e-003	-9.975314e-003	6.814290e-001	-7.309645e-001	6.816769e-001	-7.304704e-001	-1.178423e-002	-5.906235e-003
43814884.303	-8.929127e-003	-9.918361e-003	6.811107e-001	-7.313725e-001	6.811844e-001	-7.307935e-001	-1.183070e-002	-5.822880e-003
43846153.846	-8.830057e-003	-9.980985e-003	6.807279e-001	-7.317642e-001	6.809097e-001	-7.312662e-001	-1.185541e-002	-5.840652e-003
43877423.390	-8.869773e-003	-9.984163e-003	6.800903e-001	-7.323636e-001	6.803309e-001	-7.316426e-001	-1.178576e-002	-5.850852e-003
43908692.933	-8.933081e-003	-9.874293e-003	6.796240e-001	-7.327446e-001	6.800214e-001	-7.319453e-001	-1.185580e-002	-5.780718e-003
43939962.477	-8.935068e-003	-9.890043e-003	6.794069e-001	-7.331249e-001	6.795353e-001	-7.324813e-001	-1.185704e-002	-5.803298e-003
43971232.020	-8.906555e-003	-9.959043e-003	6.788092e-001	-7.334401e-001	6.790509e-001	-7.328877e-001	-1.185164e-002	-5.800399e-003
44002501.563	-8.906308e-003	-9.989207e-003	6.783451e-001	-7.337015e-001	6.786947e-001	-7.330857e-001	-1.186050e-002	-5.732594e-003
44033771.107	-8.897465e-003	-9.985136e-003	6.780077e-001	-7.342916e-001	6.782316e-001	-7.335204e-001	-1.187907e-002	-5.784312e-003
44065040.650	-8.892532e-003	-9.869283e-003	6.776237e-001	-7.346588e-001	6.778182e-001	-7.340044e-001	-1.181623e-002	-5.720621e-003
44096310.194	-8.994546e-003	-9.945386e-003	6.772669e-001	-7.349744e-001	6.773221e-001	-7.343526e-001	-1.188444e-002	-5.796156e-003
44127579.737	-8.969481e-003	-9.983423e-003	6.767470e-001	-7.354158e-001	6.769410e-001	-7.346639e-001	-1.188516e-002	-5.807488e-003
44158849.281	-8.940202e-003	-9.949437e-003	6.763418e-001	-7.357222e-001	6.765753e-001	-7.352128e-001	-1.190219e-002	-5.790233e-003
44190118.824	-8.992885e-003	-9.949642e-003	6.758536e-001	-7.361443e-001	6.761666e-001	-7.356695e-001	-1.194439e-002	-5.772434e-003
44221388.368	-9.039103e-003	-9.950826e-003	6.755769e-001	-7.366342e-001	6.755455e-001	-7.359796e-001	-1.204361e-002	-5.738529e-003
44252657.911	-9.033386e-003	-9.934304e-003	6.750401e-001	-7.369833e-001	6.751304e-001	-7.364598e-001	-1.190517e-002	-5.781884e-003
44283927.455	-9.035836e-003	-9.962229e-003	6.745656e-001	-7.372895e-001	6.747988e-001	-7.367590e-001	-1.208740e-002	-5.821063e-003
44315196.998	-9.053144e-003	-9.947042e-003	6.742632e-001	-7.378396e-001	6.743906e-001	-7.371536e-001	-1.196251e-002	-5.816692e-003
44346466.542	-9.049830e-003	-9.962005e-003	6.736756e-001	-7.381850e-001	6.738947e-001	-7.376074e-001	-1.205578e-002	-5.752300e-003
44377736.085	-9.045745e-003	-9.935408e-003	6.732846e-001	-7.384006e-001	6.733231e-001	-7.378960e-001	-1.214147e-002	-5.707745e-003
44409005.629	-9.020771e-003	-9.881532e-003	6.727401e-001	-7.389983e-001	6.729319e-001	-7.382503e-001	-1.204778e-002	-5.748714e-003
44440275.172	-9.026647e-003	-1.003149e-002	6.723139e-001	-7.392494e-001	6.726404e-001	-7.387400e-001	-1.209253e-002	-5.705359e-003
44471544.715	-9.077055e-003	-1.001348e-002	6.718720e-001	-7.397108e-001	6.722261e-001	-7.391151e-001	-1.203832e-002	-5.698599e-003
44502814.259	-9.000335e-003	-1.004904e-002	6.715073e-001	-7.398956e-001	6.715584e-001	-7.395171e-001	-1.203010e-002	-5.710677e-003
44534083.802	-9.117837e-003	-9.946886e-003	6.709987e-001	-7.405811e-001	6.712287e-001	-7.398804e-001	-1.208032e-002	-5.770710e-003
44565353.346	-9.125492e-003	-9.942894e-003	6.706356e-001	-7.409563e-001	6.708952e-001	-7.402648e-001	-1.215859e-002	-5.606990e-003
44596622.889	-9.144413e-003	-1.000732e-002	6.702268e-001	-7.412445e-001	6.704507e-001	-7.406386e-001	-1.211353e-002	-5.675906e-003
44627892.433	-9.093526e-003	-9.986134e-003	6.697546e-001	-7.416184e-001	6.699594e-001	-7.410554e-001	-1.220229e-002	-5.745476e-003
44659161.976	-9.138770e-003	-9.944929e-003	6.691745e-001	-7.420556e-001	6.695893e-001	-7.414144e-001	-1.216880e-002	-5.670051e-003
44690431.520	-9.115043e-003	-1.005950e-002	6.689241e-001	-7.424477e-001	6.690490e-001	-7.418148e-001	-1.217786e-002	-5.663470e-003
