!Agilent Technologies,E5061B,MY49102235,A.02.00
!Date: Mon Jul 03 10:32:04 2023
!Data & Calibration Information:
!Freq	S11:SOLT2(ON)	S21:SOLT2(ON)	S12:SOLT2(ON)	S22:SOLT2(ON)
# Hz S RI R 50
40000000.000	8.849556e-002	-1.158637e-002	6.357995e-001	-6.781582e-001	6.358414e-001	-6.772445e-001	8.530002e-002	-1.633306e-002
40031269.543	8.851243e-002	-1.165277e-002	6.353939e-001	-6.783993e-001	6.354386e-001	-6.775044e-001	8.536377e-002	-1.636795e-002
40062539.087	8.853164e-002	-1.175765e-002	6.346519e-001	-6.786174e-001	6.350917e-001	-6.777668e-001	8.540862e-002	-1.652590e-002
40093808.630	8.856535e-002	-1.181879e-002	6.343706e-001	-6.790434e-001	6.346535e-001	-6.782262e-001	8.541353e-002	-1.650096e-002
40125078.174	8.857746e-002	-1.185321e-002	6.339103e-001	-6.792689e-001	6.340597e-001	-6.784902e-001	8.553670e-002	-1.654997e-002
40156347.717	8.865380e-002	-1.206365e-002	6.336436e-001	-6.796731e-001	6.337414e-001	-6.790406e-001	8.539432e-002	-1.672836e-002
40187617.261	8.867535e-002	-1.213025e-002	6.331023e-001	-6.798477e-001	6.335267e-001	-6.793686e-001	8.541205e-002	-1.692218e-002
40218886.804	8.868205e-002	-1.216061e-002	6.327867e-001	-6.804251e-001	6.327486e-001	-6.795939e-001	8.549674e-002	-1.698995e-002
40250156.348	8.869000e-002	-1.223090e-002	6.322560e-001	-6.807085e-001	6.325051e-001	-6.799477e-001	8.546852e-002	-1.702887e-002
40281425.891	8.864793e-002	-1.232646e-002	6.317622e-001	-6.809042e-001	6.320324e-001	-6.803661e-001	8.545382e-002	-1.708911e-002
40312695.435	8.872934e-002	-1.238273e-002	6.313356e-001	-6.815036e-001	6.316232e-001	-6.805969e-001	8.552067e-002	-1.715090e-002
40343964.978	8.877213e-002	-1.241681e-002	6.309981e-001	-6.816062e-001	6.309819e-001	-6.810632e-001	8.546453e-002	-1.718205e-002
40375234.522	8.885842e-002	-1.252444e-002	6.303283e-001	-6.821695e-001	6.308094e-001	-6.812802e-001	8.550255e-002	-1.731159e-002
40406504.065	8.878720e-002	-1.253202e-002	6.298560e-001	-6.821755e-001	6.303850e-001	-6.817191e-001	8.559601e-002	-1.747751e-002
40437773.609	8.880448e-002	-1.278454e-002	6.297739e-001	-6.828521e-001	6.299288e-001	-6.819554e-001	8.555910e-002	-1.762936e-002
40469043.152	8.889756e-002	-1.282500e-002	6.291740e-001	-6.830393e-001	6.293833e-001	-6.822877e-001	8.559048e-002	-1.763715e-002
40500312.695	8.882550e-002	-1.301644e-002	6.286235e-001	-6.834002e-001	6.290876e-001	-6.826430e-001	8.556323e-002	-1.772896e-002
40531582.239	8.890992e-002	-1.295961e-002	6.283332e-001	-6.833451e-001	6.284771e-001	-6.831704e-001	8.552240e-002	-1.781072e-002
40562851.782	8.886668e-002	-1.298164e-002	6.278043e-001	-6.839710e-001	6.280625e-001	-6.833969e-001	8.565803e-002	-1.799345e-002
40594121.326	8.897014e-002	-1.317029e-002	6.274328e-001	-6.844472e-001	6.277528e-001	-6.835727e-001	8.568320e-002	-1.796227e-002
40625390.869	8.900876e-002	-1.320777e-002	6.270082e-001	-6.847430e-001	6.273926e-001	-6.841551e-001	8.562808e-002	-1.810682e-002
40656660.413	8.903330e-002	-1.329041e-002	6.267069e-001	-6.850654e-001	6.269332e-001	-6.844055e-001	8.559954e-002	-1.815642e-002
40687929.956	8.902838e-002	-1.329990e-002	6.264198e-001	-6.856073e-001	6.264169e-001	-6.847596e-001	8.565958e-002	-1.824198e-002
40719199.500	8.904905e-002	-1.341893e-002	6.256995e-001	-6.856928e-001	6.259853e-001	-6.852269e-001	8.570782e-002	-1.836437e-002
40750469.043	8.908436e-002	-1.352096e-002	6.251460e-001	-6.858478e-001	6.254940e-001	-6.854724e-001	8.560921e-002	-1.843111e-002
40781738.587	8.914383e-002	-1.373268e-002	6.248697e-001	-6.865859e-001	6.250222e-001	-6.858762e-001	8.558554e-002	-1.850310e-002
40813008.130	8.913615e-002	-1.375073e-002	6.245729e-001	-6.866447e-001	6.245350e-001	-6.862589e-001	8.568350e-002	-1.862392e-002
40844277.674	8.915160e-002	-1.374752e-002	6.238177e-001	-6.870961e-001	6.242242e-001	-6.864461e-001	8.566753e-002	-1.864151e-002
40875547.217	8.917934e-002	-1.387814e-002	6.234425e-001	-6.874223e-001	6.239067e-001	-6.867314e-001	8.569534e-002	-1.875075e-002
40906816.760	8.919258e-002	-1.394854e-002	6.232298e-001	-6.878634e-001	6.233273e-001	-6.869821e-001	8.580006e-002	-1.894325e-002
40938086.304	8.915521e-002	-1.401875e-002	6.225053e-001	-6.882170e-001	6.230133e-001	-6.876414e-001	8.568634e-002	-1.900213e-002
40969355.847	8.923352e-002	-1.411634e-002	6.219205e-001	-6.886558e-001	6.224717e-001	-6.878460e-001	8.568581e-002	-1.901367e-002
41000625.391	8.918576e-002	-1.415238e-002	6.215280e-001	-6.888077e-001	6.218441e-001	-6.879937e-001	8.571828e-002	-1.908550e-002
41031894.934	8.945926e-002	-1.422630e-002	6.214921e-001	-6.890526e-001	6.215381e-001	-6.885273e-001	8.574231e-002	-1.921391e-002
41063164.478	8.930929e-002	-1.439780e-002	6.209555e-001	-6.893542e-001	6.211590e-001	-6.887915e-001	8.581419e-002	-1.934651e-002
41094434.021	8.934247e-002	-1.444946e-002	6.204514e-001	-6.897872e-001	6.206005e-001	-6.892161e-001	8.576603e-002	-1.941060e-002
41125703.565	8.940884e-002	-1.453028e-002	6.200993e-001	-6.901174e-001	6.203218e-001	-6.892479e-001	8.574266e-002	-1.943654e-002
41156973.108	8.939861e-002	-1.461777e-002	6.197080e-001	-6.903162e-001	6.198333e-001	-6.899206e-001	8.576685e-002	-1.956360e-002
41188242.652	8.940332e-002	-1.460402e-002	6.192137e-001	-6.910157e-001	6.194079e-001	-6.901911e-001	8.585646e-002	-1.970705e-002
41219512.195	8.949371e-002	-1.481657e-002	6.187944e-001	-6.912275e-001	6.188229e-001	-6.904033e-001	8.578362e-002	-1.983821e-002
41250781.739	8.942954e-002	-1.484197e-002	6.179534e-001	-6.916502e-001	6.184518e-001	-6.907088e-001	8.586662e-002	-1.980509e-002
41282051.282	8.949230e-002	-1.506453e-002	6.179705e-001	-6.918597e-001	6.181435e-001	-6.911736e-001	8.571994e-002	-1.995568e-002
41313320.826	8.947057e-002	-1.494436e-002	6.172492e-001	-6.921333e-001	6.176260e-001	-6.914828e-001	8.584164e-002	-2.008285e-002
41344590.369	8.946118e-002	-1.514417e-002	6.168215e-001	-6.923141e-001	6.172627e-001	-6.918140e-001	8.590500e-002	-2.007179e-002
41375859.912	8.943099e-002	-1.520427e-002	6.165180e-001	-6.927885e-001	6.164056e-001	-6.919594e-001	8.589839e-002	-2.025243e-002
41407129.456	8.951120e-002	-1.529913e-002	6.161701e-001	-6.928745e-001	6.162479e-001	-6.924082e-001	8.583072e-002	-2.018687e-002
41438398.999	8.953112e-002	-1.540757e-002	6.158881e-001	-6.935511e-001	6.157928e-001	-6.928244e-001	8.584314e-002	-2.033730e-002
41469668.543	8.953451e-002	-1.532433e-002	6.152225e-001	-6.939289e-001	6.153913e-001	-6.932804e-001	8.586246e-002	-2.048324e-002
41500938.086	8.958532e-002	-1.550619e-002	6.148423e-001	-6.940772e-001	6.151150e-001	-6.934823e-001	8.582123e-002	-2.058224e-002
41532207.630	8.962593e-002	-1.560494e-002	6.143500e-001	-6.944047e-001	6.145293e-001	-6.938191e-001	8.588537e-002	-2.064822e-002
41563477.173	8.969424e-002	-1.576853e-002	6.138838e-001	-6.947927e-001	6.141983e-001	-6.941244e-001	8.597535e-002	-2.075503e-002
41594746.717	8.970280e-002	-1.581809e-002	6.133916e-001	-6.951424e-001	6.137422e-001	-6.945088e-001	8.584418e-002	-2.081436e-002
41626016.260	8.957640e-002	-1.591990e-002	6.130007e-001	-6.953699e-001	6.132234e-001	-6.947398e-001	8.587529e-002	-2.088753e-002
41657285.804	8.973165e-002	-1.606901e-002	6.126430e-001	-6.959615e-001	6.128575e-001	-6.950676e-001	8.596476e-002	-2.099048e-002
41688555.347	8.977774e-002	-1.602258e-002	6.121227e-001	-6.962521e-001	6.122374e-001	-6.955108e-001	8.595474e-002	-2.109243e-002
41719824.891	8.979652e-002	-1.603134e-002	6.116780e-001	-6.965539e-001	6.118988e-001	-6.957168e-001	8.595274e-002	-2.109515e-002
41751094.434	8.970274e-002	-1.607264e-002	6.113105e-001	-6.966583e-001	6.113658e-001	-6.963397e-001	8.596285e-002	-2.133951e-002
41782363.977	8.987344e-002	-1.633955e-002	6.109956e-001	-6.972337e-001	6.110804e-001	-6.963881e-001	8.584073e-002	-2.131092e-002
41813633.521	8.977294e-002	-1.633986e-002	6.102485e-001	-6.971479e-001	6.105746e-001	-6.966554e-001	8.603724e-002	-2.143187e-002
41844903.064	8.982789e-002	-1.641195e-002	6.099881e-001	-6.977087e-001	6.099799e-001	-6.971222e-001	8.597278e-002	-2.153534e-002
41876172.608	8.985045e-002	-1.654225e-002	6.094171e-001	-6.981668e-001	6.097872e-001	-6.975419e-001	8.590096e-002	-2.156468e-002
41907442.151	8.982946e-002	-1.659600e-002	6.089320e-001	-6.984944e-001	6.094556e-001	-6.979429e-001	8.595183e-002	-2.167777e-002
41938711.695	8.996854e-002	-1.671453e-002	6.084380e-001	-6.989132e-001	6.089129e-001	-6.981149e-001	8.608431e-002	-2.186096e-002
41969981.238	8.991312e-002	-1.686985e-002	6.082044e-001	-6.991386e-001	6.083422e-001	-6.985508e-001	8.606140e-002	-2.187831e-002
42001250.782	8.998015e-002	-1.682063e-002	6.078527e-001	-6.993862e-001	6.080059e-001	-6.985158e-001	8.601226e-002	-2.194456e-002
42032520.325	8.994645e-002	-1.689763e-002	6.071816e-001	-6.996231e-001	6.076925e-001	-6.989947e-001	8.602243e-002	-2.202109e-002
42063789.869	8.998966e-002	-1.708095e-002	6.069274e-001	-7.001353e-001	6.069002e-001	-6.994195e-001	8.595134e-002	-2.212557e-002
42095059.412	8.997071e-002	-1.709398e-002	6.065200e-001	-7.003188e-001	6.067973e-001	-6.998079e-001	8.599908e-002	-2.213721e-002
42126328.956	9.000541e-002	-1.719840e-002	6.060133e-001	-7.005937e-001	6.060768e-001	-6.999604e-001	8.594039e-002	-2.235890e-002
42157598.499	9.012008e-002	-1.730460e-002	6.053542e-001	-7.009000e-001	6.056457e-001	-7.003604e-001	8.606976e-002	-2.235754e-002
42188868.043	9.007036e-002	-1.742898e-002	6.051831e-001	-7.012567e-001	6.052955e-001	-7.007206e-001	8.602349e-002	-2.243817e-002
42220137.586	9.015603e-002	-1.743870e-002	6.046573e-001	-7.016726e-001	6.049456e-001	-7.009169e-001	8.604522e-002	-2.257055e-002
42251407.129	9.013008e-002	-1.758681e-002	6.042719e-001	-7.021754e-001	6.042836e-001	-7.014543e-001	8.596250e-002	-2.261436e-002
42282676.673	9.013177e-002	-1.764587e-002	6.036606e-001	-7.023516e-001	6.038939e-001	-7.016809e-001	8.603669e-002	-2.274429e-002
42313946.216	9.016326e-002	-1.767785e-002	6.034900e-001	-7.026805e-001	6.036664e-001	-7.021499e-001	8.602961e-002	-2.282553e-002
42345215.760	9.007407e-002	-1.783862e-002	6.028506e-001	-7.030629e-001	6.029288e-001	-7.024257e-001	8.595560e-002	-2.281959e-002
42376485.303	9.013500e-002	-1.793758e-002	6.022340e-001	-7.033785e-001	6.025140e-001	-7.025186e-001	8.604329e-002	-2.293862e-002
42407754.847	9.019414e-002	-1.802376e-002	6.018496e-001	-7.036059e-001	6.022423e-001	-7.029594e-001	8.606655e-002	-2.301002e-002
42439024.390	9.018752e-002	-1.811556e-002	6.014087e-001	-7.039230e-001	6.017188e-001	-7.032246e-001	8.608178e-002	-2.314163e-002
42470293.934	9.023258e-002	-1.824115e-002	6.011393e-001	-7.041869e-001	6.014717e-001	-7.036930e-001	8.608035e-002	-2.329296e-002
42501563.477	9.029093e-002	-1.821440e-002	6.007807e-001	-7.044868e-001	6.008738e-001	-7.041598e-001	8.613811e-002	-2.335244e-002
42532833.021	9.033490e-002	-1.828533e-002	6.002172e-001	-7.049878e-001	6.004748e-001	-7.045482e-001	8.600166e-002	-2.346489e-002
42564102.564	9.029770e-002	-1.836250e-002	5.997586e-001	-7.054897e-001	6.000178e-001	-7.046826e-001	8.604742e-002	-2.353207e-002
42595372.108	9.037292e-002	-1.841880e-002	5.991416e-001	-7.057397e-001	5.994235e-001	-7.051100e-001	8.602458e-002	-2.364031e-002
42626641.651	9.029300e-002	-1.867462e-002	5.988604e-001	-7.059496e-001	5.990206e-001	-7.052901e-001	8.601997e-002	-2.372748e-002
42657911.194	9.038010e-002	-1.866353e-002	5.984223e-001	-7.063536e-001	5.986673e-001	-7.056284e-001	8.609138e-002	-2.375262e-002
42689180.738	9.030541e-002	-1.869380e-002	5.979805e-001	-7.065508e-001	5.981933e-001	-7.059674e-001	8.600171e-002	-2.388869e-002
42720450.281	9.031527e-002	-1.886900e-002	5.974022e-001	-7.066844e-001	5.977440e-001	-7.061678e-001	8.609936e-002	-2.399570e-002
42751719.825	9.040495e-002	-1.906156e-002	5.970883e-001	-7.071346e-001	5.975324e-001	-7.065512e-001	8.615755e-002	-2.413370e-002
42782989.368	9.031352e-002	-1.899716e-002	5.966390e-001	-7.076187e-001	5.968687e-001	-7.070943e-001	8.604256e-002	-2.409321e-002
42814258.912	9.042283e-002	-1.912087e-002	5.962540e-001	-7.078637e-001	5.965495e-001	-7.072802e-001	8.611860e-002	-2.436798e-002
42845528.455	9.038814e-002	-1.911895e-002	5.956331e-001	-7.082749e-001	5.959638e-001	-7.076327e-001	8.617333e-002	-2.429176e-002
42876797.999	9.049316e-002	-1.930956e-002	5.953001e-001	-7.083328e-001	5.954236e-001	-7.077992e-001	8.610466e-002	-2.449402e-002
42908067.542	9.044008e-002	-1.933304e-002	5.948187e-001	-7.086200e-001	5.951449e-001	-7.081464e-001	8.605837e-002	-2.461145e-002
42939337.086	9.051744e-002	-1.947974e-002	5.943364e-001	-7.089249e-001	5.944506e-001	-7.083725e-001	8.612422e-002	-2.468727e-002
42970606.629	9.048025e-002	-1.959650e-002	5.936639e-001	-7.095030e-001	5.941173e-001	-7.087589e-001	8.607896e-002	-2.481294e-002
43001876.173	9.047763e-002	-1.967911e-002	5.935163e-001	-7.098560e-001	5.936100e-001	-7.092076e-001	8.611887e-002	-2.475778e-002
43033145.716	9.066435e-002	-1.973211e-002	5.929051e-001	-7.101869e-001	5.933659e-001	-7.095545e-001	8.609299e-002	-2.485506e-002
43064415.260	9.056933e-002	-1.983528e-002	5.925902e-001	-7.101984e-001	5.929495e-001	-7.099464e-001	8.609031e-002	-2.501354e-002
43095684.803	9.056053e-002	-1.987241e-002	5.920250e-001	-7.108340e-001	5.922668e-001	-7.101372e-001	8.608275e-002	-2.511606e-002
43126954.346	9.067665e-002	-1.997042e-002	5.917578e-001	-7.110848e-001	5.918653e-001	-7.105389e-001	8.605905e-002	-2.510054e-002
43158223.890	9.067004e-002	-2.009492e-002	5.912468e-001	-7.111546e-001	5.913844e-001	-7.107934e-001	8.606549e-002	-2.516319e-002
43189493.433	9.062734e-002	-2.019672e-002	5.910379e-001	-7.117425e-001	5.907739e-001	-7.113592e-001	8.604087e-002	-2.526709e-002
43220762.977	9.067156e-002	-2.022590e-002	5.903041e-001	-7.118814e-001	5.908213e-001	-7.113421e-001	8.610718e-002	-2.546706e-002
43252032.520	9.061710e-002	-2.036543e-002	5.898960e-001	-7.121860e-001	5.900777e-001	-7.119146e-001	8.616103e-002	-2.555097e-002
43283302.064	9.066722e-002	-2.033234e-002	5.894734e-001	-7.124084e-001	5.897012e-001	-7.120038e-001	8.617543e-002	-2.558342e-002
43314571.607	9.065135e-002	-2.054824e-002	5.890337e-001	-7.130853e-001	5.893661e-001	-7.124019e-001	8.610740e-002	-2.560169e-002
43345841.151	9.068131e-002	-2.061131e-002	5.884804e-001	-7.132968e-001	5.888550e-001	-7.127267e-001	8.613969e-002	-2.573662e-002
43377110.694	9.063450e-002	-2.068806e-002	5.881466e-001	-7.135512e-001	5.882570e-001	-7.130739e-001	8.612374e-002	-2.580134e-002
43408380.238	9.078897e-002	-2.088421e-002	5.876837e-001	-7.142121e-001	5.877145e-001	-7.132016e-001	8.617192e-002	-2.594592e-002
43439649.781	9.075452e-002	-2.094816e-002	5.870879e-001	-7.141002e-001	5.872849e-001	-7.136320e-001	8.622166e-002	-2.603897e-002
43470919.325	9.067571e-002	-2.096226e-002	5.866681e-001	-7.145644e-001	5.871956e-001	-7.141789e-001	8.619224e-002	-2.606443e-002
43502188.868	9.074985e-002	-2.114679e-002	5.862181e-001	-7.149638e-001	5.864417e-001	-7.142337e-001	8.615724e-002	-2.615334e-002
43533458.412	9.086271e-002	-2.111822e-002	5.859070e-001	-7.149718e-001	5.858839e-001	-7.144614e-001	8.621585e-002	-2.633116e-002
43564727.955	9.079226e-002	-2.113775e-002	5.854147e-001	-7.152982e-001	5.856506e-001	-7.150792e-001	8.618012e-002	-2.642106e-002
43595997.498	9.083135e-002	-2.138874e-002	5.850598e-001	-7.156863e-001	5.850470e-001	-7.149872e-001	8.612809e-002	-2.643878e-002
43627267.042	9.081407e-002	-2.144390e-002	5.845968e-001	-7.160917e-001	5.847000e-001	-7.156942e-001	8.611258e-002	-2.652848e-002
43658536.585	9.084611e-002	-2.154282e-002	5.840746e-001	-7.163501e-001	5.842421e-001	-7.156982e-001	8.610487e-002	-2.661862e-002
43689806.129	9.092324e-002	-2.170461e-002	5.835395e-001	-7.167165e-001	5.838609e-001	-7.160913e-001	8.616821e-002	-2.676205e-002
43721075.672	9.077071e-002	-2.157911e-002	5.829922e-001	-7.168968e-001	5.832757e-001	-7.166247e-001	8.616625e-002	-2.688660e-002
43752345.216	9.093105e-002	-2.184948e-002	5.828481e-001	-7.172541e-001	5.828687e-001	-7.167561e-001	8.618991e-002	-2.691773e-002
43783614.759	9.090403e-002	-2.191259e-002	5.821501e-001	-7.175313e-001	5.825612e-001	-7.170617e-001	8.617066e-002	-2.704050e-002
43814884.303	9.084751e-002	-2.194139e-002	5.819239e-001	-7.179064e-001	5.820172e-001	-7.174740e-001	8.612980e-002	-2.703075e-002
43846153.846	9.097433e-002	-2.207152e-002	5.813321e-001	-7.182479e-001	5.816543e-001	-7.176706e-001	8.608902e-002	-2.712795e-002
43877423.390	9.092863e-002	-2.216420e-002	5.807478e-001	-7.187042e-001	5.811457e-001	-7.180547e-001	8.621049e-002	-2.726250e-002
43908692.933	9.092049e-002	-2.213461e-002	5.803405e-001	-7.190087e-001	5.808008e-001	-7.182613e-001	8.613505e-002	-2.729199e-002
43939962.477	9.094249e-002	-2.224945e-002	5.801038e-001	-7.192730e-001	5.803907e-001	-7.186910e-001	8.619175e-002	-2.738505e-002
43971232.020	9.100597e-002	-2.241997e-002	5.793941e-001	-7.194636e-001	5.798293e-001	-7.190919e-001	8.618774e-002	-2.747332e-002
44002501.563	9.098219e-002	-2.256457e-002	5.788101e-001	-7.196554e-001	5.793385e-001	-7.191287e-001	8.619221e-002	-2.756812e-002
44033771.107	9.102128e-002	-2.264462e-002	5.786796e-001	-7.201519e-001	5.788930e-001	-7.194727e-001	8.612361e-002	-2.769768e-002
44065040.650	9.104520e-002	-2.262310e-002	5.780504e-001	-7.204514e-001	5.785527e-001	-7.199465e-001	8.625773e-002	-2.775849e-002
44096310.194	9.097445e-002	-2.275679e-002	5.776700e-001	-7.206691e-001	5.779472e-001	-7.202033e-001	8.617223e-002	-2.791676e-002
44127579.737	9.097658e-002	-2.283028e-002	5.772422e-001	-7.212154e-001	5.775736e-001	-7.204052e-001	8.617632e-002	-2.798062e-002
44158849.281	9.106150e-002	-2.294543e-002	5.768964e-001	-7.212026e-001	5.771802e-001	-7.207783e-001	8.619932e-002	-2.807032e-002
44190118.824	9.104520e-002	-2.296360e-002	5.763765e-001	-7.215205e-001	5.768098e-001	-7.212978e-001	8.618035e-002	-2.813243e-002
44221388.368	9.099775e-002	-2.310542e-002	5.760534e-001	-7.220004e-001	5.760194e-001	-7.214517e-001	8.606252e-002	-2.815263e-002
44252657.911	9.110396e-002	-2.318615e-002	5.754653e-001	-7.222837e-001	5.756958e-001	-7.216648e-001	8.617685e-002	-2.835793e-002
44283927.455	9.108887e-002	-2.327341e-002	5.750158e-001	-7.226030e-001	5.752868e-001	-7.219272e-001	8.607830e-002	-2.843987e-002
44315196.998	9.107428e-002	-2.335034e-002	5.745735e-001	-7.230561e-001	5.748969e-001	-7.224289e-001	8.618331e-002	-2.853052e-002
44346466.542	9.110632e-002	-2.345368e-002	5.740353e-001	-7.232113e-001	5.742205e-001	-7.225184e-001	8.609129e-002	-2.861871e-002
44377736.085	9.112737e-002	-2.353747e-002	5.736113e-001	-7.233444e-001	5.737837e-001	-7.228978e-001	8.606499e-002	-2.863086e-002
44409005.629	9.119676e-002	-2.353835e-002	5.731103e-001	-7.239072e-001	5.734556e-001	-7.230738e-001	8.615929e-002	-2.877499e-002
44440275.172	9.114437e-002	-2.381567e-002	5.725627e-001	-7.240136e-001	5.731476e-001	-7.234838e-001	8.609726e-002	-2.882745e-002
44471544.715	9.119044e-002	-2.384015e-002	5.722368e-001	-7.245133e-001	5.726943e-001	-7.237752e-001	8.615335e-002	-2.891051e-002
44502814.259	9.125767e-002	-2.396319e-002	5.717889e-001	-7.245281e-001	5.718935e-001	-7.240510e-001	8.621256e-002	-2.902960e-002
44534083.802	9.117490e-002	-2.397966e-002	5.714835e-001	-7.251200e-001	5.715395e-001	-7.244494e-001	8.613646e-002	-2.918592e-002
44565353.346	9.115315e-002	-2.407621e-002	5.708185e-001	-7.253267e-001	5.711830e-001	-7.249508e-001	8.608181e-002	-2.910736e-002
44596622.889	9.116865e-002	-2.420300e-002	5.704868e-001	-7.254990e-001	5.707726e-001	-7.249971e-001	8.612627e-002	-2.925193e-002
44627892.433	9.128001e-002	-2.426668e-002	5.699486e-001	-7.258742e-001	5.702741e-001	-7.254229e-001	8.603956e-002	-2.945399e-002
44659161.976	9.127560e-002	-2.438662e-002	5.692896e-001	-7.262969e-001	5.699715e-001	-7.255754e-001	8.613693e-002	-2.946641e-002
44690431.520	9.125864e-002	-2.450855e-002	5.692730e-001	-7.265585e-001	5.693275e-001	-7.258909e-001	8.610569e-002	-2.957564e-002
44721701.063	9.131652e-002	-2.454654e-002	5.687632e-001	-7.268347e-001	5.688412e-001	-7.263423e-001	8.613216e-002	-2.960067e-002
44752970.607	9.117203e-002	-2.473974e-002	5.680875e-001	-7.271558e-001	5.683049e-001	-7.268123e-001	8.618152e-002	-2.978260e-002
