!Agilent Technologies,E5061B,MY49102235,A.02.00
!Date: Mon Jul 03 11:00:49 2023
!Data & Calibration Information:
!Freq	S11:SOLT2(ON)	S21:SOLT2(ON)	S12:SOLT2(ON)	S22:SOLT2(ON)
# Hz S RI R 50
40000000.000	8.165865e-002	-3.785747e-002	6.424281e-001	-6.524772e-001	6.425197e-001	-6.516167e-001	7.658643e-002	-4.130358e-002
40031269.543	8.164667e-002	-3.798930e-002	6.420612e-001	-6.528016e-001	6.421758e-001	-6.518689e-001	7.660370e-002	-4.135773e-002
40062539.087	8.162153e-002	-3.805917e-002	6.414385e-001	-6.529334e-001	6.417273e-001	-6.521847e-001	7.660532e-002	-4.150462e-002
40093808.630	8.161161e-002	-3.812121e-002	6.411025e-001	-6.534037e-001	6.412884e-001	-6.527228e-001	7.657344e-002	-4.154845e-002
40125078.174	8.159141e-002	-3.817747e-002	6.407296e-001	-6.536919e-001	6.407926e-001	-6.529688e-001	7.663033e-002	-4.155318e-002
40156347.717	8.164348e-002	-3.831288e-002	6.404114e-001	-6.541714e-001	6.404109e-001	-6.534611e-001	7.654074e-002	-4.171474e-002
40187617.261	8.161108e-002	-3.843667e-002	6.400203e-001	-6.543711e-001	6.401736e-001	-6.538100e-001	7.654100e-002	-4.189811e-002
40218886.804	8.163796e-002	-3.845158e-002	6.395659e-001	-6.548975e-001	6.396178e-001	-6.539735e-001	7.657396e-002	-4.193820e-002
40250156.348	8.162384e-002	-3.854030e-002	6.392233e-001	-6.550834e-001	6.393059e-001	-6.544607e-001	7.644990e-002	-4.203578e-002
40281425.891	8.158975e-002	-3.865000e-002	6.387766e-001	-6.555076e-001	6.388677e-001	-6.547202e-001	7.649089e-002	-4.206983e-002
40312695.435	8.163608e-002	-3.873444e-002	6.383103e-001	-6.560028e-001	6.384672e-001	-6.549958e-001	7.651072e-002	-4.217541e-002
40343964.978	8.163620e-002	-3.875887e-002	6.379306e-001	-6.560578e-001	6.380335e-001	-6.553974e-001	7.647681e-002	-4.220357e-002
40375234.522	8.165180e-002	-3.884768e-002	6.374122e-001	-6.565114e-001	6.377090e-001	-6.556824e-001	7.642142e-002	-4.231806e-002
40406504.065	8.158075e-002	-3.887612e-002	6.369731e-001	-6.567156e-001	6.372118e-001	-6.561898e-001	7.646131e-002	-4.247164e-002
40437773.609	8.153070e-002	-3.907001e-002	6.368561e-001	-6.571188e-001	6.369270e-001	-6.564052e-001	7.641488e-002	-4.258099e-002
40469043.152	8.161569e-002	-3.914125e-002	6.363197e-001	-6.574842e-001	6.365183e-001	-6.567579e-001	7.639820e-002	-4.258355e-002
40500312.695	8.154574e-002	-3.929645e-002	6.357460e-001	-6.578938e-001	6.361038e-001	-6.571149e-001	7.636029e-002	-4.264553e-002
40531582.239	8.158191e-002	-3.928950e-002	6.354141e-001	-6.579403e-001	6.355432e-001	-6.576810e-001	7.633249e-002	-4.271241e-002
40562851.782	8.156594e-002	-3.933662e-002	6.349334e-001	-6.584383e-001	6.351457e-001	-6.577968e-001	7.638736e-002	-4.295844e-002
40594121.326	8.158278e-002	-3.947661e-002	6.347728e-001	-6.589106e-001	6.348130e-001	-6.580634e-001	7.637123e-002	-4.289609e-002
40625390.869	8.159176e-002	-3.950377e-002	6.343447e-001	-6.591761e-001	6.345891e-001	-6.585985e-001	7.629064e-002	-4.306867e-002
40656660.413	8.156722e-002	-3.960472e-002	6.338462e-001	-6.595369e-001	6.341352e-001	-6.587413e-001	7.631219e-002	-4.309623e-002
40687929.956	8.160146e-002	-3.967283e-002	6.336873e-001	-6.600593e-001	6.337697e-001	-6.591068e-001	7.628763e-002	-4.320846e-002
40719199.500	8.156311e-002	-3.970973e-002	6.329706e-001	-6.601417e-001	6.331897e-001	-6.596777e-001	7.634916e-002	-4.331406e-002
40750469.043	8.153970e-002	-3.983463e-002	6.325362e-001	-6.603749e-001	6.327570e-001	-6.599152e-001	7.617965e-002	-4.334774e-002
40781738.587	8.159883e-002	-4.001367e-002	6.322615e-001	-6.609759e-001	6.323725e-001	-6.602761e-001	7.614803e-002	-4.342866e-002
40813008.130	8.152422e-002	-4.005511e-002	6.319747e-001	-6.611799e-001	6.318788e-001	-6.606176e-001	7.619290e-002	-4.351810e-002
40844277.674	8.155441e-002	-4.005622e-002	6.313987e-001	-6.615275e-001	6.315093e-001	-6.609015e-001	7.611791e-002	-4.358720e-002
40875547.217	8.155428e-002	-4.020509e-002	6.309242e-001	-6.619888e-001	6.312641e-001	-6.611256e-001	7.614329e-002	-4.370455e-002
40906816.760	8.154915e-002	-4.023822e-002	6.307366e-001	-6.622739e-001	6.307625e-001	-6.615091e-001	7.622745e-002	-4.383103e-002
40938086.304	8.145661e-002	-4.037477e-002	6.300629e-001	-6.626562e-001	6.304745e-001	-6.619548e-001	7.608922e-002	-4.388255e-002
40969355.847	8.147977e-002	-4.039836e-002	6.296128e-001	-6.628566e-001	6.299454e-001	-6.622394e-001	7.607359e-002	-4.393410e-002
41000625.391	8.147648e-002	-4.046181e-002	6.291659e-001	-6.631373e-001	6.294151e-001	-6.624983e-001	7.609531e-002	-4.400712e-002
41031894.934	8.164541e-002	-4.052567e-002	6.290686e-001	-6.634921e-001	6.290655e-001	-6.629968e-001	7.604677e-002	-4.408921e-002
41063164.478	8.149913e-002	-4.062699e-002	6.286069e-001	-6.639071e-001	6.287865e-001	-6.633177e-001	7.606775e-002	-4.423948e-002
41094434.021	8.147129e-002	-4.075675e-002	6.281536e-001	-6.641987e-001	6.282829e-001	-6.635131e-001	7.601219e-002	-4.429771e-002
41125703.565	8.149694e-002	-4.083706e-002	6.277905e-001	-6.645881e-001	6.280036e-001	-6.638013e-001	7.598123e-002	-4.434710e-002
41156973.108	8.153859e-002	-4.095328e-002	6.274217e-001	-6.647542e-001	6.273864e-001	-6.642604e-001	7.596085e-002	-4.446360e-002
41188242.652	8.149881e-002	-4.093020e-002	6.269364e-001	-6.654138e-001	6.271063e-001	-6.645901e-001	7.604054e-002	-4.459887e-002
41219512.195	8.151583e-002	-4.114055e-002	6.264869e-001	-6.656594e-001	6.266088e-001	-6.648991e-001	7.594042e-002	-4.470370e-002
41250781.739	8.144879e-002	-4.116811e-002	6.258908e-001	-6.661159e-001	6.261948e-001	-6.653064e-001	7.596197e-002	-4.472044e-002
41282051.282	8.146935e-002	-4.130151e-002	6.256596e-001	-6.663170e-001	6.257836e-001	-6.656200e-001	7.586244e-002	-4.484707e-002
41313320.826	8.143671e-002	-4.128049e-002	6.251491e-001	-6.665270e-001	6.253986e-001	-6.658815e-001	7.589333e-002	-4.493722e-002
41344590.369	8.139143e-002	-4.145127e-002	6.247027e-001	-6.667312e-001	6.250557e-001	-6.663270e-001	7.592544e-002	-4.495017e-002
41375859.912	8.133880e-002	-4.146259e-002	6.244334e-001	-6.672831e-001	6.243526e-001	-6.665411e-001	7.589677e-002	-4.507783e-002
41407129.456	8.139585e-002	-4.158317e-002	6.241042e-001	-6.674590e-001	6.241188e-001	-6.667913e-001	7.578650e-002	-4.508728e-002
41438398.999	8.140802e-002	-4.173246e-002	6.237524e-001	-6.680355e-001	6.238429e-001	-6.672437e-001	7.576778e-002	-4.519815e-002
41469668.543	8.136818e-002	-4.164089e-002	6.231313e-001	-6.683239e-001	6.232948e-001	-6.677059e-001	7.579357e-002	-4.531524e-002
41500938.086	8.138233e-002	-4.184861e-002	6.228194e-001	-6.685577e-001	6.230283e-001	-6.678883e-001	7.575415e-002	-4.545299e-002
41532207.630	8.139845e-002	-4.192493e-002	6.223947e-001	-6.689066e-001	6.225777e-001	-6.682549e-001	7.574781e-002	-4.551054e-002
41563477.173	8.141473e-002	-4.205201e-002	6.219295e-001	-6.693369e-001	6.221168e-001	-6.685028e-001	7.579355e-002	-4.562749e-002
41594746.717	8.143945e-002	-4.211089e-002	6.214715e-001	-6.695905e-001	6.217016e-001	-6.689282e-001	7.571081e-002	-4.562089e-002
41626016.260	8.125523e-002	-4.220343e-002	6.211119e-001	-6.699461e-001	6.212678e-001	-6.692367e-001	7.566988e-002	-4.572455e-002
41657285.804	8.137740e-002	-4.231245e-002	6.207583e-001	-6.703224e-001	6.208994e-001	-6.695199e-001	7.571360e-002	-4.582840e-002
41688555.347	8.140222e-002	-4.233391e-002	6.202903e-001	-6.705667e-001	6.204946e-001	-6.699508e-001	7.566497e-002	-4.590769e-002
41719824.891	8.140555e-002	-4.236070e-002	6.199258e-001	-6.709978e-001	6.200642e-001	-6.701662e-001	7.563525e-002	-4.595227e-002
41751094.434	8.131507e-002	-4.236023e-002	6.195074e-001	-6.711753e-001	6.195665e-001	-6.707577e-001	7.564249e-002	-4.614621e-002
41782363.977	8.140012e-002	-4.260291e-002	6.191583e-001	-6.716314e-001	6.193071e-001	-6.708693e-001	7.548504e-002	-4.616440e-002
41813633.521	8.131612e-002	-4.267535e-002	6.185910e-001	-6.718360e-001	6.189144e-001	-6.711872e-001	7.561924e-002	-4.621685e-002
41844903.064	8.129963e-002	-4.272214e-002	6.183678e-001	-6.721162e-001	6.183652e-001	-6.716278e-001	7.552565e-002	-4.631943e-002
41876172.608	8.131152e-002	-4.283966e-002	6.176593e-001	-6.725657e-001	6.181339e-001	-6.719764e-001	7.544542e-002	-4.636491e-002
41907442.151	8.126032e-002	-4.285652e-002	6.174056e-001	-6.728320e-001	6.176701e-001	-6.723491e-001	7.544472e-002	-4.647397e-002
41938711.695	8.136462e-002	-4.299348e-002	6.169142e-001	-6.731951e-001	6.172759e-001	-6.725018e-001	7.553709e-002	-4.661208e-002
41969981.238	8.129836e-002	-4.314194e-002	6.166030e-001	-6.735534e-001	6.166914e-001	-6.730255e-001	7.551377e-002	-4.666068e-002
42001250.782	8.132262e-002	-4.311408e-002	6.161731e-001	-6.739083e-001	6.163677e-001	-6.730542e-001	7.546412e-002	-4.674785e-002
42032520.325	8.131254e-002	-4.317764e-002	6.157265e-001	-6.742202e-001	6.161230e-001	-6.734123e-001	7.538130e-002	-4.682453e-002
42063789.869	8.125349e-002	-4.331002e-002	6.154082e-001	-6.745139e-001	6.154490e-001	-6.739760e-001	7.533125e-002	-4.691806e-002
42095059.412	8.127191e-002	-4.340338e-002	6.149429e-001	-6.748687e-001	6.152082e-001	-6.742773e-001	7.536306e-002	-4.694263e-002
42126328.956	8.121677e-002	-4.348240e-002	6.145279e-001	-6.750674e-001	6.146390e-001	-6.744995e-001	7.529336e-002	-4.708733e-002
42157598.499	8.129007e-002	-4.360686e-002	6.140858e-001	-6.754841e-001	6.142439e-001	-6.749609e-001	7.531778e-002	-4.715057e-002
42188868.043	8.125486e-002	-4.368810e-002	6.138096e-001	-6.757044e-001	6.139056e-001	-6.752173e-001	7.527274e-002	-4.720838e-002
42220137.586	8.131643e-002	-4.374287e-002	6.132349e-001	-6.762377e-001	6.134605e-001	-6.754107e-001	7.525071e-002	-4.733262e-002
42251407.129	8.122801e-002	-4.386095e-002	6.129432e-001	-6.766110e-001	6.130040e-001	-6.758978e-001	7.520479e-002	-4.734999e-002
42282676.673	8.125593e-002	-4.394140e-002	6.124235e-001	-6.767952e-001	6.125697e-001	-6.761431e-001	7.523089e-002	-4.747753e-002
42313946.216	8.121308e-002	-4.396877e-002	6.120852e-001	-6.772214e-001	6.122533e-001	-6.765788e-001	7.519887e-002	-4.757837e-002
42345215.760	8.112280e-002	-4.411058e-002	6.115723e-001	-6.775076e-001	6.117441e-001	-6.769129e-001	7.508539e-002	-4.760287e-002
42376485.303	8.115056e-002	-4.420253e-002	6.111265e-001	-6.778638e-001	6.113130e-001	-6.771223e-001	7.514771e-002	-4.768113e-002
42407754.847	8.117842e-002	-4.425135e-002	6.106939e-001	-6.781186e-001	6.109292e-001	-6.774832e-001	7.513848e-002	-4.777783e-002
42439024.390	8.112592e-002	-4.437392e-002	6.103295e-001	-6.784906e-001	6.105232e-001	-6.776978e-001	7.507658e-002	-4.793020e-002
42470293.934	8.118198e-002	-4.447382e-002	6.099623e-001	-6.788296e-001	6.102030e-001	-6.781382e-001	7.509147e-002	-4.799560e-002
42501563.477	8.112799e-002	-4.445121e-002	6.096008e-001	-6.790441e-001	6.097767e-001	-6.785806e-001	7.510029e-002	-4.807841e-002
42532833.021	8.118512e-002	-4.457625e-002	6.091719e-001	-6.793810e-001	6.094239e-001	-6.789489e-001	7.497600e-002	-4.816293e-002
42564102.564	8.112176e-002	-4.466775e-002	6.086934e-001	-6.798669e-001	6.088794e-001	-6.791881e-001	7.498238e-002	-4.827724e-002
42595372.108	8.115714e-002	-4.473815e-002	6.081612e-001	-6.801896e-001	6.084798e-001	-6.795886e-001	7.489517e-002	-4.833521e-002
42626641.651	8.109374e-002	-4.495193e-002	6.079171e-001	-6.803305e-001	6.080840e-001	-6.797175e-001	7.489406e-002	-4.838892e-002
42657911.194	8.109094e-002	-4.493502e-002	6.074222e-001	-6.807758e-001	6.076600e-001	-6.801449e-001	7.491474e-002	-4.848394e-002
42689180.738	8.105024e-002	-4.496819e-002	6.070850e-001	-6.810639e-001	6.072309e-001	-6.804859e-001	7.482732e-002	-4.858046e-002
42720450.281	8.101900e-002	-4.513350e-002	6.064617e-001	-6.811865e-001	6.067458e-001	-6.807374e-001	7.488775e-002	-4.865939e-002
42751719.825	8.103678e-002	-4.529023e-002	6.061818e-001	-6.816693e-001	6.065809e-001	-6.809655e-001	7.488707e-002	-4.878714e-002
42782989.368	8.094812e-002	-4.527387e-002	6.057569e-001	-6.822063e-001	6.059836e-001	-6.814385e-001	7.479171e-002	-4.879639e-002
42814258.912	8.105188e-002	-4.536354e-002	6.055042e-001	-6.823662e-001	6.056126e-001	-6.817740e-001	7.477839e-002	-4.902405e-002
42845528.455	8.098906e-002	-4.540567e-002	6.049036e-001	-6.827757e-001	6.052108e-001	-6.820722e-001	7.478855e-002	-4.898563e-002
42876797.999	8.104262e-002	-4.554642e-002	6.046137e-001	-6.828914e-001	6.047020e-001	-6.824407e-001	7.471182e-002	-4.914498e-002
42908067.542	8.094132e-002	-4.561114e-002	6.041160e-001	-6.831476e-001	6.044482e-001	-6.825885e-001	7.467183e-002	-4.927127e-002
42939337.086	8.102216e-002	-4.567826e-002	6.036777e-001	-6.835350e-001	6.037494e-001	-6.829868e-001	7.470857e-002	-4.933287e-002
42970606.629	8.094991e-002	-4.583691e-002	6.032323e-001	-6.839259e-001	6.033983e-001	-6.833546e-001	7.459686e-002	-4.946463e-002
43001876.173	8.093204e-002	-4.588775e-002	6.028433e-001	-6.843061e-001	6.030809e-001	-6.837255e-001	7.460823e-002	-4.939485e-002
43033145.716	8.102581e-002	-4.592861e-002	6.023002e-001	-6.846131e-001	6.025944e-001	-6.840626e-001	7.455524e-002	-4.950136e-002
43064415.260	8.098588e-002	-4.608791e-002	6.019351e-001	-6.848549e-001	6.023083e-001	-6.843218e-001	7.454272e-002	-4.965123e-002
43095684.803	8.090503e-002	-4.611447e-002	6.015048e-001	-6.852770e-001	6.017916e-001	-6.846310e-001	7.448680e-002	-4.972536e-002
43126954.346	8.098219e-002	-4.618851e-002	6.011813e-001	-6.855622e-001	6.013273e-001	-6.849698e-001	7.446253e-002	-4.972196e-002
43158223.890	8.092627e-002	-4.630876e-002	6.007633e-001	-6.857230e-001	6.008949e-001	-6.852401e-001	7.442549e-002	-4.982161e-002
43189493.433	8.089177e-002	-4.645447e-002	6.004608e-001	-6.863015e-001	6.003295e-001	-6.857017e-001	7.441222e-002	-4.988102e-002
43220762.977	8.090873e-002	-4.644717e-002	5.999591e-001	-6.865779e-001	6.001411e-001	-6.858554e-001	7.438559e-002	-5.005510e-002
43252032.520	8.083742e-002	-4.662403e-002	5.994618e-001	-6.868517e-001	5.996154e-001	-6.863301e-001	7.441432e-002	-5.016762e-002
43283302.064	8.083993e-002	-4.658545e-002	5.990537e-001	-6.871141e-001	5.991666e-001	-6.864912e-001	7.440937e-002	-5.018667e-002
43314571.607	8.077937e-002	-4.677473e-002	5.986925e-001	-6.874921e-001	5.990281e-001	-6.868780e-001	7.433521e-002	-5.017792e-002
43345841.151	8.084236e-002	-4.681911e-002	5.982006e-001	-6.877664e-001	5.984506e-001	-6.871977e-001	7.431134e-002	-5.029672e-002
43377110.694	8.075655e-002	-4.692663e-002	5.978172e-001	-6.880639e-001	5.979406e-001	-6.875560e-001	7.424488e-002	-5.042525e-002
43408380.238	8.083216e-002	-4.706852e-002	5.974718e-001	-6.885736e-001	5.975441e-001	-6.877356e-001	7.428266e-002	-5.052212e-002
43439649.781	8.079749e-002	-4.712684e-002	5.969019e-001	-6.887538e-001	5.970267e-001	-6.881672e-001	7.429253e-002	-5.062228e-002
43470919.325	8.073301e-002	-4.719645e-002	5.964462e-001	-6.891424e-001	5.968333e-001	-6.885712e-001	7.425819e-002	-5.062054e-002
43502188.868	8.072424e-002	-4.732301e-002	5.961343e-001	-6.894782e-001	5.962008e-001	-6.887852e-001	7.420242e-002	-5.072496e-002
43533458.412	8.078676e-002	-4.732253e-002	5.957045e-001	-6.896079e-001	5.958454e-001	-6.890457e-001	7.421849e-002	-5.088700e-002
43564727.955	8.068368e-002	-4.740788e-002	5.953315e-001	-6.899256e-001	5.954220e-001	-6.896095e-001	7.412169e-002	-5.097749e-002
43595997.498	8.070482e-002	-4.757981e-002	5.948498e-001	-6.902251e-001	5.948928e-001	-6.897030e-001	7.408894e-002	-5.101147e-002
43627267.042	8.068908e-002	-4.766817e-002	5.945749e-001	-6.905912e-001	5.945775e-001	-6.901285e-001	7.405541e-002	-5.105258e-002
43658536.585	8.069968e-002	-4.777276e-002	5.939919e-001	-6.909001e-001	5.941483e-001	-6.903915e-001	7.402469e-002	-5.116513e-002
43689806.129	8.073818e-002	-4.787694e-002	5.935178e-001	-6.912254e-001	5.937711e-001	-6.906756e-001	7.403656e-002	-5.130838e-002
43721075.672	8.061253e-002	-4.777466e-002	5.930618e-001	-6.914936e-001	5.933224e-001	-6.910432e-001	7.400701e-002	-5.139672e-002
43752345.216	8.067502e-002	-4.802716e-002	5.928857e-001	-6.919328e-001	5.928436e-001	-6.913897e-001	7.400944e-002	-5.142442e-002
43783614.759	8.066528e-002	-4.810502e-002	5.922581e-001	-6.921555e-001	5.925688e-001	-6.916778e-001	7.394657e-002	-5.156634e-002
43814884.303	8.054922e-002	-4.812691e-002	5.919558e-001	-6.924865e-001	5.920599e-001	-6.919340e-001	7.389598e-002	-5.157637e-002
43846153.846	8.062415e-002	-4.827122e-002	5.915987e-001	-6.927788e-001	5.917675e-001	-6.923307e-001	7.384104e-002	-5.168676e-002
43877423.390	8.058070e-002	-4.835947e-002	5.910040e-001	-6.932530e-001	5.912540e-001	-6.925853e-001	7.388775e-002	-5.177498e-002
43908692.933	8.053199e-002	-4.832826e-002	5.905150e-001	-6.935628e-001	5.909404e-001	-6.928296e-001	7.380790e-002	-5.180153e-002
43939962.477	8.051333e-002	-4.844111e-002	5.902933e-001	-6.938762e-001	5.904576e-001	-6.932558e-001	7.379119e-002	-5.192875e-002
43971232.020	8.053394e-002	-4.859564e-002	5.897282e-001	-6.941151e-001	5.899657e-001	-6.935854e-001	7.377923e-002	-5.203207e-002
44002501.563	8.051488e-002	-4.871247e-002	5.892883e-001	-6.942798e-001	5.896294e-001	-6.937115e-001	7.377222e-002	-5.203081e-002
44033771.107	8.052602e-002	-4.878691e-002	5.889251e-001	-6.948071e-001	5.891680e-001	-6.940540e-001	7.370586e-002	-5.216037e-002
44065040.650	8.051807e-002	-4.878021e-002	5.885626e-001	-6.950523e-001	5.887788e-001	-6.944427e-001	7.376644e-002	-5.220607e-002
44096310.194	8.042046e-002	-4.891568e-002	5.881897e-001	-6.953258e-001	5.882821e-001	-6.947103e-001	7.366537e-002	-5.235649e-002
44127579.737	8.043092e-002	-4.903591e-002	5.877006e-001	-6.956684e-001	5.879180e-001	-6.949428e-001	7.364343e-002	-5.245324e-002
44158849.281	8.045597e-002	-4.909216e-002	5.872698e-001	-6.959050e-001	5.875650e-001	-6.954189e-001	7.361673e-002	-5.253676e-002
44190118.824	8.039736e-002	-4.918445e-002	5.868101e-001	-6.962362e-001	5.871392e-001	-6.957717e-001	7.355758e-002	-5.259961e-002
44221388.368	8.033976e-002	-4.924887e-002	5.865218e-001	-6.966299e-001	5.865491e-001	-6.959995e-001	7.347049e-002	-5.265654e-002
44252657.911	8.035306e-002	-4.933991e-002	5.859846e-001	-6.968975e-001	5.861668e-001	-6.963764e-001	7.357240e-002	-5.279204e-002
44283927.455	8.033502e-002	-4.945099e-002	5.855473e-001	-6.971317e-001	5.858203e-001	-6.966239e-001	7.337805e-002	-5.290862e-002
44315196.998	8.031782e-002	-4.950716e-002	5.852302e-001	-6.975811e-001	5.853767e-001	-6.969387e-001	7.347549e-002	-5.298929e-002
44346466.542	8.031002e-002	-4.961277e-002	5.846595e-001	-6.978562e-001	5.849376e-001	-6.972811e-001	7.336641e-002	-5.302050e-002
44377736.085	8.030672e-002	-4.967059e-002	5.842697e-001	-6.979916e-001	5.843727e-001	-6.974880e-001	7.327942e-002	-5.305682e-002
44409005.629	8.031913e-002	-4.972576e-002	5.837759e-001	-6.985017e-001	5.840153e-001	-6.977464e-001	7.334853e-002	-5.319570e-002
44440275.172	8.029349e-002	-4.994241e-002	5.833447e-001	-6.986728e-001	5.836951e-001	-6.981810e-001	7.327879e-002	-5.325378e-002
44471544.715	8.024746e-002	-5.000383e-002	5.829200e-001	-6.990478e-001	5.832970e-001	-6.984664e-001	7.332360e-002	-5.333351e-002
44502814.259	8.031213e-002	-5.011292e-002	5.825789e-001	-6.991076e-001	5.826583e-001	-6.987623e-001	7.330785e-002	-5.344118e-002
44534083.802	8.020714e-002	-5.010734e-002	5.820551e-001	-6.997229e-001	5.823416e-001	-6.990523e-001	7.322313e-002	-5.358007e-002
44565353.346	8.018429e-002	-5.019576e-002	5.816728e-001	-6.999996e-001	5.819923e-001	-6.993657e-001	7.316485e-002	-5.351148e-002
44596622.889	8.014045e-002	-5.031918e-002	5.813228e-001	-7.002109e-001	5.815508e-001	-6.996392e-001	7.316170e-002	-5.366669e-002
44627892.433	8.019354e-002	-5.040168e-002	5.808520e-001	-7.005342e-001	5.810763e-001	-7.000032e-001	7.305680e-002	-5.381061e-002
44659161.976	8.015218e-002	-5.044445e-002	5.802694e-001	-7.008396e-001	5.807236e-001	-7.002865e-001	7.308637e-002	-5.383377e-002
44690431.520	8.015151e-002	-5.064009e-002	5.800151e-001	-7.011872e-001	5.801969e-001	-7.005457e-001	7.305798e-002	-5.391195e-002
44721701.063	8.013357e-002	-5.065603e-002	5.797126e-001	-7.014575e-001	5.798171e-001	-7.010519e-001	7.305419e-002	-5.394594e-002
44752970.607	8.002060e-002	-5.082962e-002	5.791230e-001	-7.017912e-001	5.792858e-001	-7.013906e-001	7.304615e-002	-5.412849e-002
