!Agilent Technologies,E5061B,MY49102235,A.02.00
!Date: Mon Jul 03 10:27:24 2023
!Data & Calibration Information:
!Freq	S11:SOLT2(ON)	S21:SOLT2(ON)	S12:SOLT2(ON)	S22:SOLT2(ON)
# Hz S RI R 50
40000000.000	7.608596e-002	-3.601729e-002	6.483320e-001	-6.538799e-001	6.484581e-001	-6.527775e-001	7.110510e-002	-3.936121e-002
40031269.543	7.603567e-002	-3.615595e-002	6.479121e-001	-6.540701e-001	6.482787e-001	-6.530872e-001	7.114809e-002	-3.940466e-002
40062539.087	7.608384e-002	-3.621417e-002	6.475815e-001	-6.543103e-001	6.476719e-001	-6.533518e-001	7.111245e-002	-3.957840e-002
40093808.630	7.595755e-002	-3.624606e-002	6.469145e-001	-6.545893e-001	6.472683e-001	-6.539782e-001	7.108022e-002	-3.963517e-002
40125078.174	7.596270e-002	-3.632248e-002	6.465259e-001	-6.551075e-001	6.467372e-001	-6.543453e-001	7.111602e-002	-3.965491e-002
40156347.717	7.603590e-002	-3.645011e-002	6.463211e-001	-6.556346e-001	6.463926e-001	-6.546950e-001	7.101040e-002	-3.972383e-002
40187617.261	7.598757e-002	-3.657119e-002	6.458535e-001	-6.555951e-001	6.460998e-001	-6.551289e-001	7.104124e-002	-3.994851e-002
40218886.804	7.601823e-002	-3.662950e-002	6.455420e-001	-6.561068e-001	6.456048e-001	-6.550146e-001	7.107637e-002	-3.996080e-002
40250156.348	7.607955e-002	-3.662536e-002	6.451696e-001	-6.565179e-001	6.453759e-001	-6.556714e-001	7.095644e-002	-4.010052e-002
40281425.891	7.601230e-002	-3.680810e-002	6.448057e-001	-6.569056e-001	6.449130e-001	-6.559935e-001	7.096756e-002	-4.008756e-002
40312695.435	7.602125e-002	-3.687831e-002	6.442333e-001	-6.572829e-001	6.444320e-001	-6.562459e-001	7.093535e-002	-4.018922e-002
40343964.978	7.597139e-002	-3.690989e-002	6.439363e-001	-6.573231e-001	6.438392e-001	-6.567175e-001	7.092046e-002	-4.025745e-002
40375234.522	7.607801e-002	-3.696898e-002	6.433913e-001	-6.577761e-001	6.437414e-001	-6.569559e-001	7.092491e-002	-4.036040e-002
40406504.065	7.593417e-002	-3.697096e-002	6.429867e-001	-6.580027e-001	6.431474e-001	-6.574601e-001	7.095001e-002	-4.049769e-002
40437773.609	7.590750e-002	-3.714383e-002	6.429573e-001	-6.584247e-001	6.429644e-001	-6.576797e-001	7.087168e-002	-4.060432e-002
40469043.152	7.595753e-002	-3.722612e-002	6.422602e-001	-6.586809e-001	6.426539e-001	-6.580465e-001	7.090383e-002	-4.056320e-002
40500312.695	7.591582e-002	-3.743007e-002	6.417299e-001	-6.592729e-001	6.421862e-001	-6.583458e-001	7.083963e-002	-4.069599e-002
40531582.239	7.593135e-002	-3.741599e-002	6.414786e-001	-6.593368e-001	6.415531e-001	-6.589500e-001	7.080872e-002	-4.071429e-002
40562851.782	7.588587e-002	-3.742094e-002	6.408754e-001	-6.599151e-001	6.411997e-001	-6.589820e-001	7.088909e-002	-4.095759e-002
40594121.326	7.595761e-002	-3.755126e-002	6.408612e-001	-6.601666e-001	6.407910e-001	-6.594656e-001	7.087893e-002	-4.093117e-002
40625390.869	7.590369e-002	-3.756712e-002	6.403614e-001	-6.605178e-001	6.406946e-001	-6.598442e-001	7.073125e-002	-4.104774e-002
40656660.413	7.591497e-002	-3.769115e-002	6.398279e-001	-6.607874e-001	6.402327e-001	-6.600206e-001	7.077238e-002	-4.107965e-002
40687929.956	7.592895e-002	-3.776073e-002	6.397292e-001	-6.612854e-001	6.398938e-001	-6.604030e-001	7.074589e-002	-4.124210e-002
40719199.500	7.587576e-002	-3.779991e-002	6.388547e-001	-6.614842e-001	6.391733e-001	-6.608520e-001	7.082585e-002	-4.126158e-002
40750469.043	7.586249e-002	-3.794255e-002	6.385103e-001	-6.619838e-001	6.387612e-001	-6.612205e-001	7.064707e-002	-4.135508e-002
40781738.587	7.594025e-002	-3.811924e-002	6.382902e-001	-6.623817e-001	6.384856e-001	-6.615552e-001	7.065395e-002	-4.142079e-002
40813008.130	7.586167e-002	-3.814367e-002	6.380424e-001	-6.624730e-001	6.378835e-001	-6.619517e-001	7.061418e-002	-4.150905e-002
40844277.674	7.593057e-002	-3.812576e-002	6.373410e-001	-6.629445e-001	6.376469e-001	-6.622630e-001	7.055780e-002	-4.158484e-002
40875547.217	7.591232e-002	-3.826490e-002	6.370204e-001	-6.633472e-001	6.372691e-001	-6.623750e-001	7.054859e-002	-4.162229e-002
40906816.760	7.586922e-002	-3.826556e-002	6.366761e-001	-6.636386e-001	6.367297e-001	-6.626623e-001	7.069027e-002	-4.179982e-002
40938086.304	7.577082e-002	-3.840606e-002	6.359511e-001	-6.639982e-001	6.364741e-001	-6.633228e-001	7.054845e-002	-4.183453e-002
40969355.847	7.583523e-002	-3.847638e-002	6.355452e-001	-6.642882e-001	6.360058e-001	-6.634676e-001	7.050099e-002	-4.187537e-002
41000625.391	7.584750e-002	-3.850616e-002	6.351443e-001	-6.646730e-001	6.355468e-001	-6.637304e-001	7.049537e-002	-4.190471e-002
41031894.934	7.597229e-002	-3.858696e-002	6.351282e-001	-6.648183e-001	6.351999e-001	-6.643409e-001	7.048229e-002	-4.202572e-002
41063164.478	7.579791e-002	-3.868070e-002	6.346149e-001	-6.653393e-001	6.349030e-001	-6.647018e-001	7.050255e-002	-4.216978e-002
41094434.021	7.581597e-002	-3.880571e-002	6.342764e-001	-6.657153e-001	6.344657e-001	-6.647178e-001	7.043395e-002	-4.227134e-002
41125703.565	7.583239e-002	-3.883564e-002	6.338360e-001	-6.659186e-001	6.340484e-001	-6.652414e-001	7.040947e-002	-4.228016e-002
41156973.108	7.583007e-002	-3.900513e-002	6.332891e-001	-6.661523e-001	6.333744e-001	-6.655308e-001	7.038960e-002	-4.241130e-002
41188242.652	7.582273e-002	-3.895859e-002	6.329485e-001	-6.667728e-001	6.332919e-001	-6.658641e-001	7.047523e-002	-4.255051e-002
41219512.195	7.584059e-002	-3.917408e-002	6.324296e-001	-6.670243e-001	6.325157e-001	-6.661818e-001	7.034916e-002	-4.267036e-002
41250781.739	7.570498e-002	-3.918377e-002	6.317950e-001	-6.675566e-001	6.323442e-001	-6.666774e-001	7.040416e-002	-4.264874e-002
41282051.282	7.580339e-002	-3.931902e-002	6.317839e-001	-6.677522e-001	6.318409e-001	-6.669510e-001	7.031565e-002	-4.280176e-002
41313320.826	7.569615e-002	-3.930382e-002	6.311266e-001	-6.680322e-001	6.315443e-001	-6.673198e-001	7.038399e-002	-4.288854e-002
41344590.369	7.572081e-002	-3.950489e-002	6.306928e-001	-6.681995e-001	6.310838e-001	-6.677216e-001	7.034451e-002	-4.288365e-002
41375859.912	7.559179e-002	-3.944634e-002	6.304325e-001	-6.687170e-001	6.303709e-001	-6.678125e-001	7.028897e-002	-4.298664e-002
41407129.456	7.569511e-002	-3.959817e-002	6.300702e-001	-6.688883e-001	6.302888e-001	-6.681013e-001	7.019145e-002	-4.300794e-002
41438398.999	7.568641e-002	-3.979226e-002	6.298045e-001	-6.693639e-001	6.299605e-001	-6.686159e-001	7.020543e-002	-4.309728e-002
41469668.543	7.566561e-002	-3.960121e-002	6.290809e-001	-6.697190e-001	6.293448e-001	-6.691618e-001	7.022423e-002	-4.324766e-002
41500938.086	7.568524e-002	-3.985896e-002	6.286973e-001	-6.700512e-001	6.291274e-001	-6.693434e-001	7.015551e-002	-4.337335e-002
41532207.630	7.569925e-002	-3.993519e-002	6.283250e-001	-6.705119e-001	6.286945e-001	-6.696193e-001	7.012454e-002	-4.341428e-002
41563477.173	7.569794e-002	-4.003569e-002	6.279395e-001	-6.708115e-001	6.282251e-001	-6.699491e-001	7.019591e-002	-4.350264e-002
41594746.717	7.572959e-002	-4.009697e-002	6.275600e-001	-6.711333e-001	6.278930e-001	-6.703398e-001	7.016968e-002	-4.348964e-002
41626016.260	7.554953e-002	-4.019326e-002	6.272565e-001	-6.713155e-001	6.274313e-001	-6.706474e-001	7.005639e-002	-4.362990e-002
41657285.804	7.562964e-002	-4.028808e-002	6.268012e-001	-6.717136e-001	6.269766e-001	-6.710499e-001	7.010708e-002	-4.373985e-002
41688555.347	7.565671e-002	-4.032482e-002	6.263243e-001	-6.720413e-001	6.267055e-001	-6.713223e-001	7.006810e-002	-4.377391e-002
41719824.891	7.563898e-002	-4.033716e-002	6.258727e-001	-6.724393e-001	6.261981e-001	-6.715229e-001	7.007036e-002	-4.389938e-002
41751094.434	7.556920e-002	-4.033394e-002	6.255613e-001	-6.726110e-001	6.256713e-001	-6.721437e-001	7.003589e-002	-4.404416e-002
41782363.977	7.566574e-002	-4.055884e-002	6.253016e-001	-6.731304e-001	6.253829e-001	-6.722733e-001	6.988775e-002	-4.402332e-002
41813633.521	7.561864e-002	-4.060213e-002	6.247065e-001	-6.732504e-001	6.249798e-001	-6.725484e-001	6.999033e-002	-4.412554e-002
41844903.064	7.558578e-002	-4.066236e-002	6.244703e-001	-6.735713e-001	6.244165e-001	-6.730170e-001	6.990961e-002	-4.421513e-002
41876172.608	7.558587e-002	-4.090305e-002	6.236146e-001	-6.740138e-001	6.243203e-001	-6.733734e-001	6.989874e-002	-4.419870e-002
41907442.151	7.555263e-002	-4.090158e-002	6.233332e-001	-6.743422e-001	6.238102e-001	-6.736783e-001	6.982324e-002	-4.436930e-002
41938711.695	7.556240e-002	-4.092987e-002	6.230306e-001	-6.746467e-001	6.234035e-001	-6.739910e-001	6.996906e-002	-4.448654e-002
41969981.238	7.551679e-002	-4.109472e-002	6.226176e-001	-6.750675e-001	6.227162e-001	-6.745230e-001	6.988752e-002	-4.452412e-002
42001250.782	7.554964e-002	-4.106920e-002	6.221831e-001	-6.754697e-001	6.225291e-001	-6.744387e-001	6.986859e-002	-4.460326e-002
42032520.325	7.555260e-002	-4.111233e-002	6.216723e-001	-6.756608e-001	6.223168e-001	-6.748095e-001	6.976603e-002	-4.460769e-002
42063789.869	7.544545e-002	-4.123641e-002	6.214939e-001	-6.759467e-001	6.215503e-001	-6.753000e-001	6.967736e-002	-4.473758e-002
42095059.412	7.550201e-002	-4.131358e-002	6.209179e-001	-6.763068e-001	6.213186e-001	-6.757282e-001	6.972042e-002	-4.479212e-002
42126328.956	7.550177e-002	-4.142199e-002	6.206030e-001	-6.766090e-001	6.206412e-001	-6.760072e-001	6.966025e-002	-4.491698e-002
42157598.499	7.550578e-002	-4.151520e-002	6.201697e-001	-6.769628e-001	6.203345e-001	-6.763004e-001	6.971800e-002	-4.494119e-002
42188868.043	7.542713e-002	-4.163613e-002	6.198384e-001	-6.771379e-001	6.199788e-001	-6.766359e-001	6.966343e-002	-4.507438e-002
42220137.586	7.554403e-002	-4.167523e-002	6.192082e-001	-6.776906e-001	6.197258e-001	-6.768455e-001	6.959735e-002	-4.518656e-002
42251407.129	7.544320e-002	-4.176141e-002	6.190053e-001	-6.782288e-001	6.191714e-001	-6.773583e-001	6.959219e-002	-4.519558e-002
42282676.673	7.548549e-002	-4.184319e-002	6.185487e-001	-6.784510e-001	6.186706e-001	-6.775439e-001	6.954944e-002	-4.532874e-002
42313946.216	7.544886e-002	-4.183772e-002	6.180771e-001	-6.788167e-001	6.184324e-001	-6.780094e-001	6.954471e-002	-4.536474e-002
42345215.760	7.533198e-002	-4.201098e-002	6.177044e-001	-6.789696e-001	6.178570e-001	-6.784602e-001	6.941266e-002	-4.542112e-002
42376485.303	7.536109e-002	-4.213644e-002	6.171800e-001	-6.794048e-001	6.174544e-001	-6.786250e-001	6.949266e-002	-4.548695e-002
42407754.847	7.536626e-002	-4.220200e-002	6.167942e-001	-6.796484e-001	6.169766e-001	-6.789864e-001	6.954288e-002	-4.559302e-002
42439024.390	7.534836e-002	-4.228558e-002	6.164144e-001	-6.800976e-001	6.165484e-001	-6.791778e-001	6.943690e-002	-4.575754e-002
42470293.934	7.537541e-002	-4.243165e-002	6.159952e-001	-6.804870e-001	6.163518e-001	-6.796755e-001	6.940451e-002	-4.579947e-002
42501563.477	7.526608e-002	-4.230919e-002	6.156932e-001	-6.806100e-001	6.158831e-001	-6.801255e-001	6.943089e-002	-4.593274e-002
42532833.021	7.539899e-002	-4.240358e-002	6.153233e-001	-6.809996e-001	6.155145e-001	-6.804847e-001	6.929538e-002	-4.597632e-002
42564102.564	7.529684e-002	-4.250101e-002	6.147488e-001	-6.814598e-001	6.149636e-001	-6.807311e-001	6.928099e-002	-4.611849e-002
42595372.108	7.539827e-002	-4.258463e-002	6.142130e-001	-6.816909e-001	6.144977e-001	-6.811543e-001	6.924194e-002	-4.617054e-002
42626641.651	7.534520e-002	-4.282863e-002	6.141453e-001	-6.819704e-001	6.141493e-001	-6.813397e-001	6.924844e-002	-4.622645e-002
42657911.194	7.526327e-002	-4.282466e-002	6.136262e-001	-6.823370e-001	6.139112e-001	-6.814932e-001	6.924566e-002	-4.631121e-002
42689180.738	7.522515e-002	-4.279344e-002	6.131596e-001	-6.826347e-001	6.135819e-001	-6.818528e-001	6.918379e-002	-4.639813e-002
42720450.281	7.524383e-002	-4.295965e-002	6.127682e-001	-6.828013e-001	6.130361e-001	-6.822122e-001	6.920599e-002	-4.642184e-002
42751719.825	7.525176e-002	-4.319751e-002	6.122984e-001	-6.832684e-001	6.127613e-001	-6.823196e-001	6.917372e-002	-4.652886e-002
42782989.368	7.513604e-002	-4.311914e-002	6.119933e-001	-6.839188e-001	6.121663e-001	-6.830051e-001	6.913986e-002	-4.657671e-002
42814258.912	7.523501e-002	-4.323938e-002	6.115626e-001	-6.839651e-001	6.118030e-001	-6.831636e-001	6.910210e-002	-4.677882e-002
42845528.455	7.514241e-002	-4.327381e-002	6.110230e-001	-6.844148e-001	6.113169e-001	-6.835951e-001	6.912860e-002	-4.677062e-002
42876797.999	7.525505e-002	-4.341141e-002	6.106376e-001	-6.846063e-001	6.108608e-001	-6.838944e-001	6.900335e-002	-4.690362e-002
42908067.542	7.513087e-002	-4.346056e-002	6.101790e-001	-6.848560e-001	6.106275e-001	-6.841891e-001	6.897045e-002	-4.700465e-002
42939337.086	7.519966e-002	-4.351700e-002	6.099317e-001	-6.851447e-001	6.098802e-001	-6.845652e-001	6.896880e-002	-4.708136e-002
42970606.629	7.511386e-002	-4.366054e-002	6.092673e-001	-6.856556e-001	6.095516e-001	-6.849371e-001	6.892283e-002	-4.723162e-002
43001876.173	7.509140e-002	-4.373510e-002	6.091925e-001	-6.860185e-001	6.092800e-001	-6.851871e-001	6.892658e-002	-4.712193e-002
43033145.716	7.513908e-002	-4.377957e-002	6.083397e-001	-6.863398e-001	6.087349e-001	-6.855804e-001	6.885400e-002	-4.727056e-002
43064415.260	7.510313e-002	-4.390404e-002	6.080929e-001	-6.863170e-001	6.085483e-001	-6.857798e-001	6.881926e-002	-4.739303e-002
43095684.803	7.505702e-002	-4.396930e-002	6.075682e-001	-6.869427e-001	6.079182e-001	-6.861960e-001	6.878188e-002	-4.747073e-002
43126954.346	7.508766e-002	-4.403413e-002	6.073249e-001	-6.873166e-001	6.075532e-001	-6.865189e-001	6.876447e-002	-4.748672e-002
43158223.890	7.508534e-002	-4.414806e-002	6.068679e-001	-6.874623e-001	6.070648e-001	-6.868762e-001	6.872279e-002	-4.754930e-002
43189493.433	7.503071e-002	-4.426464e-002	6.065408e-001	-6.880832e-001	6.065366e-001	-6.873092e-001	6.871896e-002	-4.759821e-002
43220762.977	7.506913e-002	-4.427242e-002	6.060705e-001	-6.881440e-001	6.063582e-001	-6.875507e-001	6.865236e-002	-4.776806e-002
43252032.520	7.497066e-002	-4.444464e-002	6.056988e-001	-6.885591e-001	6.057966e-001	-6.879235e-001	6.870029e-002	-4.786169e-002
43283302.064	7.496065e-002	-4.438483e-002	6.051686e-001	-6.887677e-001	6.053854e-001	-6.880549e-001	6.876080e-002	-4.783983e-002
43314571.607	7.496273e-002	-4.457696e-002	6.047508e-001	-6.892582e-001	6.051548e-001	-6.883777e-001	6.860588e-002	-4.787811e-002
43345841.151	7.495836e-002	-4.462949e-002	6.042557e-001	-6.895446e-001	6.045445e-001	-6.887252e-001	6.864910e-002	-4.793891e-002
43377110.694	7.488622e-002	-4.472852e-002	6.040925e-001	-6.896245e-001	6.040968e-001	-6.891256e-001	6.855550e-002	-4.807264e-002
43408380.238	7.497674e-002	-4.483493e-002	6.037323e-001	-6.902283e-001	6.037713e-001	-6.892095e-001	6.853055e-002	-4.820098e-002
43439649.781	7.495551e-002	-4.490427e-002	6.030555e-001	-6.904461e-001	6.031149e-001	-6.895969e-001	6.855205e-002	-4.825882e-002
43470919.325	7.482610e-002	-4.498275e-002	6.025303e-001	-6.908155e-001	6.030968e-001	-6.902020e-001	6.856205e-002	-4.825376e-002
43502188.868	7.486609e-002	-4.512694e-002	6.023697e-001	-6.911534e-001	6.023995e-001	-6.905321e-001	6.848012e-002	-4.841893e-002
43533458.412	7.487641e-002	-4.504309e-002	6.019294e-001	-6.912738e-001	6.020586e-001	-6.907617e-001	6.844796e-002	-4.855344e-002
43564727.955	7.480177e-002	-4.517107e-002	6.015046e-001	-6.916426e-001	6.016896e-001	-6.911523e-001	6.838731e-002	-4.861883e-002
43595997.498	7.483309e-002	-4.531225e-002	6.009123e-001	-6.919513e-001	6.012398e-001	-6.913347e-001	6.840214e-002	-4.865284e-002
43627267.042	7.477194e-002	-4.542768e-002	6.006425e-001	-6.923484e-001	6.009137e-001	-6.917548e-001	6.832714e-002	-4.871704e-002
43658536.585	7.479855e-002	-4.556450e-002	6.001506e-001	-6.926226e-001	6.003559e-001	-6.920990e-001	6.831168e-002	-4.885673e-002
43689806.129	7.486783e-002	-4.563397e-002	5.997099e-001	-6.930305e-001	5.999987e-001	-6.923535e-001	6.824900e-002	-4.897563e-002
43721075.672	7.469506e-002	-4.552534e-002	5.992624e-001	-6.932278e-001	5.995791e-001	-6.927620e-001	6.827679e-002	-4.904749e-002
43752345.216	7.480731e-002	-4.579505e-002	5.990875e-001	-6.934408e-001	5.991166e-001	-6.930006e-001	6.825172e-002	-4.907396e-002
43783614.759	7.479005e-002	-4.579633e-002	5.985825e-001	-6.937232e-001	5.987281e-001	-6.932134e-001	6.814489e-002	-4.920239e-002
43814884.303	7.464420e-002	-4.585827e-002	5.979769e-001	-6.942663e-001	5.982971e-001	-6.935787e-001	6.817242e-002	-4.920871e-002
43846153.846	7.473663e-002	-4.601155e-002	5.978053e-001	-6.946076e-001	5.979558e-001	-6.938770e-001	6.804047e-002	-4.927725e-002
43877423.390	7.466186e-002	-4.604042e-002	5.971624e-001	-6.949943e-001	5.975907e-001	-6.941990e-001	6.811783e-002	-4.937065e-002
43908692.933	7.461735e-002	-4.608203e-002	5.966704e-001	-6.953511e-001	5.971375e-001	-6.945109e-001	6.807413e-002	-4.940273e-002
43939962.477	7.463066e-002	-4.609951e-002	5.964925e-001	-6.955951e-001	5.966975e-001	-6.949257e-001	6.805812e-002	-4.959913e-002
43971232.020	7.465014e-002	-4.628937e-002	5.958846e-001	-6.959164e-001	5.962711e-001	-6.952695e-001	6.798191e-002	-4.963158e-002
44002501.563	7.462033e-002	-4.636908e-002	5.954225e-001	-6.960236e-001	5.959146e-001	-6.954490e-001	6.803836e-002	-4.968230e-002
44033771.107	7.464765e-002	-4.649683e-002	5.950005e-001	-6.965065e-001	5.954424e-001	-6.957984e-001	6.795381e-002	-4.976481e-002
44065040.650	7.460866e-002	-4.648591e-002	5.946730e-001	-6.967349e-001	5.949353e-001	-6.961272e-001	6.804879e-002	-4.983428e-002
44096310.194	7.448045e-002	-4.663612e-002	5.943637e-001	-6.971716e-001	5.945545e-001	-6.962525e-001	6.791140e-002	-4.997027e-002
44127579.737	7.448543e-002	-4.673512e-002	5.938712e-001	-6.973268e-001	5.942483e-001	-6.966407e-001	6.782383e-002	-5.006808e-002
44158849.281	7.452460e-002	-4.680261e-002	5.935011e-001	-6.977640e-001	5.938907e-001	-6.970233e-001	6.788247e-002	-5.014181e-002
44190118.824	7.449769e-002	-4.688525e-002	5.929056e-001	-6.979626e-001	5.934164e-001	-6.973175e-001	6.777215e-002	-5.018871e-002
44221388.368	7.443714e-002	-4.690931e-002	5.926577e-001	-6.983310e-001	5.928137e-001	-6.977034e-001	6.771695e-002	-5.024873e-002
44252657.911	7.438758e-002	-4.706872e-002	5.921442e-001	-6.986553e-001	5.922757e-001	-6.980705e-001	6.776203e-002	-5.036914e-002
44283927.455	7.439770e-002	-4.714469e-002	5.918089e-001	-6.989698e-001	5.920273e-001	-6.983192e-001	6.757546e-002	-5.051630e-002
44315196.998	7.437516e-002	-4.717777e-002	5.913433e-001	-6.993657e-001	5.915731e-001	-6.986888e-001	6.765516e-002	-5.059138e-002
44346466.542	7.434774e-002	-4.729425e-002	5.908387e-001	-6.996955e-001	5.913312e-001	-6.990440e-001	6.759804e-002	-5.055117e-002
44377736.085	7.437361e-002	-4.730762e-002	5.905291e-001	-6.997743e-001	5.907118e-001	-6.991769e-001	6.748110e-002	-5.059634e-002
44409005.629	7.437052e-002	-4.737315e-002	5.900109e-001	-7.003371e-001	5.902911e-001	-6.994139e-001	6.758465e-002	-5.075638e-002
44440275.172	7.435320e-002	-4.763536e-002	5.894834e-001	-7.004908e-001	5.898308e-001	-6.998285e-001	6.748891e-002	-5.082270e-002
44471544.715	7.432892e-002	-4.766761e-002	5.891772e-001	-7.008023e-001	5.895342e-001	-7.002458e-001	6.749720e-002	-5.096146e-002
44502814.259	7.432869e-002	-4.777455e-002	5.887036e-001	-7.009415e-001	5.889542e-001	-7.003442e-001	6.751855e-002	-5.095822e-002
44534083.802	7.425446e-002	-4.781396e-002	5.883027e-001	-7.015099e-001	5.886391e-001	-7.007989e-001	6.745357e-002	-5.113791e-002
44565353.346	7.423935e-002	-4.784717e-002	5.878998e-001	-7.019745e-001	5.882897e-001	-7.009578e-001	6.737165e-002	-5.103454e-002
44596622.889	7.421129e-002	-4.791919e-002	5.875877e-001	-7.020712e-001	5.877701e-001	-7.013521e-001	6.734366e-002	-5.115093e-002
44627892.433	7.423094e-002	-4.800733e-002	5.870227e-001	-7.023340e-001	5.874228e-001	-7.018693e-001	6.732456e-002	-5.137092e-002
44659161.976	7.416799e-002	-4.808089e-002	5.864559e-001	-7.026286e-001	5.870029e-001	-7.019442e-001	6.726488e-002	-5.140414e-002
44690431.520	7.419985e-002	-4.829650e-002	5.863276e-001	-7.030940e-001	5.864297e-001	-7.023092e-001	6.723943e-002	-5.143383e-002
44721701.063	7.418091e-002	-4.831679e-002	5.858230e-001	-7.033823e-001	5.860781e-001	-7.026995e-001	6.724048e-002	-5.149129e-002
44752970.607	7.404469e-002	-4.844669e-002	5.852435e-001	-7.036509e-001	5.855938e-001	-7.031434e-001	6.718413e-002	-5.169196e-002
