!Agilent Technologies,E5061B,MY49102235,A.02.00
!Date: Mon Jul 03 10:32:32 2023
!Data & Calibration Information:
!Freq	S11:SOLT2(ON)	S21:SOLT2(ON)	S12:SOLT2(ON)	S22:SOLT2(ON)
# Hz S RI R 50
40000000.000	-2.409892e-002	-2.851646e-002	7.485211e-001	-6.621356e-001	7.487205e-001	-6.613632e-001	-2.818599e-002	-2.371151e-002
40031269.543	-2.412457e-002	-2.859515e-002	7.481592e-001	-6.622951e-001	7.485426e-001	-6.615501e-001	-2.817083e-002	-2.365301e-002
40062539.087	-2.421239e-002	-2.862615e-002	7.475071e-001	-6.628957e-001	7.478320e-001	-6.619020e-001	-2.817098e-002	-2.367471e-002
40093808.630	-2.425939e-002	-2.864150e-002	7.473212e-001	-6.632985e-001	7.475365e-001	-6.626132e-001	-2.820645e-002	-2.363550e-002
40125078.174	-2.428764e-002	-2.861123e-002	7.471657e-001	-6.637594e-001	7.470405e-001	-6.629665e-001	-2.825899e-002	-2.354909e-002
40156347.717	-2.431855e-002	-2.866963e-002	7.467801e-001	-6.642420e-001	7.467910e-001	-6.636005e-001	-2.835819e-002	-2.364925e-002
40187617.261	-2.440542e-002	-2.866083e-002	7.463522e-001	-6.646530e-001	7.466279e-001	-6.638539e-001	-2.836471e-002	-2.377421e-002
40218886.804	-2.435851e-002	-2.861240e-002	7.459847e-001	-6.650630e-001	7.461207e-001	-6.640944e-001	-2.830791e-002	-2.369187e-002
40250156.348	-2.438862e-002	-2.864089e-002	7.457034e-001	-6.652333e-001	7.455852e-001	-6.646095e-001	-2.852315e-002	-2.374724e-002
40281425.891	-2.445750e-002	-2.868375e-002	7.451439e-001	-6.657533e-001	7.452989e-001	-6.649071e-001	-2.844545e-002	-2.364622e-002
40312695.435	-2.448476e-002	-2.867713e-002	7.447719e-001	-6.664503e-001	7.450283e-001	-6.656070e-001	-2.845674e-002	-2.367082e-002
40343964.978	-2.450660e-002	-2.861225e-002	7.444061e-001	-6.665681e-001	7.445273e-001	-6.659522e-001	-2.853627e-002	-2.363615e-002
40375234.522	-2.453030e-002	-2.864137e-002	7.438738e-001	-6.670658e-001	7.442630e-001	-6.661874e-001	-2.859143e-002	-2.367255e-002
40406504.065	-2.460491e-002	-2.857266e-002	7.436406e-001	-6.674395e-001	7.438553e-001	-6.668423e-001	-2.858117e-002	-2.374890e-002
40437773.609	-2.471340e-002	-2.867303e-002	7.434757e-001	-6.678176e-001	7.435687e-001	-6.670340e-001	-2.861263e-002	-2.370211e-002
40469043.152	-2.460176e-002	-2.874392e-002	7.428459e-001	-6.682181e-001	7.430946e-001	-6.675777e-001	-2.865510e-002	-2.366662e-002
40500312.695	-2.472969e-002	-2.879418e-002	7.422940e-001	-6.688187e-001	7.429384e-001	-6.680872e-001	-2.876326e-002	-2.365459e-002
40531582.239	-2.469956e-002	-2.867257e-002	7.420327e-001	-6.689602e-001	7.422105e-001	-6.687119e-001	-2.878617e-002	-2.362935e-002
40562851.782	-2.478729e-002	-2.860204e-002	7.415903e-001	-6.694664e-001	7.417827e-001	-6.687627e-001	-2.873742e-002	-2.376663e-002
40594121.326	-2.478638e-002	-2.871165e-002	7.416028e-001	-6.700248e-001	7.414258e-001	-6.692252e-001	-2.881019e-002	-2.365205e-002
40625390.869	-2.478779e-002	-2.864158e-002	7.410840e-001	-6.703993e-001	7.412913e-001	-6.697943e-001	-2.889657e-002	-2.373417e-002
40656660.413	-2.482283e-002	-2.871899e-002	7.407181e-001	-6.709082e-001	7.409557e-001	-6.697792e-001	-2.886305e-002	-2.369215e-002
40687929.956	-2.484765e-002	-2.870037e-002	7.404221e-001	-6.715084e-001	7.406253e-001	-6.705441e-001	-2.897556e-002	-2.370426e-002
40719199.500	-2.489801e-002	-2.865806e-002	7.398456e-001	-6.715921e-001	7.400462e-001	-6.711398e-001	-2.889052e-002	-2.374494e-002
40750469.043	-2.495775e-002	-2.871096e-002	7.394604e-001	-6.719866e-001	7.396058e-001	-6.713933e-001	-2.912677e-002	-2.365832e-002
40781738.587	-2.487282e-002	-2.879434e-002	7.390908e-001	-6.725211e-001	7.393050e-001	-6.718874e-001	-2.915395e-002	-2.369343e-002
40813008.130	-2.501881e-002	-2.871159e-002	7.388099e-001	-6.728191e-001	7.387295e-001	-6.722877e-001	-2.910441e-002	-2.370210e-002
40844277.674	-2.503137e-002	-2.867792e-002	7.383327e-001	-6.733263e-001	7.385963e-001	-6.726859e-001	-2.924669e-002	-2.364681e-002
40875547.217	-2.506441e-002	-2.877423e-002	7.379491e-001	-6.738406e-001	7.381948e-001	-6.729307e-001	-2.923864e-002	-2.364240e-002
40906816.760	-2.510176e-002	-2.869225e-002	7.376624e-001	-6.743648e-001	7.377339e-001	-6.734625e-001	-2.916546e-002	-2.373119e-002
40938086.304	-2.517911e-002	-2.872190e-002	7.370163e-001	-6.746631e-001	7.375371e-001	-6.739999e-001	-2.935022e-002	-2.365911e-002
40969355.847	-2.522323e-002	-2.870977e-002	7.367733e-001	-6.750867e-001	7.370199e-001	-6.742732e-001	-2.936067e-002	-2.367578e-002
41000625.391	-2.527629e-002	-2.866907e-002	7.363362e-001	-6.752018e-001	7.363956e-001	-6.746251e-001	-2.935312e-002	-2.365506e-002
41031894.934	-2.509011e-002	-2.861688e-002	7.361514e-001	-6.756823e-001	7.361871e-001	-6.750742e-001	-2.941675e-002	-2.366023e-002
41063164.478	-2.531218e-002	-2.872133e-002	7.357272e-001	-6.761973e-001	7.359032e-001	-6.754443e-001	-2.942775e-002	-2.375213e-002
41094434.021	-2.533533e-002	-2.875584e-002	7.351426e-001	-6.766241e-001	7.354678e-001	-6.759814e-001	-2.953464e-002	-2.364023e-002
41125703.565	-2.531481e-002	-2.873352e-002	7.350196e-001	-6.770147e-001	7.352256e-001	-6.762740e-001	-2.954643e-002	-2.361898e-002
41156973.108	-2.533088e-002	-2.879987e-002	7.346684e-001	-6.773335e-001	7.345618e-001	-6.768662e-001	-2.966319e-002	-2.362961e-002
41188242.652	-2.535863e-002	-2.868345e-002	7.341506e-001	-6.781796e-001	7.343794e-001	-6.771505e-001	-2.954671e-002	-2.370277e-002
41219512.195	-2.541788e-002	-2.877375e-002	7.337221e-001	-6.784978e-001	7.337983e-001	-6.776355e-001	-2.964185e-002	-2.373062e-002
41250781.739	-2.550698e-002	-2.881615e-002	7.332172e-001	-6.788961e-001	7.335788e-001	-6.781202e-001	-2.967590e-002	-2.363457e-002
41282051.282	-2.549900e-002	-2.882853e-002	7.328253e-001	-6.790888e-001	7.330698e-001	-6.785215e-001	-2.976792e-002	-2.374249e-002
41313320.826	-2.554764e-002	-2.872113e-002	7.324707e-001	-6.795686e-001	7.327054e-001	-6.787104e-001	-2.982149e-002	-2.366547e-002
41344590.369	-2.562894e-002	-2.889732e-002	7.320641e-001	-6.797184e-001	7.325717e-001	-6.792704e-001	-2.974345e-002	-2.363374e-002
41375859.912	-2.572367e-002	-2.880939e-002	7.318352e-001	-6.803063e-001	7.317991e-001	-6.796127e-001	-2.974823e-002	-2.366592e-002
41407129.456	-2.559495e-002	-2.876829e-002	7.315034e-001	-6.807490e-001	7.315166e-001	-6.798909e-001	-2.994661e-002	-2.360946e-002
41438398.999	-2.563651e-002	-2.882350e-002	7.311709e-001	-6.813595e-001	7.313177e-001	-6.806231e-001	-2.999344e-002	-2.360161e-002
41469668.543	-2.578632e-002	-2.870380e-002	7.305269e-001	-6.817390e-001	7.306787e-001	-6.810290e-001	-2.995267e-002	-2.364641e-002
41500938.086	-2.576808e-002	-2.884824e-002	7.303155e-001	-6.819535e-001	7.304301e-001	-6.813290e-001	-2.996070e-002	-2.373909e-002
41532207.630	-2.572615e-002	-2.882129e-002	7.297021e-001	-6.824760e-001	7.301251e-001	-6.816614e-001	-3.003775e-002	-2.370785e-002
41563477.173	-2.580041e-002	-2.886130e-002	7.294675e-001	-6.829137e-001	7.296115e-001	-6.821654e-001	-3.001053e-002	-2.372056e-002
41594746.717	-2.581065e-002	-2.881657e-002	7.289385e-001	-6.831960e-001	7.292520e-001	-6.826097e-001	-3.008986e-002	-2.363200e-002
41626016.260	-2.598017e-002	-2.890399e-002	7.286784e-001	-6.836343e-001	7.289641e-001	-6.829139e-001	-3.014244e-002	-2.361892e-002
41657285.804	-2.591080e-002	-2.886918e-002	7.284242e-001	-6.842694e-001	7.284725e-001	-6.831990e-001	-3.016315e-002	-2.363455e-002
41688555.347	-2.593653e-002	-2.880672e-002	7.279802e-001	-6.845019e-001	7.282775e-001	-6.839599e-001	-3.021833e-002	-2.363302e-002
41719824.891	-2.593297e-002	-2.881141e-002	7.275168e-001	-6.849671e-001	7.277745e-001	-6.841255e-001	-3.025858e-002	-2.360176e-002
41751094.434	-2.604982e-002	-2.868876e-002	7.272677e-001	-6.852086e-001	7.273408e-001	-6.848400e-001	-3.026671e-002	-2.372619e-002
41782363.977	-2.594919e-002	-2.888137e-002	7.270081e-001	-6.857466e-001	7.271183e-001	-6.849471e-001	-3.044505e-002	-2.362826e-002
41813633.521	-2.607194e-002	-2.886352e-002	7.263289e-001	-6.859448e-001	7.267724e-001	-6.853098e-001	-3.033644e-002	-2.358906e-002
41844903.064	-2.613856e-002	-2.886198e-002	7.262114e-001	-6.863029e-001	7.261304e-001	-6.859964e-001	-3.046952e-002	-2.364873e-002
41876172.608	-2.611844e-002	-2.890814e-002	7.253902e-001	-6.869177e-001	7.257448e-001	-6.862596e-001	-3.053439e-002	-2.359330e-002
41907442.151	-2.628229e-002	-2.883627e-002	7.253107e-001	-6.871724e-001	7.256014e-001	-6.867885e-001	-3.056194e-002	-2.362584e-002
41938711.695	-2.608895e-002	-2.885416e-002	7.246961e-001	-6.877073e-001	7.250689e-001	-6.868918e-001	-3.047666e-002	-2.362719e-002
41969981.238	-2.624292e-002	-2.893456e-002	7.244565e-001	-6.881883e-001	7.245912e-001	-6.874933e-001	-3.052970e-002	-2.355424e-002
42001250.782	-2.624807e-002	-2.883837e-002	7.240070e-001	-6.887221e-001	7.243714e-001	-6.878640e-001	-3.062854e-002	-2.359979e-002
42032520.325	-2.628521e-002	-2.881831e-002	7.238223e-001	-6.891589e-001	7.241263e-001	-6.881323e-001	-3.071393e-002	-2.356296e-002
42063789.869	-2.637863e-002	-2.885941e-002	7.233709e-001	-6.894109e-001	7.234403e-001	-6.888416e-001	-3.084239e-002	-2.360319e-002
42095059.412	-2.636907e-002	-2.886967e-002	7.228365e-001	-6.898187e-001	7.233352e-001	-6.890989e-001	-3.078031e-002	-2.354958e-002
42126328.956	-2.643390e-002	-2.888085e-002	7.224387e-001	-6.901240e-001	7.226279e-001	-6.895464e-001	-3.083273e-002	-2.361482e-002
42157598.499	-2.637484e-002	-2.891128e-002	7.221194e-001	-6.905764e-001	7.222583e-001	-6.901095e-001	-3.086011e-002	-2.360123e-002
42188868.043	-2.644277e-002	-2.897951e-002	7.217299e-001	-6.908785e-001	7.220074e-001	-6.903267e-001	-3.090831e-002	-2.355897e-002
42220137.586	-2.643170e-002	-2.893414e-002	7.212596e-001	-6.915727e-001	7.215942e-001	-6.906495e-001	-3.093943e-002	-2.359306e-002
42251407.129	-2.653814e-002	-2.896995e-002	7.210727e-001	-6.918194e-001	7.212059e-001	-6.912268e-001	-3.105038e-002	-2.348689e-002
42282676.673	-2.654193e-002	-2.897074e-002	7.205077e-001	-6.922903e-001	7.206466e-001	-6.915493e-001	-3.102027e-002	-2.352706e-002
42313946.216	-2.660310e-002	-2.888938e-002	7.202666e-001	-6.926638e-001	7.202871e-001	-6.921133e-001	-3.107548e-002	-2.356338e-002
42345215.760	-2.663616e-002	-2.896294e-002	7.197384e-001	-6.929930e-001	7.200499e-001	-6.926013e-001	-3.120295e-002	-2.352742e-002
42376485.303	-2.670878e-002	-2.902370e-002	7.192955e-001	-6.934080e-001	7.194920e-001	-6.928613e-001	-3.114337e-002	-2.352360e-002
42407754.847	-2.667237e-002	-2.892204e-002	7.188279e-001	-6.938786e-001	7.192029e-001	-6.931473e-001	-3.118730e-002	-2.348840e-002
42439024.390	-2.670767e-002	-2.900565e-002	7.184750e-001	-6.943204e-001	7.186916e-001	-6.934237e-001	-3.127631e-002	-2.358388e-002
42470293.934	-2.668881e-002	-2.896235e-002	7.181817e-001	-6.948579e-001	7.185076e-001	-6.939821e-001	-3.125110e-002	-2.359904e-002
42501563.477	-2.681872e-002	-2.888538e-002	7.177536e-001	-6.950937e-001	7.182017e-001	-6.945004e-001	-3.120097e-002	-2.358133e-002
42532833.021	-2.680743e-002	-2.896314e-002	7.175333e-001	-6.955810e-001	7.178027e-001	-6.950713e-001	-3.140807e-002	-2.355032e-002
42564102.564	-2.685914e-002	-2.898314e-002	7.170920e-001	-6.960915e-001	7.172486e-001	-6.952419e-001	-3.146838e-002	-2.351734e-002
42595372.108	-2.681280e-002	-2.894836e-002	7.164262e-001	-6.963948e-001	7.168748e-001	-6.957379e-001	-3.151803e-002	-2.357454e-002
42626641.651	-2.696554e-002	-2.903774e-002	7.162129e-001	-6.967125e-001	7.163751e-001	-6.959838e-001	-3.148652e-002	-2.354243e-002
42657911.194	-2.697231e-002	-2.899097e-002	7.158539e-001	-6.972093e-001	7.160955e-001	-6.965633e-001	-3.152217e-002	-2.351530e-002
42689180.738	-2.705259e-002	-2.892407e-002	7.155318e-001	-6.975028e-001	7.155740e-001	-6.968106e-001	-3.163762e-002	-2.352643e-002
42720450.281	-2.704541e-002	-2.901704e-002	7.148727e-001	-6.977682e-001	7.151233e-001	-6.972907e-001	-3.159807e-002	-2.348684e-002
42751719.825	-2.709137e-002	-2.914486e-002	7.144846e-001	-6.983462e-001	7.150739e-001	-6.975942e-001	-3.158411e-002	-2.348012e-002
42782989.368	-2.719630e-002	-2.901207e-002	7.142656e-001	-6.988272e-001	7.144067e-001	-6.982036e-001	-3.171557e-002	-2.346897e-002
42814258.912	-2.713223e-002	-2.903584e-002	7.138985e-001	-6.991271e-001	7.140643e-001	-6.986873e-001	-3.169264e-002	-2.362677e-002
42845528.455	-2.727627e-002	-2.901625e-002	7.135264e-001	-6.996610e-001	7.136127e-001	-6.988951e-001	-3.174652e-002	-2.346415e-002
42876797.999	-2.719027e-002	-2.906314e-002	7.132403e-001	-6.998999e-001	7.132368e-001	-6.993556e-001	-3.184152e-002	-2.353916e-002
42908067.542	-2.734901e-002	-2.907802e-002	7.126069e-001	-7.001632e-001	7.130729e-001	-6.995760e-001	-3.187451e-002	-2.355453e-002
42939337.086	-2.723080e-002	-2.899900e-002	7.124276e-001	-7.006331e-001	7.122778e-001	-7.001394e-001	-3.185140e-002	-2.362518e-002
42970606.629	-2.739129e-002	-2.911953e-002	7.119094e-001	-7.011332e-001	7.119086e-001	-7.004100e-001	-3.193533e-002	-2.365139e-002
43001876.173	-2.739106e-002	-2.905214e-002	7.114262e-001	-7.016537e-001	7.117578e-001	-7.009996e-001	-3.196048e-002	-2.348309e-002
43033145.716	-2.729281e-002	-2.896266e-002	7.108792e-001	-7.020892e-001	7.112070e-001	-7.014843e-001	-3.202585e-002	-2.345644e-002
43064415.260	-2.734099e-002	-2.908852e-002	7.106436e-001	-7.024894e-001	7.109689e-001	-7.017922e-001	-3.209323e-002	-2.351042e-002
43095684.803	-2.747834e-002	-2.905075e-002	7.102230e-001	-7.027566e-001	7.104836e-001	-7.021812e-001	-3.207775e-002	-2.354669e-002
43126954.346	-2.740402e-002	-2.903128e-002	7.098446e-001	-7.030856e-001	7.099257e-001	-7.024609e-001	-3.214416e-002	-2.342121e-002
43158223.890	-2.749470e-002	-2.905573e-002	7.095128e-001	-7.033825e-001	7.096262e-001	-7.028976e-001	-3.227578e-002	-2.348277e-002
43189493.433	-2.754040e-002	-2.912320e-002	7.091453e-001	-7.038474e-001	7.090960e-001	-7.034785e-001	-3.222721e-002	-2.340882e-002
43220762.977	-2.760277e-002	-2.907693e-002	7.087202e-001	-7.044787e-001	7.090067e-001	-7.037621e-001	-3.235034e-002	-2.348690e-002
43252032.520	-2.766403e-002	-2.917982e-002	7.081538e-001	-7.048018e-001	7.084584e-001	-7.043188e-001	-3.222970e-002	-2.352329e-002
43283302.064	-2.768361e-002	-2.904853e-002	7.077382e-001	-7.051579e-001	7.079868e-001	-7.045953e-001	-3.229422e-002	-2.344017e-002
43314571.607	-2.776024e-002	-2.919602e-002	7.075640e-001	-7.056179e-001	7.079759e-001	-7.049993e-001	-3.241442e-002	-2.330729e-002
43345841.151	-2.772146e-002	-2.906900e-002	7.070949e-001	-7.058938e-001	7.072931e-001	-7.053841e-001	-3.242763e-002	-2.340928e-002
43377110.694	-2.783509e-002	-2.915937e-002	7.066065e-001	-7.062123e-001	7.066746e-001	-7.058160e-001	-3.245376e-002	-2.345899e-002
43408380.238	-2.781721e-002	-2.920027e-002	7.064145e-001	-7.069727e-001	7.065299e-001	-7.061140e-001	-3.248795e-002	-2.344297e-002
43439649.781	-2.781702e-002	-2.916598e-002	7.057612e-001	-7.071633e-001	7.058999e-001	-7.065402e-001	-3.248443e-002	-2.340938e-002
43470919.325	-2.791678e-002	-2.914592e-002	7.053760e-001	-7.078147e-001	7.058368e-001	-7.070360e-001	-3.250335e-002	-2.333647e-002
43502188.868	-2.794475e-002	-2.920455e-002	7.050976e-001	-7.080707e-001	7.051704e-001	-7.074955e-001	-3.260171e-002	-2.330287e-002
43533458.412	-2.791650e-002	-2.913674e-002	7.046444e-001	-7.082973e-001	7.047657e-001	-7.078228e-001	-3.262575e-002	-2.344018e-002
43564727.955	-2.802626e-002	-2.914378e-002	7.043221e-001	-7.085665e-001	7.043762e-001	-7.083989e-001	-3.271267e-002	-2.340743e-002
43595997.498	-2.799117e-002	-2.918169e-002	7.038676e-001	-7.091623e-001	7.037947e-001	-7.085015e-001	-3.280065e-002	-2.342453e-002
43627267.042	-2.802092e-002	-2.924081e-002	7.034749e-001	-7.094465e-001	7.037522e-001	-7.092017e-001	-3.276879e-002	-2.332081e-002
43658536.585	-2.806274e-002	-2.925138e-002	7.029968e-001	-7.098615e-001	7.030657e-001	-7.093873e-001	-3.281067e-002	-2.331944e-002
43689806.129	-2.804616e-002	-2.924141e-002	7.024356e-001	-7.102777e-001	7.028286e-001	-7.099051e-001	-3.285535e-002	-2.342342e-002
43721075.672	-2.822294e-002	-2.910977e-002	7.020701e-001	-7.105995e-001	7.023999e-001	-7.101435e-001	-3.293127e-002	-2.346943e-002
43752345.216	-2.814898e-002	-2.924788e-002	7.018400e-001	-7.111802e-001	7.019716e-001	-7.108531e-001	-3.286212e-002	-2.329746e-002
43783614.759	-2.814603e-002	-2.928480e-002	7.013586e-001	-7.114198e-001	7.015010e-001	-7.111584e-001	-3.297370e-002	-2.340022e-002
43814884.303	-2.833566e-002	-2.922894e-002	7.011110e-001	-7.117675e-001	7.011041e-001	-7.111896e-001	-3.304306e-002	-2.336434e-002
43846153.846	-2.823371e-002	-2.926542e-002	7.007513e-001	-7.123993e-001	7.009712e-001	-7.118717e-001	-3.311901e-002	-2.334789e-002
43877423.390	-2.829180e-002	-2.928481e-002	7.001901e-001	-7.128166e-001	7.004576e-001	-7.121016e-001	-3.310311e-002	-2.330761e-002
43908692.933	-2.841683e-002	-2.918798e-002	6.996981e-001	-7.132233e-001	7.000216e-001	-7.124618e-001	-3.317528e-002	-2.326094e-002
43939962.477	-2.842741e-002	-2.918866e-002	6.995776e-001	-7.137912e-001	6.994894e-001	-7.128703e-001	-3.319168e-002	-2.330872e-002
43971232.020	-2.843869e-002	-2.927224e-002	6.988993e-001	-7.139735e-001	6.992268e-001	-7.134449e-001	-3.323752e-002	-2.336432e-002
44002501.563	-2.843644e-002	-2.931384e-002	6.984567e-001	-7.142742e-001	6.989696e-001	-7.136823e-001	-3.324115e-002	-2.323400e-002
44033771.107	-2.849911e-002	-2.927405e-002	6.982397e-001	-7.149147e-001	6.985201e-001	-7.140627e-001	-3.327765e-002	-2.330583e-002
44065040.650	-2.850770e-002	-2.917840e-002	6.976463e-001	-7.152269e-001	6.980273e-001	-7.145332e-001	-3.326802e-002	-2.325340e-002
44096310.194	-2.867095e-002	-2.924830e-002	6.975459e-001	-7.154856e-001	6.975646e-001	-7.148945e-001	-3.331238e-002	-2.330841e-002
44127579.737	-2.862288e-002	-2.931590e-002	6.968957e-001	-7.158894e-001	6.972826e-001	-7.150676e-001	-3.337019e-002	-2.329148e-002
44158849.281	-2.861114e-002	-2.926974e-002	6.965945e-001	-7.162881e-001	6.969480e-001	-7.157964e-001	-3.340052e-002	-2.328840e-002
44190118.824	-2.870881e-002	-2.925376e-002	6.961171e-001	-7.168068e-001	6.964181e-001	-7.162039e-001	-3.349289e-002	-2.328215e-002
44221388.368	-2.879344e-002	-2.931705e-002	6.959094e-001	-7.169726e-001	6.958321e-001	-7.164939e-001	-3.359722e-002	-2.320263e-002
44252657.911	-2.881363e-002	-2.929832e-002	6.952202e-001	-7.174797e-001	6.956000e-001	-7.170295e-001	-3.350721e-002	-2.327883e-002
44283927.455	-2.880213e-002	-2.931692e-002	6.949289e-001	-7.178692e-001	6.951249e-001	-7.171615e-001	-3.375871e-002	-2.337957e-002
44315196.998	-2.883059e-002	-2.935939e-002	6.947212e-001	-7.183609e-001	6.945851e-001	-7.176920e-001	-3.361863e-002	-2.331149e-002
44346466.542	-2.888564e-002	-2.931460e-002	6.940316e-001	-7.187116e-001	6.943073e-001	-7.181645e-001	-3.373246e-002	-2.324401e-002
44377736.085	-2.885301e-002	-2.933307e-002	6.937325e-001	-7.188342e-001	6.938465e-001	-7.182608e-001	-3.385406e-002	-2.321802e-002
44409005.629	-2.894236e-002	-2.926126e-002	6.932397e-001	-7.195217e-001	6.932389e-001	-7.187598e-001	-3.376721e-002	-2.324746e-002
44440275.172	-2.892195e-002	-2.938895e-002	6.929144e-001	-7.196690e-001	6.931359e-001	-7.193260e-001	-3.387201e-002	-2.319207e-002
44471544.715	-2.905749e-002	-2.940143e-002	6.924008e-001	-7.202571e-001	6.928936e-001	-7.196589e-001	-3.387799e-002	-2.317360e-002
44502814.259	-2.889031e-002	-2.938866e-002	6.920469e-001	-7.203803e-001	6.920858e-001	-7.200337e-001	-3.383855e-002	-2.319491e-002
44534083.802	-2.909188e-002	-2.930710e-002	6.916120e-001	-7.210176e-001	6.916947e-001	-7.203406e-001	-3.390018e-002	-2.328696e-002
44565353.346	-2.911642e-002	-2.929543e-002	6.912092e-001	-7.213622e-001	6.914802e-001	-7.207144e-001	-3.402608e-002	-2.308123e-002
44596622.889	-2.917718e-002	-2.938033e-002	6.907265e-001	-7.217479e-001	6.910292e-001	-7.211070e-001	-3.403725e-002	-2.314148e-002
44627892.433	-2.917801e-002	-2.933803e-002	6.903301e-001	-7.220311e-001	6.906522e-001	-7.215901e-001	-3.410115e-002	-2.323213e-002
44659161.976	-2.921247e-002	-2.932662e-002	6.898512e-001	-7.224918e-001	6.902599e-001	-7.219807e-001	-3.413686e-002	-2.317665e-002
44690431.520	-2.919517e-002	-2.941175e-002	6.895817e-001	-7.229516e-001	6.898813e-001	-7.223381e-001	-3.420746e-002	-2.314519e-002
