!Agilent Technologies,E5061B,MY49102235,A.02.00
!Date: Mon Jul 03 10:30:41 2023
!Data & Calibration Information:
!Freq	S11:SOLT2(ON)	S21:SOLT2(ON)	S12:SOLT2(ON)	S22:SOLT2(ON)
# Hz S RI R 50
40000000.000	-3.201217e-002	-3.861000e-002	7.566479e-001	-6.519487e-001	7.568481e-001	-6.510558e-001	-3.689222e-002	-3.308659e-002
40031269.543	-3.204735e-002	-3.868197e-002	7.563875e-001	-6.524695e-001	7.562442e-001	-6.516275e-001	-3.690041e-002	-3.304336e-002
40062539.087	-3.209645e-002	-3.866948e-002	7.556410e-001	-6.526677e-001	7.559661e-001	-6.519667e-001	-3.693179e-002	-3.307119e-002
40093808.630	-3.215180e-002	-3.866402e-002	7.553469e-001	-6.532638e-001	7.555886e-001	-6.524382e-001	-3.698252e-002	-3.303301e-002
40125078.174	-3.223522e-002	-3.863200e-002	7.551013e-001	-6.535797e-001	7.551641e-001	-6.528049e-001	-3.703550e-002	-3.298963e-002
40156347.717	-3.227646e-002	-3.868794e-002	7.547673e-001	-6.540394e-001	7.547690e-001	-6.533659e-001	-3.710475e-002	-3.303545e-002
40187617.261	-3.227975e-002	-3.880035e-002	7.543263e-001	-6.543568e-001	7.547730e-001	-6.538223e-001	-3.714256e-002	-3.317082e-002
40218886.804	-3.230645e-002	-3.865712e-002	7.539776e-001	-6.550591e-001	7.540423e-001	-6.540523e-001	-3.714570e-002	-3.309976e-002
40250156.348	-3.239144e-002	-3.871115e-002	7.538017e-001	-6.552440e-001	7.537707e-001	-6.545609e-001	-3.722527e-002	-3.312763e-002
40281425.891	-3.243254e-002	-3.870907e-002	7.532357e-001	-6.557997e-001	7.535320e-001	-6.549468e-001	-3.731985e-002	-3.309886e-002
40312695.435	-3.247154e-002	-3.869063e-002	7.530283e-001	-6.563243e-001	7.530543e-001	-6.552895e-001	-3.729944e-002	-3.313633e-002
40343964.978	-3.248003e-002	-3.866529e-002	7.523631e-001	-6.564732e-001	7.528157e-001	-6.556866e-001	-3.743202e-002	-3.304382e-002
40375234.522	-3.251083e-002	-3.865960e-002	7.520793e-001	-6.570981e-001	7.525070e-001	-6.560696e-001	-3.743351e-002	-3.308103e-002
40406504.065	-3.264485e-002	-3.869515e-002	7.515909e-001	-6.572978e-001	7.520748e-001	-6.567645e-001	-3.739738e-002	-3.319706e-002
40437773.609	-3.273021e-002	-3.884085e-002	7.516220e-001	-6.577847e-001	7.517767e-001	-6.570453e-001	-3.750583e-002	-3.313551e-002
40469043.152	-3.267060e-002	-3.879216e-002	7.509071e-001	-6.583015e-001	7.515592e-001	-6.574490e-001	-3.762425e-002	-3.307254e-002
40500312.695	-3.279044e-002	-3.884906e-002	7.504858e-001	-6.587094e-001	7.510091e-001	-6.578811e-001	-3.768466e-002	-3.304371e-002
40531582.239	-3.270886e-002	-3.873949e-002	7.501455e-001	-6.588884e-001	7.503631e-001	-6.584890e-001	-3.771814e-002	-3.301354e-002
40562851.782	-3.283215e-002	-3.872777e-002	7.498166e-001	-6.593788e-001	7.501300e-001	-6.586227e-001	-3.770009e-002	-3.323273e-002
40594121.326	-3.291853e-002	-3.881504e-002	7.497486e-001	-6.598037e-001	7.498586e-001	-6.591286e-001	-3.777947e-002	-3.303028e-002
40625390.869	-3.286028e-002	-3.874791e-002	7.491777e-001	-6.603191e-001	7.495440e-001	-6.596069e-001	-3.781523e-002	-3.317435e-002
40656660.413	-3.300603e-002	-3.881769e-002	7.488321e-001	-6.605637e-001	7.489965e-001	-6.598155e-001	-3.783554e-002	-3.310498e-002
40687929.956	-3.299974e-002	-3.881750e-002	7.488644e-001	-6.611054e-001	7.488317e-001	-6.604266e-001	-3.792873e-002	-3.308883e-002
40719199.500	-3.302789e-002	-3.869404e-002	7.481611e-001	-6.614354e-001	7.483531e-001	-6.609565e-001	-3.792892e-002	-3.313768e-002
40750469.043	-3.313011e-002	-3.881156e-002	7.476297e-001	-6.617424e-001	7.479284e-001	-6.611833e-001	-3.810781e-002	-3.310196e-002
40781738.587	-3.305724e-002	-3.890947e-002	7.474407e-001	-6.622223e-001	7.477295e-001	-6.616752e-001	-3.816242e-002	-3.308419e-002
40813008.130	-3.321341e-002	-3.885696e-002	7.469753e-001	-6.626739e-001	7.471690e-001	-6.620809e-001	-3.818310e-002	-3.306719e-002
40844277.674	-3.321515e-002	-3.882322e-002	7.466895e-001	-6.630623e-001	7.467539e-001	-6.624340e-001	-3.827477e-002	-3.311018e-002
40875547.217	-3.324130e-002	-3.890747e-002	7.463090e-001	-6.636324e-001	7.466456e-001	-6.627148e-001	-3.826967e-002	-3.314021e-002
40906816.760	-3.335687e-002	-3.883985e-002	7.459748e-001	-6.640533e-001	7.461118e-001	-6.632090e-001	-3.828783e-002	-3.315775e-002
40938086.304	-3.340696e-002	-3.888423e-002	7.454022e-001	-6.644103e-001	7.458815e-001	-6.636892e-001	-3.842322e-002	-3.312259e-002
40969355.847	-3.344950e-002	-3.884518e-002	7.450507e-001	-6.647624e-001	7.453804e-001	-6.640202e-001	-3.846744e-002	-3.308987e-002
41000625.391	-3.353679e-002	-3.877442e-002	7.446112e-001	-6.652362e-001	7.448885e-001	-6.644457e-001	-3.846276e-002	-3.305087e-002
41031894.934	-3.338403e-002	-3.879218e-002	7.446350e-001	-6.655740e-001	7.446683e-001	-6.650589e-001	-3.856862e-002	-3.306991e-002
41063164.478	-3.356174e-002	-3.892499e-002	7.442638e-001	-6.660752e-001	7.443526e-001	-6.654094e-001	-3.850748e-002	-3.317311e-002
41094434.021	-3.363477e-002	-3.891418e-002	7.437456e-001	-6.663486e-001	7.440322e-001	-6.657670e-001	-3.863923e-002	-3.317191e-002
41125703.565	-3.358074e-002	-3.890128e-002	7.433505e-001	-6.668299e-001	7.436429e-001	-6.661713e-001	-3.872323e-002	-3.310972e-002
41156973.108	-3.365748e-002	-3.898078e-002	7.428842e-001	-6.671713e-001	7.432019e-001	-6.666915e-001	-3.874175e-002	-3.314343e-002
41188242.652	-3.375601e-002	-3.887863e-002	7.425929e-001	-6.679397e-001	7.428822e-001	-6.670407e-001	-3.877200e-002	-3.315507e-002
41219512.195	-3.371231e-002	-3.897470e-002	7.421335e-001	-6.682389e-001	7.423879e-001	-6.673300e-001	-3.884976e-002	-3.323723e-002
41250781.739	-3.383812e-002	-3.895901e-002	7.416018e-001	-6.687493e-001	7.418799e-001	-6.679302e-001	-3.885865e-002	-3.313568e-002
41282051.282	-3.383082e-002	-3.901502e-002	7.414342e-001	-6.689643e-001	7.416001e-001	-6.682320e-001	-3.898299e-002	-3.323636e-002
41313320.826	-3.394997e-002	-3.888427e-002	7.409556e-001	-6.692568e-001	7.414706e-001	-6.685924e-001	-3.908688e-002	-3.320270e-002
41344590.369	-3.397859e-002	-3.905597e-002	7.404371e-001	-6.694998e-001	7.410311e-001	-6.692378e-001	-3.901730e-002	-3.306548e-002
41375859.912	-3.410102e-002	-3.898922e-002	7.402071e-001	-6.701802e-001	7.403838e-001	-6.694528e-001	-3.906112e-002	-3.314256e-002
41407129.456	-3.405992e-002	-3.900399e-002	7.399904e-001	-6.703706e-001	7.400822e-001	-6.697438e-001	-3.921655e-002	-3.309081e-002
41438398.999	-3.408195e-002	-3.909687e-002	7.396040e-001	-6.711656e-001	7.398950e-001	-6.702903e-001	-3.926009e-002	-3.313547e-002
41469668.543	-3.418083e-002	-3.894139e-002	7.392054e-001	-6.714345e-001	7.394786e-001	-6.707398e-001	-3.926525e-002	-3.318042e-002
41500938.086	-3.423128e-002	-3.903047e-002	7.388940e-001	-6.717895e-001	7.391290e-001	-6.711345e-001	-3.931457e-002	-3.320520e-002
41532207.630	-3.421980e-002	-3.905603e-002	7.383915e-001	-6.723389e-001	7.388227e-001	-6.714792e-001	-3.941951e-002	-3.315374e-002
41563477.173	-3.423565e-002	-3.905085e-002	7.379614e-001	-6.727210e-001	7.382606e-001	-6.718612e-001	-3.932846e-002	-3.319735e-002
41594746.717	-3.426289e-002	-3.906856e-002	7.377011e-001	-6.729779e-001	7.379409e-001	-6.725139e-001	-3.944691e-002	-3.309369e-002
41626016.260	-3.446354e-002	-3.912807e-002	7.372298e-001	-6.733770e-001	7.375015e-001	-6.727461e-001	-3.951254e-002	-3.306925e-002
41657285.804	-3.438123e-002	-3.911408e-002	7.368944e-001	-6.739511e-001	7.371658e-001	-6.730677e-001	-3.955046e-002	-3.314732e-002
41688555.347	-3.442655e-002	-3.909827e-002	7.366153e-001	-6.742425e-001	7.367957e-001	-6.736876e-001	-3.957828e-002	-3.316866e-002
41719824.891	-3.442464e-002	-3.901443e-002	7.361578e-001	-6.747649e-001	7.364549e-001	-6.739072e-001	-3.968286e-002	-3.311994e-002
41751094.434	-3.459146e-002	-3.895109e-002	7.358316e-001	-6.748809e-001	7.361686e-001	-6.745846e-001	-3.970570e-002	-3.321623e-002
41782363.977	-3.453734e-002	-3.913248e-002	7.355388e-001	-6.754103e-001	7.355614e-001	-6.746766e-001	-3.984595e-002	-3.312416e-002
41813633.521	-3.463813e-002	-3.910223e-002	7.349238e-001	-6.758144e-001	7.354266e-001	-6.751302e-001	-3.975422e-002	-3.310462e-002
41844903.064	-3.473218e-002	-3.907844e-002	7.348237e-001	-6.762531e-001	7.348708e-001	-6.754898e-001	-3.993582e-002	-3.318198e-002
41876172.608	-3.471156e-002	-3.913951e-002	7.341953e-001	-6.765966e-001	7.347307e-001	-6.758256e-001	-3.999405e-002	-3.305822e-002
41907442.151	-3.482114e-002	-3.911316e-002	7.340469e-001	-6.770337e-001	7.344209e-001	-6.764782e-001	-4.004338e-002	-3.315135e-002
41938711.695	-3.471276e-002	-3.916754e-002	7.333815e-001	-6.774062e-001	7.337964e-001	-6.768253e-001	-3.992670e-002	-3.318949e-002
41969981.238	-3.485329e-002	-3.924617e-002	7.331503e-001	-6.779833e-001	7.332705e-001	-6.774781e-001	-4.003682e-002	-3.307014e-002
42001250.782	-3.490274e-002	-3.912162e-002	7.327820e-001	-6.783556e-001	7.329431e-001	-6.776310e-001	-4.012130e-002	-3.316503e-002
42032520.325	-3.492257e-002	-3.910985e-002	7.324321e-001	-6.788360e-001	7.327708e-001	-6.778463e-001	-4.022600e-002	-3.311992e-002
42063789.869	-3.504405e-002	-3.914783e-002	7.320820e-001	-6.791394e-001	7.322815e-001	-6.785911e-001	-4.037732e-002	-3.309819e-002
42095059.412	-3.501367e-002	-3.916903e-002	7.316921e-001	-6.794970e-001	7.319495e-001	-6.789626e-001	-4.031464e-002	-3.303130e-002
42126328.956	-3.510039e-002	-3.915278e-002	7.311780e-001	-6.798446e-001	7.314385e-001	-6.793293e-001	-4.039675e-002	-3.305618e-002
42157598.499	-3.503594e-002	-3.922488e-002	7.308498e-001	-6.803549e-001	7.311330e-001	-6.797348e-001	-4.043846e-002	-3.305492e-002
42188868.043	-3.515894e-002	-3.919911e-002	7.306156e-001	-6.807026e-001	7.307865e-001	-6.800732e-001	-4.049506e-002	-3.305859e-002
42220137.586	-3.513744e-002	-3.919011e-002	7.301511e-001	-6.812462e-001	7.304797e-001	-6.803713e-001	-4.048390e-002	-3.312188e-002
42251407.129	-3.524407e-002	-3.918500e-002	7.298310e-001	-6.815111e-001	7.299705e-001	-6.810287e-001	-4.068143e-002	-3.309756e-002
42282676.673	-3.527946e-002	-3.927140e-002	7.293300e-001	-6.818342e-001	7.296473e-001	-6.811877e-001	-4.061661e-002	-3.304876e-002
42313946.216	-3.535154e-002	-3.920414e-002	7.290101e-001	-6.825009e-001	7.293932e-001	-6.817504e-001	-4.069284e-002	-3.304542e-002
42345215.760	-3.548005e-002	-3.928270e-002	7.284903e-001	-6.827947e-001	7.288460e-001	-6.821895e-001	-4.082896e-002	-3.301474e-002
42376485.303	-3.551257e-002	-3.933244e-002	7.282251e-001	-6.832388e-001	7.284598e-001	-6.823452e-001	-4.080651e-002	-3.302089e-002
42407754.847	-3.546796e-002	-3.923037e-002	7.276714e-001	-6.835728e-001	7.279475e-001	-6.830303e-001	-4.085293e-002	-3.301872e-002
42439024.390	-3.557551e-002	-3.932277e-002	7.274351e-001	-6.839394e-001	7.276584e-001	-6.833509e-001	-4.094162e-002	-3.310552e-002
42470293.934	-3.549943e-002	-3.932134e-002	7.270933e-001	-6.844347e-001	7.272448e-001	-6.837164e-001	-4.092390e-002	-3.307992e-002
42501563.477	-3.560835e-002	-3.919517e-002	7.267166e-001	-6.846423e-001	7.270542e-001	-6.842575e-001	-4.100015e-002	-3.309579e-002
42532833.021	-3.566560e-002	-3.920591e-002	7.263851e-001	-6.851580e-001	7.266851e-001	-6.845899e-001	-4.107982e-002	-3.309881e-002
42564102.564	-3.571335e-002	-3.924614e-002	7.257985e-001	-6.856447e-001	7.262008e-001	-6.850023e-001	-4.114708e-002	-3.313190e-002
42595372.108	-3.575978e-002	-3.925618e-002	7.254502e-001	-6.860858e-001	7.257366e-001	-6.854683e-001	-4.128269e-002	-3.307369e-002
42626641.651	-3.580862e-002	-3.941090e-002	7.252812e-001	-6.863064e-001	7.255389e-001	-6.856036e-001	-4.131436e-002	-3.303605e-002
42657911.194	-3.588586e-002	-3.934687e-002	7.247584e-001	-6.868379e-001	7.253040e-001	-6.862220e-001	-4.132368e-002	-3.307050e-002
42689180.738	-3.597178e-002	-3.930356e-002	7.243941e-001	-6.872756e-001	7.246866e-001	-6.865769e-001	-4.141917e-002	-3.315580e-002
42720450.281	-3.596117e-002	-3.938173e-002	7.238070e-001	-6.873352e-001	7.242286e-001	-6.868202e-001	-4.137564e-002	-3.303880e-002
42751719.825	-3.599961e-002	-3.948370e-002	7.235364e-001	-6.878931e-001	7.240583e-001	-6.871634e-001	-4.143787e-002	-3.308649e-002
42782989.368	-3.615753e-002	-3.934579e-002	7.230402e-001	-6.887203e-001	7.236425e-001	-6.878280e-001	-4.157370e-002	-3.301804e-002
42814258.912	-3.604647e-002	-3.936139e-002	7.229419e-001	-6.888161e-001	7.232993e-001	-6.881970e-001	-4.156619e-002	-3.316098e-002
42845528.455	-3.620069e-002	-3.935110e-002	7.225370e-001	-6.892786e-001	7.228331e-001	-6.885362e-001	-4.161135e-002	-3.302797e-002
42876797.999	-3.611701e-002	-3.938185e-002	7.221827e-001	-6.895174e-001	7.223049e-001	-6.891432e-001	-4.167733e-002	-3.314852e-002
42908067.542	-3.631831e-002	-3.941057e-002	7.217104e-001	-6.896728e-001	7.222386e-001	-6.892820e-001	-4.170018e-002	-3.316286e-002
42939337.086	-3.627946e-002	-3.936679e-002	7.213654e-001	-6.903774e-001	7.214115e-001	-6.898615e-001	-4.173070e-002	-3.316899e-002
42970606.629	-3.632991e-002	-3.944947e-002	7.208512e-001	-6.907137e-001	7.210977e-001	-6.902042e-001	-4.185612e-002	-3.323977e-002
43001876.173	-3.639816e-002	-3.943280e-002	7.205860e-001	-6.914150e-001	7.208670e-001	-6.907958e-001	-4.188143e-002	-3.299988e-002
43033145.716	-3.633713e-002	-3.942079e-002	7.201082e-001	-6.915817e-001	7.204716e-001	-6.910507e-001	-4.201912e-002	-3.299127e-002
43064415.260	-3.644408e-002	-3.942263e-002	7.198811e-001	-6.920944e-001	7.201511e-001	-6.913685e-001	-4.201945e-002	-3.309113e-002
43095684.803	-3.650356e-002	-3.943670e-002	7.193309e-001	-6.924478e-001	7.195467e-001	-6.919760e-001	-4.209621e-002	-3.303486e-002
43126954.346	-3.647853e-002	-3.943817e-002	7.189916e-001	-6.928171e-001	7.192101e-001	-6.922243e-001	-4.214510e-002	-3.299283e-002
43158223.890	-3.661423e-002	-3.946285e-002	7.185053e-001	-6.930837e-001	7.187359e-001	-6.925970e-001	-4.225300e-002	-3.302288e-002
43189493.433	-3.663168e-002	-3.951499e-002	7.182687e-001	-6.937140e-001	7.183440e-001	-6.932083e-001	-4.226334e-002	-3.297979e-002
43220762.977	-3.667608e-002	-3.948510e-002	7.178870e-001	-6.940849e-001	7.181509e-001	-6.931479e-001	-4.229149e-002	-3.306965e-002
43252032.520	-3.672993e-002	-3.955621e-002	7.175095e-001	-6.943827e-001	7.176009e-001	-6.938853e-001	-4.229008e-002	-3.306684e-002
43283302.064	-3.684083e-002	-3.948588e-002	7.171203e-001	-6.946986e-001	7.172985e-001	-6.941595e-001	-4.234087e-002	-3.302104e-002
43314571.607	-3.690910e-002	-3.955160e-002	7.169348e-001	-6.952673e-001	7.172627e-001	-6.945107e-001	-4.245514e-002	-3.290672e-002
43345841.151	-3.683473e-002	-3.952698e-002	7.163137e-001	-6.956346e-001	7.167519e-001	-6.949689e-001	-4.256142e-002	-3.294603e-002
43377110.694	-3.696579e-002	-3.955606e-002	7.158951e-001	-6.960517e-001	7.160805e-001	-6.954707e-001	-4.258322e-002	-3.303976e-002
43408380.238	-3.693508e-002	-3.957959e-002	7.156504e-001	-6.965623e-001	7.157904e-001	-6.957388e-001	-4.259345e-002	-3.301418e-002
43439649.781	-3.698473e-002	-3.959192e-002	7.151120e-001	-6.969123e-001	7.152746e-001	-6.961689e-001	-4.260915e-002	-3.300199e-002
43470919.325	-3.707587e-002	-3.957435e-002	7.147336e-001	-6.972868e-001	7.151802e-001	-6.966804e-001	-4.270479e-002	-3.290051e-002
43502188.868	-3.713460e-002	-3.961839e-002	7.143601e-001	-6.976367e-001	7.146914e-001	-6.971760e-001	-4.279194e-002	-3.296691e-002
43533458.412	-3.709526e-002	-3.954397e-002	7.139730e-001	-6.979356e-001	7.141605e-001	-6.972710e-001	-4.278001e-002	-3.301886e-002
43564727.955	-3.724827e-002	-3.955937e-002	7.135754e-001	-6.982190e-001	7.138465e-001	-6.980557e-001	-4.284952e-002	-3.299711e-002
43595997.498	-3.726487e-002	-3.963813e-002	7.131670e-001	-6.987699e-001	7.131591e-001	-6.981591e-001	-4.293561e-002	-3.298262e-002
43627267.042	-3.734029e-002	-3.965022e-002	7.129642e-001	-6.990885e-001	7.131363e-001	-6.985603e-001	-4.301040e-002	-3.289361e-002
43658536.585	-3.729906e-002	-3.967671e-002	7.123649e-001	-6.995040e-001	7.125076e-001	-6.988374e-001	-4.306551e-002	-3.296541e-002
43689806.129	-3.729030e-002	-3.966536e-002	7.120306e-001	-6.999297e-001	7.120480e-001	-6.993584e-001	-4.309910e-002	-3.299404e-002
43721075.672	-3.754298e-002	-3.952252e-002	7.117191e-001	-7.002463e-001	7.118341e-001	-6.998951e-001	-4.315990e-002	-3.301533e-002
43752345.216	-3.746718e-002	-3.966765e-002	7.114310e-001	-7.007410e-001	7.112284e-001	-7.001877e-001	-4.319162e-002	-3.295618e-002
43783614.759	-3.751933e-002	-3.973621e-002	7.108240e-001	-7.011962e-001	7.110811e-001	-7.006509e-001	-4.324451e-002	-3.296354e-002
43814884.303	-3.764363e-002	-3.964137e-002	7.104198e-001	-7.013857e-001	7.107857e-001	-7.010439e-001	-4.330495e-002	-3.289991e-002
43846153.846	-3.758256e-002	-3.966666e-002	7.101953e-001	-7.019537e-001	7.104456e-001	-7.012703e-001	-4.337108e-002	-3.292510e-002
43877423.390	-3.765507e-002	-3.971630e-002	7.096171e-001	-7.024551e-001	7.100021e-001	-7.017284e-001	-4.340954e-002	-3.294474e-002
43908692.933	-3.775052e-002	-3.963437e-002	7.090865e-001	-7.028909e-001	7.097410e-001	-7.019928e-001	-4.350136e-002	-3.284695e-002
43939962.477	-3.782283e-002	-3.967193e-002	7.090794e-001	-7.031420e-001	7.091057e-001	-7.024916e-001	-4.352638e-002	-3.291135e-002
43971232.020	-3.781683e-002	-3.970443e-002	7.084025e-001	-7.033879e-001	7.087430e-001	-7.030580e-001	-4.355038e-002	-3.296662e-002
44002501.563	-3.785536e-002	-3.972449e-002	7.079397e-001	-7.038518e-001	7.084603e-001	-7.032395e-001	-4.363211e-002	-3.287107e-002
44033771.107	-3.791991e-002	-3.979921e-002	7.076548e-001	-7.043084e-001	7.081334e-001	-7.036609e-001	-4.368559e-002	-3.285428e-002
44065040.650	-3.790511e-002	-3.963693e-002	7.072386e-001	-7.047160e-001	7.077325e-001	-7.041069e-001	-4.366077e-002	-3.280821e-002
44096310.194	-3.810950e-002	-3.974464e-002	7.069954e-001	-7.050104e-001	7.071586e-001	-7.045592e-001	-4.373614e-002	-3.292988e-002
44127579.737	-3.811573e-002	-3.975790e-002	7.065949e-001	-7.054620e-001	7.066977e-001	-7.047265e-001	-4.377786e-002	-3.285442e-002
44158849.281	-3.812690e-002	-3.972434e-002	7.061083e-001	-7.057637e-001	7.065227e-001	-7.052665e-001	-4.385054e-002	-3.287132e-002
44190118.824	-3.817260e-002	-3.975513e-002	7.056908e-001	-7.062129e-001	7.060231e-001	-7.056637e-001	-4.387253e-002	-3.284614e-002
44221388.368	-3.821635e-002	-3.974522e-002	7.053931e-001	-7.067081e-001	7.055702e-001	-7.061554e-001	-4.403609e-002	-3.284881e-002
44252657.911	-3.829946e-002	-3.978493e-002	7.050579e-001	-7.068653e-001	7.051054e-001	-7.066328e-001	-4.401175e-002	-3.287370e-002
44283927.455	-3.833908e-002	-3.977744e-002	7.045115e-001	-7.074359e-001	7.048888e-001	-7.067954e-001	-4.419891e-002	-3.291979e-002
44315196.998	-3.839229e-002	-3.981562e-002	7.044440e-001	-7.077724e-001	7.045934e-001	-7.072191e-001	-4.410792e-002	-3.291181e-002
44346466.542	-3.842059e-002	-3.987313e-002	7.039163e-001	-7.082404e-001	7.040924e-001	-7.077297e-001	-4.427272e-002	-3.283932e-002
44377736.085	-3.845098e-002	-3.981112e-002	7.032764e-001	-7.084404e-001	7.035536e-001	-7.079463e-001	-4.440239e-002	-3.279517e-002
44409005.629	-3.842491e-002	-3.968864e-002	7.029267e-001	-7.088993e-001	7.032722e-001	-7.083013e-001	-4.432217e-002	-3.285690e-002
44440275.172	-3.848898e-002	-3.980992e-002	7.023171e-001	-7.093165e-001	7.029983e-001	-7.087369e-001	-4.443277e-002	-3.279392e-002
44471544.715	-3.859362e-002	-3.989274e-002	7.021071e-001	-7.097913e-001	7.025952e-001	-7.090222e-001	-4.438787e-002	-3.283273e-002
44502814.259	-3.860034e-002	-3.986399e-002	7.018331e-001	-7.099632e-001	7.018869e-001	-7.095485e-001	-4.444777e-002	-3.279765e-002
44534083.802	-3.875820e-002	-3.981769e-002	7.012267e-001	-7.105990e-001	7.016352e-001	-7.099310e-001	-4.451506e-002	-3.285463e-002
44565353.346	-3.874242e-002	-3.979750e-002	7.008060e-001	-7.109613e-001	7.013132e-001	-7.103410e-001	-4.468349e-002	-3.268852e-002
44596622.889	-3.880797e-002	-3.987849e-002	7.005424e-001	-7.112576e-001	7.008045e-001	-7.105818e-001	-4.466812e-002	-3.280576e-002
44627892.433	-3.884098e-002	-3.985377e-002	7.001745e-001	-7.116095e-001	7.004751e-001	-7.110175e-001	-4.478606e-002	-3.284788e-002
44659161.976	-3.892690e-002	-3.982345e-002	6.995953e-001	-7.120395e-001	7.001710e-001	-7.113453e-001	-4.476300e-002	-3.276571e-002
44690431.520	-3.885291e-002	-3.993027e-002	6.993786e-001	-7.124028e-001	6.996448e-001	-7.118349e-001	-4.479063e-002	-3.277371e-002
