!Agilent Technologies,E5061B,MY49102235,A.02.00
!Date: Mon Jul 03 10:45:16 2023
!Data & Calibration Information:
!Freq	S11:SOLT2(ON)	S21:SOLT2(ON)	S12:SOLT2(ON)	S22:SOLT2(ON)
# Hz S RI R 50
40000000.000	-6.902287e-004	-2.206126e-003	7.934437e-001	-6.087980e-001	7.936487e-001	-6.080053e-001	-2.828083e-003	6.355735e-004
40031269.543	-7.224423e-004	-2.278951e-003	7.932466e-001	-6.091851e-001	7.930683e-001	-6.081004e-001	-2.887827e-003	6.886914e-004
40062539.087	-7.008940e-004	-2.246819e-003	7.926198e-001	-6.095213e-001	7.929208e-001	-6.086254e-001	-2.788583e-003	5.894185e-004
40093808.630	-7.834054e-004	-2.235382e-003	7.925357e-001	-6.097966e-001	7.925094e-001	-6.092326e-001	-2.874674e-003	6.260035e-004
40125078.174	-8.369582e-004	-2.157506e-003	7.921516e-001	-6.102162e-001	7.921491e-001	-6.095090e-001	-2.763740e-003	7.343841e-004
40156347.717	-7.418199e-004	-2.250033e-003	7.919085e-001	-6.106374e-001	7.919434e-001	-6.101541e-001	-2.885502e-003	6.184604e-004
40187617.261	-7.390180e-004	-2.255480e-003	7.915278e-001	-6.110389e-001	7.917911e-001	-6.105599e-001	-2.815922e-003	5.532916e-004
40218886.804	-7.045078e-004	-2.216099e-003	7.913222e-001	-6.118653e-001	7.912798e-001	-6.108337e-001	-2.800304e-003	5.678571e-004
40250156.348	-7.193457e-004	-2.200431e-003	7.909145e-001	-6.120518e-001	7.909216e-001	-6.112724e-001	-2.862582e-003	5.752111e-004
40281425.891	-7.548536e-004	-2.227607e-003	7.906529e-001	-6.123571e-001	7.907491e-001	-6.116461e-001	-2.873195e-003	6.438768e-004
40312695.435	-7.495565e-004	-2.188660e-003	7.903926e-001	-6.128396e-001	7.904486e-001	-6.120823e-001	-2.787219e-003	6.105215e-004
40343964.978	-7.718479e-004	-2.158755e-003	7.902771e-001	-6.128397e-001	7.899091e-001	-6.122830e-001	-2.871969e-003	6.624501e-004
40375234.522	-7.256825e-004	-2.164028e-003	7.896954e-001	-6.135249e-001	7.898747e-001	-6.128008e-001	-2.849399e-003	6.409673e-004
40406504.065	-7.572048e-004	-2.099001e-003	7.892076e-001	-6.137905e-001	7.894933e-001	-6.132835e-001	-2.802528e-003	5.831800e-004
40437773.609	-8.221184e-004	-2.254675e-003	7.892831e-001	-6.144516e-001	7.892830e-001	-6.136208e-001	-2.816530e-003	5.746259e-004
40469043.152	-7.414935e-004	-2.208584e-003	7.887674e-001	-6.146509e-001	7.888379e-001	-6.139217e-001	-2.875390e-003	6.704197e-004
40500312.695	-7.906303e-004	-2.262505e-003	7.883295e-001	-6.151452e-001	7.885237e-001	-6.143462e-001	-2.868444e-003	6.799537e-004
40531582.239	-7.612563e-004	-2.216272e-003	7.879217e-001	-6.152461e-001	7.882439e-001	-6.150673e-001	-2.902655e-003	6.763993e-004
40562851.782	-7.496157e-004	-2.164215e-003	7.875795e-001	-6.159450e-001	7.877780e-001	-6.153177e-001	-2.820674e-003	5.814994e-004
40594121.326	-6.923390e-004	-2.213667e-003	7.875202e-001	-6.163985e-001	7.875480e-001	-6.154065e-001	-2.842931e-003	6.843638e-004
40625390.869	-7.344437e-004	-2.120243e-003	7.872696e-001	-6.168124e-001	7.873359e-001	-6.162024e-001	-2.909743e-003	5.823217e-004
40656660.413	-8.171584e-004	-2.190011e-003	7.868665e-001	-6.172468e-001	7.870708e-001	-6.164117e-001	-2.844163e-003	7.078405e-004
40687929.956	-6.987169e-004	-2.137296e-003	7.869125e-001	-6.177364e-001	7.869212e-001	-6.167936e-001	-2.873577e-003	6.723942e-004
40719199.500	-7.563003e-004	-2.039449e-003	7.861391e-001	-6.178684e-001	7.863141e-001	-6.175526e-001	-2.758290e-003	6.266119e-004
40750469.043	-7.351758e-004	-2.107978e-003	7.857605e-001	-6.181810e-001	7.860253e-001	-6.175676e-001	-2.929144e-003	6.754746e-004
40781738.587	-6.776151e-004	-2.213892e-003	7.856707e-001	-6.188029e-001	7.858630e-001	-6.181191e-001	-2.965302e-003	6.178107e-004
40813008.130	-7.642885e-004	-2.182988e-003	7.855036e-001	-6.190826e-001	7.852991e-001	-6.186915e-001	-2.877878e-003	6.671675e-004
40844277.674	-7.197488e-004	-2.096551e-003	7.848512e-001	-6.195034e-001	7.849252e-001	-6.187598e-001	-2.978957e-003	7.191025e-004
40875547.217	-6.809109e-004	-2.160119e-003	7.844987e-001	-6.200199e-001	7.847330e-001	-6.191392e-001	-2.919518e-003	6.547522e-004
40906816.760	-7.351993e-004	-2.081101e-003	7.844721e-001	-6.202873e-001	7.843187e-001	-6.196884e-001	-2.820916e-003	6.596320e-004
40938086.304	-7.522999e-004	-2.149902e-003	7.838586e-001	-6.209605e-001	7.842572e-001	-6.201821e-001	-2.953367e-003	6.668885e-004
40969355.847	-8.026279e-004	-2.122219e-003	7.835625e-001	-6.210803e-001	7.838678e-001	-6.204529e-001	-2.961678e-003	7.244237e-004
41000625.391	-8.182863e-004	-2.111515e-003	7.831556e-001	-6.215570e-001	7.834740e-001	-6.207948e-001	-2.931931e-003	6.998025e-004
41031894.934	-6.409910e-004	-2.023938e-003	7.833039e-001	-6.219395e-001	7.832151e-001	-6.213646e-001	-2.943179e-003	7.330193e-004
41063164.478	-7.628694e-004	-2.093478e-003	7.828242e-001	-6.224207e-001	7.830379e-001	-6.216256e-001	-2.914109e-003	6.520838e-004
41094434.021	-7.245870e-004	-2.133067e-003	7.823905e-001	-6.227478e-001	7.823665e-001	-6.221193e-001	-2.947685e-003	6.712505e-004
41125703.565	-6.607322e-004	-2.157526e-003	7.822074e-001	-6.231798e-001	7.823255e-001	-6.222369e-001	-2.964988e-003	6.966415e-004
41156973.108	-6.646428e-004	-2.157018e-003	7.819480e-001	-6.233782e-001	7.816060e-001	-6.228812e-001	-2.946291e-003	7.046786e-004
41188242.652	-7.172982e-004	-2.028157e-003	7.814879e-001	-6.241955e-001	7.815701e-001	-6.234033e-001	-2.861807e-003	7.118815e-004
41219512.195	-6.629600e-004	-2.131623e-003	7.811471e-001	-6.244042e-001	7.812713e-001	-6.237380e-001	-2.991880e-003	6.479558e-004
41250781.739	-7.218544e-004	-2.106266e-003	7.807559e-001	-6.249405e-001	7.808042e-001	-6.240628e-001	-2.906985e-003	6.901948e-004
41282051.282	-6.615788e-004	-2.190683e-003	7.804806e-001	-6.251640e-001	7.805494e-001	-6.245265e-001	-2.958487e-003	6.755421e-004
41313320.826	-7.559208e-004	-2.065455e-003	7.800284e-001	-6.255576e-001	7.803620e-001	-6.247959e-001	-2.924170e-003	6.782888e-004
41344590.369	-7.439285e-004	-2.133787e-003	7.795558e-001	-6.258162e-001	7.799739e-001	-6.253018e-001	-2.925058e-003	7.645960e-004
41375859.912	-7.912436e-004	-2.052265e-003	7.796998e-001	-6.263206e-001	7.793424e-001	-6.256654e-001	-2.905740e-003	6.830490e-004
41407129.456	-7.430795e-004	-2.071546e-003	7.792469e-001	-6.266505e-001	7.790954e-001	-6.259412e-001	-3.011930e-003	7.776924e-004
41438398.999	-7.298240e-004	-2.126517e-003	7.789620e-001	-6.272527e-001	7.789715e-001	-6.264473e-001	-2.958724e-003	7.761977e-004
41469668.543	-7.785923e-004	-1.930432e-003	7.785543e-001	-6.276707e-001	7.785137e-001	-6.270034e-001	-2.970333e-003	6.858792e-004
41500938.086	-7.813301e-004	-2.134017e-003	7.782814e-001	-6.279507e-001	7.784934e-001	-6.273212e-001	-2.955342e-003	6.537115e-004
41532207.630	-7.191201e-004	-2.066003e-003	7.778243e-001	-6.283073e-001	7.780982e-001	-6.276303e-001	-2.994704e-003	6.930197e-004
41563477.173	-6.778830e-004	-2.115054e-003	7.776707e-001	-6.288102e-001	7.776159e-001	-6.279851e-001	-2.910490e-003	6.515193e-004
41594746.717	-6.641753e-004	-2.108933e-003	7.770850e-001	-6.292469e-001	7.773325e-001	-6.284462e-001	-2.955026e-003	7.285941e-004
41626016.260	-8.470143e-004	-2.116827e-003	7.769436e-001	-6.295941e-001	7.769671e-001	-6.289194e-001	-2.985560e-003	7.130888e-004
41657285.804	-6.909468e-004	-2.099444e-003	7.766747e-001	-6.301225e-001	7.765146e-001	-6.291730e-001	-2.969710e-003	7.252908e-004
41688555.347	-7.011644e-004	-2.048538e-003	7.764332e-001	-6.302297e-001	7.764844e-001	-6.296974e-001	-2.976125e-003	7.334874e-004
41719824.891	-6.654273e-004	-1.996664e-003	7.760411e-001	-6.309645e-001	7.759903e-001	-6.301124e-001	-3.014147e-003	7.785284e-004
41751094.434	-7.990097e-004	-1.956185e-003	7.756602e-001	-6.311160e-001	7.758522e-001	-6.304945e-001	-2.929074e-003	7.233972e-004
41782363.977	-6.485289e-004	-2.135248e-003	7.753404e-001	-6.314253e-001	7.755630e-001	-6.308362e-001	-3.081861e-003	7.162181e-004
41813633.521	-7.317670e-004	-2.066870e-003	7.748918e-001	-6.318117e-001	7.751182e-001	-6.313621e-001	-2.936116e-003	7.711156e-004
41844903.064	-7.416353e-004	-1.973929e-003	7.747200e-001	-6.319888e-001	7.748249e-001	-6.317588e-001	-3.050907e-003	7.389287e-004
41876172.608	-6.897088e-004	-2.074331e-003	7.741695e-001	-6.326367e-001	7.745087e-001	-6.320773e-001	-3.078147e-003	8.068273e-004
41907442.151	-7.569692e-004	-1.974524e-003	7.739692e-001	-6.330778e-001	7.742724e-001	-6.324409e-001	-3.013184e-003	7.719217e-004
41938711.695	-6.453978e-004	-2.009447e-003	7.736396e-001	-6.337286e-001	7.738360e-001	-6.326161e-001	-2.967573e-003	7.543057e-004
41969981.238	-6.489356e-004	-2.065767e-003	7.734855e-001	-6.338962e-001	7.734163e-001	-6.334239e-001	-2.946559e-003	8.273771e-004
42001250.782	-6.950841e-004	-2.011182e-003	7.730337e-001	-6.344367e-001	7.732915e-001	-6.334956e-001	-2.929875e-003	7.909662e-004
42032520.325	-6.620374e-004	-1.922281e-003	7.727585e-001	-6.346626e-001	7.730459e-001	-6.338237e-001	-3.057019e-003	7.977066e-004
42063789.869	-7.118408e-004	-2.030700e-003	7.724635e-001	-6.350361e-001	7.724360e-001	-6.343609e-001	-3.131549e-003	7.444731e-004
42095059.412	-7.075613e-004	-2.018919e-003	7.721175e-001	-6.354807e-001	7.724714e-001	-6.348622e-001	-3.075349e-003	8.795418e-004
42126328.956	-7.349523e-004	-2.051832e-003	7.717242e-001	-6.359267e-001	7.719720e-001	-6.351599e-001	-3.078959e-003	7.943725e-004
42157598.499	-6.651620e-004	-2.062117e-003	7.715356e-001	-6.362921e-001	7.716076e-001	-6.356803e-001	-3.022822e-003	8.436011e-004
42188868.043	-6.387810e-004	-2.076035e-003	7.712643e-001	-6.365815e-001	7.713576e-001	-6.360310e-001	-3.090581e-003	8.481567e-004
42220137.586	-6.495997e-004	-1.972704e-003	7.708611e-001	-6.371538e-001	7.709278e-001	-6.363057e-001	-3.070644e-003	8.180260e-004
42251407.129	-6.953490e-004	-2.042277e-003	7.705259e-001	-6.375325e-001	7.705725e-001	-6.368394e-001	-3.114889e-003	8.825852e-004
42282676.673	-6.322630e-004	-2.037337e-003	7.701984e-001	-6.376968e-001	7.700577e-001	-6.371102e-001	-3.045021e-003	8.799193e-004
42313946.216	-6.815787e-004	-1.975142e-003	7.698916e-001	-6.384244e-001	7.700632e-001	-6.377113e-001	-3.044171e-003	8.424039e-004
42345215.760	-7.360516e-004	-2.038725e-003	7.694608e-001	-6.385769e-001	7.695583e-001	-6.379290e-001	-3.099735e-003	8.741056e-004
42376485.303	-7.352629e-004	-2.059894e-003	7.691043e-001	-6.391393e-001	7.692782e-001	-6.383907e-001	-3.113434e-003	8.952730e-004
42407754.847	-6.861985e-004	-1.995932e-003	7.688141e-001	-6.394785e-001	7.690704e-001	-6.387654e-001	-3.133011e-003	9.328444e-004
42439024.390	-7.316860e-004	-2.073985e-003	7.685260e-001	-6.397057e-001	7.684618e-001	-6.390472e-001	-3.113438e-003	7.776611e-004
42470293.934	-6.256279e-004	-2.056071e-003	7.681229e-001	-6.402538e-001	7.684070e-001	-6.395467e-001	-3.077618e-003	8.439055e-004
42501563.477	-6.901321e-004	-1.936071e-003	7.679710e-001	-6.403992e-001	7.680845e-001	-6.399837e-001	-3.002464e-003	8.419683e-004
42532833.021	-5.839729e-004	-1.932741e-003	7.676803e-001	-6.408872e-001	7.678261e-001	-6.403450e-001	-3.153987e-003	8.355001e-004
42564102.564	-6.408333e-004	-1.998212e-003	7.672118e-001	-6.414202e-001	7.673257e-001	-6.407573e-001	-3.049484e-003	8.298397e-004
42595372.108	-6.743715e-004	-2.010357e-003	7.667988e-001	-6.419030e-001	7.670793e-001	-6.413505e-001	-3.141373e-003	8.300594e-004
42626641.651	-6.509426e-004	-2.098418e-003	7.665225e-001	-6.419867e-001	7.667287e-001	-6.414588e-001	-3.127764e-003	9.315950e-004
42657911.194	-7.127801e-004	-1.954251e-003	7.662561e-001	-6.427401e-001	7.664078e-001	-6.419318e-001	-3.152315e-003	9.051167e-004
42689180.738	-7.487278e-004	-2.017452e-003	7.659414e-001	-6.429866e-001	7.659731e-001	-6.423156e-001	-3.193128e-003	8.532165e-004
42720450.281	-7.107620e-004	-2.115056e-003	7.655011e-001	-6.433013e-001	7.657017e-001	-6.428258e-001	-3.101465e-003	8.601165e-004
42751719.825	-6.843900e-004	-2.100255e-003	7.653325e-001	-6.436748e-001	7.653860e-001	-6.429316e-001	-3.082470e-003	8.807160e-004
42782989.368	-7.593870e-004	-1.979389e-003	7.649381e-001	-6.441518e-001	7.650069e-001	-6.434865e-001	-3.191061e-003	9.051705e-004
42814258.912	-6.409124e-004	-2.034898e-003	7.647659e-001	-6.445802e-001	7.647813e-001	-6.436979e-001	-3.126520e-003	7.649035e-004
42845528.455	-6.857760e-004	-1.942842e-003	7.642045e-001	-6.450279e-001	7.645046e-001	-6.443677e-001	-3.078595e-003	9.264510e-004
42876797.999	-5.767001e-004	-2.039825e-003	7.639373e-001	-6.449913e-001	7.639139e-001	-6.448674e-001	-3.132451e-003	8.508039e-004
42908067.542	-6.755912e-004	-2.036306e-003	7.635728e-001	-6.454284e-001	7.638265e-001	-6.450384e-001	-3.138117e-003	7.986234e-004
42939337.086	-6.829439e-004	-1.979302e-003	7.634168e-001	-6.459388e-001	7.632268e-001	-6.454945e-001	-3.116318e-003	8.661240e-004
42970606.629	-6.889372e-004	-2.023756e-003	7.628313e-001	-6.465540e-001	7.629733e-001	-6.458230e-001	-3.173086e-003	7.961950e-004
43001876.173	-7.116649e-004	-1.962993e-003	7.626911e-001	-6.469592e-001	7.627797e-001	-6.462788e-001	-3.191751e-003	9.290214e-004
43033145.716	-5.923535e-004	-1.929925e-003	7.621948e-001	-6.473184e-001	7.624071e-001	-6.466375e-001	-3.254284e-003	9.385224e-004
43064415.260	-5.987204e-004	-1.979166e-003	7.619186e-001	-6.477058e-001	7.622390e-001	-6.470305e-001	-3.187631e-003	8.634635e-004
43095684.803	-6.902085e-004	-1.979255e-003	7.615782e-001	-6.479471e-001	7.617592e-001	-6.474104e-001	-3.215643e-003	8.209951e-004
43126954.346	-6.055061e-004	-1.969662e-003	7.611664e-001	-6.485306e-001	7.612511e-001	-6.477942e-001	-3.204757e-003	9.562322e-004
43158223.890	-6.887170e-004	-2.033327e-003	7.610758e-001	-6.485824e-001	7.610269e-001	-6.482510e-001	-3.265682e-003	9.508448e-004
43189493.433	-5.724838e-004	-2.029451e-003	7.606939e-001	-6.493125e-001	7.606580e-001	-6.488785e-001	-3.223674e-003	1.007024e-003
43220762.977	-6.725443e-004	-1.950930e-003	7.602276e-001	-6.497480e-001	7.602870e-001	-6.490031e-001	-3.221148e-003	8.985421e-004
43252032.520	-6.436210e-004	-2.079720e-003	7.600027e-001	-6.499899e-001	7.599932e-001	-6.493356e-001	-3.167933e-003	8.959931e-004
43283302.064	-6.796252e-004	-1.960251e-003	7.595772e-001	-6.503108e-001	7.597618e-001	-6.495409e-001	-3.144800e-003	9.559263e-004
43314571.607	-6.767222e-004	-2.104182e-003	7.593798e-001	-6.508620e-001	7.597016e-001	-6.501324e-001	-3.233012e-003	1.082177e-003
43345841.151	-6.386092e-004	-1.990229e-003	7.588679e-001	-6.511620e-001	7.591989e-001	-6.503124e-001	-3.250749e-003	1.004915e-003
43377110.694	-6.816875e-004	-2.047896e-003	7.587592e-001	-6.515364e-001	7.586838e-001	-6.509284e-001	-3.320149e-003	9.503343e-004
43408380.238	-5.849291e-004	-2.020270e-003	7.583395e-001	-6.520538e-001	7.583080e-001	-6.511070e-001	-3.177931e-003	9.446229e-004
43439649.781	-6.683649e-004	-2.066283e-003	7.579800e-001	-6.523436e-001	7.579187e-001	-6.518262e-001	-3.157773e-003	9.528644e-004
43470919.325	-7.107117e-004	-2.088584e-003	7.575259e-001	-6.526972e-001	7.578380e-001	-6.521080e-001	-3.184561e-003	1.045645e-003
43502188.868	-6.778942e-004	-2.132752e-003	7.573273e-001	-6.532585e-001	7.572188e-001	-6.524432e-001	-3.191706e-003	1.021681e-003
43533458.412	-6.421121e-004	-1.981042e-003	7.569343e-001	-6.531812e-001	7.569355e-001	-6.528678e-001	-3.175928e-003	9.881692e-004
43564727.955	-7.207762e-004	-2.042096e-003	7.566446e-001	-6.537349e-001	7.568300e-001	-6.535306e-001	-3.271344e-003	9.660684e-004
43595997.498	-6.541338e-004	-2.020231e-003	7.562419e-001	-6.541786e-001	7.562296e-001	-6.536489e-001	-3.248040e-003	9.727899e-004
43627267.042	-6.589170e-004	-2.060780e-003	7.560107e-001	-6.546670e-001	7.560852e-001	-6.542720e-001	-3.281515e-003	1.029915e-003
43658536.585	-6.479882e-004	-2.082116e-003	7.557124e-001	-6.550613e-001	7.556951e-001	-6.544649e-001	-3.296464e-003	1.003778e-003
43689806.129	-5.573211e-004	-2.052252e-003	7.552125e-001	-6.553683e-001	7.552002e-001	-6.548191e-001	-3.211176e-003	9.366312e-004
43721075.672	-7.533834e-004	-1.944814e-003	7.548240e-001	-6.557313e-001	7.550379e-001	-6.552873e-001	-3.258496e-003	9.571894e-004
43752345.216	-6.073741e-004	-2.065841e-003	7.546805e-001	-6.561179e-001	7.547541e-001	-6.558201e-001	-3.207572e-003	1.054983e-003
43783614.759	-5.853732e-004	-2.041183e-003	7.541037e-001	-6.565926e-001	7.544613e-001	-6.559498e-001	-3.208712e-003	9.220101e-004
43814884.303	-7.063283e-004	-2.033395e-003	7.538599e-001	-6.568792e-001	7.540387e-001	-6.564642e-001	-3.314932e-003	1.032861e-003
43846153.846	-5.614765e-004	-2.036477e-003	7.537524e-001	-6.573949e-001	7.537503e-001	-6.566863e-001	-3.302029e-003	1.036254e-003
43877423.390	-6.203430e-004	-2.063533e-003	7.531794e-001	-6.579215e-001	7.533072e-001	-6.571214e-001	-3.250785e-003	1.015416e-003
43908692.933	-6.983528e-004	-2.019380e-003	7.527896e-001	-6.581527e-001	7.531608e-001	-6.573129e-001	-3.290793e-003	1.079425e-003
43939962.477	-6.942878e-004	-2.003460e-003	7.527014e-001	-6.585888e-001	7.526814e-001	-6.578744e-001	-3.312105e-003	1.071154e-003
43971232.020	-6.481209e-004	-2.111237e-003	7.521655e-001	-6.589204e-001	7.523262e-001	-6.582997e-001	-3.270472e-003	1.021201e-003
44002501.563	-6.339123e-004	-2.035928e-003	7.517277e-001	-6.593314e-001	7.520721e-001	-6.585349e-001	-3.250414e-003	1.153425e-003
44033771.107	-5.864211e-004	-2.079247e-003	7.514973e-001	-6.597250e-001	7.517809e-001	-6.589563e-001	-3.250908e-003	1.069744e-003
44065040.650	-5.802671e-004	-1.999162e-003	7.513141e-001	-6.599608e-001	7.513476e-001	-6.594292e-001	-3.251332e-003	1.116050e-003
44096310.194	-6.463309e-004	-2.006127e-003	7.510658e-001	-6.604443e-001	7.509220e-001	-6.598078e-001	-3.268134e-003	1.080064e-003
44127579.737	-6.250460e-004	-2.099638e-003	7.505958e-001	-6.607727e-001	7.507569e-001	-6.600530e-001	-3.223530e-003	1.051698e-003
44158849.281	-6.095192e-004	-2.014898e-003	7.502066e-001	-6.611238e-001	7.504164e-001	-6.605483e-001	-3.253831e-003	1.090568e-003
44190118.824	-6.276048e-004	-2.072834e-003	7.498709e-001	-6.615628e-001	7.503869e-001	-6.610790e-001	-3.280261e-003	1.108778e-003
44221388.368	-6.777416e-004	-2.035900e-003	7.497630e-001	-6.621488e-001	7.495613e-001	-6.613114e-001	-3.374140e-003	1.080407e-003
44252657.911	-6.944968e-004	-2.082302e-003	7.494041e-001	-6.623313e-001	7.492774e-001	-6.619724e-001	-3.222122e-003	1.077555e-003
44283927.455	-6.401858e-004	-2.077743e-003	7.489514e-001	-6.626695e-001	7.491952e-001	-6.621029e-001	-3.355466e-003	1.048469e-003
44315196.998	-6.649937e-004	-2.032152e-003	7.485078e-001	-6.630642e-001	7.486979e-001	-6.623660e-001	-3.224073e-003	1.043560e-003
44346466.542	-6.544966e-004	-2.010141e-003	7.482600e-001	-6.635016e-001	7.483565e-001	-6.629167e-001	-3.326576e-003	1.104978e-003
44377736.085	-6.695923e-004	-1.994814e-003	7.477332e-001	-6.636651e-001	7.478284e-001	-6.632162e-001	-3.417005e-003	1.142632e-003
44409005.629	-6.171179e-004	-1.968403e-003	7.474995e-001	-6.642769e-001	7.475156e-001	-6.635649e-001	-3.278332e-003	1.112430e-003
44440275.172	-6.057340e-004	-2.154428e-003	7.471210e-001	-6.645940e-001	7.473746e-001	-6.639946e-001	-3.378776e-003	1.167707e-003
44471544.715	-6.994495e-004	-2.103737e-003	7.468100e-001	-6.649584e-001	7.470443e-001	-6.643987e-001	-3.346639e-003	1.158607e-003
44502814.259	-5.324871e-004	-2.114500e-003	7.465091e-001	-6.651848e-001	7.464404e-001	-6.647751e-001	-3.312060e-003	1.145550e-003
44534083.802	-7.149644e-004	-2.038504e-003	7.461041e-001	-6.658639e-001	7.461763e-001	-6.651820e-001	-3.316866e-003	1.078684e-003
44565353.346	-6.887195e-004	-2.049449e-003	7.459141e-001	-6.661455e-001	7.460211e-001	-6.653206e-001	-3.389039e-003	1.287317e-003
44596622.889	-6.641615e-004	-2.055228e-003	7.453530e-001	-6.665451e-001	7.457824e-001	-6.659260e-001	-3.330848e-003	1.170782e-003
44627892.433	-6.363799e-004	-2.026926e-003	7.451832e-001	-6.668952e-001	7.451939e-001	-6.663149e-001	-3.391644e-003	1.091800e-003
44659161.976	-6.974858e-004	-2.037579e-003	7.447068e-001	-6.673408e-001	7.450949e-001	-6.666132e-001	-3.345711e-003	1.148874e-003
44690431.520	-6.236486e-004	-2.125548e-003	7.445587e-001	-6.676089e-001	7.444718e-001	-6.670803e-001	-3.370867e-003	1.169135e-003
44721701.063	-5.695211e-004	-2.027754e-003	7.441746e-001	-6.680362e-001	7.442319e-001	-6.675912e-001	-3.341087e-003	1.218957e-003
