! COPPER MOUNTAIN TECHNOLOGIES, PLANAR TR1300/1, 00000000, 23.1.2/1.0
! Date: 7/3/2023 4:25:17 PM
! Data: Format [Calibration Info]
! Freq          	S11: Mag/Ang                   	S21: Mag/Ang                   	S12: Mag/Ang                   	S22: Mag/Ang                   
# HZ S MA R 50
4.00000000E+07	 2.26550967E-03	-1.08045018E+02	 1.00008102E+00	-3.75039825E+01	 0.00000000E+00	 0.00000000E+00	 0.00000000E+00	 0.00000000E+00
4.00312695E+07	 2.34237906E-03	-1.06652979E+02	 1.00014163E+00	-3.75233601E+01	 0.00000000E+00	 0.00000000E+00	 0.00000000E+00	 0.00000000E+00
4.00625391E+07	 2.36804693E-03	-1.08969979E+02	 9.99774673E-01	-3.75570190E+01	 0.00000000E+00	 0.00000000E+00	 0.00000000E+00	 0.00000000E+00
4.00938086E+07	 2.34037444E-03	-1.09904840E+02	 9.99985109E-01	-3.75818014E+01	 0.00000000E+00	 0.00000000E+00	 0.00000000E+00	 0.00000000E+00
4.01250782E+07	 2.31037352E-03	-1.09157512E+02	 9.99852006E-01	-3.76171171E+01	 0.00000000E+00	 0.00000000E+00	 0.00000000E+00	 0.00000000E+00
4.01563477E+07	 2.33749717E-03	-1.07437098E+02	 1.00009823E+00	-3.76494619E+01	 0.00000000E+00	 0.00000000E+00	 0.00000000E+00	 0.00000000E+00
4.01876173E+07	 2.38421402E-03	-1.06524727E+02	 9.99902676E-01	-3.76706735E+01	 0.00000000E+00	 0.00000000E+00	 0.00000000E+00	 0.00000000E+00
4.02188868E+07	 2.31981998E-03	-1.07320684E+02	 1.00025692E+00	-3.77138249E+01	 0.00000000E+00	 0.00000000E+00	 0.00000000E+00	 0.00000000E+00
4.02501563E+07	 2.27854279E-03	-1.08395028E+02	 9.99944490E-01	-3.77275679E+01	 0.00000000E+00	 0.00000000E+00	 0.00000000E+00	 0.00000000E+00
4.02814259E+07	 2.34132874E-03	-1.07983755E+02	 1.00003759E+00	-3.77600587E+01	 0.00000000E+00	 0.00000000E+00	 0.00000000E+00	 0.00000000E+00
4.03126954E+07	 2.32188309E-03	-1.07990578E+02	 1.00019758E+00	-3.78047883E+01	 0.00000000E+00	 0.00000000E+00	 0.00000000E+00	 0.00000000E+00
4.03439650E+07	 2.24626523E-03	-1.09434394E+02	 9.99987207E-01	-3.78143290E+01	 0.00000000E+00	 0.00000000E+00	 0.00000000E+00	 0.00000000E+00
4.03752345E+07	 2.24051010E-03	-1.08346071E+02	 9.99934252E-01	-3.78496576E+01	 0.00000000E+00	 0.00000000E+00	 0.00000000E+00	 0.00000000E+00
4.04065041E+07	 2.28033157E-03	-1.10007106E+02	 9.99657557E-01	-3.78762635E+01	 0.00000000E+00	 0.00000000E+00	 0.00000000E+00	 0.00000000E+00
4.04377736E+07	 2.35540862E-03	-1.10334516E+02	 1.00008877E+00	-3.78925129E+01	 0.00000000E+00	 0.00000000E+00	 0.00000000E+00	 0.00000000E+00
4.04690432E+07	 2.29843014E-03	-1.06822237E+02	 9.99945645E-01	-3.79380590E+01	 0.00000000E+00	 0.00000000E+00	 0.00000000E+00	 0.00000000E+00
4.05003127E+07	 2.38386663E-03	-1.08260363E+02	 9.99990315E-01	-3.79751655E+01	 0.00000000E+00	 0.00000000E+00	 0.00000000E+00	 0.00000000E+00
4.05315822E+07	 2.23365851E-03	-1.08819982E+02	 9.99826495E-01	-3.79893066E+01	 0.00000000E+00	 0.00000000E+00	 0.00000000E+00	 0.00000000E+00
4.05628518E+07	 2.23703234E-03	-1.08334920E+02	 9.99811627E-01	-3.80259448E+01	 0.00000000E+00	 0.00000000E+00	 0.00000000E+00	 0.00000000E+00
4.05941213E+07	 2.34171362E-03	-1.08993666E+02	 1.00002472E+00	-3.80547550E+01	 0.00000000E+00	 0.00000000E+00	 0.00000000E+00	 0.00000000E+00
4.06253909E+07	 2.23300658E-03	-1.08136459E+02	 1.00004540E+00	-3.80838545E+01	 0.00000000E+00	 0.00000000E+00	 0.00000000E+00	 0.00000000E+00
4.06566604E+07	 2.25454272E-03	-1.08076698E+02	 9.99961831E-01	-3.81120132E+01	 0.00000000E+00	 0.00000000E+00	 0.00000000E+00	 0.00000000E+00
4.06879300E+07	 2.25202057E-03	-1.07806156E+02	 1.00011511E+00	-3.81444797E+01	 0.00000000E+00	 0.00000000E+00	 0.00000000E+00	 0.00000000E+00
4.07191995E+07	 2.20443900E-03	-1.09539101E+02	 9.99998486E-01	-3.81796497E+01	 0.00000000E+00	 0.00000000E+00	 0.00000000E+00	 0.00000000E+00
4.07504690E+07	 2.25272094E-03	-1.09817023E+02	 9.99775335E-01	-3.81874171E+01	 0.00000000E+00	 0.00000000E+00	 0.00000000E+00	 0.00000000E+00
4.07817386E+07	 2.33043954E-03	-1.05701809E+02	 9.99932127E-01	-3.82327658E+01	 0.00000000E+00	 0.00000000E+00	 0.00000000E+00	 0.00000000E+00
4.08130081E+07	 2.31199463E-03	-1.09614458E+02	 1.00019099E+00	-3.82505477E+01	 0.00000000E+00	 0.00000000E+00	 0.00000000E+00	 0.00000000E+00
4.08442777E+07	 2.20449649E-03	-1.07514314E+02	 9.99833077E-01	-3.82906118E+01	 0.00000000E+00	 0.00000000E+00	 0.00000000E+00	 0.00000000E+00
4.08755472E+07	 2.22130931E-03	-1.07649095E+02	 1.00001825E+00	-3.83256637E+01	 0.00000000E+00	 0.00000000E+00	 0.00000000E+00	 0.00000000E+00
4.09068168E+07	 2.29281346E-03	-1.09021305E+02	 1.00008445E+00	-3.83364469E+01	 0.00000000E+00	 0.00000000E+00	 0.00000000E+00	 0.00000000E+00
4.09380863E+07	 2.28205735E-03	-1.09653903E+02	 9.99918044E-01	-3.83898541E+01	 0.00000000E+00	 0.00000000E+00	 0.00000000E+00	 0.00000000E+00
4.09693558E+07	 2.20354853E-03	-1.10199844E+02	 9.99683622E-01	-3.84049467E+01	 0.00000000E+00	 0.00000000E+00	 0.00000000E+00	 0.00000000E+00
4.10006254E+07	 2.23875524E-03	-1.09233555E+02	 9.99816090E-01	-3.84369188E+01	 0.00000000E+00	 0.00000000E+00	 0.00000000E+00	 0.00000000E+00
4.10318949E+07	 2.10768280E-03	-1.06205405E+02	 1.00003242E+00	-3.84517042E+01	 0.00000000E+00	 0.00000000E+00	 0.00000000E+00	 0.00000000E+00
4.10631645E+07	 2.22027796E-03	-1.08999053E+02	 1.00006372E+00	-3.84837645E+01	 0.00000000E+00	 0.00000000E+00	 0.00000000E+00	 0.00000000E+00
4.10944340E+07	 2.24455665E-03	-1.08902536E+02	 9.99821707E-01	-3.85176458E+01	 0.00000000E+00	 0.00000000E+00	 0.00000000E+00	 0.00000000E+00
4.11257036E+07	 2.17936921E-03	-1.07304622E+02	 9.99783133E-01	-3.85506813E+01	 0.00000000E+00	 0.00000000E+00	 0.00000000E+00	 0.00000000E+00
4.11569731E+07	 2.18904022E-03	-1.07682714E+02	 9.99850333E-01	-3.85686591E+01	 0.00000000E+00	 0.00000000E+00	 0.00000000E+00	 0.00000000E+00
4.11882427E+07	 2.16894340E-03	-1.08828559E+02	 1.00020067E+00	-3.86086211E+01	 0.00000000E+00	 0.00000000E+00	 0.00000000E+00	 0.00000000E+00
4.12195122E+07	 2.21863001E-03	-1.07622740E+02	 1.00015169E+00	-3.86386161E+01	 0.00000000E+00	 0.00000000E+00	 0.00000000E+00	 0.00000000E+00
4.12507817E+07	 2.22240820E-03	-1.10279783E+02	 1.00012354E+00	-3.86788770E+01	 0.00000000E+00	 0.00000000E+00	 0.00000000E+00	 0.00000000E+00
4.12820513E+07	 2.23401659E-03	-1.06792246E+02	 9.99998907E-01	-3.87032030E+01	 0.00000000E+00	 0.00000000E+00	 0.00000000E+00	 0.00000000E+00
4.13133208E+07	 2.10879764E-03	-1.10382848E+02	 9.99872718E-01	-3.87337853E+01	 0.00000000E+00	 0.00000000E+00	 0.00000000E+00	 0.00000000E+00
4.13445904E+07	 2.29537836E-03	-1.09919939E+02	 9.99608143E-01	-3.87549612E+01	 0.00000000E+00	 0.00000000E+00	 0.00000000E+00	 0.00000000E+00
4.13758599E+07	 2.21598893E-03	-1.10250569E+02	 9.99940773E-01	-3.87804824E+01	 0.00000000E+00	 0.00000000E+00	 0.00000000E+00	 0.00000000E+00
4.14071295E+07	 2.18699470E-03	-1.08709628E+02	 9.99863764E-01	-3.88023128E+01	 0.00000000E+00	 0.00000000E+00	 0.00000000E+00	 0.00000000E+00
4.14383990E+07	 2.23716808E-03	-1.08267377E+02	 1.00014973E+00	-3.88422696E+01	 0.00000000E+00	 0.00000000E+00	 0.00000000E+00	 0.00000000E+00
4.14696685E+07	 2.07172863E-03	-1.11924451E+02	 1.00001628E+00	-3.88783455E+01	 0.00000000E+00	 0.00000000E+00	 0.00000000E+00	 0.00000000E+00
4.15009381E+07	 2.19494520E-03	-1.08943752E+02	 9.99932493E-01	-3.88963875E+01	 0.00000000E+00	 0.00000000E+00	 0.00000000E+00	 0.00000000E+00
4.15322076E+07	 2.21925331E-03	-1.09406761E+02	 1.00001041E+00	-3.89215231E+01	 0.00000000E+00	 0.00000000E+00	 0.00000000E+00	 0.00000000E+00
4.15634772E+07	 2.20950081E-03	-1.07452108E+02	 1.00004842E+00	-3.89546852E+01	 0.00000000E+00	 0.00000000E+00	 0.00000000E+00	 0.00000000E+00
4.15947467E+07	 2.16540363E-03	-1.06800926E+02	 1.00001777E+00	-3.89959914E+01	 0.00000000E+00	 0.00000000E+00	 0.00000000E+00	 0.00000000E+00
4.16260163E+07	 2.30492286E-03	-1.10742177E+02	 9.99980828E-01	-3.90224885E+01	 0.00000000E+00	 0.00000000E+00	 0.00000000E+00	 0.00000000E+00
4.16572858E+07	 2.22103835E-03	-1.06626904E+02	 9.99967586E-01	-3.90490912E+01	 0.00000000E+00	 0.00000000E+00	 0.00000000E+00	 0.00000000E+00
4.16885553E+07	 2.16023221E-03	-1.08907128E+02	 9.99847403E-01	-3.90746866E+01	 0.00000000E+00	 0.00000000E+00	 0.00000000E+00	 0.00000000E+00
4.17198249E+07	 2.08173361E-03	-1.07867112E+02	 9.99989544E-01	-3.91113995E+01	 0.00000000E+00	 0.00000000E+00	 0.00000000E+00	 0.00000000E+00
4.17510944E+07	 2.10231121E-03	-1.10649552E+02	 9.99980283E-01	-3.91297625E+01	 0.00000000E+00	 0.00000000E+00	 0.00000000E+00	 0.00000000E+00
4.17823640E+07	 2.15230121E-03	-1.06834496E+02	 1.00007229E+00	-3.91599717E+01	 0.00000000E+00	 0.00000000E+00	 0.00000000E+00	 0.00000000E+00
4.18136335E+07	 2.16966357E-03	-1.08561097E+02	 9.99857148E-01	-3.91928264E+01	 0.00000000E+00	 0.00000000E+00	 0.00000000E+00	 0.00000000E+00
4.18449031E+07	 2.16291321E-03	-1.10305372E+02	 9.99924561E-01	-3.92118594E+01	 0.00000000E+00	 0.00000000E+00	 0.00000000E+00	 0.00000000E+00
4.18761726E+07	 2.17129556E-03	-1.09329664E+02	 9.99778956E-01	-3.92541908E+01	 0.00000000E+00	 0.00000000E+00	 0.00000000E+00	 0.00000000E+00
4.19074422E+07	 2.12862183E-03	-1.10083900E+02	 9.99939344E-01	-3.92739813E+01	 0.00000000E+00	 0.00000000E+00	 0.00000000E+00	 0.00000000E+00
4.19387117E+07	 2.07895073E-03	-1.08387639E+02	 9.99938387E-01	-3.93149996E+01	 0.00000000E+00	 0.00000000E+00	 0.00000000E+00	 0.00000000E+00
4.19699812E+07	 2.20474275E-03	-1.07713457E+02	 1.00004738E+00	-3.93382448E+01	 0.00000000E+00	 0.00000000E+00	 0.00000000E+00	 0.00000000E+00
4.20012508E+07	 2.07975721E-03	-1.08216331E+02	 1.00007707E+00	-3.93710291E+01	 0.00000000E+00	 0.00000000E+00	 0.00000000E+00	 0.00000000E+00
4.20325203E+07	 2.05536657E-03	-1.08302431E+02	 9.99997453E-01	-3.94045678E+01	 0.00000000E+00	 0.00000000E+00	 0.00000000E+00	 0.00000000E+00
4.20637899E+07	 2.11907229E-03	-1.09831455E+02	 9.99868063E-01	-3.94257246E+01	 0.00000000E+00	 0.00000000E+00	 0.00000000E+00	 0.00000000E+00
4.20950594E+07	 2.13606456E-03	-1.09078092E+02	 9.99939192E-01	-3.94647704E+01	 0.00000000E+00	 0.00000000E+00	 0.00000000E+00	 0.00000000E+00
4.21263290E+07	 2.14172819E-03	-1.09164215E+02	 9.99892795E-01	-3.94781906E+01	 0.00000000E+00	 0.00000000E+00	 0.00000000E+00	 0.00000000E+00
4.21575985E+07	 2.13007009E-03	-1.06666086E+02	 1.00001161E+00	-3.95178894E+01	 0.00000000E+00	 0.00000000E+00	 0.00000000E+00	 0.00000000E+00
4.21888680E+07	 2.10946606E-03	-1.08323585E+02	 9.99946526E-01	-3.95344635E+01	 0.00000000E+00	 0.00000000E+00	 0.00000000E+00	 0.00000000E+00
4.22201376E+07	 2.05059010E-03	-1.07398390E+02	 9.99926814E-01	-3.95802780E+01	 0.00000000E+00	 0.00000000E+00	 0.00000000E+00	 0.00000000E+00
4.22514071E+07	 2.09041504E-03	-1.09217125E+02	 1.00020214E+00	-3.95970606E+01	 0.00000000E+00	 0.00000000E+00	 0.00000000E+00	 0.00000000E+00
4.22826767E+07	 2.11289565E-03	-1.08025972E+02	 9.99792118E-01	-3.96333671E+01	 0.00000000E+00	 0.00000000E+00	 0.00000000E+00	 0.00000000E+00
4.23139462E+07	 2.11354081E-03	-1.08691676E+02	 9.99920802E-01	-3.96676614E+01	 0.00000000E+00	 0.00000000E+00	 0.00000000E+00	 0.00000000E+00
4.23452158E+07	 2.17633498E-03	-1.09041532E+02	 9.99905896E-01	-3.96940119E+01	 0.00000000E+00	 0.00000000E+00	 0.00000000E+00	 0.00000000E+00
4.23764853E+07	 2.13505688E-03	-1.09956659E+02	 9.99852658E-01	-3.97157318E+01	 0.00000000E+00	 0.00000000E+00	 0.00000000E+00	 0.00000000E+00
4.24077548E+07	 2.10813739E-03	-1.09207035E+02	 9.99770673E-01	-3.97564359E+01	 0.00000000E+00	 0.00000000E+00	 0.00000000E+00	 0.00000000E+00
4.24390244E+07	 2.14094275E-03	-1.09160961E+02	 1.00006090E+00	-3.97763662E+01	 0.00000000E+00	 0.00000000E+00	 0.00000000E+00	 0.00000000E+00
4.24702939E+07	 2.11311895E-03	-1.07429020E+02	 9.99897396E-01	-3.98093444E+01	 0.00000000E+00	 0.00000000E+00	 0.00000000E+00	 0.00000000E+00
4.25015635E+07	 2.07642009E-03	-1.09163390E+02	 9.99837248E-01	-3.98248260E+01	 0.00000000E+00	 0.00000000E+00	 0.00000000E+00	 0.00000000E+00
4.25328330E+07	 2.07702774E-03	-1.07120778E+02	 1.00005902E+00	-3.98552518E+01	 0.00000000E+00	 0.00000000E+00	 0.00000000E+00	 0.00000000E+00
4.25641026E+07	 2.09430055E-03	-1.09377728E+02	 9.99920455E-01	-3.98921051E+01	 0.00000000E+00	 0.00000000E+00	 0.00000000E+00	 0.00000000E+00
4.25953721E+07	 2.08392936E-03	-1.06995820E+02	 9.99926185E-01	-3.99398977E+01	 0.00000000E+00	 0.00000000E+00	 0.00000000E+00	 0.00000000E+00
4.26266417E+07	 2.15954068E-03	-1.07242699E+02	 9.99786207E-01	-3.99490892E+01	 0.00000000E+00	 0.00000000E+00	 0.00000000E+00	 0.00000000E+00
4.26579112E+07	 2.11510666E-03	-1.09441185E+02	 1.00004678E+00	-3.99843796E+01	 0.00000000E+00	 0.00000000E+00	 0.00000000E+00	 0.00000000E+00
4.26891807E+07	 2.09087308E-03	-1.10472883E+02	 9.99928357E-01	-4.00133038E+01	 0.00000000E+00	 0.00000000E+00	 0.00000000E+00	 0.00000000E+00
4.27204503E+07	 2.15402416E-03	-1.08409507E+02	 9.99794208E-01	-4.00428997E+01	 0.00000000E+00	 0.00000000E+00	 0.00000000E+00	 0.00000000E+00
4.27517198E+07	 2.17256937E-03	-1.07227047E+02	 9.99914516E-01	-4.00655972E+01	 0.00000000E+00	 0.00000000E+00	 0.00000000E+00	 0.00000000E+00
4.27829894E+07	 2.17639811E-03	-1.10156149E+02	 1.00010728E+00	-4.01120645E+01	 0.00000000E+00	 0.00000000E+00	 0.00000000E+00	 0.00000000E+00
4.28142589E+07	 2.09589027E-03	-1.08070118E+02	 1.00007487E+00	-4.01262826E+01	 0.00000000E+00	 0.00000000E+00	 0.00000000E+00	 0.00000000E+00
4.28455285E+07	 2.04583220E-03	-1.10055151E+02	 1.00000324E+00	-4.01685930E+01	 0.00000000E+00	 0.00000000E+00	 0.00000000E+00	 0.00000000E+00
4.28767980E+07	 2.06591281E-03	-1.07017090E+02	 9.99988613E-01	-4.01849808E+01	 0.00000000E+00	 0.00000000E+00	 0.00000000E+00	 0.00000000E+00
4.29080675E+07	 2.11798321E-03	-1.09218935E+02	 9.99823022E-01	-4.02163914E+01	 0.00000000E+00	 0.00000000E+00	 0.00000000E+00	 0.00000000E+00
4.29393371E+07	 2.04679482E-03	-1.07699410E+02	 1.00003429E+00	-4.02522117E+01	 0.00000000E+00	 0.00000000E+00	 0.00000000E+00	 0.00000000E+00
4.29706066E+07	 2.15544722E-03	-1.08282257E+02	 9.99913400E-01	-4.02798926E+01	 0.00000000E+00	 0.00000000E+00	 0.00000000E+00	 0.00000000E+00
4.30018762E+07	 2.08646826E-03	-1.09027351E+02	 1.00013730E+00	-4.03125089E+01	 0.00000000E+00	 0.00000000E+00	 0.00000000E+00	 0.00000000E+00
4.30331457E+07	 2.01568450E-03	-1.07617351E+02	 9.99909279E-01	-4.03524400E+01	 0.00000000E+00	 0.00000000E+00	 0.00000000E+00	 0.00000000E+00
4.30644153E+07	 2.09138483E-03	-1.07098697E+02	 9.99861799E-01	-4.03784805E+01	 0.00000000E+00	 0.00000000E+00	 0.00000000E+00	 0.00000000E+00
4.30956848E+07	 2.05406118E-03	-1.07978529E+02	 9.99881115E-01	-4.03923668E+01	 0.00000000E+00	 0.00000000E+00	 0.00000000E+00	 0.00000000E+00
4.31269543E+07	 2.03222585E-03	-1.06822755E+02	 9.99970286E-01	-4.04258765E+01	 0.00000000E+00	 0.00000000E+00	 0.00000000E+00	 0.00000000E+00
4.31582239E+07	 2.11034344E-03	-1.08105211E+02	 9.99877705E-01	-4.04428332E+01	 0.00000000E+00	 0.00000000E+00	 0.00000000E+00	 0.00000000E+00
4.31894934E+07	 2.12523515E-03	-1.07174011E+02	 1.00009102E+00	-4.04868874E+01	 0.00000000E+00	 0.00000000E+00	 0.00000000E+00	 0.00000000E+00
4.32207630E+07	 2.04902616E-03	-1.08370014E+02	 1.00002459E+00	-4.05096209E+01	 0.00000000E+00	 0.00000000E+00	 0.00000000E+00	 0.00000000E+00
4.32520325E+07	 2.17604898E-03	-1.06848316E+02	 9.99974059E-01	-4.05460174E+01	 0.00000000E+00	 0.00000000E+00	 0.00000000E+00	 0.00000000E+00
4.32833021E+07	 2.07405034E-03	-1.08056511E+02	 9.99936770E-01	-4.05707504E+01	 0.00000000E+00	 0.00000000E+00	 0.00000000E+00	 0.00000000E+00
4.33145716E+07	 2.16751230E-03	-1.08053703E+02	 1.00003931E+00	-4.05945372E+01	 0.00000000E+00	 0.00000000E+00	 0.00000000E+00	 0.00000000E+00
4.33458412E+07	 2.08957656E-03	-1.06743212E+02	 9.99823459E-01	-4.06308515E+01	 0.00000000E+00	 0.00000000E+00	 0.00000000E+00	 0.00000000E+00
4.33771107E+07	 2.15895500E-03	-1.07801173E+02	 1.00000272E+00	-4.06520821E+01	 0.00000000E+00	 0.00000000E+00	 0.00000000E+00	 0.00000000E+00
4.34083802E+07	 2.10375027E-03	-1.06150932E+02	 1.00017789E+00	-4.06984278E+01	 0.00000000E+00	 0.00000000E+00	 0.00000000E+00	 0.00000000E+00
4.34396498E+07	 2.13949257E-03	-1.06852543E+02	 9.99901759E-01	-4.07148883E+01	 0.00000000E+00	 0.00000000E+00	 0.00000000E+00	 0.00000000E+00
4.34709193E+07	 2.17421176E-03	-1.08676456E+02	 9.99934740E-01	-4.07559639E+01	 0.00000000E+00	 0.00000000E+00	 0.00000000E+00	 0.00000000E+00
4.35021889E+07	 2.11872921E-03	-1.06548051E+02	 9.99969854E-01	-4.07869972E+01	 0.00000000E+00	 0.00000000E+00	 0.00000000E+00	 0.00000000E+00
4.35334584E+07	 2.06370507E-03	-1.06747098E+02	 9.99962335E-01	-4.07901992E+01	 0.00000000E+00	 0.00000000E+00	 0.00000000E+00	 0.00000000E+00
4.35647280E+07	 2.10575709E-03	-1.09641905E+02	 1.00000834E+00	-4.08293542E+01	 0.00000000E+00	 0.00000000E+00	 0.00000000E+00	 0.00000000E+00
4.35959975E+07	 2.15666482E-03	-1.05561704E+02	 9.99870496E-01	-4.08692256E+01	 0.00000000E+00	 0.00000000E+00	 0.00000000E+00	 0.00000000E+00
4.36272670E+07	 2.16664773E-03	-1.06880703E+02	 9.99987829E-01	-4.08876569E+01	 0.00000000E+00	 0.00000000E+00	 0.00000000E+00	 0.00000000E+00
4.36585366E+07	 2.17290593E-03	-1.05199805E+02	 9.99948848E-01	-4.09203783E+01	 0.00000000E+00	 0.00000000E+00	 0.00000000E+00	 0.00000000E+00
4.36898061E+07	 2.13720555E-03	-1.04939185E+02	 9.99946348E-01	-4.09506898E+01	 0.00000000E+00	 0.00000000E+00	 0.00000000E+00	 0.00000000E+00
4.37210757E+07	 2.05965582E-03	-1.10693210E+02	 9.99722499E-01	-4.09736415E+01	 0.00000000E+00	 0.00000000E+00	 0.00000000E+00	 0.00000000E+00
4.37523452E+07	 2.14906108E-03	-1.06363921E+02	 1.00001938E+00	-4.10038607E+01	 0.00000000E+00	 0.00000000E+00	 0.00000000E+00	 0.00000000E+00
4.37836148E+07	 2.16011401E-03	-1.05946299E+02	 9.99981877E-01	-4.10463011E+01	 0.00000000E+00	 0.00000000E+00	 0.00000000E+00	 0.00000000E+00
4.38148843E+07	 2.11244922E-03	-1.09281164E+02	 1.00003801E+00	-4.10626167E+01	 0.00000000E+00	 0.00000000E+00	 0.00000000E+00	 0.00000000E+00
4.38461538E+07	 2.15256274E-03	-1.05930626E+02	 1.00012339E+00	-4.10945679E+01	 0.00000000E+00	 0.00000000E+00	 0.00000000E+00	 0.00000000E+00
4.38774234E+07	 2.18577440E-03	-1.04858769E+02	 1.00008398E+00	-4.11333044E+01	 0.00000000E+00	 0.00000000E+00	 0.00000000E+00	 0.00000000E+00
4.39086929E+07	 2.05952211E-03	-1.09106816E+02	 9.99958021E-01	-4.11655342E+01	 0.00000000E+00	 0.00000000E+00	 0.00000000E+00	 0.00000000E+00
4.39399625E+07	 2.06936546E-03	-1.07630636E+02	 1.00019337E+00	-4.11820554E+01	 0.00000000E+00	 0.00000000E+00	 0.00000000E+00	 0.00000000E+00
4.39712320E+07	 2.11228501E-03	-1.07514880E+02	 9.99930889E-01	-4.12206916E+01	 0.00000000E+00	 0.00000000E+00	 0.00000000E+00	 0.00000000E+00
4.40025016E+07	 2.14590093E-03	-1.06259908E+02	 9.99805442E-01	-4.12433359E+01	 0.00000000E+00	 0.00000000E+00	 0.00000000E+00	 0.00000000E+00
4.40337711E+07	 2.12323206E-03	-1.06064747E+02	 9.99974432E-01	-4.12769565E+01	 0.00000000E+00	 0.00000000E+00	 0.00000000E+00	 0.00000000E+00
4.40650407E+07	 2.04187854E-03	-1.07259150E+02	 1.00008228E+00	-4.12959678E+01	 0.00000000E+00	 0.00000000E+00	 0.00000000E+00	 0.00000000E+00
4.40963102E+07	 2.11440247E-03	-1.07065418E+02	 1.00010711E+00	-4.13274309E+01	 0.00000000E+00	 0.00000000E+00	 0.00000000E+00	 0.00000000E+00
4.41275797E+07	 2.14083519E-03	-1.08679545E+02	 9.99917849E-01	-4.13657150E+01	 0.00000000E+00	 0.00000000E+00	 0.00000000E+00	 0.00000000E+00
4.41588493E+07	 2.11908697E-03	-1.06684578E+02	 9.99967548E-01	-4.13919873E+01	 0.00000000E+00	 0.00000000E+00	 0.00000000E+00	 0.00000000E+00
4.41901188E+07	 2.15819654E-03	-1.06715717E+02	 9.99780999E-01	-4.14219887E+01	 0.00000000E+00	 0.00000000E+00	 0.00000000E+00	 0.00000000E+00
4.42213884E+07	 2.16929235E-03	-1.08050243E+02	 1.00005174E+00	-4.14519525E+01	 0.00000000E+00	 0.00000000E+00	 0.00000000E+00	 0.00000000E+00
4.42526579E+07	 2.11357396E-03	-1.07031388E+02	 9.99970140E-01	-4.14727505E+01	 0.00000000E+00	 0.00000000E+00	 0.00000000E+00	 0.00000000E+00
