!Agilent Technologies,E5061B,MY49102235,A.02.00
!Date: Mon Jul 03 10:45:49 2023
!Data & Calibration Information:
!Freq	S11:SOLT2(ON)	S21:SOLT2(ON)	S12:SOLT2(ON)	S22:SOLT2(ON)
# Hz S RI R 50
40000000.000	-7.262368e-004	-2.167545e-003	7.936656e-001	-6.088815e-001	7.934818e-001	-6.078850e-001	-2.878423e-003	5.792609e-004
40031269.543	-7.273474e-004	-2.239882e-003	7.931954e-001	-6.091975e-001	7.932308e-001	-6.082565e-001	-2.825771e-003	6.641772e-004
40062539.087	-7.539053e-004	-2.220239e-003	7.927397e-001	-6.095054e-001	7.929187e-001	-6.085931e-001	-2.804355e-003	6.309526e-004
40093808.630	-8.162861e-004	-2.213791e-003	7.924176e-001	-6.099855e-001	7.926357e-001	-6.091020e-001	-2.772764e-003	6.537357e-004
40125078.174	-7.437493e-004	-2.191255e-003	7.921870e-001	-6.102987e-001	7.920925e-001	-6.096054e-001	-2.782843e-003	7.499669e-004
40156347.717	-7.039982e-004	-2.176588e-003	7.920216e-001	-6.108180e-001	7.919415e-001	-6.101322e-001	-2.819152e-003	6.548736e-004
40187617.261	-7.034765e-004	-2.255547e-003	7.916149e-001	-6.112022e-001	7.918048e-001	-6.104336e-001	-2.813473e-003	5.488433e-004
40218886.804	-7.090157e-004	-2.241589e-003	7.913349e-001	-6.117824e-001	7.913361e-001	-6.106090e-001	-2.831081e-003	5.836420e-004
40250156.348	-7.249283e-004	-2.150694e-003	7.911929e-001	-6.118942e-001	7.910470e-001	-6.113238e-001	-2.873393e-003	5.658325e-004
40281425.891	-7.575396e-004	-2.252301e-003	7.905822e-001	-6.124124e-001	7.908075e-001	-6.115707e-001	-2.818698e-003	6.259557e-004
40312695.435	-7.119543e-004	-2.166907e-003	7.902711e-001	-6.129737e-001	7.903816e-001	-6.121055e-001	-2.797128e-003	6.039222e-004
40343964.978	-6.808166e-004	-2.137449e-003	7.901416e-001	-6.130917e-001	7.900235e-001	-6.122315e-001	-2.879480e-003	6.565624e-004
40375234.522	-6.666923e-004	-2.169138e-003	7.897328e-001	-6.136685e-001	7.899000e-001	-6.125850e-001	-2.902414e-003	6.268348e-004
40406504.065	-7.799574e-004	-2.156302e-003	7.892680e-001	-6.138651e-001	7.894851e-001	-6.131807e-001	-2.816761e-003	5.993443e-004
40437773.609	-8.132435e-004	-2.247610e-003	7.891672e-001	-6.145176e-001	7.892010e-001	-6.135730e-001	-2.772848e-003	6.148057e-004
40469043.152	-7.156210e-004	-2.182692e-003	7.887730e-001	-6.148956e-001	7.888672e-001	-6.138380e-001	-2.887829e-003	6.796656e-004
40500312.695	-7.539301e-004	-2.280256e-003	7.882404e-001	-6.153652e-001	7.885381e-001	-6.144674e-001	-2.908343e-003	7.202683e-004
40531582.239	-7.648640e-004	-2.200221e-003	7.881358e-001	-6.151208e-001	7.881640e-001	-6.151334e-001	-2.916931e-003	6.947580e-004
40562851.782	-7.305114e-004	-2.164028e-003	7.876691e-001	-6.160385e-001	7.876119e-001	-6.152725e-001	-2.768656e-003	5.662673e-004
40594121.326	-7.026230e-004	-2.156855e-003	7.876751e-001	-6.165903e-001	7.875642e-001	-6.155009e-001	-2.851358e-003	6.919312e-004
40625390.869	-6.882553e-004	-2.135409e-003	7.872655e-001	-6.166827e-001	7.875587e-001	-6.160729e-001	-2.817768e-003	6.255224e-004
40656660.413	-7.023984e-004	-2.167894e-003	7.868329e-001	-6.171607e-001	7.871290e-001	-6.161612e-001	-2.823130e-003	6.531165e-004
40687929.956	-7.036648e-004	-2.136077e-003	7.868369e-001	-6.178507e-001	7.867874e-001	-6.166606e-001	-2.828528e-003	6.919841e-004
40719199.500	-7.133060e-004	-2.090140e-003	7.862077e-001	-6.179683e-001	7.864136e-001	-6.173112e-001	-2.780992e-003	6.481654e-004
40750469.043	-8.170679e-004	-2.154816e-003	7.858406e-001	-6.181915e-001	7.859575e-001	-6.175813e-001	-2.927149e-003	6.505815e-004
40781738.587	-6.741754e-004	-2.212129e-003	7.856161e-001	-6.189702e-001	7.857313e-001	-6.180495e-001	-2.928534e-003	6.777256e-004
40813008.130	-7.569293e-004	-2.177243e-003	7.854544e-001	-6.192782e-001	7.853633e-001	-6.184253e-001	-2.880353e-003	6.929585e-004
40844277.674	-6.888933e-004	-2.121759e-003	7.850611e-001	-6.195749e-001	7.850220e-001	-6.188387e-001	-2.995177e-003	7.062316e-004
40875547.217	-6.870233e-004	-2.137710e-003	7.846649e-001	-6.200894e-001	7.849019e-001	-6.191526e-001	-2.923083e-003	6.918629e-004
40906816.760	-7.098448e-004	-2.110024e-003	7.843199e-001	-6.203969e-001	7.844782e-001	-6.195986e-001	-2.817656e-003	6.951840e-004
40938086.304	-8.129006e-004	-2.174238e-003	7.838891e-001	-6.208272e-001	7.843102e-001	-6.199853e-001	-2.926440e-003	6.562007e-004
40969355.847	-7.730083e-004	-2.098567e-003	7.835693e-001	-6.210591e-001	7.838268e-001	-6.203608e-001	-2.893994e-003	7.001210e-004
41000625.391	-7.821550e-004	-2.087070e-003	7.831905e-001	-6.216459e-001	7.833588e-001	-6.207525e-001	-2.851882e-003	7.117088e-004
41031894.934	-6.413570e-004	-2.050165e-003	7.832930e-001	-6.219026e-001	7.830571e-001	-6.213422e-001	-2.934042e-003	7.394709e-004
41063164.478	-7.828617e-004	-2.048937e-003	7.827426e-001	-6.222944e-001	7.829836e-001	-6.217039e-001	-2.894254e-003	6.550225e-004
41094434.021	-7.234909e-004	-2.143012e-003	7.824867e-001	-6.227705e-001	7.825285e-001	-6.220610e-001	-2.950841e-003	7.200079e-004
41125703.565	-6.989193e-004	-2.087568e-003	7.821466e-001	-6.230567e-001	7.821541e-001	-6.222907e-001	-2.951929e-003	7.223205e-004
41156973.108	-6.698912e-004	-2.121884e-003	7.818428e-001	-6.233208e-001	7.818112e-001	-6.229255e-001	-2.959218e-003	6.988887e-004
41188242.652	-7.292466e-004	-2.045594e-003	7.816182e-001	-6.242864e-001	7.816069e-001	-6.231686e-001	-2.834951e-003	6.787586e-004
41219512.195	-6.344376e-004	-2.131092e-003	7.812121e-001	-6.245222e-001	7.811526e-001	-6.234829e-001	-2.956387e-003	6.520953e-004
41250781.739	-7.719177e-004	-2.080970e-003	7.806488e-001	-6.249436e-001	7.807988e-001	-6.240264e-001	-2.899141e-003	6.749466e-004
41282051.282	-6.992042e-004	-2.182869e-003	7.805825e-001	-6.251653e-001	7.805747e-001	-6.244836e-001	-2.955807e-003	6.738648e-004
41313320.826	-7.134404e-004	-2.043014e-003	7.802303e-001	-6.254911e-001	7.801154e-001	-6.248011e-001	-2.939360e-003	6.655974e-004
41344590.369	-7.434985e-004	-2.103402e-003	7.796814e-001	-6.258395e-001	7.800012e-001	-6.253304e-001	-2.861165e-003	7.870953e-004
41375859.912	-7.898799e-004	-2.048279e-003	7.794846e-001	-6.264041e-001	7.794265e-001	-6.254792e-001	-2.943085e-003	7.217530e-004
41407129.456	-7.157606e-004	-2.103297e-003	7.794498e-001	-6.265560e-001	7.793029e-001	-6.257391e-001	-3.059750e-003	7.834196e-004
41438398.999	-6.991267e-004	-2.156655e-003	7.790530e-001	-6.272941e-001	7.791186e-001	-6.264104e-001	-3.006619e-003	6.979399e-004
41469668.543	-8.091642e-004	-1.989269e-003	7.785857e-001	-6.276134e-001	7.785522e-001	-6.269257e-001	-2.923425e-003	7.381172e-004
41500938.086	-7.281688e-004	-2.108281e-003	7.783901e-001	-6.279101e-001	7.784954e-001	-6.272427e-001	-2.941299e-003	6.879241e-004
41532207.630	-7.122838e-004	-2.108883e-003	7.779807e-001	-6.283903e-001	7.781572e-001	-6.275919e-001	-2.931998e-003	7.170928e-004
41563477.173	-7.059357e-004	-2.163430e-003	7.776924e-001	-6.287808e-001	7.777999e-001	-6.278585e-001	-2.913955e-003	6.783090e-004
41594746.717	-6.733389e-004	-2.073941e-003	7.772152e-001	-6.292829e-001	7.773021e-001	-6.283770e-001	-2.999673e-003	7.763824e-004
41626016.260	-8.368780e-004	-2.155132e-003	7.770190e-001	-6.295755e-001	7.770546e-001	-6.286022e-001	-3.005649e-003	7.381427e-004
41657285.804	-7.039693e-004	-2.076697e-003	7.767719e-001	-6.299331e-001	7.767027e-001	-6.292747e-001	-2.928976e-003	7.622343e-004
41688555.347	-6.886800e-004	-2.056797e-003	7.763365e-001	-6.302923e-001	7.763985e-001	-6.297097e-001	-2.958387e-003	7.531580e-004
41719824.891	-6.731792e-004	-1.978651e-003	7.761099e-001	-6.308328e-001	7.759680e-001	-6.297814e-001	-2.980362e-003	7.608948e-004
41751094.434	-7.515487e-004	-1.921219e-003	7.756798e-001	-6.310380e-001	7.755673e-001	-6.305943e-001	-2.911670e-003	6.943466e-004
41782363.977	-6.901587e-004	-2.027591e-003	7.754207e-001	-6.316979e-001	7.755070e-001	-6.307921e-001	-3.056252e-003	7.587990e-004
41813633.521	-7.215671e-004	-2.074375e-003	7.749956e-001	-6.318130e-001	7.751650e-001	-6.310272e-001	-2.934875e-003	8.054542e-004
41844903.064	-7.529127e-004	-2.067769e-003	7.749000e-001	-6.322392e-001	7.748102e-001	-6.318150e-001	-2.980773e-003	7.985050e-004
41876172.608	-7.050270e-004	-2.054855e-003	7.743044e-001	-6.327581e-001	7.747188e-001	-6.320757e-001	-3.050578e-003	7.625004e-004
41907442.151	-7.992469e-004	-1.999288e-003	7.741451e-001	-6.331038e-001	7.742718e-001	-6.323159e-001	-3.005099e-003	7.693944e-004
41938711.695	-6.495005e-004	-2.001587e-003	7.735290e-001	-6.334536e-001	7.739074e-001	-6.327659e-001	-2.911981e-003	7.233769e-004
41969981.238	-6.887217e-004	-2.102761e-003	7.734518e-001	-6.339365e-001	7.733962e-001	-6.333353e-001	-2.986258e-003	8.143801e-004
42001250.782	-7.333667e-004	-2.004764e-003	7.731273e-001	-6.343858e-001	7.732292e-001	-6.334007e-001	-3.007864e-003	7.844972e-004
42032520.325	-7.023512e-004	-1.969313e-003	7.727703e-001	-6.347604e-001	7.732265e-001	-6.338666e-001	-3.061899e-003	8.329257e-004
42063789.869	-7.700912e-004	-2.042222e-003	7.724998e-001	-6.351313e-001	7.724833e-001	-6.344194e-001	-3.067857e-003	7.944689e-004
42095059.412	-7.339262e-004	-1.993993e-003	7.720189e-001	-6.355961e-001	7.722244e-001	-6.347699e-001	-3.062343e-003	8.719917e-004
42126328.956	-7.084315e-004	-2.014534e-003	7.718163e-001	-6.358167e-001	7.719028e-001	-6.351437e-001	-3.063726e-003	8.029106e-004
42157598.499	-6.924598e-004	-2.039659e-003	7.715048e-001	-6.362549e-001	7.715563e-001	-6.356999e-001	-3.017377e-003	8.533237e-004
42188868.043	-6.914312e-004	-2.000299e-003	7.713265e-001	-6.364602e-001	7.712571e-001	-6.359299e-001	-3.060086e-003	8.203661e-004
42220137.586	-5.896607e-004	-2.009124e-003	7.707277e-001	-6.371340e-001	7.709924e-001	-6.361445e-001	-3.079518e-003	8.276325e-004
42251407.129	-6.501679e-004	-2.053120e-003	7.706593e-001	-6.374359e-001	7.704903e-001	-6.367132e-001	-3.093497e-003	8.382482e-004
42282676.673	-6.447192e-004	-2.015565e-003	7.701556e-001	-6.379882e-001	7.702391e-001	-6.370993e-001	-3.055831e-003	8.667146e-004
42313946.216	-7.321788e-004	-1.960048e-003	7.700380e-001	-6.383761e-001	7.698885e-001	-6.375984e-001	-3.078565e-003	8.409266e-004
42345215.760	-7.536379e-004	-2.072089e-003	7.694251e-001	-6.386273e-001	7.695834e-001	-6.380178e-001	-3.135562e-003	8.998044e-004
42376485.303	-7.014957e-004	-2.034564e-003	7.692102e-001	-6.391548e-001	7.692700e-001	-6.382943e-001	-3.101505e-003	9.353439e-004
42407754.847	-6.765256e-004	-1.976426e-003	7.687880e-001	-6.394341e-001	7.688953e-001	-6.387974e-001	-3.051297e-003	8.887737e-004
42439024.390	-7.156298e-004	-2.071225e-003	7.686427e-001	-6.397802e-001	7.686006e-001	-6.390008e-001	-3.126937e-003	8.197256e-004
42470293.934	-6.167852e-004	-2.044705e-003	7.682080e-001	-6.401862e-001	7.684032e-001	-6.394699e-001	-3.045521e-003	8.569778e-004
42501563.477	-6.537448e-004	-1.964991e-003	7.678600e-001	-6.406022e-001	7.682025e-001	-6.400538e-001	-2.987932e-003	8.354849e-004
42532833.021	-5.887560e-004	-1.991318e-003	7.676239e-001	-6.409521e-001	7.678816e-001	-6.404055e-001	-3.152281e-003	8.514782e-004
42564102.564	-6.614693e-004	-1.984049e-003	7.671005e-001	-6.415674e-001	7.675182e-001	-6.407043e-001	-3.098786e-003	8.530267e-004
42595372.108	-6.182789e-004	-2.015968e-003	7.668009e-001	-6.418861e-001	7.670838e-001	-6.411321e-001	-3.192524e-003	8.616956e-004
42626641.651	-7.041029e-004	-2.093700e-003	7.665180e-001	-6.421899e-001	7.667389e-001	-6.415076e-001	-3.104036e-003	8.769024e-004
42657911.194	-7.122905e-004	-2.002945e-003	7.662996e-001	-6.427604e-001	7.664654e-001	-6.419377e-001	-3.147669e-003	8.455139e-004
42689180.738	-6.825062e-004	-1.925596e-003	7.659104e-001	-6.430350e-001	7.661417e-001	-6.424890e-001	-3.189853e-003	8.808679e-004
42720450.281	-7.371752e-004	-2.059708e-003	7.655788e-001	-6.430961e-001	7.656561e-001	-6.425866e-001	-3.079128e-003	8.709937e-004
42751719.825	-6.804474e-004	-2.089006e-003	7.652647e-001	-6.436792e-001	7.655579e-001	-6.428647e-001	-3.045959e-003	8.385304e-004
42782989.368	-8.018655e-004	-2.027856e-003	7.649263e-001	-6.443048e-001	7.649126e-001	-6.434213e-001	-3.146366e-003	9.488916e-004
42814258.912	-6.594093e-004	-2.029765e-003	7.648651e-001	-6.446013e-001	7.648385e-001	-6.438051e-001	-3.128478e-003	7.560044e-004
42845528.455	-7.163854e-004	-1.983426e-003	7.643166e-001	-6.450883e-001	7.644592e-001	-6.443352e-001	-3.089826e-003	9.496823e-004
42876797.999	-6.206035e-004	-2.037871e-003	7.641671e-001	-6.452356e-001	7.641667e-001	-6.447832e-001	-3.158705e-003	9.115799e-004
42908067.542	-7.300869e-004	-2.007985e-003	7.636672e-001	-6.454538e-001	7.638787e-001	-6.449534e-001	-3.116486e-003	7.919919e-004
42939337.086	-6.002670e-004	-1.911797e-003	7.632446e-001	-6.459207e-001	7.632731e-001	-6.453884e-001	-3.154213e-003	8.110271e-004
42970606.629	-6.897078e-004	-2.032044e-003	7.629117e-001	-6.465116e-001	7.630397e-001	-6.457655e-001	-3.149118e-003	7.901556e-004
43001876.173	-7.399004e-004	-1.992527e-003	7.626961e-001	-6.469427e-001	7.628990e-001	-6.463228e-001	-3.168841e-003	9.770278e-004
43033145.716	-5.995392e-004	-1.918748e-003	7.621783e-001	-6.472786e-001	7.623274e-001	-6.466056e-001	-3.154950e-003	9.230260e-004
43064415.260	-6.259484e-004	-2.012123e-003	7.618845e-001	-6.476236e-001	7.623011e-001	-6.470008e-001	-3.135042e-003	8.776779e-004
43095684.803	-7.119244e-004	-2.042305e-003	7.616539e-001	-6.481338e-001	7.617244e-001	-6.473156e-001	-3.219024e-003	9.214120e-004
43126954.346	-6.492595e-004	-1.922024e-003	7.614964e-001	-6.483887e-001	7.613362e-001	-6.478129e-001	-3.242562e-003	9.052865e-004
43158223.890	-6.368590e-004	-1.965371e-003	7.609809e-001	-6.487377e-001	7.611252e-001	-6.481794e-001	-3.231080e-003	9.712688e-004
43189493.433	-6.257198e-004	-2.060344e-003	7.608316e-001	-6.493587e-001	7.607120e-001	-6.486269e-001	-3.206688e-003	9.770370e-004
43220762.977	-6.808080e-004	-1.961431e-003	7.603597e-001	-6.496343e-001	7.604448e-001	-6.487852e-001	-3.243231e-003	9.119882e-004
43252032.520	-6.283953e-004	-2.089837e-003	7.598496e-001	-6.499955e-001	7.600562e-001	-6.494088e-001	-3.178250e-003	9.031995e-004
43283302.064	-6.526432e-004	-1.973845e-003	7.596505e-001	-6.504038e-001	7.596517e-001	-6.497020e-001	-3.123941e-003	9.376325e-004
43314571.607	-6.967909e-004	-2.038063e-003	7.594407e-001	-6.507463e-001	7.597898e-001	-6.500091e-001	-3.236049e-003	1.003438e-003
43345841.151	-6.600021e-004	-2.020490e-003	7.588930e-001	-6.511203e-001	7.592182e-001	-6.505429e-001	-3.216822e-003	1.004017e-003
43377110.694	-7.486823e-004	-2.016568e-003	7.586282e-001	-6.514285e-001	7.586948e-001	-6.509905e-001	-3.287412e-003	9.174869e-004
43408380.238	-6.414398e-004	-2.021576e-003	7.584506e-001	-6.521369e-001	7.583126e-001	-6.509950e-001	-3.156903e-003	9.510630e-004
43439649.781	-6.608356e-004	-2.056646e-003	7.580308e-001	-6.523316e-001	7.579347e-001	-6.517328e-001	-3.187488e-003	9.782494e-004
43470919.325	-6.777282e-004	-2.061235e-003	7.575259e-001	-6.528094e-001	7.579739e-001	-6.521871e-001	-3.185576e-003	1.089843e-003
43502188.868	-6.583136e-004	-2.092502e-003	7.572645e-001	-6.533360e-001	7.573854e-001	-6.524211e-001	-3.195682e-003	1.037689e-003
43533458.412	-5.910849e-004	-1.993744e-003	7.569848e-001	-6.533245e-001	7.569582e-001	-6.527512e-001	-3.197305e-003	9.736948e-004
43564727.955	-6.590893e-004	-2.004061e-003	7.567983e-001	-6.537532e-001	7.566614e-001	-6.533844e-001	-3.219138e-003	9.166210e-004
43595997.498	-6.506210e-004	-2.078379e-003	7.562921e-001	-6.540655e-001	7.562867e-001	-6.536203e-001	-3.289805e-003	9.781591e-004
43627267.042	-6.133124e-004	-2.084115e-003	7.561231e-001	-6.544197e-001	7.560452e-001	-6.541784e-001	-3.303069e-003	1.082631e-003
43658536.585	-6.196960e-004	-2.108200e-003	7.556654e-001	-6.550762e-001	7.557435e-001	-6.543471e-001	-3.315559e-003	1.026165e-003
43689806.129	-5.408839e-004	-2.050326e-003	7.552425e-001	-6.554871e-001	7.555139e-001	-6.547523e-001	-3.210639e-003	9.395043e-004
43721075.672	-7.116616e-004	-1.982469e-003	7.548624e-001	-6.557713e-001	7.550549e-001	-6.552521e-001	-3.203290e-003	9.565834e-004
43752345.216	-6.110060e-004	-2.090117e-003	7.547618e-001	-6.561659e-001	7.546371e-001	-6.555659e-001	-3.163522e-003	9.994483e-004
43783614.759	-6.480038e-004	-2.041865e-003	7.541782e-001	-6.564862e-001	7.544093e-001	-6.559638e-001	-3.192526e-003	9.641852e-004
43814884.303	-6.879403e-004	-2.036130e-003	7.541040e-001	-6.569873e-001	7.540425e-001	-6.562777e-001	-3.243819e-003	1.062665e-003
43846153.846	-5.649452e-004	-2.049180e-003	7.536364e-001	-6.573473e-001	7.538728e-001	-6.566823e-001	-3.310084e-003	1.009701e-003
43877423.390	-6.433741e-004	-2.069219e-003	7.532014e-001	-6.579979e-001	7.533895e-001	-6.570945e-001	-3.245812e-003	1.001391e-003
43908692.933	-6.963342e-004	-1.999916e-003	7.528424e-001	-6.582407e-001	7.530772e-001	-6.575016e-001	-3.333859e-003	1.053899e-003
43939962.477	-6.835013e-004	-2.000039e-003	7.527202e-001	-6.586489e-001	7.527989e-001	-6.578562e-001	-3.284816e-003	1.047041e-003
43971232.020	-6.409438e-004	-2.026183e-003	7.523075e-001	-6.588453e-001	7.523737e-001	-6.583683e-001	-3.251279e-003	1.058139e-003
44002501.563	-6.224677e-004	-2.057698e-003	7.517624e-001	-6.593016e-001	7.522330e-001	-6.585809e-001	-3.253002e-003	1.153592e-003
44033771.107	-5.942202e-004	-2.077221e-003	7.515174e-001	-6.598270e-001	7.518153e-001	-6.589393e-001	-3.266243e-003	1.110243e-003
44065040.650	-6.314983e-004	-1.947614e-003	7.512363e-001	-6.601389e-001	7.514211e-001	-6.594038e-001	-3.212607e-003	1.184980e-003
44096310.194	-6.723798e-004	-2.023508e-003	7.509639e-001	-6.604178e-001	7.510227e-001	-6.597232e-001	-3.225353e-003	1.079498e-003
44127579.737	-6.460239e-004	-2.046917e-003	7.506924e-001	-6.607888e-001	7.507876e-001	-6.601664e-001	-3.235704e-003	1.089322e-003
44158849.281	-5.967329e-004	-2.010108e-003	7.503950e-001	-6.611753e-001	7.504438e-001	-6.606235e-001	-3.219015e-003	1.087057e-003
44190118.824	-6.289850e-004	-2.072226e-003	7.498815e-001	-6.615220e-001	7.502222e-001	-6.610277e-001	-3.284169e-003	1.124903e-003
44221388.368	-7.061872e-004	-2.080207e-003	7.497653e-001	-6.620497e-001	7.496468e-001	-6.613156e-001	-3.335214e-003	1.103672e-003
44252657.911	-7.204951e-004	-2.027825e-003	7.492754e-001	-6.623955e-001	7.493829e-001	-6.616591e-001	-3.245899e-003	1.071313e-003
44283927.455	-6.712850e-004	-2.093214e-003	7.488927e-001	-6.625929e-001	7.491862e-001	-6.621671e-001	-3.372034e-003	1.030819e-003
44315196.998	-6.869757e-004	-2.044978e-003	7.487064e-001	-6.632054e-001	7.488083e-001	-6.624617e-001	-3.271377e-003	1.025926e-003
44346466.542	-6.085985e-004	-1.988981e-003	7.481627e-001	-6.636761e-001	7.484502e-001	-6.628786e-001	-3.340812e-003	1.070217e-003
44377736.085	-5.910749e-004	-2.053662e-003	7.479381e-001	-6.636345e-001	7.478092e-001	-6.631531e-001	-3.425484e-003	1.153811e-003
44409005.629	-6.152210e-004	-1.899223e-003	7.473734e-001	-6.644096e-001	7.475265e-001	-6.634698e-001	-3.277195e-003	1.138101e-003
44440275.172	-5.897963e-004	-2.126693e-003	7.472939e-001	-6.645250e-001	7.473665e-001	-6.638905e-001	-3.339893e-003	1.151973e-003
44471544.715	-6.375391e-004	-2.126719e-003	7.467119e-001	-6.650325e-001	7.470721e-001	-6.643576e-001	-3.314275e-003	1.174125e-003
44502814.259	-5.830298e-004	-2.083372e-003	7.465376e-001	-6.652847e-001	7.465703e-001	-6.648184e-001	-3.289002e-003	1.157575e-003
44534083.802	-6.741030e-004	-2.071275e-003	7.458928e-001	-6.658086e-001	7.462791e-001	-6.649864e-001	-3.285688e-003	1.080478e-003
44565353.346	-6.842893e-004	-2.027942e-003	7.456882e-001	-6.661427e-001	7.459354e-001	-6.652989e-001	-3.342182e-003	1.179467e-003
44596622.889	-7.229521e-004	-2.082865e-003	7.453883e-001	-6.664811e-001	7.456809e-001	-6.658307e-001	-3.276475e-003	1.180218e-003
44627892.433	-5.983730e-004	-2.017142e-003	7.450698e-001	-6.669160e-001	7.452300e-001	-6.661832e-001	-3.356616e-003	1.106975e-003
44659161.976	-6.255659e-004	-2.013788e-003	7.447229e-001	-6.672894e-001	7.450152e-001	-6.667491e-001	-3.312729e-003	1.144853e-003
44690431.520	-6.087220e-004	-2.110143e-003	7.445305e-001	-6.677036e-001	7.444992e-001	-6.669616e-001	-3.394015e-003	1.181306e-003
44721701.063	-6.426869e-004	-2.030428e-003	7.442933e-001	-6.678428e-001	7.442527e-001	-6.676186e-001	-3.304694e-003	1.270011e-003
