!Agilent Technologies,E5061B,MY49102235,A.02.00
!Date: Mon Jul 03 10:46:10 2023
!Data & Calibration Information:
!Freq	S11:SOLT2(ON)	S21:SOLT2(ON)	S12:SOLT2(ON)	S22:SOLT2(ON)
# Hz S RI R 50
40000000.000	-7.099517e-004	-2.180020e-003	7.934426e-001	-6.088046e-001	7.935010e-001	-6.078059e-001	-2.875931e-003	5.756903e-004
40031269.543	-6.517251e-004	-2.225727e-003	7.933279e-001	-6.094116e-001	7.933749e-001	-6.081737e-001	-2.821057e-003	6.882284e-004
40062539.087	-7.426838e-004	-2.215361e-003	7.925854e-001	-6.094613e-001	7.928342e-001	-6.085086e-001	-2.786813e-003	6.205370e-004
40093808.630	-8.026446e-004	-2.171808e-003	7.924503e-001	-6.100119e-001	7.926780e-001	-6.091808e-001	-2.816207e-003	6.975576e-004
40125078.174	-8.244723e-004	-2.208631e-003	7.921861e-001	-6.102105e-001	7.922547e-001	-6.094616e-001	-2.778922e-003	7.216867e-004
40156347.717	-7.059832e-004	-2.225144e-003	7.921096e-001	-6.108816e-001	7.918991e-001	-6.099664e-001	-2.882025e-003	6.965355e-004
40187617.261	-7.789181e-004	-2.248303e-003	7.915611e-001	-6.111478e-001	7.917704e-001	-6.105498e-001	-2.790575e-003	5.629917e-004
40218886.804	-6.519449e-004	-2.182706e-003	7.912079e-001	-6.117978e-001	7.912124e-001	-6.106511e-001	-2.736638e-003	6.129007e-004
40250156.348	-7.037072e-004	-2.168929e-003	7.910886e-001	-6.118007e-001	7.910600e-001	-6.110557e-001	-2.859407e-003	5.861835e-004
40281425.891	-7.486951e-004	-2.259412e-003	7.906850e-001	-6.125027e-001	7.908580e-001	-6.115694e-001	-2.876376e-003	6.271976e-004
40312695.435	-7.364929e-004	-2.198162e-003	7.903814e-001	-6.130348e-001	7.903164e-001	-6.119528e-001	-2.787117e-003	6.061963e-004
40343964.978	-6.828509e-004	-2.158429e-003	7.899878e-001	-6.131265e-001	7.901548e-001	-6.124920e-001	-2.883938e-003	6.885521e-004
40375234.522	-7.299566e-004	-2.147720e-003	7.896519e-001	-6.135261e-001	7.897925e-001	-6.126165e-001	-2.888193e-003	6.535654e-004
40406504.065	-7.324155e-004	-2.126213e-003	7.891617e-001	-6.138522e-001	7.895837e-001	-6.133114e-001	-2.801451e-003	6.098749e-004
40437773.609	-7.865246e-004	-2.215683e-003	7.892486e-001	-6.144142e-001	7.893231e-001	-6.135360e-001	-2.841080e-003	5.805078e-004
40469043.152	-6.876061e-004	-2.237034e-003	7.887442e-001	-6.147931e-001	7.890490e-001	-6.139150e-001	-2.827257e-003	6.809581e-004
40500312.695	-7.404270e-004	-2.264980e-003	7.883860e-001	-6.151927e-001	7.885668e-001	-6.144822e-001	-2.871204e-003	6.914986e-004
40531582.239	-7.063579e-004	-2.216025e-003	7.879839e-001	-6.153473e-001	7.881194e-001	-6.150418e-001	-2.891698e-003	7.336380e-004
40562851.782	-7.588750e-004	-2.156219e-003	7.876076e-001	-6.159941e-001	7.877603e-001	-6.153135e-001	-2.777756e-003	5.895900e-004
40594121.326	-7.208654e-004	-2.177739e-003	7.875646e-001	-6.164995e-001	7.876425e-001	-6.153578e-001	-2.824605e-003	6.750324e-004
40625390.869	-6.720682e-004	-2.113965e-003	7.872818e-001	-6.168101e-001	7.874196e-001	-6.160634e-001	-2.789428e-003	6.135954e-004
40656660.413	-7.323645e-004	-2.159914e-003	7.868194e-001	-6.172845e-001	7.870761e-001	-6.163131e-001	-2.832097e-003	6.686179e-004
40687929.956	-7.429289e-004	-2.111916e-003	7.869860e-001	-6.176888e-001	7.868715e-001	-6.167670e-001	-2.843310e-003	6.789319e-004
40719199.500	-7.214672e-004	-2.098269e-003	7.861451e-001	-6.181354e-001	7.862743e-001	-6.173040e-001	-2.807631e-003	6.893666e-004
40750469.043	-7.259055e-004	-2.158178e-003	7.858212e-001	-6.183332e-001	7.860269e-001	-6.175788e-001	-2.972775e-003	6.620250e-004
40781738.587	-6.323297e-004	-2.175632e-003	7.857476e-001	-6.188697e-001	7.857627e-001	-6.181305e-001	-2.964081e-003	7.034107e-004
40813008.130	-7.428829e-004	-2.119073e-003	7.855288e-001	-6.191203e-001	7.852692e-001	-6.185204e-001	-2.858931e-003	7.076049e-004
40844277.674	-7.183723e-004	-2.092570e-003	7.850964e-001	-6.196008e-001	7.849363e-001	-6.188310e-001	-2.966609e-003	7.191337e-004
40875547.217	-6.985410e-004	-2.180068e-003	7.846945e-001	-6.200818e-001	7.850469e-001	-6.192578e-001	-2.878955e-003	6.962119e-004
40906816.760	-7.172090e-004	-2.122152e-003	7.845083e-001	-6.204837e-001	7.844702e-001	-6.195178e-001	-2.783618e-003	6.515875e-004
40938086.304	-7.334881e-004	-2.136442e-003	7.838206e-001	-6.208405e-001	7.841937e-001	-6.201182e-001	-2.921469e-003	7.181670e-004
40969355.847	-7.611320e-004	-2.122734e-003	7.833766e-001	-6.211874e-001	7.838058e-001	-6.203112e-001	-2.977410e-003	6.859829e-004
41000625.391	-7.348986e-004	-2.052721e-003	7.830928e-001	-6.214574e-001	7.834074e-001	-6.207730e-001	-2.874784e-003	7.240779e-004
41031894.934	-6.574152e-004	-2.031320e-003	7.830474e-001	-6.218134e-001	7.832275e-001	-6.212496e-001	-2.872051e-003	6.769387e-004
41063164.478	-7.898384e-004	-2.097314e-003	7.828443e-001	-6.224366e-001	7.829075e-001	-6.217842e-001	-2.922037e-003	7.186190e-004
41094434.021	-7.722830e-004	-2.093467e-003	7.824391e-001	-6.227325e-001	7.825811e-001	-6.219975e-001	-2.858867e-003	7.310858e-004
41125703.565	-7.040768e-004	-2.083545e-003	7.821466e-001	-6.231180e-001	7.823778e-001	-6.222740e-001	-2.954818e-003	7.050478e-004
41156973.108	-6.933808e-004	-2.160541e-003	7.818811e-001	-6.233797e-001	7.819121e-001	-6.229613e-001	-2.919402e-003	7.456974e-004
41188242.652	-7.288916e-004	-2.024775e-003	7.814574e-001	-6.241653e-001	7.816494e-001	-6.229763e-001	-2.847086e-003	6.856892e-004
41219512.195	-6.155292e-004	-2.160311e-003	7.810142e-001	-6.244142e-001	7.811953e-001	-6.235402e-001	-2.907564e-003	6.693450e-004
41250781.739	-7.545695e-004	-2.107909e-003	7.806754e-001	-6.249250e-001	7.808261e-001	-6.240306e-001	-2.862963e-003	7.101528e-004
41282051.282	-6.573514e-004	-2.154385e-003	7.804693e-001	-6.251328e-001	7.806086e-001	-6.243916e-001	-2.969324e-003	6.810984e-004
41313320.826	-7.385084e-004	-2.024621e-003	7.801439e-001	-6.254884e-001	7.802884e-001	-6.248086e-001	-2.924150e-003	6.968350e-004
41344590.369	-7.658824e-004	-2.089606e-003	7.798027e-001	-6.258010e-001	7.801130e-001	-6.251343e-001	-2.930955e-003	7.516382e-004
41375859.912	-7.972937e-004	-2.057959e-003	7.795656e-001	-6.263856e-001	7.793631e-001	-6.256293e-001	-2.956049e-003	7.288915e-004
41407129.456	-7.167967e-004	-2.077316e-003	7.792804e-001	-6.266068e-001	7.792890e-001	-6.256233e-001	-2.978696e-003	7.927511e-004
41438398.999	-7.371684e-004	-2.133260e-003	7.790483e-001	-6.274276e-001	7.790319e-001	-6.264878e-001	-2.989378e-003	7.928378e-004
41469668.543	-7.689133e-004	-1.958981e-003	7.783933e-001	-6.277146e-001	7.786637e-001	-6.269549e-001	-2.920671e-003	7.310602e-004
41500938.086	-6.733857e-004	-2.013018e-003	7.783324e-001	-6.279616e-001	7.784770e-001	-6.271126e-001	-2.929111e-003	6.741437e-004
41532207.630	-7.277131e-004	-2.088979e-003	7.779018e-001	-6.283098e-001	7.780368e-001	-6.274122e-001	-2.954813e-003	7.096978e-004
41563477.173	-6.488407e-004	-2.130080e-003	7.775930e-001	-6.286379e-001	7.777208e-001	-6.278385e-001	-2.890146e-003	6.715258e-004
41594746.717	-6.490313e-004	-2.143178e-003	7.770866e-001	-6.291937e-001	7.774263e-001	-6.283593e-001	-2.956389e-003	7.726461e-004
41626016.260	-7.898506e-004	-2.129814e-003	7.771566e-001	-6.295462e-001	7.771194e-001	-6.286411e-001	-2.958616e-003	7.708839e-004
41657285.804	-7.170807e-004	-2.151536e-003	7.765914e-001	-6.300294e-001	7.768563e-001	-6.290033e-001	-2.909148e-003	7.390895e-004
41688555.347	-7.037946e-004	-2.075875e-003	7.764534e-001	-6.304439e-001	7.763521e-001	-6.294916e-001	-2.923885e-003	7.406903e-004
41719824.891	-6.487003e-004	-2.002675e-003	7.760439e-001	-6.308296e-001	7.761102e-001	-6.299255e-001	-2.992339e-003	7.906508e-004
41751094.434	-7.727123e-004	-1.912334e-003	7.758685e-001	-6.310945e-001	7.757439e-001	-6.306508e-001	-2.882150e-003	6.973056e-004
41782363.977	-6.222454e-004	-2.044149e-003	7.753790e-001	-6.316900e-001	7.756549e-001	-6.306546e-001	-3.063340e-003	7.044147e-004
41813633.521	-7.517506e-004	-2.046621e-003	7.749715e-001	-6.319123e-001	7.752329e-001	-6.311290e-001	-2.933939e-003	8.363178e-004
41844903.064	-7.472640e-004	-2.028061e-003	7.748567e-001	-6.322990e-001	7.749312e-001	-6.315895e-001	-3.006534e-003	8.052328e-004
41876172.608	-7.032018e-004	-2.090790e-003	7.742043e-001	-6.326536e-001	7.747276e-001	-6.319193e-001	-3.048174e-003	8.346233e-004
41907442.151	-7.570259e-004	-2.021018e-003	7.739175e-001	-6.330217e-001	7.741560e-001	-6.325096e-001	-3.053250e-003	7.813151e-004
41938711.695	-6.371790e-004	-2.018696e-003	7.737096e-001	-6.334016e-001	7.739330e-001	-6.326230e-001	-2.920831e-003	7.599931e-004
41969981.238	-6.997264e-004	-2.120515e-003	7.735040e-001	-6.340642e-001	7.735336e-001	-6.331661e-001	-2.957104e-003	8.361832e-004
42001250.782	-6.701067e-004	-2.002052e-003	7.730848e-001	-6.343628e-001	7.732563e-001	-6.333285e-001	-2.987223e-003	7.776552e-004
42032520.325	-7.120345e-004	-1.993311e-003	7.727511e-001	-6.348044e-001	7.732193e-001	-6.339545e-001	-3.038614e-003	7.902971e-004
42063789.869	-6.855115e-004	-2.027691e-003	7.726606e-001	-6.351866e-001	7.724633e-001	-6.344582e-001	-3.049146e-003	8.368104e-004
42095059.412	-7.003140e-004	-2.021551e-003	7.721054e-001	-6.356575e-001	7.724344e-001	-6.349323e-001	-3.021753e-003	8.185447e-004
42126328.956	-7.331809e-004	-1.975456e-003	7.718490e-001	-6.357241e-001	7.717976e-001	-6.350308e-001	-3.037656e-003	8.015962e-004
42157598.499	-6.261469e-004	-2.035203e-003	7.714708e-001	-6.363458e-001	7.715312e-001	-6.356636e-001	-3.030689e-003	8.828279e-004
42188868.043	-7.087853e-004	-2.059256e-003	7.713795e-001	-6.365460e-001	7.713098e-001	-6.359233e-001	-3.046934e-003	8.602037e-004
42220137.586	-6.428001e-004	-1.979226e-003	7.708381e-001	-6.370927e-001	7.709689e-001	-6.361714e-001	-3.030410e-003	8.071269e-004
42251407.129	-6.801363e-004	-2.041837e-003	7.705418e-001	-6.376289e-001	7.706469e-001	-6.367703e-001	-3.033876e-003	9.349572e-004
42282676.673	-6.414469e-004	-2.036449e-003	7.701916e-001	-6.378851e-001	7.702350e-001	-6.370553e-001	-2.991861e-003	9.286106e-004
42313946.216	-6.999930e-004	-1.964357e-003	7.700683e-001	-6.384073e-001	7.698989e-001	-6.376376e-001	-3.039266e-003	8.817361e-004
42345215.760	-7.963704e-004	-2.044782e-003	7.695514e-001	-6.386067e-001	7.695411e-001	-6.379906e-001	-3.158032e-003	8.998408e-004
42376485.303	-7.454362e-004	-2.031275e-003	7.692009e-001	-6.391157e-001	7.692633e-001	-6.382647e-001	-3.082697e-003	9.159504e-004
42407754.847	-6.776715e-004	-1.959936e-003	7.687934e-001	-6.394678e-001	7.688792e-001	-6.386928e-001	-3.043076e-003	8.939789e-004
42439024.390	-6.923314e-004	-2.020490e-003	7.685738e-001	-6.398737e-001	7.687557e-001	-6.389303e-001	-3.121237e-003	8.707253e-004
42470293.934	-6.480071e-004	-1.990099e-003	7.682412e-001	-6.402951e-001	7.684345e-001	-6.396342e-001	-3.064041e-003	8.496532e-004
42501563.477	-7.080458e-004	-1.924519e-003	7.679295e-001	-6.406171e-001	7.682227e-001	-6.400269e-001	-3.048560e-003	9.277750e-004
42532833.021	-6.156227e-004	-1.970427e-003	7.675505e-001	-6.409798e-001	7.678735e-001	-6.404280e-001	-3.118531e-003	8.312594e-004
42564102.564	-6.599884e-004	-1.958541e-003	7.672990e-001	-6.414183e-001	7.674391e-001	-6.407372e-001	-3.116304e-003	9.050595e-004
42595372.108	-6.344633e-004	-1.937982e-003	7.667856e-001	-6.420800e-001	7.671906e-001	-6.411777e-001	-3.152727e-003	8.224740e-004
42626641.651	-6.972707e-004	-2.053993e-003	7.666251e-001	-6.421566e-001	7.667605e-001	-6.413499e-001	-3.162417e-003	9.017665e-004
42657911.194	-6.598642e-004	-1.971066e-003	7.663417e-001	-6.426557e-001	7.663539e-001	-6.419433e-001	-3.088398e-003	9.292742e-004
42689180.738	-6.990481e-004	-1.964285e-003	7.658765e-001	-6.430672e-001	7.660349e-001	-6.423352e-001	-3.149973e-003	9.122081e-004
42720450.281	-6.619279e-004	-2.041353e-003	7.654467e-001	-6.433033e-001	7.656327e-001	-6.426116e-001	-3.122336e-003	9.296494e-004
42751719.825	-6.584761e-004	-2.125257e-003	7.652285e-001	-6.437641e-001	7.656700e-001	-6.428847e-001	-3.086658e-003	8.864895e-004
42782989.368	-7.511072e-004	-1.987507e-003	7.648896e-001	-6.443285e-001	7.651611e-001	-6.434419e-001	-3.137855e-003	9.464590e-004
42814258.912	-6.716168e-004	-2.021798e-003	7.648865e-001	-6.445240e-001	7.646759e-001	-6.438420e-001	-3.076000e-003	7.633444e-004
42845528.455	-7.413288e-004	-1.942933e-003	7.641705e-001	-6.450436e-001	7.645307e-001	-6.441804e-001	-3.134112e-003	9.172048e-004
42876797.999	-6.206598e-004	-1.990026e-003	7.640604e-001	-6.452414e-001	7.640745e-001	-6.446407e-001	-3.118209e-003	8.285488e-004
42908067.542	-7.248717e-004	-2.001185e-003	7.636338e-001	-6.453478e-001	7.639790e-001	-6.447897e-001	-3.126550e-003	8.484782e-004
42939337.086	-6.275281e-004	-1.957480e-003	7.632977e-001	-6.460547e-001	7.633472e-001	-6.453816e-001	-3.114657e-003	8.399653e-004
42970606.629	-6.704698e-004	-2.019522e-003	7.629287e-001	-6.464537e-001	7.630425e-001	-6.458764e-001	-3.147730e-003	8.159437e-004
43001876.173	-6.648657e-004	-2.026410e-003	7.626217e-001	-6.470110e-001	7.627640e-001	-6.462064e-001	-3.192379e-003	1.000001e-003
43033145.716	-5.908258e-004	-1.976811e-003	7.621811e-001	-6.473806e-001	7.623586e-001	-6.466376e-001	-3.230739e-003	9.655261e-004
43064415.260	-6.099747e-004	-2.006655e-003	7.618236e-001	-6.475718e-001	7.621597e-001	-6.469734e-001	-3.178061e-003	8.676208e-004
43095684.803	-6.827914e-004	-1.945985e-003	7.613707e-001	-6.479052e-001	7.618577e-001	-6.475890e-001	-3.220384e-003	8.821333e-004
43126954.346	-6.278231e-004	-1.942918e-003	7.612868e-001	-6.484061e-001	7.614191e-001	-6.476924e-001	-3.190185e-003	9.260937e-004
43158223.890	-6.199486e-004	-1.966125e-003	7.609616e-001	-6.486584e-001	7.612373e-001	-6.479878e-001	-3.276693e-003	9.682796e-004
43189493.433	-5.925606e-004	-2.047502e-003	7.607189e-001	-6.493145e-001	7.606153e-001	-6.486591e-001	-3.225702e-003	9.744462e-004
43220762.977	-5.941206e-004	-1.940267e-003	7.604584e-001	-6.496996e-001	7.605074e-001	-6.487024e-001	-3.253151e-003	8.678674e-004
43252032.520	-6.110644e-004	-2.077435e-003	7.598725e-001	-6.500250e-001	7.600198e-001	-6.493376e-001	-3.137897e-003	9.068562e-004
43283302.064	-6.841496e-004	-1.940647e-003	7.598424e-001	-6.503629e-001	7.597441e-001	-6.496284e-001	-3.153379e-003	9.299756e-004
43314571.607	-7.238524e-004	-2.020742e-003	7.593526e-001	-6.509202e-001	7.596304e-001	-6.501194e-001	-3.250080e-003	1.055682e-003
43345841.151	-5.967998e-004	-1.962782e-003	7.589087e-001	-6.512699e-001	7.591637e-001	-6.505223e-001	-3.206737e-003	1.004010e-003
43377110.694	-7.048627e-004	-2.037645e-003	7.586642e-001	-6.514247e-001	7.586455e-001	-6.508629e-001	-3.271371e-003	9.671173e-004
43408380.238	-5.601584e-004	-2.022045e-003	7.583705e-001	-6.520942e-001	7.584589e-001	-6.510144e-001	-3.208480e-003	9.720645e-004
43439649.781	-6.137021e-004	-2.081019e-003	7.579298e-001	-6.523310e-001	7.580086e-001	-6.516941e-001	-3.155704e-003	9.991377e-004
43470919.325	-6.896367e-004	-2.042101e-003	7.575570e-001	-6.528530e-001	7.579618e-001	-6.520210e-001	-3.153799e-003	1.042229e-003
43502188.868	-7.146380e-004	-2.074427e-003	7.572494e-001	-6.533802e-001	7.572783e-001	-6.523694e-001	-3.225133e-003	1.003328e-003
43533458.412	-6.011390e-004	-1.965483e-003	7.570272e-001	-6.534529e-001	7.570197e-001	-6.528201e-001	-3.181280e-003	9.681715e-004
43564727.955	-6.919747e-004	-2.015239e-003	7.566267e-001	-6.538319e-001	7.566987e-001	-6.533020e-001	-3.298659e-003	9.608118e-004
43595997.498	-6.264626e-004	-2.023488e-003	7.563181e-001	-6.541972e-001	7.561225e-001	-6.534337e-001	-3.227250e-003	1.009436e-003
43627267.042	-6.063604e-004	-2.076016e-003	7.561569e-001	-6.545195e-001	7.560411e-001	-6.542018e-001	-3.233056e-003	1.045609e-003
43658536.585	-6.148486e-004	-2.037486e-003	7.555724e-001	-6.552107e-001	7.557083e-001	-6.543509e-001	-3.211405e-003	1.009072e-003
43689806.129	-5.500385e-004	-2.055041e-003	7.551794e-001	-6.554004e-001	7.553042e-001	-6.547099e-001	-3.214930e-003	9.447943e-004
43721075.672	-6.636076e-004	-1.927751e-003	7.548102e-001	-6.557125e-001	7.550512e-001	-6.552362e-001	-3.227338e-003	1.038478e-003
43752345.216	-5.556347e-004	-2.090702e-003	7.546804e-001	-6.560818e-001	7.547437e-001	-6.557537e-001	-3.172626e-003	1.050665e-003
43783614.759	-5.998630e-004	-2.105481e-003	7.542650e-001	-6.566023e-001	7.544091e-001	-6.559075e-001	-3.174202e-003	9.546112e-004
43814884.303	-7.157370e-004	-1.997620e-003	7.540186e-001	-6.568443e-001	7.541335e-001	-6.563737e-001	-3.289308e-003	1.017232e-003
43846153.846	-5.791581e-004	-2.061892e-003	7.537183e-001	-6.573283e-001	7.539789e-001	-6.565827e-001	-3.261538e-003	1.016485e-003
43877423.390	-6.186286e-004	-2.089861e-003	7.532130e-001	-6.579996e-001	7.535225e-001	-6.570493e-001	-3.223746e-003	1.027096e-003
43908692.933	-6.853910e-004	-2.013640e-003	7.527850e-001	-6.582129e-001	7.532309e-001	-6.571398e-001	-3.242631e-003	1.066347e-003
43939962.477	-6.292323e-004	-1.981745e-003	7.526766e-001	-6.587232e-001	7.529184e-001	-6.580134e-001	-3.308688e-003	1.054646e-003
43971232.020	-6.778323e-004	-2.053227e-003	7.522771e-001	-6.589500e-001	7.525378e-001	-6.581080e-001	-3.209298e-003	1.023636e-003
44002501.563	-5.916494e-004	-2.062130e-003	7.518727e-001	-6.592464e-001	7.520550e-001	-6.585330e-001	-3.254029e-003	1.110684e-003
44033771.107	-6.093821e-004	-2.063116e-003	7.515385e-001	-6.598958e-001	7.517696e-001	-6.587456e-001	-3.268413e-003	1.069379e-003
44065040.650	-6.251332e-004	-1.973857e-003	7.512018e-001	-6.600388e-001	7.514801e-001	-6.595023e-001	-3.206053e-003	1.130828e-003
44096310.194	-6.739228e-004	-2.047656e-003	7.510451e-001	-6.604101e-001	7.510696e-001	-6.596516e-001	-3.205437e-003	1.064434e-003
44127579.737	-6.135486e-004	-2.067148e-003	7.507019e-001	-6.608451e-001	7.508421e-001	-6.599644e-001	-3.256974e-003	1.077728e-003
44158849.281	-6.036287e-004	-2.050052e-003	7.502837e-001	-6.611354e-001	7.505002e-001	-6.603574e-001	-3.253709e-003	1.042651e-003
44190118.824	-6.581137e-004	-2.030487e-003	7.498853e-001	-6.616364e-001	7.503131e-001	-6.610182e-001	-3.267395e-003	1.105833e-003
44221388.368	-6.653135e-004	-2.103466e-003	7.496483e-001	-6.619812e-001	7.495636e-001	-6.611335e-001	-3.337219e-003	1.125992e-003
44252657.911	-6.418344e-004	-2.063877e-003	7.493306e-001	-6.624999e-001	7.494539e-001	-6.618252e-001	-3.241741e-003	1.080890e-003
44283927.455	-6.566380e-004	-2.055597e-003	7.488212e-001	-6.627548e-001	7.490678e-001	-6.618983e-001	-3.332795e-003	1.049251e-003
44315196.998	-6.897903e-004	-2.010997e-003	7.486680e-001	-6.632379e-001	7.488124e-001	-6.625383e-001	-3.257288e-003	1.081160e-003
44346466.542	-6.450177e-004	-2.062244e-003	7.481685e-001	-6.635305e-001	7.483069e-001	-6.627920e-001	-3.333539e-003	1.106959e-003
44377736.085	-6.442694e-004	-2.012653e-003	7.478846e-001	-6.636986e-001	7.479748e-001	-6.630105e-001	-3.365466e-003	1.130145e-003
44409005.629	-6.040874e-004	-1.975259e-003	7.474307e-001	-6.644381e-001	7.474612e-001	-6.634640e-001	-3.315250e-003	1.089525e-003
44440275.172	-6.118900e-004	-2.073234e-003	7.470211e-001	-6.645996e-001	7.473651e-001	-6.638940e-001	-3.336180e-003	1.145976e-003
44471544.715	-7.101668e-004	-2.050206e-003	7.467534e-001	-6.650512e-001	7.470881e-001	-6.642371e-001	-3.309728e-003	1.137273e-003
44502814.259	-5.299255e-004	-2.117688e-003	7.463987e-001	-6.651444e-001	7.465579e-001	-6.648152e-001	-3.227858e-003	1.107478e-003
44534083.802	-6.619890e-004	-2.009495e-003	7.461221e-001	-6.659030e-001	7.461832e-001	-6.650865e-001	-3.316896e-003	1.065344e-003
44565353.346	-6.750002e-004	-2.026296e-003	7.457033e-001	-6.662324e-001	7.461050e-001	-6.653903e-001	-3.353710e-003	1.235264e-003
44596622.889	-6.774407e-004	-2.039674e-003	7.453476e-001	-6.664800e-001	7.455135e-001	-6.658354e-001	-3.240840e-003	1.206599e-003
44627892.433	-6.370059e-004	-2.050940e-003	7.449929e-001	-6.669416e-001	7.451454e-001	-6.662209e-001	-3.355769e-003	1.146521e-003
44659161.976	-6.715614e-004	-2.032504e-003	7.444584e-001	-6.672990e-001	7.450736e-001	-6.664649e-001	-3.368817e-003	1.128734e-003
44690431.520	-5.788228e-004	-2.091770e-003	7.443204e-001	-6.676115e-001	7.445338e-001	-6.670124e-001	-3.351099e-003	1.165847e-003
44721701.063	-6.543927e-004	-2.048180e-003	7.442181e-001	-6.680427e-001	7.441628e-001	-6.674222e-001	-3.366312e-003	1.237185e-003
