!Agilent Technologies,E5061B,MY49102235,A.02.00
!Date: Mon Jul 03 10:46:25 2023
!Data & Calibration Information:
!Freq	S11:SOLT2(ON)	S21:SOLT2(ON)	S12:SOLT2(ON)	S22:SOLT2(ON)
# Hz S RI R 50
40000000.000	-7.177084e-004	-2.178163e-003	7.935526e-001	-6.087926e-001	7.935827e-001	-6.077095e-001	-2.813134e-003	6.151053e-004
40031269.543	-7.317288e-004	-2.220536e-003	7.932470e-001	-6.093037e-001	7.932932e-001	-6.080595e-001	-2.855833e-003	6.228223e-004
40062539.087	-7.290212e-004	-2.243916e-003	7.927199e-001	-6.094450e-001	7.930609e-001	-6.085144e-001	-2.813308e-003	5.821844e-004
40093808.630	-7.523346e-004	-2.212472e-003	7.924070e-001	-6.101944e-001	7.925968e-001	-6.090840e-001	-2.844750e-003	6.822172e-004
40125078.174	-7.505062e-004	-2.138637e-003	7.922328e-001	-6.102896e-001	7.922514e-001	-6.095010e-001	-2.755007e-003	7.177866e-004
40156347.717	-6.365047e-004	-2.160564e-003	7.920136e-001	-6.108229e-001	7.919398e-001	-6.099322e-001	-2.852751e-003	6.905912e-004
40187617.261	-7.457568e-004	-2.301227e-003	7.916407e-001	-6.110490e-001	7.918565e-001	-6.104370e-001	-2.794306e-003	5.725159e-004
40218886.804	-7.008612e-004	-2.260778e-003	7.913843e-001	-6.116733e-001	7.913507e-001	-6.105361e-001	-2.807876e-003	5.797777e-004
40250156.348	-7.120892e-004	-2.170763e-003	7.910183e-001	-6.118828e-001	7.910746e-001	-6.111011e-001	-2.859924e-003	6.218738e-004
40281425.891	-6.882981e-004	-2.224049e-003	7.906231e-001	-6.124009e-001	7.908102e-001	-6.115105e-001	-2.824790e-003	6.209997e-004
40312695.435	-6.617040e-004	-2.236864e-003	7.902992e-001	-6.129503e-001	7.904495e-001	-6.118253e-001	-2.820910e-003	6.796067e-004
40343964.978	-7.213429e-004	-2.127062e-003	7.900825e-001	-6.130966e-001	7.901202e-001	-6.123137e-001	-2.796604e-003	7.147501e-004
40375234.522	-7.463734e-004	-2.171609e-003	7.895138e-001	-6.136235e-001	7.898207e-001	-6.126764e-001	-2.851752e-003	6.410302e-004
40406504.065	-7.454201e-004	-2.164886e-003	7.894280e-001	-6.139488e-001	7.895012e-001	-6.131841e-001	-2.800547e-003	5.887096e-004
40437773.609	-7.705872e-004	-2.248768e-003	7.892072e-001	-6.144178e-001	7.892878e-001	-6.135952e-001	-2.759920e-003	5.844714e-004
40469043.152	-7.152103e-004	-2.222141e-003	7.886413e-001	-6.148883e-001	7.889723e-001	-6.139196e-001	-2.852457e-003	6.779692e-004
40500312.695	-7.332550e-004	-2.294803e-003	7.881767e-001	-6.152189e-001	7.887297e-001	-6.143451e-001	-2.881402e-003	7.257061e-004
40531582.239	-6.925114e-004	-2.147897e-003	7.880864e-001	-6.153985e-001	7.882917e-001	-6.151060e-001	-2.910139e-003	7.364600e-004
40562851.782	-7.312993e-004	-2.182228e-003	7.875435e-001	-6.159221e-001	7.877177e-001	-6.151920e-001	-2.785612e-003	5.781262e-004
40594121.326	-7.033709e-004	-2.186364e-003	7.876791e-001	-6.165184e-001	7.874929e-001	-6.154725e-001	-2.874272e-003	7.580577e-004
40625390.869	-6.920032e-004	-2.126103e-003	7.872157e-001	-6.168152e-001	7.875634e-001	-6.161093e-001	-2.893643e-003	6.123778e-004
40656660.413	-7.178764e-004	-2.187758e-003	7.868525e-001	-6.172757e-001	7.872422e-001	-6.162072e-001	-2.860757e-003	6.884094e-004
40687929.956	-7.503195e-004	-2.116318e-003	7.867810e-001	-6.176886e-001	7.869369e-001	-6.168039e-001	-2.875195e-003	6.791863e-004
40719199.500	-7.504633e-004	-2.077617e-003	7.861606e-001	-6.181789e-001	7.863446e-001	-6.173958e-001	-2.793726e-003	6.221234e-004
40750469.043	-7.547340e-004	-2.157832e-003	7.857427e-001	-6.182908e-001	7.860529e-001	-6.175692e-001	-2.919423e-003	7.019126e-004
40781738.587	-6.253075e-004	-2.190623e-003	7.856241e-001	-6.188398e-001	7.858311e-001	-6.181329e-001	-2.946900e-003	7.028761e-004
40813008.130	-7.187703e-004	-2.147584e-003	7.854709e-001	-6.190692e-001	7.853026e-001	-6.185420e-001	-2.860682e-003	6.841368e-004
40844277.674	-6.861356e-004	-2.123350e-003	7.848331e-001	-6.196724e-001	7.849505e-001	-6.188477e-001	-2.926202e-003	7.102842e-004
40875547.217	-7.085569e-004	-2.147490e-003	7.845695e-001	-6.201635e-001	7.849429e-001	-6.189213e-001	-2.906994e-003	6.662962e-004
40906816.760	-6.725381e-004	-2.120212e-003	7.844029e-001	-6.205157e-001	7.844048e-001	-6.194995e-001	-2.794831e-003	6.660122e-004
40938086.304	-7.646940e-004	-2.211273e-003	7.839366e-001	-6.209492e-001	7.842750e-001	-6.198494e-001	-2.914278e-003	6.715832e-004
40969355.847	-7.865715e-004	-2.134859e-003	7.835926e-001	-6.211324e-001	7.837316e-001	-6.204959e-001	-2.939142e-003	7.359201e-004
41000625.391	-7.429693e-004	-2.104361e-003	7.830776e-001	-6.215790e-001	7.835071e-001	-6.207072e-001	-2.944603e-003	7.343022e-004
41031894.934	-5.758847e-004	-2.036230e-003	7.832710e-001	-6.219407e-001	7.829218e-001	-6.214339e-001	-2.928243e-003	7.050428e-004
41063164.478	-7.426851e-004	-2.014313e-003	7.829274e-001	-6.224112e-001	7.829856e-001	-6.217262e-001	-2.881760e-003	6.622727e-004
41094434.021	-7.111353e-004	-2.106214e-003	7.824129e-001	-6.227465e-001	7.825325e-001	-6.218072e-001	-2.957534e-003	7.316313e-004
41125703.565	-6.838960e-004	-2.083510e-003	7.822140e-001	-6.233418e-001	7.822739e-001	-6.223004e-001	-2.925489e-003	6.941270e-004
41156973.108	-6.827548e-004	-2.160065e-003	7.818805e-001	-6.233321e-001	7.819050e-001	-6.227809e-001	-2.995838e-003	6.564931e-004
41188242.652	-6.863226e-004	-2.002742e-003	7.814788e-001	-6.241906e-001	7.816850e-001	-6.231921e-001	-2.839459e-003	6.604057e-004
41219512.195	-6.714524e-004	-2.104010e-003	7.811413e-001	-6.246570e-001	7.812612e-001	-6.235666e-001	-2.925358e-003	6.406790e-004
41250781.739	-8.192918e-004	-2.098170e-003	7.807217e-001	-6.249107e-001	7.809939e-001	-6.240294e-001	-2.890764e-003	7.095547e-004
41282051.282	-6.911783e-004	-2.169026e-003	7.804967e-001	-6.253889e-001	7.806270e-001	-6.244305e-001	-2.982479e-003	6.780286e-004
41313320.826	-7.498446e-004	-2.057414e-003	7.800884e-001	-6.255396e-001	7.802400e-001	-6.247794e-001	-2.903116e-003	6.607484e-004
41344590.369	-8.083492e-004	-2.140833e-003	7.797197e-001	-6.258035e-001	7.802016e-001	-6.254201e-001	-2.881321e-003	7.706272e-004
41375859.912	-8.223885e-004	-2.075115e-003	7.793979e-001	-6.263913e-001	7.794744e-001	-6.255516e-001	-2.909853e-003	7.543952e-004
41407129.456	-7.033095e-004	-2.138404e-003	7.792569e-001	-6.265586e-001	7.792994e-001	-6.259445e-001	-2.986148e-003	7.864942e-004
41438398.999	-7.302746e-004	-2.143960e-003	7.789773e-001	-6.271998e-001	7.792586e-001	-6.262336e-001	-2.967908e-003	7.489034e-004
41469668.543	-7.369402e-004	-1.997709e-003	7.784373e-001	-6.276431e-001	7.785782e-001	-6.270095e-001	-2.913038e-003	7.456020e-004
41500938.086	-7.681878e-004	-2.129002e-003	7.783295e-001	-6.278322e-001	7.785264e-001	-6.271329e-001	-2.949906e-003	6.436092e-004
41532207.630	-6.923752e-004	-2.123805e-003	7.778649e-001	-6.283297e-001	7.780538e-001	-6.274023e-001	-2.887532e-003	7.598873e-004
41563477.173	-6.814169e-004	-2.096494e-003	7.774784e-001	-6.289522e-001	7.776864e-001	-6.280280e-001	-2.844687e-003	6.862075e-004
41594746.717	-6.540582e-004	-2.110841e-003	7.773010e-001	-6.290628e-001	7.774513e-001	-6.283647e-001	-2.960253e-003	7.698794e-004
41626016.260	-8.452723e-004	-2.174588e-003	7.769715e-001	-6.296115e-001	7.772571e-001	-6.286829e-001	-2.967678e-003	7.024379e-004
41657285.804	-6.957726e-004	-2.100507e-003	7.767925e-001	-6.300976e-001	7.767800e-001	-6.291732e-001	-2.927785e-003	7.698048e-004
41688555.347	-6.411306e-004	-2.031451e-003	7.763989e-001	-6.303413e-001	7.766027e-001	-6.297218e-001	-2.949431e-003	7.436417e-004
41719824.891	-6.438822e-004	-1.957741e-003	7.759832e-001	-6.309067e-001	7.761945e-001	-6.299723e-001	-2.951064e-003	8.273608e-004
41751094.434	-7.113536e-004	-1.917996e-003	7.755692e-001	-6.311053e-001	7.757815e-001	-6.306010e-001	-2.934544e-003	7.058989e-004
41782363.977	-6.516561e-004	-2.095391e-003	7.754797e-001	-6.315631e-001	7.755462e-001	-6.306207e-001	-3.080496e-003	7.140414e-004
41813633.521	-7.174071e-004	-2.075260e-003	7.749011e-001	-6.318219e-001	7.750660e-001	-6.310299e-001	-2.944388e-003	8.418159e-004
41844903.064	-7.460936e-004	-2.037771e-003	7.749907e-001	-6.320950e-001	7.747212e-001	-6.317148e-001	-2.952917e-003	8.102764e-004
41876172.608	-6.740613e-004	-2.024854e-003	7.742209e-001	-6.328204e-001	7.747870e-001	-6.319845e-001	-3.091107e-003	7.844555e-004
41907442.151	-7.719041e-004	-2.012377e-003	7.739842e-001	-6.330631e-001	7.744468e-001	-6.325276e-001	-3.041121e-003	7.569036e-004
41938711.695	-6.407854e-004	-2.047472e-003	7.737473e-001	-6.336170e-001	7.739230e-001	-6.326569e-001	-2.898532e-003	7.188676e-004
41969981.238	-6.699917e-004	-2.131076e-003	7.734303e-001	-6.338010e-001	7.734599e-001	-6.332487e-001	-2.933672e-003	8.034794e-004
42001250.782	-6.812867e-004	-1.967004e-003	7.729592e-001	-6.344499e-001	7.732362e-001	-6.333469e-001	-2.942797e-003	7.999803e-004
42032520.325	-6.814085e-004	-1.963054e-003	7.729234e-001	-6.347942e-001	7.731171e-001	-6.338069e-001	-3.049816e-003	8.326874e-004
42063789.869	-7.067129e-004	-2.006054e-003	7.724808e-001	-6.351820e-001	7.724686e-001	-6.343093e-001	-3.064427e-003	8.500200e-004
42095059.412	-6.914739e-004	-2.015289e-003	7.720433e-001	-6.356183e-001	7.724761e-001	-6.348292e-001	-3.055756e-003	8.859454e-004
42126328.956	-6.941448e-004	-2.046217e-003	7.717166e-001	-6.357471e-001	7.719562e-001	-6.349385e-001	-3.108282e-003	7.834271e-004
42157598.499	-6.331257e-004	-2.017752e-003	7.713370e-001	-6.362504e-001	7.717494e-001	-6.357096e-001	-3.027169e-003	8.418212e-004
42188868.043	-6.383912e-004	-2.062248e-003	7.713910e-001	-6.365657e-001	7.713150e-001	-6.359648e-001	-3.009538e-003	8.554369e-004
42220137.586	-6.037313e-004	-2.027336e-003	7.708785e-001	-6.371786e-001	7.710034e-001	-6.362143e-001	-3.087566e-003	8.287998e-004
42251407.129	-6.225447e-004	-2.057291e-003	7.706138e-001	-6.376524e-001	7.706420e-001	-6.368702e-001	-3.078584e-003	8.982951e-004
42282676.673	-6.125997e-004	-2.029549e-003	7.700902e-001	-6.378726e-001	7.702718e-001	-6.370390e-001	-3.017530e-003	8.993573e-004
42313946.216	-7.052747e-004	-2.018652e-003	7.699814e-001	-6.382434e-001	7.700436e-001	-6.376044e-001	-3.029252e-003	8.236298e-004
42345215.760	-7.432062e-004	-2.030155e-003	7.694844e-001	-6.386787e-001	7.696182e-001	-6.379725e-001	-3.117557e-003	8.712439e-004
42376485.303	-6.866946e-004	-2.055300e-003	7.691723e-001	-6.390523e-001	7.691756e-001	-6.382854e-001	-3.056341e-003	9.886805e-004
42407754.847	-7.322090e-004	-1.997054e-003	7.687264e-001	-6.394916e-001	7.690498e-001	-6.386641e-001	-3.070171e-003	9.389720e-004
42439024.390	-6.783901e-004	-2.069478e-003	7.685918e-001	-6.399013e-001	7.686942e-001	-6.389429e-001	-3.155722e-003	8.046617e-004
42470293.934	-6.268291e-004	-2.068318e-003	7.681450e-001	-6.403537e-001	7.684409e-001	-6.392728e-001	-3.092419e-003	8.430610e-004
42501563.477	-7.116950e-004	-1.925206e-003	7.679958e-001	-6.405376e-001	7.681897e-001	-6.399811e-001	-3.044131e-003	9.025821e-004
42532833.021	-6.170611e-004	-1.985444e-003	7.677230e-001	-6.408440e-001	7.678487e-001	-6.402525e-001	-3.065718e-003	9.017552e-004
42564102.564	-6.742048e-004	-2.003304e-003	7.672933e-001	-6.417158e-001	7.675044e-001	-6.407276e-001	-3.124933e-003	8.247446e-004
42595372.108	-6.182850e-004	-2.001507e-003	7.667268e-001	-6.419564e-001	7.671703e-001	-6.411786e-001	-3.169752e-003	8.665462e-004
42626641.651	-6.494913e-004	-2.113150e-003	7.665746e-001	-6.421354e-001	7.666976e-001	-6.412956e-001	-3.160318e-003	8.715708e-004
42657911.194	-6.598207e-004	-1.996463e-003	7.661904e-001	-6.427423e-001	7.665390e-001	-6.418570e-001	-3.072508e-003	9.394417e-004
42689180.738	-7.190752e-004	-1.926622e-003	7.660520e-001	-6.429568e-001	7.660797e-001	-6.422173e-001	-3.163388e-003	8.390785e-004
42720450.281	-7.585727e-004	-2.043517e-003	7.653451e-001	-6.430729e-001	7.657639e-001	-6.424481e-001	-3.067494e-003	9.182083e-004
42751719.825	-6.963390e-004	-2.084186e-003	7.653290e-001	-6.438001e-001	7.656381e-001	-6.429581e-001	-3.048488e-003	8.924098e-004
42782989.368	-7.738671e-004	-2.009049e-003	7.649504e-001	-6.443713e-001	7.651487e-001	-6.434094e-001	-3.160221e-003	9.276246e-004
42814258.912	-6.444470e-004	-2.043503e-003	7.647745e-001	-6.445110e-001	7.648877e-001	-6.436857e-001	-3.129350e-003	7.823093e-004
42845528.455	-7.262915e-004	-1.932616e-003	7.641737e-001	-6.451681e-001	7.644402e-001	-6.443917e-001	-3.126905e-003	9.534348e-004
42876797.999	-6.323802e-004	-1.993079e-003	7.640410e-001	-6.453271e-001	7.640878e-001	-6.445507e-001	-3.118571e-003	8.451287e-004
42908067.542	-7.358925e-004	-2.020789e-003	7.636618e-001	-6.455892e-001	7.639056e-001	-6.448192e-001	-3.138624e-003	8.173467e-004
42939337.086	-6.091482e-004	-1.928949e-003	7.632822e-001	-6.460535e-001	7.633632e-001	-6.454440e-001	-3.055027e-003	8.106761e-004
42970606.629	-6.881496e-004	-2.023501e-003	7.629537e-001	-6.465184e-001	7.630605e-001	-6.459046e-001	-3.155350e-003	7.926268e-004
43001876.173	-6.816162e-004	-2.021417e-003	7.626003e-001	-6.469420e-001	7.629787e-001	-6.461695e-001	-3.155114e-003	9.102593e-004
43033145.716	-5.900729e-004	-1.946548e-003	7.622958e-001	-6.472807e-001	7.624815e-001	-6.467154e-001	-3.169361e-003	9.469272e-004
43064415.260	-6.262733e-004	-1.967074e-003	7.618226e-001	-6.475780e-001	7.621466e-001	-6.469879e-001	-3.137635e-003	8.275906e-004
43095684.803	-6.860821e-004	-1.988634e-003	7.614576e-001	-6.482288e-001	7.617830e-001	-6.473517e-001	-3.223045e-003	8.579435e-004
43126954.346	-5.915393e-004	-1.990483e-003	7.613951e-001	-6.484235e-001	7.614754e-001	-6.477792e-001	-3.215230e-003	9.423776e-004
43158223.890	-6.233329e-004	-1.978004e-003	7.610923e-001	-6.488617e-001	7.609772e-001	-6.480828e-001	-3.239542e-003	9.607055e-004
43189493.433	-6.459058e-004	-2.028392e-003	7.606781e-001	-6.492630e-001	7.605406e-001	-6.486889e-001	-3.205106e-003	9.711088e-004
43220762.977	-6.126103e-004	-1.934056e-003	7.603365e-001	-6.497556e-001	7.607469e-001	-6.488259e-001	-3.212212e-003	9.196848e-004
43252032.520	-6.424630e-004	-2.030368e-003	7.600229e-001	-6.500386e-001	7.601247e-001	-6.492516e-001	-3.175406e-003	9.064367e-004
43283302.064	-6.268441e-004	-1.983335e-003	7.595237e-001	-6.503751e-001	7.598335e-001	-6.495169e-001	-3.147346e-003	9.464252e-004
43314571.607	-7.141179e-004	-2.016433e-003	7.592601e-001	-6.508329e-001	7.596923e-001	-6.499761e-001	-3.183447e-003	1.059199e-003
43345841.151	-6.497936e-004	-2.038151e-003	7.589235e-001	-6.512716e-001	7.590765e-001	-6.504265e-001	-3.194499e-003	1.025238e-003
43377110.694	-7.519382e-004	-2.086837e-003	7.586889e-001	-6.515109e-001	7.588862e-001	-6.509021e-001	-3.210731e-003	9.655928e-004
43408380.238	-6.217907e-004	-2.074407e-003	7.583712e-001	-6.520860e-001	7.584395e-001	-6.511166e-001	-3.175026e-003	9.644847e-004
43439649.781	-6.359294e-004	-2.045109e-003	7.579635e-001	-6.523580e-001	7.580314e-001	-6.517211e-001	-3.151726e-003	9.908515e-004
43470919.325	-6.812765e-004	-2.004739e-003	7.575397e-001	-6.529302e-001	7.578963e-001	-6.521141e-001	-3.244837e-003	1.120552e-003
43502188.868	-6.787942e-004	-2.064620e-003	7.573003e-001	-6.532713e-001	7.573139e-001	-6.524783e-001	-3.211318e-003	1.065959e-003
43533458.412	-5.672932e-004	-1.976525e-003	7.569617e-001	-6.535314e-001	7.570711e-001	-6.526884e-001	-3.166267e-003	9.463026e-004
43564727.955	-6.905316e-004	-2.007422e-003	7.566461e-001	-6.539173e-001	7.568028e-001	-6.533309e-001	-3.239458e-003	9.844922e-004
43595997.498	-6.199510e-004	-2.054793e-003	7.563763e-001	-6.541243e-001	7.562419e-001	-6.535496e-001	-3.268050e-003	9.957955e-004
43627267.042	-6.122827e-004	-2.020660e-003	7.561274e-001	-6.546146e-001	7.561694e-001	-6.541080e-001	-3.297221e-003	1.074641e-003
43658536.585	-5.978097e-004	-2.060823e-003	7.555356e-001	-6.549332e-001	7.556388e-001	-6.543822e-001	-3.271867e-003	1.049054e-003
43689806.129	-5.436402e-004	-2.087066e-003	7.551245e-001	-6.553719e-001	7.554197e-001	-6.547005e-001	-3.163415e-003	9.934936e-004
43721075.672	-7.267904e-004	-1.959442e-003	7.549065e-001	-6.558368e-001	7.550699e-001	-6.551862e-001	-3.197856e-003	9.945871e-004
43752345.216	-6.029883e-004	-2.039133e-003	7.546183e-001	-6.561847e-001	7.545182e-001	-6.557177e-001	-3.208823e-003	1.038472e-003
43783614.759	-6.050738e-004	-2.079677e-003	7.544013e-001	-6.565946e-001	7.543150e-001	-6.557918e-001	-3.207210e-003	9.877465e-004
43814884.303	-7.062749e-004	-2.028133e-003	7.540418e-001	-6.570247e-001	7.541930e-001	-6.563424e-001	-3.264090e-003	1.052965e-003
43846153.846	-6.410162e-004	-2.075123e-003	7.536073e-001	-6.571743e-001	7.539098e-001	-6.567272e-001	-3.278322e-003	1.024631e-003
43877423.390	-6.527782e-004	-2.018234e-003	7.532139e-001	-6.578110e-001	7.532639e-001	-6.571836e-001	-3.221893e-003	1.012396e-003
43908692.933	-7.034261e-004	-2.024007e-003	7.529099e-001	-6.584148e-001	7.533038e-001	-6.574161e-001	-3.288481e-003	1.072097e-003
43939962.477	-6.867349e-004	-1.995595e-003	7.526250e-001	-6.586410e-001	7.527339e-001	-6.579036e-001	-3.241949e-003	1.087895e-003
43971232.020	-6.440225e-004	-2.088832e-003	7.521915e-001	-6.588675e-001	7.524982e-001	-6.583026e-001	-3.247594e-003	1.065696e-003
44002501.563	-6.112011e-004	-2.091885e-003	7.517908e-001	-6.592810e-001	7.520351e-001	-6.584747e-001	-3.250310e-003	1.116732e-003
44033771.107	-6.126123e-004	-2.071438e-003	7.516801e-001	-6.598184e-001	7.518219e-001	-6.587998e-001	-3.281090e-003	1.127821e-003
44065040.650	-6.183704e-004	-1.992301e-003	7.513368e-001	-6.600949e-001	7.513956e-001	-6.594351e-001	-3.176623e-003	1.145057e-003
44096310.194	-6.987650e-004	-1.999968e-003	7.510566e-001	-6.605046e-001	7.510279e-001	-6.596665e-001	-3.242765e-003	1.060583e-003
44127579.737	-5.666168e-004	-2.087301e-003	7.505403e-001	-6.608404e-001	7.508524e-001	-6.599721e-001	-3.245436e-003	1.062774e-003
44158849.281	-6.254687e-004	-2.028241e-003	7.502986e-001	-6.611873e-001	7.506830e-001	-6.604200e-001	-3.241287e-003	1.054704e-003
44190118.824	-6.387762e-004	-2.033668e-003	7.499398e-001	-6.616588e-001	7.501839e-001	-6.609345e-001	-3.256377e-003	1.071544e-003
44221388.368	-7.104415e-004	-2.000634e-003	7.496249e-001	-6.620452e-001	7.497105e-001	-6.612967e-001	-3.333854e-003	1.109335e-003
44252657.911	-6.614170e-004	-2.053610e-003	7.492620e-001	-6.622025e-001	7.494280e-001	-6.615870e-001	-3.185141e-003	1.097685e-003
44283927.455	-6.572769e-004	-2.039051e-003	7.489969e-001	-6.626788e-001	7.491775e-001	-6.620826e-001	-3.349436e-003	1.087613e-003
44315196.998	-6.615769e-004	-2.017791e-003	7.486626e-001	-6.632635e-001	7.488544e-001	-6.623965e-001	-3.252529e-003	1.058159e-003
44346466.542	-6.375529e-004	-2.071375e-003	7.481894e-001	-6.634752e-001	7.483075e-001	-6.627270e-001	-3.379634e-003	1.105980e-003
44377736.085	-6.499296e-004	-2.016612e-003	7.477895e-001	-6.637608e-001	7.478666e-001	-6.632445e-001	-3.416626e-003	1.141414e-003
44409005.629	-6.117635e-004	-1.951817e-003	7.474174e-001	-6.644057e-001	7.476666e-001	-6.634514e-001	-3.314115e-003	1.110076e-003
44440275.172	-5.747231e-004	-2.079711e-003	7.470596e-001	-6.646381e-001	7.473124e-001	-6.638943e-001	-3.346830e-003	1.186137e-003
44471544.715	-6.830855e-004	-2.095408e-003	7.468225e-001	-6.651058e-001	7.470326e-001	-6.642427e-001	-3.295958e-003	1.140479e-003
44502814.259	-5.448524e-004	-2.111984e-003	7.465083e-001	-6.650572e-001	7.464364e-001	-6.645847e-001	-3.267521e-003	1.128738e-003
44534083.802	-6.526754e-004	-2.035029e-003	7.461123e-001	-6.658062e-001	7.463120e-001	-6.649354e-001	-3.261075e-003	1.068970e-003
44565353.346	-6.826647e-004	-2.048020e-003	7.459557e-001	-6.661899e-001	7.461036e-001	-6.654121e-001	-3.429879e-003	1.217089e-003
44596622.889	-6.632781e-004	-2.143931e-003	7.454169e-001	-6.665233e-001	7.456573e-001	-6.657482e-001	-3.318308e-003	1.145148e-003
44627892.433	-5.683005e-004	-2.035093e-003	7.450902e-001	-6.668369e-001	7.453673e-001	-6.663116e-001	-3.363937e-003	1.123764e-003
44659161.976	-6.776617e-004	-2.018176e-003	7.446755e-001	-6.674118e-001	7.449525e-001	-6.665400e-001	-3.291713e-003	1.182845e-003
44690431.520	-5.943139e-004	-2.081656e-003	7.444489e-001	-6.677363e-001	7.445480e-001	-6.667533e-001	-3.370033e-003	1.196907e-003
44721701.063	-6.488483e-004	-2.073666e-003	7.442151e-001	-6.681180e-001	7.442061e-001	-6.675863e-001	-3.340978e-003	1.220300e-003
