!Agilent Technologies,E5061B,MY49102235,A.02.00
!Date: Mon Jul 03 10:43:27 2023
!Data & Calibration Information:
!Freq	S11:SOLT2(ON)	S21:SOLT2(ON)	S12:SOLT2(ON)	S22:SOLT2(ON)
# Hz S RI R 50
40000000.000	-7.017737e-004	-2.154077e-003	7.933753e-001	-6.088659e-001	7.932292e-001	-6.080008e-001	-2.843661e-003	5.697150e-004
40031269.543	-6.712658e-004	-2.244135e-003	7.932174e-001	-6.091711e-001	7.931276e-001	-6.081109e-001	-2.853392e-003	5.958520e-004
40062539.087	-7.697874e-004	-2.239436e-003	7.925685e-001	-6.094133e-001	7.927633e-001	-6.087984e-001	-2.816588e-003	5.547078e-004
40093808.630	-7.968015e-004	-2.200559e-003	7.924716e-001	-6.098844e-001	7.923993e-001	-6.094105e-001	-2.847004e-003	6.316834e-004
40125078.174	-7.581866e-004	-2.182425e-003	7.919901e-001	-6.102915e-001	7.920244e-001	-6.095410e-001	-2.781462e-003	6.814554e-004
40156347.717	-7.004511e-004	-2.230081e-003	7.918404e-001	-6.108889e-001	7.917863e-001	-6.102861e-001	-2.833669e-003	6.212450e-004
40187617.261	-6.781399e-004	-2.285739e-003	7.914594e-001	-6.110625e-001	7.915948e-001	-6.104372e-001	-2.877115e-003	5.203500e-004
40218886.804	-6.906557e-004	-2.214624e-003	7.912792e-001	-6.118751e-001	7.910316e-001	-6.107782e-001	-2.802490e-003	5.782495e-004
40250156.348	-7.190322e-004	-2.162117e-003	7.908853e-001	-6.118737e-001	7.910143e-001	-6.113008e-001	-2.877147e-003	5.282936e-004
40281425.891	-7.228790e-004	-2.226941e-003	7.906118e-001	-6.123791e-001	7.907026e-001	-6.117364e-001	-2.842020e-003	5.855933e-004
40312695.435	-7.171382e-004	-2.208360e-003	7.902599e-001	-6.130942e-001	7.903266e-001	-6.120391e-001	-2.848019e-003	6.031296e-004
40343964.978	-7.473937e-004	-2.118280e-003	7.899916e-001	-6.130968e-001	7.900122e-001	-6.126062e-001	-2.940123e-003	6.230331e-004
40375234.522	-7.052135e-004	-2.126631e-003	7.895716e-001	-6.135513e-001	7.897382e-001	-6.127967e-001	-2.899841e-003	6.364431e-004
40406504.065	-7.801851e-004	-2.142714e-003	7.890682e-001	-6.137480e-001	7.892470e-001	-6.133584e-001	-2.815914e-003	5.332320e-004
40437773.609	-8.185059e-004	-2.208619e-003	7.892344e-001	-6.142366e-001	7.891906e-001	-6.135522e-001	-2.819105e-003	5.157925e-004
40469043.152	-6.651733e-004	-2.200074e-003	7.886330e-001	-6.147758e-001	7.888419e-001	-6.140754e-001	-2.902381e-003	6.632918e-004
40500312.695	-7.469502e-004	-2.263821e-003	7.882699e-001	-6.153139e-001	7.884139e-001	-6.141857e-001	-2.952311e-003	6.711010e-004
40531582.239	-7.205689e-004	-2.114240e-003	7.879889e-001	-6.154076e-001	7.879705e-001	-6.151369e-001	-2.892420e-003	6.831874e-004
40562851.782	-7.037056e-004	-2.123467e-003	7.875835e-001	-6.159022e-001	7.876571e-001	-6.153411e-001	-2.831442e-003	5.497113e-004
40594121.326	-7.621426e-004	-2.214218e-003	7.874415e-001	-6.164295e-001	7.874729e-001	-6.155602e-001	-2.776660e-003	6.739237e-004
40625390.869	-6.950930e-004	-2.122066e-003	7.871446e-001	-6.168421e-001	7.873446e-001	-6.161734e-001	-2.865778e-003	5.788027e-004
40656660.413	-6.995617e-004	-2.143263e-003	7.867756e-001	-6.171773e-001	7.868996e-001	-6.162691e-001	-2.871743e-003	6.535305e-004
40687929.956	-6.886625e-004	-2.144141e-003	7.865463e-001	-6.177177e-001	7.865856e-001	-6.167807e-001	-2.827031e-003	6.059294e-004
40719199.500	-7.372748e-004	-2.077493e-003	7.860753e-001	-6.181283e-001	7.862305e-001	-6.173775e-001	-2.844790e-003	5.376245e-004
40750469.043	-7.637117e-004	-2.119315e-003	7.858161e-001	-6.180969e-001	7.860638e-001	-6.175793e-001	-2.920636e-003	6.430320e-004
40781738.587	-6.306888e-004	-2.243475e-003	7.854498e-001	-6.188157e-001	7.857717e-001	-6.181065e-001	-2.984942e-003	5.939515e-004
40813008.130	-7.761118e-004	-2.177836e-003	7.854610e-001	-6.192197e-001	7.851908e-001	-6.186036e-001	-2.939609e-003	6.542293e-004
40844277.674	-6.634301e-004	-2.102300e-003	7.847469e-001	-6.195470e-001	7.850878e-001	-6.188062e-001	-2.959848e-003	6.719221e-004
40875547.217	-6.734711e-004	-2.116755e-003	7.845130e-001	-6.201418e-001	7.848137e-001	-6.191501e-001	-2.976171e-003	5.979059e-004
40906816.760	-7.472731e-004	-2.167620e-003	7.844482e-001	-6.203305e-001	7.842552e-001	-6.196400e-001	-2.874082e-003	6.582759e-004
40938086.304	-7.675419e-004	-2.149108e-003	7.837392e-001	-6.209581e-001	7.842079e-001	-6.201189e-001	-2.951333e-003	6.942246e-004
40969355.847	-7.608757e-004	-2.068017e-003	7.833919e-001	-6.210189e-001	7.837444e-001	-6.206091e-001	-2.957753e-003	7.151195e-004
41000625.391	-7.374900e-004	-2.113796e-003	7.831490e-001	-6.215383e-001	7.832036e-001	-6.209633e-001	-2.907363e-003	6.560075e-004
41031894.934	-5.882157e-004	-2.023939e-003	7.831580e-001	-6.218749e-001	7.830642e-001	-6.215031e-001	-2.973772e-003	7.190273e-004
41063164.478	-7.228171e-004	-2.099326e-003	7.828344e-001	-6.223325e-001	7.828318e-001	-6.218637e-001	-2.947467e-003	6.434702e-004
41094434.021	-7.271450e-004	-2.123510e-003	7.822769e-001	-6.226446e-001	7.824705e-001	-6.219885e-001	-2.961792e-003	6.188971e-004
41125703.565	-6.482575e-004	-2.080724e-003	7.818876e-001	-6.230715e-001	7.822356e-001	-6.222999e-001	-3.018976e-003	7.215192e-004
41156973.108	-6.649114e-004	-2.085615e-003	7.817446e-001	-6.233587e-001	7.817639e-001	-6.228440e-001	-2.914583e-003	6.458492e-004
41188242.652	-6.999994e-004	-2.052880e-003	7.815834e-001	-6.241224e-001	7.815024e-001	-6.232922e-001	-2.901587e-003	6.119446e-004
41219512.195	-6.716862e-004	-2.114511e-003	7.812183e-001	-6.245009e-001	7.811105e-001	-6.237141e-001	-2.956280e-003	6.336774e-004
41250781.739	-7.702971e-004	-2.084644e-003	7.807573e-001	-6.250321e-001	7.808353e-001	-6.240702e-001	-2.898866e-003	6.542948e-004
41282051.282	-6.454124e-004	-2.138755e-003	7.803946e-001	-6.252856e-001	7.803650e-001	-6.245051e-001	-2.986467e-003	6.080393e-004
41313320.826	-7.344762e-004	-1.976758e-003	7.799623e-001	-6.256231e-001	7.802361e-001	-6.248071e-001	-2.968820e-003	6.194898e-004
41344590.369	-7.820509e-004	-2.158045e-003	7.795247e-001	-6.257457e-001	7.799611e-001	-6.253418e-001	-2.932845e-003	7.573513e-004
41375859.912	-7.670122e-004	-2.079014e-003	7.795052e-001	-6.263012e-001	7.792385e-001	-6.257996e-001	-2.930019e-003	6.534920e-004
41407129.456	-7.015270e-004	-2.071426e-003	7.792065e-001	-6.265499e-001	7.791707e-001	-6.258750e-001	-3.037304e-003	7.539399e-004
41438398.999	-7.012444e-004	-2.124424e-003	7.789921e-001	-6.272725e-001	7.789954e-001	-6.265766e-001	-3.019078e-003	7.480448e-004
41469668.543	-7.735497e-004	-1.921895e-003	7.784931e-001	-6.276791e-001	7.785413e-001	-6.271106e-001	-2.934042e-003	6.937013e-004
41500938.086	-7.125665e-004	-2.076062e-003	7.782302e-001	-6.278716e-001	7.783761e-001	-6.271873e-001	-3.005855e-003	6.314944e-004
41532207.630	-7.373967e-004	-2.093163e-003	7.780153e-001	-6.282619e-001	7.779844e-001	-6.276362e-001	-2.977114e-003	7.001292e-004
41563477.173	-6.626481e-004	-2.107793e-003	7.776811e-001	-6.287360e-001	7.775172e-001	-6.279333e-001	-2.904752e-003	6.679838e-004
41594746.717	-6.259040e-004	-2.072973e-003	7.772038e-001	-6.292772e-001	7.774122e-001	-6.283749e-001	-2.974573e-003	7.197352e-004
41626016.260	-8.163192e-004	-2.155526e-003	7.768840e-001	-6.296133e-001	7.771947e-001	-6.288906e-001	-3.014775e-003	7.467643e-004
41657285.804	-6.355242e-004	-2.128173e-003	7.765813e-001	-6.299656e-001	7.765638e-001	-6.292533e-001	-2.965843e-003	6.666919e-004
41688555.347	-6.999911e-004	-2.043677e-003	7.762065e-001	-6.302367e-001	7.763900e-001	-6.298436e-001	-2.987497e-003	7.289954e-004
41719824.891	-6.386974e-004	-1.981333e-003	7.759128e-001	-6.308236e-001	7.760774e-001	-6.299820e-001	-3.015069e-003	7.914296e-004
41751094.434	-7.413823e-004	-1.967248e-003	7.757034e-001	-6.310664e-001	7.755635e-001	-6.307501e-001	-2.969898e-003	6.740877e-004
41782363.977	-6.233239e-004	-2.060065e-003	7.754419e-001	-6.315334e-001	7.754460e-001	-6.307333e-001	-3.092636e-003	7.262776e-004
41813633.521	-6.906380e-004	-2.056808e-003	7.749129e-001	-6.318420e-001	7.751549e-001	-6.313281e-001	-2.984314e-003	7.872050e-004
41844903.064	-7.505819e-004	-2.028502e-003	7.747552e-001	-6.321420e-001	7.747114e-001	-6.316828e-001	-3.020295e-003	7.654600e-004
41876172.608	-7.187053e-004	-2.048899e-003	7.741752e-001	-6.326221e-001	7.744678e-001	-6.322172e-001	-3.091144e-003	7.222422e-004
41907442.151	-7.309598e-004	-1.999182e-003	7.740808e-001	-6.329910e-001	7.741223e-001	-6.325953e-001	-3.083205e-003	7.563116e-004
41938711.695	-6.557932e-004	-1.972808e-003	7.736267e-001	-6.335444e-001	7.738483e-001	-6.327674e-001	-2.923720e-003	6.996502e-004
41969981.238	-6.708080e-004	-2.100216e-003	7.734539e-001	-6.339273e-001	7.733904e-001	-6.334722e-001	-2.968179e-003	7.669621e-004
42001250.782	-6.501439e-004	-1.975526e-003	7.731140e-001	-6.343886e-001	7.731806e-001	-6.336089e-001	-2.959235e-003	7.635276e-004
42032520.325	-6.454524e-004	-1.951390e-003	7.726810e-001	-6.347905e-001	7.729269e-001	-6.337334e-001	-3.051331e-003	7.795981e-004
42063789.869	-7.189046e-004	-1.993400e-003	7.723466e-001	-6.349936e-001	7.724190e-001	-6.344321e-001	-3.059736e-003	7.895998e-004
42095059.412	-6.981867e-004	-2.018739e-003	7.719686e-001	-6.355650e-001	7.724109e-001	-6.348726e-001	-3.043530e-003	8.130852e-004
42126328.956	-7.030796e-004	-2.023037e-003	7.717839e-001	-6.357163e-001	7.717880e-001	-6.351638e-001	-3.064429e-003	7.480204e-004
42157598.499	-6.108903e-004	-2.040591e-003	7.714349e-001	-6.363265e-001	7.714647e-001	-6.356769e-001	-3.049418e-003	7.642745e-004
42188868.043	-6.631808e-004	-2.002508e-003	7.712006e-001	-6.365082e-001	7.713487e-001	-6.360229e-001	-3.084857e-003	8.086868e-004
42220137.586	-6.131551e-004	-1.956773e-003	7.706762e-001	-6.371121e-001	7.708579e-001	-6.362814e-001	-3.064176e-003	7.818967e-004
42251407.129	-6.880578e-004	-1.973933e-003	7.707017e-001	-6.375133e-001	7.705142e-001	-6.368678e-001	-3.144810e-003	8.819015e-004
42282676.673	-6.538315e-004	-2.009187e-003	7.699818e-001	-6.377400e-001	7.700871e-001	-6.371584e-001	-3.070356e-003	8.193823e-004
42313946.216	-6.773378e-004	-2.002066e-003	7.696990e-001	-6.382829e-001	7.699605e-001	-6.375739e-001	-3.067933e-003	7.779700e-004
42345215.760	-7.100368e-004	-2.057251e-003	7.693939e-001	-6.386273e-001	7.695758e-001	-6.381871e-001	-3.127414e-003	8.729168e-004
42376485.303	-7.287146e-004	-2.006849e-003	7.691108e-001	-6.388849e-001	7.690945e-001	-6.383107e-001	-3.141575e-003	8.848255e-004
42407754.847	-6.935405e-004	-1.990790e-003	7.685937e-001	-6.393787e-001	7.687826e-001	-6.388188e-001	-3.092774e-003	8.941698e-004
42439024.390	-7.027069e-004	-2.022335e-003	7.685943e-001	-6.398317e-001	7.683800e-001	-6.391973e-001	-3.170459e-003	7.938431e-004
42470293.934	-6.329300e-004	-2.016103e-003	7.681003e-001	-6.401693e-001	7.682657e-001	-6.396883e-001	-3.092434e-003	8.109053e-004
42501563.477	-6.816122e-004	-1.961358e-003	7.678811e-001	-6.403383e-001	7.678462e-001	-6.401073e-001	-2.970260e-003	8.129677e-004
42532833.021	-6.114498e-004	-1.984987e-003	7.677112e-001	-6.408881e-001	7.677026e-001	-6.406349e-001	-3.139275e-003	8.677115e-004
42564102.564	-6.948773e-004	-1.975662e-003	7.671925e-001	-6.412929e-001	7.672928e-001	-6.409099e-001	-3.149993e-003	8.172037e-004
42595372.108	-6.091366e-004	-1.992916e-003	7.666617e-001	-6.419363e-001	7.668664e-001	-6.412905e-001	-3.181249e-003	7.900212e-004
42626641.651	-6.401308e-004	-2.062486e-003	7.664514e-001	-6.419694e-001	7.665453e-001	-6.415496e-001	-3.184078e-003	8.504124e-004
42657911.194	-7.039901e-004	-1.994511e-003	7.662555e-001	-6.426088e-001	7.662918e-001	-6.420684e-001	-3.167997e-003	8.928389e-004
42689180.738	-7.313122e-004	-1.958809e-003	7.658403e-001	-6.429194e-001	7.660896e-001	-6.422372e-001	-3.235183e-003	8.368139e-004
42720450.281	-6.802548e-004	-2.043789e-003	7.654054e-001	-6.432286e-001	7.656493e-001	-6.427300e-001	-3.070658e-003	8.289251e-004
42751719.825	-6.434259e-004	-2.075105e-003	7.652426e-001	-6.436092e-001	7.654243e-001	-6.429440e-001	-3.069059e-003	8.112123e-004
42782989.368	-7.499429e-004	-2.043109e-003	7.648678e-001	-6.443538e-001	7.649024e-001	-6.434636e-001	-3.136329e-003	9.127873e-004
42814258.912	-6.501046e-004	-1.992516e-003	7.646831e-001	-6.445227e-001	7.646926e-001	-6.439149e-001	-3.122803e-003	7.691820e-004
42845528.455	-7.015660e-004	-1.921779e-003	7.641522e-001	-6.450410e-001	7.642909e-001	-6.443241e-001	-3.130874e-003	8.972093e-004
42876797.999	-6.046037e-004	-1.975462e-003	7.639565e-001	-6.452501e-001	7.640668e-001	-6.448208e-001	-3.210425e-003	8.079895e-004
42908067.542	-6.971950e-004	-1.999943e-003	7.634762e-001	-6.455619e-001	7.637196e-001	-6.448889e-001	-3.134535e-003	7.628282e-004
42939337.086	-6.222732e-004	-1.949909e-003	7.632337e-001	-6.461756e-001	7.630605e-001	-6.453595e-001	-3.087323e-003	7.771253e-004
42970606.629	-6.761604e-004	-2.046646e-003	7.628292e-001	-6.464661e-001	7.629178e-001	-6.458860e-001	-3.169030e-003	7.727013e-004
43001876.173	-6.802293e-004	-1.972470e-003	7.626318e-001	-6.470451e-001	7.627038e-001	-6.463763e-001	-3.201415e-003	9.090325e-004
43033145.716	-6.100641e-004	-1.921147e-003	7.620069e-001	-6.474288e-001	7.622959e-001	-6.467980e-001	-3.212227e-003	9.187628e-004
43064415.260	-6.149060e-004	-1.998945e-003	7.616764e-001	-6.477443e-001	7.621090e-001	-6.469416e-001	-3.218136e-003	8.560120e-004
43095684.803	-6.340077e-004	-1.953766e-003	7.615341e-001	-6.479414e-001	7.616055e-001	-6.475192e-001	-3.218260e-003	8.293614e-004
43126954.346	-5.881505e-004	-1.945256e-003	7.612229e-001	-6.484445e-001	7.613423e-001	-6.477852e-001	-3.246090e-003	9.101412e-004
43158223.890	-6.558164e-004	-2.005855e-003	7.609605e-001	-6.486097e-001	7.609815e-001	-6.481362e-001	-3.284730e-003	8.924024e-004
43189493.433	-6.275282e-004	-2.030476e-003	7.606238e-001	-6.493331e-001	7.605317e-001	-6.486047e-001	-3.303137e-003	9.614311e-004
43220762.977	-6.457555e-004	-1.944610e-003	7.603156e-001	-6.495917e-001	7.603405e-001	-6.489348e-001	-3.228387e-003	8.216939e-004
43252032.520	-6.307038e-004	-2.082643e-003	7.598644e-001	-6.500417e-001	7.600063e-001	-6.495965e-001	-3.175844e-003	8.517496e-004
43283302.064	-6.428620e-004	-1.971906e-003	7.595554e-001	-6.503454e-001	7.596989e-001	-6.495559e-001	-3.209792e-003	9.436324e-004
43314571.607	-6.717300e-004	-2.060798e-003	7.593632e-001	-6.507274e-001	7.594967e-001	-6.501085e-001	-3.260461e-003	9.960632e-004
43345841.151	-6.019711e-004	-2.000990e-003	7.587868e-001	-6.510680e-001	7.590492e-001	-6.505326e-001	-3.237347e-003	9.539401e-004
43377110.694	-6.600245e-004	-2.055591e-003	7.586815e-001	-6.514659e-001	7.585480e-001	-6.509570e-001	-3.286037e-003	9.667241e-004
43408380.238	-5.851973e-004	-2.020720e-003	7.582871e-001	-6.521936e-001	7.582708e-001	-6.511825e-001	-3.212514e-003	9.573951e-004
43439649.781	-6.202594e-004	-2.047610e-003	7.578904e-001	-6.522313e-001	7.579203e-001	-6.517528e-001	-3.184174e-003	9.618220e-004
43470919.325	-6.962342e-004	-2.059722e-003	7.574476e-001	-6.527960e-001	7.578390e-001	-6.521589e-001	-3.187589e-003	9.958197e-004
43502188.868	-6.034551e-004	-2.030974e-003	7.571205e-001	-6.532291e-001	7.572925e-001	-6.525019e-001	-3.201487e-003	9.791310e-004
43533458.412	-5.946520e-004	-1.976175e-003	7.570783e-001	-6.532665e-001	7.568858e-001	-6.529130e-001	-3.184243e-003	9.513450e-004
43564727.955	-7.078302e-004	-1.983227e-003	7.566665e-001	-6.538138e-001	7.565800e-001	-6.536440e-001	-3.246409e-003	9.375651e-004
43595997.498	-5.785814e-004	-2.077606e-003	7.561071e-001	-6.542500e-001	7.561692e-001	-6.535502e-001	-3.247635e-003	9.542032e-004
43627267.042	-6.291510e-004	-2.073290e-003	7.559853e-001	-6.545700e-001	7.560533e-001	-6.542336e-001	-3.323028e-003	1.026779e-003
43658536.585	-5.697053e-004	-2.096892e-003	7.555819e-001	-6.549761e-001	7.556344e-001	-6.542664e-001	-3.282648e-003	9.775391e-004
43689806.129	-5.509580e-004	-2.064968e-003	7.552334e-001	-6.553741e-001	7.552648e-001	-6.547913e-001	-3.242676e-003	9.538914e-004
43721075.672	-7.278082e-004	-1.926779e-003	7.548018e-001	-6.555298e-001	7.548572e-001	-6.552192e-001	-3.216347e-003	9.068578e-004
43752345.216	-6.054707e-004	-2.062006e-003	7.546800e-001	-6.561226e-001	7.546001e-001	-6.558327e-001	-3.236762e-003	1.018734e-003
43783614.759	-5.934617e-004	-2.076992e-003	7.541655e-001	-6.566568e-001	7.543503e-001	-6.559683e-001	-3.251631e-003	9.298600e-004
43814884.303	-6.975394e-004	-1.993961e-003	7.540208e-001	-6.569084e-001	7.539622e-001	-6.564609e-001	-3.278838e-003	1.033555e-003
43846153.846	-5.908209e-004	-2.069893e-003	7.537187e-001	-6.573849e-001	7.538730e-001	-6.568268e-001	-3.290480e-003	1.044379e-003
43877423.390	-5.605141e-004	-2.112684e-003	7.532444e-001	-6.578684e-001	7.533783e-001	-6.571156e-001	-3.222440e-003	1.017177e-003
43908692.933	-6.741440e-004	-1.946063e-003	7.527794e-001	-6.582091e-001	7.530999e-001	-6.574200e-001	-3.345584e-003	1.037036e-003
43939962.477	-6.267684e-004	-1.972165e-003	7.527667e-001	-6.585811e-001	7.528508e-001	-6.580323e-001	-3.270268e-003	1.037799e-003
43971232.020	-6.356995e-004	-2.014357e-003	7.521250e-001	-6.589156e-001	7.523007e-001	-6.583653e-001	-3.275794e-003	1.072518e-003
44002501.563	-6.008416e-004	-2.060068e-003	7.517702e-001	-6.591301e-001	7.521575e-001	-6.587243e-001	-3.282717e-003	1.088218e-003
44033771.107	-5.875481e-004	-2.040319e-003	7.515103e-001	-6.596826e-001	7.516317e-001	-6.589369e-001	-3.260534e-003	1.090628e-003
44065040.650	-6.058133e-004	-1.949938e-003	7.513724e-001	-6.600031e-001	7.512311e-001	-6.595523e-001	-3.239063e-003	1.148672e-003
44096310.194	-6.204997e-004	-2.021306e-003	7.510285e-001	-6.604320e-001	7.510249e-001	-6.597367e-001	-3.280060e-003	1.077282e-003
44127579.737	-6.856556e-004	-2.028066e-003	7.504450e-001	-6.608086e-001	7.507472e-001	-6.601984e-001	-3.216491e-003	1.057374e-003
44158849.281	-6.083956e-004	-2.029873e-003	7.501792e-001	-6.611855e-001	7.503393e-001	-6.607208e-001	-3.252843e-003	1.023197e-003
44190118.824	-6.207475e-004	-2.066999e-003	7.496930e-001	-6.614548e-001	7.500818e-001	-6.610219e-001	-3.310225e-003	1.022798e-003
44221388.368	-6.721571e-004	-2.062531e-003	7.495499e-001	-6.620260e-001	7.493951e-001	-6.612949e-001	-3.398340e-003	1.119961e-003
44252657.911	-6.190564e-004	-2.020882e-003	7.492484e-001	-6.622440e-001	7.495175e-001	-6.619263e-001	-3.201649e-003	1.087026e-003
44283927.455	-6.289120e-004	-2.047378e-003	7.489120e-001	-6.625673e-001	7.489572e-001	-6.621402e-001	-3.424128e-003	1.056552e-003
44315196.998	-6.629173e-004	-2.042518e-003	7.487508e-001	-6.630331e-001	7.486843e-001	-6.624904e-001	-3.285887e-003	1.065198e-003
44346466.542	-6.734750e-004	-1.994671e-003	7.481294e-001	-6.635240e-001	7.482108e-001	-6.631037e-001	-3.348115e-003	1.029680e-003
44377736.085	-6.339879e-004	-2.015702e-003	7.477377e-001	-6.636641e-001	7.478378e-001	-6.631973e-001	-3.449198e-003	1.128722e-003
44409005.629	-5.853541e-004	-1.973865e-003	7.473152e-001	-6.643658e-001	7.474755e-001	-6.634962e-001	-3.310687e-003	1.079353e-003
44440275.172	-6.174584e-004	-2.084500e-003	7.470609e-001	-6.644043e-001	7.472752e-001	-6.641679e-001	-3.360266e-003	1.126432e-003
44471544.715	-5.879277e-004	-2.041756e-003	7.466198e-001	-6.650316e-001	7.469915e-001	-6.643990e-001	-3.316379e-003	1.110217e-003
44502814.259	-5.406885e-004	-2.100397e-003	7.463763e-001	-6.651314e-001	7.463365e-001	-6.648561e-001	-3.290840e-003	1.173242e-003
44534083.802	-6.444522e-004	-2.061207e-003	7.460507e-001	-6.658858e-001	7.461532e-001	-6.650425e-001	-3.325100e-003	1.048471e-003
44565353.346	-6.436487e-004	-2.019889e-003	7.456486e-001	-6.660868e-001	7.458297e-001	-6.655148e-001	-3.407169e-003	1.178637e-003
44596622.889	-6.543374e-004	-2.096661e-003	7.454631e-001	-6.664617e-001	7.456058e-001	-6.659711e-001	-3.405931e-003	1.180974e-003
44627892.433	-6.084828e-004	-2.014072e-003	7.450629e-001	-6.666556e-001	7.450204e-001	-6.662948e-001	-3.394835e-003	1.100478e-003
44659161.976	-6.002932e-004	-1.965908e-003	7.445513e-001	-6.673630e-001	7.449347e-001	-6.666979e-001	-3.370588e-003	1.203528e-003
44690431.520	-5.887092e-004	-2.102763e-003	7.442056e-001	-6.676217e-001	7.445922e-001	-6.670507e-001	-3.355507e-003	1.181117e-003
44721701.063	-6.549029e-004	-2.044009e-003	7.443284e-001	-6.679666e-001	7.441534e-001	-6.675823e-001	-3.418145e-003	1.213028e-003
