!Agilent Technologies,E5061B,MY49102235,A.02.00
!Date: Mon Jul 03 10:45:33 2023
!Data & Calibration Information:
!Freq	S11:SOLT2(ON)	S21:SOLT2(ON)	S12:SOLT2(ON)	S22:SOLT2(ON)
# Hz S RI R 50
40000000.000	-7.241917e-004	-2.117422e-003	7.935178e-001	-6.089533e-001	7.935302e-001	-6.080153e-001	-2.852836e-003	6.185854e-004
40031269.543	-7.225299e-004	-2.173834e-003	7.931555e-001	-6.093908e-001	7.931704e-001	-6.082507e-001	-2.793401e-003	5.481744e-004
40062539.087	-7.247011e-004	-2.158890e-003	7.926783e-001	-6.095014e-001	7.928598e-001	-6.087431e-001	-2.761843e-003	5.980603e-004
40093808.630	-7.341865e-004	-2.137274e-003	7.923169e-001	-6.098794e-001	7.926892e-001	-6.092645e-001	-2.781414e-003	6.417388e-004
40125078.174	-8.026776e-004	-2.141087e-003	7.920665e-001	-6.103730e-001	7.920626e-001	-6.095866e-001	-2.781043e-003	7.093062e-004
40156347.717	-6.905550e-004	-2.122997e-003	7.918469e-001	-6.108904e-001	7.916938e-001	-6.103551e-001	-2.824582e-003	6.218920e-004
40187617.261	-7.772285e-004	-2.211316e-003	7.916334e-001	-6.108810e-001	7.916312e-001	-6.105946e-001	-2.784939e-003	5.003686e-004
40218886.804	-6.369838e-004	-2.154250e-003	7.911938e-001	-6.117949e-001	7.912661e-001	-6.105980e-001	-2.752046e-003	5.531552e-004
40250156.348	-7.183110e-004	-2.158085e-003	7.909019e-001	-6.121358e-001	7.908318e-001	-6.112842e-001	-2.844664e-003	5.363682e-004
40281425.891	-7.431792e-004	-2.152536e-003	7.905150e-001	-6.124363e-001	7.905840e-001	-6.116238e-001	-2.810165e-003	5.914709e-004
40312695.435	-7.138087e-004	-2.113892e-003	7.902510e-001	-6.130137e-001	7.901965e-001	-6.121335e-001	-2.739132e-003	5.693891e-004
40343964.978	-6.806568e-004	-2.062797e-003	7.899740e-001	-6.132288e-001	7.900272e-001	-6.125105e-001	-2.771993e-003	6.534001e-004
40375234.522	-6.906668e-004	-2.125611e-003	7.895151e-001	-6.137500e-001	7.896344e-001	-6.126918e-001	-2.814385e-003	5.937690e-004
40406504.065	-7.746306e-004	-2.051165e-003	7.891767e-001	-6.139512e-001	7.894016e-001	-6.132830e-001	-2.774438e-003	5.623120e-004
40437773.609	-8.165270e-004	-2.179941e-003	7.890764e-001	-6.143657e-001	7.891756e-001	-6.135505e-001	-2.739439e-003	5.276483e-004
40469043.152	-7.350942e-004	-2.117645e-003	7.887855e-001	-6.147711e-001	7.888445e-001	-6.139098e-001	-2.848813e-003	6.151333e-004
40500312.695	-7.365382e-004	-2.264708e-003	7.882952e-001	-6.152140e-001	7.885016e-001	-6.143554e-001	-2.834613e-003	6.447536e-004
40531582.239	-7.259232e-004	-2.100670e-003	7.879676e-001	-6.153953e-001	7.881018e-001	-6.149360e-001	-2.848389e-003	6.718583e-004
40562851.782	-7.429206e-004	-2.070745e-003	7.874809e-001	-6.159048e-001	7.876255e-001	-6.153407e-001	-2.786925e-003	5.378878e-004
40594121.326	-6.697907e-004	-2.118015e-003	7.874340e-001	-6.164107e-001	7.874419e-001	-6.156686e-001	-2.809508e-003	6.815043e-004
40625390.869	-7.468989e-004	-2.044103e-003	7.873265e-001	-6.167834e-001	7.873523e-001	-6.161246e-001	-2.839475e-003	5.758680e-004
40656660.413	-7.607643e-004	-2.122699e-003	7.869012e-001	-6.174012e-001	7.870594e-001	-6.162979e-001	-2.830660e-003	6.407887e-004
40687929.956	-6.897017e-004	-2.093986e-003	7.867765e-001	-6.178028e-001	7.867489e-001	-6.168839e-001	-2.812007e-003	5.947878e-004
40719199.500	-7.150427e-004	-1.985909e-003	7.859867e-001	-6.179667e-001	7.862523e-001	-6.175421e-001	-2.739263e-003	5.876336e-004
40750469.043	-7.629663e-004	-2.093784e-003	7.857354e-001	-6.182493e-001	7.859644e-001	-6.176628e-001	-2.890280e-003	6.289188e-004
40781738.587	-6.516195e-004	-2.152486e-003	7.854615e-001	-6.189608e-001	7.856762e-001	-6.181030e-001	-2.918218e-003	6.601205e-004
40813008.130	-7.300891e-004	-2.108258e-003	7.853733e-001	-6.190695e-001	7.852825e-001	-6.185414e-001	-2.850068e-003	6.354192e-004
40844277.674	-7.081739e-004	-2.065407e-003	7.847868e-001	-6.196095e-001	7.848474e-001	-6.187894e-001	-2.941527e-003	6.943565e-004
40875547.217	-6.993223e-004	-2.111979e-003	7.844354e-001	-6.201080e-001	7.846748e-001	-6.191539e-001	-2.913133e-003	6.428463e-004
40906816.760	-7.225795e-004	-2.037216e-003	7.845678e-001	-6.202956e-001	7.844624e-001	-6.196738e-001	-2.812717e-003	6.275987e-004
40938086.304	-7.333481e-004	-2.141412e-003	7.837512e-001	-6.208646e-001	7.842456e-001	-6.200984e-001	-2.913780e-003	6.510717e-004
40969355.847	-7.963799e-004	-2.027541e-003	7.834650e-001	-6.212086e-001	7.837473e-001	-6.205782e-001	-2.932589e-003	6.755096e-004
41000625.391	-7.625726e-004	-2.024495e-003	7.830286e-001	-6.215800e-001	7.834299e-001	-6.206957e-001	-2.848042e-003	6.590580e-004
41031894.934	-6.283407e-004	-1.916075e-003	7.833351e-001	-6.219893e-001	7.832299e-001	-6.214177e-001	-2.936105e-003	6.827881e-004
41063164.478	-7.122880e-004	-2.003631e-003	7.826070e-001	-6.224082e-001	7.827673e-001	-6.217849e-001	-2.873337e-003	6.521113e-004
41094434.021	-7.749330e-004	-2.029024e-003	7.821401e-001	-6.227750e-001	7.826284e-001	-6.219665e-001	-2.934513e-003	6.737150e-004
41125703.565	-7.055999e-004	-2.052385e-003	7.819675e-001	-6.231781e-001	7.822885e-001	-6.222829e-001	-2.900387e-003	6.624945e-004
41156973.108	-6.603088e-004	-2.061543e-003	7.816713e-001	-6.233551e-001	7.816620e-001	-6.228398e-001	-2.947831e-003	6.667654e-004
41188242.652	-7.191428e-004	-1.929272e-003	7.816192e-001	-6.241556e-001	7.815636e-001	-6.232791e-001	-2.780058e-003	6.337802e-004
41219512.195	-6.200087e-004	-2.115604e-003	7.810453e-001	-6.244875e-001	7.810663e-001	-6.236326e-001	-2.914997e-003	6.408581e-004
41250781.739	-7.584590e-004	-2.068783e-003	7.805818e-001	-6.249838e-001	7.809031e-001	-6.239826e-001	-2.900724e-003	6.559081e-004
41282051.282	-6.802139e-004	-2.083675e-003	7.806000e-001	-6.252337e-001	7.805709e-001	-6.243054e-001	-2.947264e-003	5.871478e-004
41313320.826	-7.343167e-004	-1.994654e-003	7.799570e-001	-6.257092e-001	7.802377e-001	-6.247595e-001	-2.886696e-003	6.280930e-004
41344590.369	-7.805587e-004	-2.088416e-003	7.796499e-001	-6.257187e-001	7.798983e-001	-6.252413e-001	-2.890148e-003	7.090360e-004
41375859.912	-8.113830e-004	-2.069112e-003	7.794514e-001	-6.264587e-001	7.793489e-001	-6.255736e-001	-2.850267e-003	6.756639e-004
41407129.456	-6.923064e-004	-2.042790e-003	7.791480e-001	-6.266987e-001	7.791811e-001	-6.260434e-001	-3.005683e-003	7.524346e-004
41438398.999	-7.488417e-004	-2.080606e-003	7.791127e-001	-6.271912e-001	7.789683e-001	-6.263947e-001	-2.932597e-003	6.615175e-004
41469668.543	-8.191134e-004	-1.945891e-003	7.785361e-001	-6.277848e-001	7.785356e-001	-6.270305e-001	-2.909263e-003	6.763493e-004
41500938.086	-7.442161e-004	-2.046457e-003	7.782466e-001	-6.279233e-001	7.783841e-001	-6.271582e-001	-2.928578e-003	6.517264e-004
41532207.630	-7.602368e-004	-2.033792e-003	7.777908e-001	-6.284684e-001	7.780494e-001	-6.276156e-001	-2.965884e-003	7.119125e-004
41563477.173	-7.097595e-004	-2.047953e-003	7.775204e-001	-6.288656e-001	7.777029e-001	-6.280321e-001	-2.853838e-003	6.277599e-004
41594746.717	-5.987958e-004	-2.047017e-003	7.772305e-001	-6.292604e-001	7.772851e-001	-6.284526e-001	-2.943117e-003	7.303473e-004
41626016.260	-8.026058e-004	-2.047109e-003	7.769288e-001	-6.294751e-001	7.769244e-001	-6.287971e-001	-2.982111e-003	6.644270e-004
41657285.804	-6.867127e-004	-2.074023e-003	7.764855e-001	-6.299529e-001	7.766304e-001	-6.292432e-001	-2.842106e-003	7.387930e-004
41688555.347	-6.829220e-004	-2.055793e-003	7.763442e-001	-6.303599e-001	7.763530e-001	-6.295232e-001	-2.939784e-003	6.802855e-004
41719824.891	-6.524354e-004	-1.883034e-003	7.758789e-001	-6.308090e-001	7.759960e-001	-6.299349e-001	-2.932522e-003	7.453466e-004
41751094.434	-7.559430e-004	-1.887698e-003	7.755759e-001	-6.310139e-001	7.757939e-001	-6.306629e-001	-2.920485e-003	6.589466e-004
41782363.977	-6.672792e-004	-1.992321e-003	7.755002e-001	-6.315184e-001	7.754197e-001	-6.307480e-001	-3.043002e-003	6.362270e-004
41813633.521	-6.810075e-004	-1.949546e-003	7.748921e-001	-6.317707e-001	7.751966e-001	-6.312502e-001	-2.907549e-003	7.790625e-004
41844903.064	-7.418970e-004	-1.979468e-003	7.748346e-001	-6.322839e-001	7.746790e-001	-6.316600e-001	-2.981695e-003	6.602620e-004
41876172.608	-6.721605e-004	-1.980246e-003	7.740860e-001	-6.326248e-001	7.745429e-001	-6.321267e-001	-2.987585e-003	7.617412e-004
41907442.151	-7.662185e-004	-1.938762e-003	7.739299e-001	-6.330418e-001	7.742619e-001	-6.326331e-001	-3.003146e-003	7.701984e-004
41938711.695	-6.823066e-004	-1.957566e-003	7.735417e-001	-6.335660e-001	7.737724e-001	-6.326652e-001	-2.893050e-003	7.433316e-004
41969981.238	-7.139647e-004	-2.069933e-003	7.733630e-001	-6.338335e-001	7.733910e-001	-6.332558e-001	-2.880248e-003	8.140497e-004
42001250.782	-6.645374e-004	-1.935264e-003	7.729234e-001	-6.342796e-001	7.730847e-001	-6.333584e-001	-2.970548e-003	7.603752e-004
42032520.325	-7.088473e-004	-1.912400e-003	7.727618e-001	-6.346219e-001	7.730193e-001	-6.339348e-001	-2.982642e-003	7.917752e-004
42063789.869	-6.955437e-004	-1.937224e-003	7.724841e-001	-6.350544e-001	7.725016e-001	-6.346351e-001	-3.048154e-003	7.467382e-004
42095059.412	-7.212275e-004	-2.009724e-003	7.720672e-001	-6.354755e-001	7.723521e-001	-6.347979e-001	-2.992706e-003	7.978147e-004
42126328.956	-7.233415e-004	-1.915981e-003	7.716279e-001	-6.357253e-001	7.717597e-001	-6.352201e-001	-3.084835e-003	7.503008e-004
42157598.499	-6.087230e-004	-1.957620e-003	7.714378e-001	-6.363446e-001	7.714493e-001	-6.355793e-001	-3.000183e-003	7.896757e-004
42188868.043	-6.591794e-004	-1.981365e-003	7.711318e-001	-6.364483e-001	7.712276e-001	-6.360809e-001	-3.002515e-003	8.494721e-004
42220137.586	-6.070779e-004	-1.974603e-003	7.707649e-001	-6.370795e-001	7.709325e-001	-6.361679e-001	-2.989929e-003	7.504015e-004
42251407.129	-6.923718e-004	-1.975014e-003	7.705796e-001	-6.376995e-001	7.705346e-001	-6.367233e-001	-3.054162e-003	8.456235e-004
42282676.673	-6.842095e-004	-1.949432e-003	7.702053e-001	-6.378888e-001	7.700626e-001	-6.371113e-001	-3.020027e-003	8.413639e-004
42313946.216	-6.999551e-004	-1.915457e-003	7.698924e-001	-6.383684e-001	7.697722e-001	-6.376437e-001	-3.043692e-003	8.387229e-004
42345215.760	-7.275930e-004	-2.037763e-003	7.694537e-001	-6.387586e-001	7.695958e-001	-6.379593e-001	-3.146089e-003	8.545582e-004
42376485.303	-7.167372e-004	-1.973045e-003	7.691200e-001	-6.392325e-001	7.692084e-001	-6.381862e-001	-3.086057e-003	8.840689e-004
42407754.847	-6.130883e-004	-1.914067e-003	7.686775e-001	-6.393016e-001	7.688514e-001	-6.386996e-001	-3.027629e-003	8.642713e-004
42439024.390	-6.791103e-004	-1.997236e-003	7.684965e-001	-6.398274e-001	7.685799e-001	-6.390298e-001	-3.028526e-003	7.543674e-004
42470293.934	-6.226046e-004	-2.013565e-003	7.681852e-001	-6.402621e-001	7.683950e-001	-6.394915e-001	-3.016164e-003	8.342131e-004
42501563.477	-7.282916e-004	-1.856947e-003	7.678575e-001	-6.404737e-001	7.680995e-001	-6.400493e-001	-2.996781e-003	8.211835e-004
42532833.021	-6.258693e-004	-1.961695e-003	7.676803e-001	-6.408748e-001	7.676929e-001	-6.403906e-001	-3.119146e-003	7.522325e-004
42564102.564	-7.069407e-004	-1.926411e-003	7.672117e-001	-6.415050e-001	7.673001e-001	-6.408782e-001	-3.055380e-003	8.055321e-004
42595372.108	-6.467758e-004	-1.968968e-003	7.666795e-001	-6.419262e-001	7.669229e-001	-6.412460e-001	-3.110220e-003	7.787948e-004
42626641.651	-6.325177e-004	-2.047231e-003	7.665504e-001	-6.421458e-001	7.666319e-001	-6.413067e-001	-3.079161e-003	8.571598e-004
42657911.194	-6.925523e-004	-1.897301e-003	7.661655e-001	-6.426394e-001	7.664062e-001	-6.419534e-001	-3.030632e-003	8.059164e-004
42689180.738	-7.289435e-004	-1.889178e-003	7.659769e-001	-6.430156e-001	7.660890e-001	-6.422244e-001	-3.179891e-003	8.401460e-004
42720450.281	-7.287068e-004	-1.964796e-003	7.654429e-001	-6.432159e-001	7.656126e-001	-6.427382e-001	-3.072674e-003	8.491378e-004
42751719.825	-6.690597e-004	-2.045157e-003	7.651376e-001	-6.437759e-001	7.656132e-001	-6.429903e-001	-3.035777e-003	8.331336e-004
42782989.368	-7.829257e-004	-1.962905e-003	7.650032e-001	-6.443629e-001	7.650405e-001	-6.435374e-001	-3.171984e-003	8.699858e-004
42814258.912	-6.427042e-004	-1.942216e-003	7.648273e-001	-6.445407e-001	7.648722e-001	-6.439272e-001	-3.075932e-003	7.332676e-004
42845528.455	-7.464777e-004	-1.920215e-003	7.642083e-001	-6.451800e-001	7.644199e-001	-6.442641e-001	-3.112411e-003	9.227255e-004
42876797.999	-6.473327e-004	-1.968852e-003	7.639758e-001	-6.452697e-001	7.640771e-001	-6.447328e-001	-3.095193e-003	8.076194e-004
42908067.542	-7.156874e-004	-1.959272e-003	7.636558e-001	-6.456858e-001	7.637594e-001	-6.448081e-001	-3.103742e-003	7.426119e-004
42939337.086	-6.385638e-004	-1.899105e-003	7.632313e-001	-6.460734e-001	7.630699e-001	-6.453320e-001	-3.063349e-003	7.740956e-004
42970606.629	-7.133031e-004	-1.986407e-003	7.628819e-001	-6.464406e-001	7.629726e-001	-6.457179e-001	-3.182895e-003	7.180764e-004
43001876.173	-7.120427e-004	-1.933781e-003	7.626750e-001	-6.469598e-001	7.626514e-001	-6.463488e-001	-3.191903e-003	8.928200e-004
43033145.716	-6.149208e-004	-1.888096e-003	7.620934e-001	-6.472105e-001	7.622584e-001	-6.467375e-001	-3.180646e-003	8.890268e-004
43064415.260	-6.471375e-004	-1.993724e-003	7.617217e-001	-6.475617e-001	7.623374e-001	-6.469723e-001	-3.171439e-003	8.337512e-004
43095684.803	-7.122192e-004	-1.956205e-003	7.614841e-001	-6.481514e-001	7.617253e-001	-6.474105e-001	-3.182049e-003	8.315426e-004
43126954.346	-6.273653e-004	-1.878396e-003	7.612280e-001	-6.484839e-001	7.614413e-001	-6.479782e-001	-3.170144e-003	9.241871e-004
43158223.890	-6.399701e-004	-1.927960e-003	7.606255e-001	-6.487235e-001	7.610273e-001	-6.481362e-001	-3.215090e-003	9.040833e-004
43189493.433	-6.451254e-004	-1.950462e-003	7.607593e-001	-6.493503e-001	7.604875e-001	-6.488480e-001	-3.208617e-003	9.143539e-004
43220762.977	-6.745607e-004	-1.866432e-003	7.602649e-001	-6.496515e-001	7.604259e-001	-6.489016e-001	-3.184854e-003	8.444877e-004
43252032.520	-6.584741e-004	-1.979829e-003	7.598293e-001	-6.501641e-001	7.600465e-001	-6.494200e-001	-3.127352e-003	8.599254e-004
43283302.064	-6.893163e-004	-1.865457e-003	7.595865e-001	-6.504297e-001	7.595843e-001	-6.496741e-001	-3.113284e-003	9.245223e-004
43314571.607	-6.839713e-004	-1.985911e-003	7.594950e-001	-6.507803e-001	7.596126e-001	-6.500507e-001	-3.216250e-003	9.937193e-004
43345841.151	-6.481792e-004	-1.950313e-003	7.588286e-001	-6.511250e-001	7.590688e-001	-6.504892e-001	-3.200494e-003	9.781739e-004
43377110.694	-7.109404e-004	-1.966193e-003	7.585295e-001	-6.513952e-001	7.585199e-001	-6.511735e-001	-3.212762e-003	8.928657e-004
43408380.238	-5.765475e-004	-1.998011e-003	7.583339e-001	-6.521594e-001	7.582688e-001	-6.511515e-001	-3.191025e-003	9.243498e-004
43439649.781	-6.234113e-004	-1.989808e-003	7.578749e-001	-6.523233e-001	7.578066e-001	-6.516889e-001	-3.157690e-003	9.295340e-004
43470919.325	-7.383853e-004	-1.972039e-003	7.574305e-001	-6.527963e-001	7.578123e-001	-6.523868e-001	-3.186004e-003	1.066280e-003
43502188.868	-6.962546e-004	-1.944793e-003	7.571102e-001	-6.532744e-001	7.572871e-001	-6.525274e-001	-3.196321e-003	9.750352e-004
43533458.412	-6.755929e-004	-1.877456e-003	7.567627e-001	-6.533270e-001	7.570291e-001	-6.528880e-001	-3.149396e-003	9.069662e-004
43564727.955	-6.604903e-004	-1.963802e-003	7.566773e-001	-6.538703e-001	7.566292e-001	-6.533254e-001	-3.174468e-003	9.087360e-004
43595997.498	-6.452774e-004	-2.019543e-003	7.561298e-001	-6.540883e-001	7.561610e-001	-6.535881e-001	-3.236257e-003	9.204663e-004
43627267.042	-6.739781e-004	-1.991620e-003	7.559352e-001	-6.546107e-001	7.561086e-001	-6.541834e-001	-3.221456e-003	1.007268e-003
43658536.585	-6.075620e-004	-2.013602e-003	7.555837e-001	-6.551092e-001	7.554438e-001	-6.544704e-001	-3.202981e-003	1.002547e-003
43689806.129	-5.692631e-004	-2.015086e-003	7.551199e-001	-6.553999e-001	7.553550e-001	-6.547899e-001	-3.172738e-003	8.837646e-004
43721075.672	-7.299792e-004	-1.912383e-003	7.548908e-001	-6.557370e-001	7.548742e-001	-6.552549e-001	-3.201913e-003	9.154765e-004
43752345.216	-5.690503e-004	-1.982111e-003	7.548373e-001	-6.561708e-001	7.545349e-001	-6.557967e-001	-3.196719e-003	9.677833e-004
43783614.759	-6.032473e-004	-1.998009e-003	7.542241e-001	-6.564870e-001	7.545316e-001	-6.560840e-001	-3.184063e-003	9.411745e-004
43814884.303	-6.900856e-004	-1.972191e-003	7.538949e-001	-6.568785e-001	7.539239e-001	-6.563446e-001	-3.271696e-003	1.012619e-003
43846153.846	-5.570537e-004	-1.966259e-003	7.536022e-001	-6.573906e-001	7.538889e-001	-6.568226e-001	-3.259857e-003	9.907077e-004
43877423.390	-6.516183e-004	-2.009044e-003	7.530992e-001	-6.579589e-001	7.532380e-001	-6.571182e-001	-3.211348e-003	9.720050e-004
43908692.933	-7.699134e-004	-1.895297e-003	7.526966e-001	-6.582918e-001	7.531435e-001	-6.574705e-001	-3.294584e-003	1.029004e-003
43939962.477	-6.784212e-004	-1.920119e-003	7.527057e-001	-6.587559e-001	7.526811e-001	-6.580400e-001	-3.223897e-003	1.016725e-003
43971232.020	-6.043477e-004	-2.017854e-003	7.520955e-001	-6.588822e-001	7.523777e-001	-6.583681e-001	-3.203096e-003	1.002195e-003
44002501.563	-6.196508e-004	-1.992362e-003	7.517158e-001	-6.592327e-001	7.520630e-001	-6.586329e-001	-3.239983e-003	1.083730e-003
44033771.107	-6.357069e-004	-2.047388e-003	7.515173e-001	-6.597750e-001	7.517167e-001	-6.586465e-001	-3.231596e-003	1.049414e-003
44065040.650	-6.169816e-004	-1.891128e-003	7.511737e-001	-6.601460e-001	7.513232e-001	-6.594745e-001	-3.180310e-003	1.100637e-003
44096310.194	-6.680221e-004	-1.983627e-003	7.510434e-001	-6.604843e-001	7.510542e-001	-6.596375e-001	-3.189021e-003	1.019040e-003
44127579.737	-6.354836e-004	-1.977916e-003	7.505353e-001	-6.609709e-001	7.507655e-001	-6.601013e-001	-3.198857e-003	1.064066e-003
44158849.281	-5.926739e-004	-1.965396e-003	7.503825e-001	-6.612393e-001	7.504544e-001	-6.606316e-001	-3.228245e-003	1.020884e-003
44190118.824	-6.817728e-004	-1.957652e-003	7.497924e-001	-6.615403e-001	7.501212e-001	-6.609991e-001	-3.280461e-003	1.030285e-003
44221388.368	-6.899196e-004	-2.002961e-003	7.496113e-001	-6.620478e-001	7.496776e-001	-6.613225e-001	-3.360007e-003	1.070472e-003
44252657.911	-6.659224e-004	-1.981186e-003	7.491169e-001	-6.622682e-001	7.494016e-001	-6.617790e-001	-3.197020e-003	1.012426e-003
44283927.455	-7.071968e-004	-1.954330e-003	7.486866e-001	-6.626925e-001	7.489888e-001	-6.620204e-001	-3.329605e-003	9.804483e-004
44315196.998	-6.883034e-004	-1.979561e-003	7.484844e-001	-6.631955e-001	7.485556e-001	-6.623751e-001	-3.220834e-003	1.008996e-003
44346466.542	-6.466480e-004	-1.994929e-003	7.481256e-001	-6.635601e-001	7.483152e-001	-6.629066e-001	-3.300756e-003	1.026458e-003
44377736.085	-6.457404e-004	-1.965994e-003	7.476926e-001	-6.637600e-001	7.477586e-001	-6.633611e-001	-3.397795e-003	1.084544e-003
44409005.629	-6.091585e-004	-1.937214e-003	7.472272e-001	-6.642175e-001	7.473246e-001	-6.635187e-001	-3.264212e-003	1.095690e-003
44440275.172	-6.245976e-004	-2.061547e-003	7.470536e-001	-6.647455e-001	7.472108e-001	-6.640091e-001	-3.340973e-003	1.088692e-003
44471544.715	-6.594778e-004	-2.049239e-003	7.466235e-001	-6.650486e-001	7.470413e-001	-6.644230e-001	-3.260073e-003	1.091486e-003
44502814.259	-5.495731e-004	-2.029180e-003	7.464938e-001	-6.652486e-001	7.464898e-001	-6.646946e-001	-3.269996e-003	1.069928e-003
44534083.802	-6.844330e-004	-1.947016e-003	7.460858e-001	-6.658103e-001	7.460173e-001	-6.651469e-001	-3.288360e-003	1.035325e-003
44565353.346	-7.089653e-004	-1.990088e-003	7.458368e-001	-6.662322e-001	7.459101e-001	-6.655062e-001	-3.359581e-003	1.188323e-003
44596622.889	-6.996371e-004	-2.022347e-003	7.454962e-001	-6.665432e-001	7.455389e-001	-6.658833e-001	-3.295729e-003	1.112846e-003
44627892.433	-6.431689e-004	-1.968501e-003	7.449848e-001	-6.669238e-001	7.451497e-001	-6.662145e-001	-3.334075e-003	1.085144e-003
44659161.976	-6.899466e-004	-1.982368e-003	7.445544e-001	-6.673281e-001	7.449177e-001	-6.665242e-001	-3.279365e-003	1.135430e-003
44690431.520	-6.457592e-004	-2.102626e-003	7.443698e-001	-6.676511e-001	7.444914e-001	-6.670343e-001	-3.332539e-003	1.134413e-003
44721701.063	-6.490967e-004	-1.976016e-003	7.442334e-001	-6.680359e-001	7.441661e-001	-6.676849e-001	-3.329464e-003	1.191776e-003
