!Agilent Technologies,E5061B,MY49102235,A.02.00
!Date: Mon Jul 03 10:47:28 2023
!Data & Calibration Information:
!Freq	S11:SOLT2(ON)	S21:SOLT2(ON)	S12:SOLT2(ON)	S22:SOLT2(ON)
# Hz S RI R 50
40000000.000	-7.056010e-004	-2.184489e-003	7.935829e-001	-6.088471e-001	7.935436e-001	-6.079095e-001	-2.854005e-003	6.374260e-004
40031269.543	-7.068459e-004	-2.244518e-003	7.933513e-001	-6.092158e-001	7.932912e-001	-6.081873e-001	-2.840493e-003	6.576964e-004
40062539.087	-7.355986e-004	-2.241186e-003	7.927308e-001	-6.093801e-001	7.928932e-001	-6.085735e-001	-2.793751e-003	6.278791e-004
40093808.630	-7.447071e-004	-2.209702e-003	7.925213e-001	-6.099279e-001	7.926021e-001	-6.092003e-001	-2.841654e-003	6.661216e-004
40125078.174	-7.680615e-004	-2.177751e-003	7.922386e-001	-6.102956e-001	7.921932e-001	-6.094939e-001	-2.794988e-003	7.469478e-004
40156347.717	-6.993838e-004	-2.212010e-003	7.920296e-001	-6.108230e-001	7.919187e-001	-6.100613e-001	-2.847994e-003	6.710401e-004
40187617.261	-7.253601e-004	-2.267711e-003	7.917298e-001	-6.110534e-001	7.917608e-001	-6.104354e-001	-2.819254e-003	5.651315e-004
40218886.804	-6.997852e-004	-2.206313e-003	7.913834e-001	-6.116538e-001	7.912990e-001	-6.107046e-001	-2.791128e-003	6.309926e-004
40250156.348	-7.221482e-004	-2.202745e-003	7.910909e-001	-6.118778e-001	7.910659e-001	-6.112335e-001	-2.868183e-003	5.976258e-004
40281425.891	-7.417723e-004	-2.236211e-003	7.907879e-001	-6.123900e-001	7.907249e-001	-6.115799e-001	-2.844834e-003	6.477263e-004
40312695.435	-6.930927e-004	-2.204754e-003	7.904050e-001	-6.129552e-001	7.904173e-001	-6.119316e-001	-2.797065e-003	6.500320e-004
40343964.978	-7.010602e-004	-2.152602e-003	7.901137e-001	-6.130651e-001	7.900868e-001	-6.123582e-001	-2.852354e-003	6.997466e-004
40375234.522	-6.821379e-004	-2.145506e-003	7.896825e-001	-6.136219e-001	7.898382e-001	-6.126599e-001	-2.863413e-003	6.793930e-004
40406504.065	-7.526717e-004	-2.118550e-003	7.892969e-001	-6.138729e-001	7.894435e-001	-6.132584e-001	-2.802547e-003	6.080473e-004
40437773.609	-7.949738e-004	-2.223634e-003	7.893065e-001	-6.142899e-001	7.892354e-001	-6.135094e-001	-2.797907e-003	6.094610e-004
40469043.152	-6.889641e-004	-2.210920e-003	7.888414e-001	-6.147189e-001	7.889449e-001	-6.139220e-001	-2.856997e-003	6.846341e-004
40500312.695	-7.370256e-004	-2.278001e-003	7.883789e-001	-6.152173e-001	7.886077e-001	-6.143396e-001	-2.880322e-003	7.111887e-004
40531582.239	-7.181756e-004	-2.184905e-003	7.880744e-001	-6.153250e-001	7.881900e-001	-6.150370e-001	-2.900610e-003	7.255730e-004
40562851.782	-7.339887e-004	-2.144023e-003	7.877306e-001	-6.159087e-001	7.877905e-001	-6.151966e-001	-2.793281e-003	5.865184e-004
40594121.326	-7.087069e-004	-2.189176e-003	7.876809e-001	-6.164090e-001	7.875825e-001	-6.155209e-001	-2.829508e-003	7.163890e-004
40625390.869	-7.103326e-004	-2.133848e-003	7.873206e-001	-6.167451e-001	7.874726e-001	-6.160792e-001	-2.871117e-003	6.267493e-004
40656660.413	-7.069622e-004	-2.167304e-003	7.869421e-001	-6.171585e-001	7.871009e-001	-6.162880e-001	-2.846558e-003	6.877801e-004
40687929.956	-6.932702e-004	-2.140610e-003	7.869113e-001	-6.177332e-001	7.868404e-001	-6.167176e-001	-2.844667e-003	6.679905e-004
40719199.500	-7.270521e-004	-2.080047e-003	7.862159e-001	-6.178910e-001	7.863360e-001	-6.173771e-001	-2.781535e-003	6.703005e-004
40750469.043	-7.370007e-004	-2.123539e-003	7.858635e-001	-6.181628e-001	7.860368e-001	-6.176482e-001	-2.924352e-003	6.799572e-004
40781738.587	-6.513538e-004	-2.208737e-003	7.857236e-001	-6.188335e-001	7.857677e-001	-6.181033e-001	-2.948678e-003	6.942057e-004
40813008.130	-7.221815e-004	-2.175033e-003	7.855514e-001	-6.190750e-001	7.852915e-001	-6.185140e-001	-2.893383e-003	6.990196e-004
40844277.674	-6.956307e-004	-2.106564e-003	7.850334e-001	-6.195372e-001	7.850329e-001	-6.188435e-001	-2.967011e-003	7.006863e-004
40875547.217	-6.862901e-004	-2.153989e-003	7.846493e-001	-6.200778e-001	7.848742e-001	-6.191274e-001	-2.907891e-003	6.959967e-004
40906816.760	-7.072650e-004	-2.091312e-003	7.845637e-001	-6.203929e-001	7.844321e-001	-6.195708e-001	-2.809205e-003	6.742061e-004
40938086.304	-7.577097e-004	-2.173876e-003	7.839593e-001	-6.208573e-001	7.842756e-001	-6.200909e-001	-2.937051e-003	6.951972e-004
40969355.847	-7.745031e-004	-2.113297e-003	7.836255e-001	-6.211312e-001	7.838314e-001	-6.204507e-001	-2.937423e-003	7.336560e-004
41000625.391	-7.532923e-004	-2.081174e-003	7.832240e-001	-6.214935e-001	7.833926e-001	-6.207708e-001	-2.891815e-003	7.391487e-004
41031894.934	-6.021361e-004	-2.015336e-003	7.832553e-001	-6.218236e-001	7.831654e-001	-6.213378e-001	-2.937895e-003	7.285454e-004
41063164.478	-7.191646e-004	-2.076034e-003	7.828823e-001	-6.223489e-001	7.829663e-001	-6.216982e-001	-2.889351e-003	6.894712e-004
41094434.021	-7.355519e-004	-2.115906e-003	7.824967e-001	-6.226926e-001	7.825371e-001	-6.219647e-001	-2.937507e-003	7.152613e-004
41125703.565	-6.924195e-004	-2.104306e-003	7.822612e-001	-6.231652e-001	7.823492e-001	-6.223014e-001	-2.954949e-003	7.417795e-004
41156973.108	-6.548426e-004	-2.129452e-003	7.819620e-001	-6.233580e-001	7.818100e-001	-6.228635e-001	-2.943458e-003	7.204399e-004
41188242.652	-7.024796e-004	-2.030246e-003	7.816018e-001	-6.241322e-001	7.816344e-001	-6.232211e-001	-2.864198e-003	6.887004e-004
41219512.195	-6.505011e-004	-2.133969e-003	7.812367e-001	-6.244079e-001	7.812167e-001	-6.235875e-001	-2.932480e-003	6.655539e-004
41250781.739	-7.226280e-004	-2.111921e-003	7.807469e-001	-6.249758e-001	7.809069e-001	-6.240622e-001	-2.897529e-003	7.328141e-004
41282051.282	-6.659815e-004	-2.144938e-003	7.805853e-001	-6.251763e-001	7.805761e-001	-6.244414e-001	-2.974635e-003	6.928061e-004
41313320.826	-7.346247e-004	-2.038815e-003	7.801217e-001	-6.254976e-001	7.803084e-001	-6.247690e-001	-2.936474e-003	7.027971e-004
41344590.369	-7.454307e-004	-2.137877e-003	7.797658e-001	-6.257538e-001	7.800615e-001	-6.252937e-001	-2.906283e-003	7.813018e-004
41375859.912	-8.070614e-004	-2.075855e-003	7.796291e-001	-6.263353e-001	7.794030e-001	-6.256170e-001	-2.902362e-003	7.329528e-004
41407129.456	-7.216186e-004	-2.091547e-003	7.793807e-001	-6.265539e-001	7.792772e-001	-6.258694e-001	-2.996616e-003	7.931291e-004
41438398.999	-7.108930e-004	-2.151161e-003	7.791299e-001	-6.272449e-001	7.790789e-001	-6.264107e-001	-2.996659e-003	7.683064e-004
41469668.543	-7.774216e-004	-1.974514e-003	7.786268e-001	-6.276255e-001	7.786557e-001	-6.269250e-001	-2.944290e-003	7.539948e-004
41500938.086	-7.386797e-004	-2.087612e-003	7.783823e-001	-6.278724e-001	7.784489e-001	-6.271471e-001	-2.954891e-003	6.811489e-004
41532207.630	-7.036458e-004	-2.088851e-003	7.780233e-001	-6.283082e-001	7.781025e-001	-6.275861e-001	-2.948142e-003	7.394559e-004
41563477.173	-6.757473e-004	-2.119040e-003	7.776732e-001	-6.288059e-001	7.777290e-001	-6.278944e-001	-2.892526e-003	7.018888e-004
41594746.717	-6.350040e-004	-2.083551e-003	7.772932e-001	-6.291285e-001	7.774092e-001	-6.283786e-001	-2.954659e-003	7.869709e-004
41626016.260	-7.996562e-004	-2.141075e-003	7.770384e-001	-6.295292e-001	7.770971e-001	-6.287699e-001	-2.983068e-003	7.693943e-004
41657285.804	-6.859730e-004	-2.110807e-003	7.767417e-001	-6.299861e-001	7.767785e-001	-6.291300e-001	-2.922914e-003	7.686029e-004
41688555.347	-6.740582e-004	-2.079435e-003	7.763897e-001	-6.302936e-001	7.764584e-001	-6.296627e-001	-2.950465e-003	7.777667e-004
41719824.891	-6.733246e-004	-2.006705e-003	7.761212e-001	-6.307788e-001	7.761410e-001	-6.299090e-001	-2.974952e-003	8.181698e-004
41751094.434	-7.563832e-004	-1.951211e-003	7.757997e-001	-6.310346e-001	7.757281e-001	-6.305825e-001	-2.928206e-003	7.182271e-004
41782363.977	-6.375099e-004	-2.070203e-003	7.755463e-001	-6.315271e-001	7.755824e-001	-6.307135e-001	-3.080799e-003	7.637404e-004
41813633.521	-7.227434e-004	-2.075639e-003	7.749956e-001	-6.318087e-001	7.752725e-001	-6.311146e-001	-2.932934e-003	8.326035e-004
41844903.064	-7.307576e-004	-2.034222e-003	7.749402e-001	-6.321455e-001	7.748041e-001	-6.316503e-001	-3.021632e-003	7.822312e-004
41876172.608	-6.915627e-004	-2.059240e-003	7.742960e-001	-6.327145e-001	7.746747e-001	-6.320161e-001	-3.066197e-003	8.236382e-004
41907442.151	-7.428110e-004	-1.996544e-003	7.741335e-001	-6.330189e-001	7.743145e-001	-6.324528e-001	-3.044736e-003	7.933187e-004
41938711.695	-6.427406e-004	-2.020894e-003	7.737423e-001	-6.334585e-001	7.739675e-001	-6.326991e-001	-2.922489e-003	7.623917e-004
41969981.238	-6.680288e-004	-2.105112e-003	7.734726e-001	-6.338472e-001	7.734977e-001	-6.333342e-001	-2.951590e-003	8.295672e-004
42001250.782	-6.736737e-004	-1.984130e-003	7.731971e-001	-6.343080e-001	7.732482e-001	-6.333983e-001	-2.982225e-003	8.223119e-004
42032520.325	-6.576810e-004	-1.955418e-003	7.727996e-001	-6.346659e-001	7.730981e-001	-6.337969e-001	-3.035477e-003	8.281533e-004
42063789.869	-7.120079e-004	-2.011058e-003	7.725674e-001	-6.350437e-001	7.725460e-001	-6.344487e-001	-3.090427e-003	8.097753e-004
42095059.412	-6.788168e-004	-2.021965e-003	7.721895e-001	-6.354637e-001	7.723882e-001	-6.347952e-001	-3.037251e-003	8.784414e-004
42126328.956	-7.256405e-004	-2.013403e-003	7.718414e-001	-6.356998e-001	7.718880e-001	-6.351006e-001	-3.058102e-003	8.199978e-004
42157598.499	-6.428134e-004	-2.033306e-003	7.715306e-001	-6.362154e-001	7.715738e-001	-6.356478e-001	-3.027206e-003	8.529615e-004
42188868.043	-6.629712e-004	-2.039746e-003	7.713350e-001	-6.364567e-001	7.713376e-001	-6.359623e-001	-3.055532e-003	8.596048e-004
42220137.586	-6.103166e-004	-2.002728e-003	7.708477e-001	-6.370855e-001	7.709791e-001	-6.362243e-001	-3.047242e-003	8.408948e-004
42251407.129	-6.832687e-004	-2.050353e-003	7.706816e-001	-6.375177e-001	7.706208e-001	-6.367784e-001	-3.104632e-003	8.987764e-004
42282676.673	-6.581266e-004	-2.027853e-003	7.702350e-001	-6.378081e-001	7.702294e-001	-6.370974e-001	-3.034396e-003	8.857597e-004
42313946.216	-6.852338e-004	-1.986065e-003	7.700178e-001	-6.382764e-001	7.700512e-001	-6.375863e-001	-3.041227e-003	8.795564e-004
42345215.760	-7.402054e-004	-2.066396e-003	7.695571e-001	-6.386172e-001	7.696496e-001	-6.380232e-001	-3.141972e-003	8.996266e-004
42376485.303	-7.098419e-004	-2.049791e-003	7.692376e-001	-6.390669e-001	7.692498e-001	-6.382858e-001	-3.083053e-003	9.443929e-004
42407754.847	-6.705162e-004	-1.984829e-003	7.688401e-001	-6.393656e-001	7.689868e-001	-6.387007e-001	-3.057177e-003	9.343035e-004
42439024.390	-6.944105e-004	-2.051423e-003	7.686066e-001	-6.397993e-001	7.686357e-001	-6.389668e-001	-3.114114e-003	8.462699e-004
42470293.934	-6.212185e-004	-2.051925e-003	7.682799e-001	-6.401957e-001	7.684221e-001	-6.394918e-001	-3.068322e-003	8.698149e-004
42501563.477	-6.862402e-004	-1.956198e-003	7.680369e-001	-6.404726e-001	7.681131e-001	-6.399861e-001	-3.015273e-003	9.020955e-004
42532833.021	-6.081003e-004	-1.989017e-003	7.676845e-001	-6.408937e-001	7.678730e-001	-6.404165e-001	-3.115170e-003	8.651291e-004
42564102.564	-6.700031e-004	-1.980000e-003	7.673318e-001	-6.414605e-001	7.673781e-001	-6.407421e-001	-3.119426e-003	8.575471e-004
42595372.108	-6.350432e-004	-1.971689e-003	7.668555e-001	-6.418839e-001	7.670855e-001	-6.412169e-001	-3.157009e-003	8.729555e-004
42626641.651	-6.536841e-004	-2.097616e-003	7.666727e-001	-6.420619e-001	7.667620e-001	-6.413959e-001	-3.149870e-003	8.943269e-004
42657911.194	-6.756800e-004	-2.013878e-003	7.662938e-001	-6.425931e-001	7.664246e-001	-6.419050e-001	-3.125594e-003	9.077415e-004
42689180.738	-7.239666e-004	-1.963164e-003	7.660395e-001	-6.429140e-001	7.661025e-001	-6.422975e-001	-3.173624e-003	8.873375e-004
42720450.281	-6.981538e-004	-2.045637e-003	7.654726e-001	-6.431364e-001	7.656819e-001	-6.426129e-001	-3.093889e-003	9.237919e-004
42751719.825	-6.650819e-004	-2.112215e-003	7.653022e-001	-6.436740e-001	7.656304e-001	-6.429025e-001	-3.067358e-003	9.017649e-004
42782989.368	-7.666702e-004	-2.020506e-003	7.650016e-001	-6.442757e-001	7.651123e-001	-6.434776e-001	-3.153360e-003	9.527724e-004
42814258.912	-6.434955e-004	-2.002088e-003	7.648435e-001	-6.444876e-001	7.648201e-001	-6.438549e-001	-3.106131e-003	8.201157e-004
42845528.455	-7.130368e-004	-1.965792e-003	7.643452e-001	-6.450233e-001	7.645060e-001	-6.442410e-001	-3.119445e-003	9.449337e-004
42876797.999	-6.237546e-004	-2.011873e-003	7.640811e-001	-6.451729e-001	7.641108e-001	-6.446931e-001	-3.138713e-003	8.663042e-004
42908067.542	-7.052880e-004	-2.020822e-003	7.637003e-001	-6.454883e-001	7.639101e-001	-6.448528e-001	-3.136746e-003	8.392767e-004
42939337.086	-6.177704e-004	-1.949020e-003	7.633774e-001	-6.459850e-001	7.632980e-001	-6.454026e-001	-3.088316e-003	8.456919e-004
42970606.629	-6.908442e-004	-2.046856e-003	7.630008e-001	-6.464076e-001	7.630452e-001	-6.457995e-001	-3.171873e-003	7.956564e-004
43001876.173	-6.877823e-004	-2.026520e-003	7.627162e-001	-6.468815e-001	7.628460e-001	-6.462303e-001	-3.191814e-003	9.710107e-004
43033145.716	-5.946574e-004	-1.955914e-003	7.621910e-001	-6.472766e-001	7.624220e-001	-6.466513e-001	-3.203559e-003	9.400670e-004
43064415.260	-6.187524e-004	-2.024466e-003	7.619342e-001	-6.475418e-001	7.622238e-001	-6.469710e-001	-3.182202e-003	8.846186e-004
43095684.803	-6.722211e-004	-1.996737e-003	7.616284e-001	-6.480713e-001	7.617942e-001	-6.473897e-001	-3.205057e-003	8.957009e-004
43126954.346	-6.032399e-004	-1.967534e-003	7.614035e-001	-6.483774e-001	7.614352e-001	-6.477970e-001	-3.220900e-003	9.636427e-004
43158223.890	-6.425931e-004	-1.999550e-003	7.610443e-001	-6.486152e-001	7.610646e-001	-6.481177e-001	-3.245814e-003	9.651397e-004
43189493.433	-6.291370e-004	-2.041371e-003	7.608599e-001	-6.492729e-001	7.605986e-001	-6.486729e-001	-3.237652e-003	9.935133e-004
43220762.977	-6.383481e-004	-1.964530e-003	7.604509e-001	-6.496299e-001	7.604918e-001	-6.488264e-001	-3.221979e-003	9.107672e-004
43252032.520	-6.562485e-004	-2.061386e-003	7.600158e-001	-6.499677e-001	7.600593e-001	-6.494134e-001	-3.155510e-003	9.033702e-004
43283302.064	-6.730622e-004	-1.951051e-003	7.596994e-001	-6.503017e-001	7.596893e-001	-6.496412e-001	-3.146912e-003	9.962531e-004
43314571.607	-6.884800e-004	-2.060356e-003	7.594338e-001	-6.507572e-001	7.596861e-001	-6.500719e-001	-3.240827e-003	1.060958e-003
43345841.151	-6.240872e-004	-1.993185e-003	7.590077e-001	-6.511153e-001	7.591696e-001	-6.504776e-001	-3.226966e-003	1.020516e-003
43377110.694	-7.075695e-004	-2.036496e-003	7.587109e-001	-6.514395e-001	7.587250e-001	-6.509350e-001	-3.256020e-003	9.744428e-004
43408380.238	-6.025191e-004	-2.065224e-003	7.584816e-001	-6.520308e-001	7.583853e-001	-6.511843e-001	-3.189630e-003	9.714054e-004
43439649.781	-6.252193e-004	-2.042222e-003	7.579744e-001	-6.523046e-001	7.579722e-001	-6.516817e-001	-3.159279e-003	9.877145e-004
43470919.325	-6.876966e-004	-2.037804e-003	7.576116e-001	-6.527984e-001	7.579225e-001	-6.521337e-001	-3.193286e-003	1.074182e-003
43502188.868	-6.602256e-004	-2.080599e-003	7.573706e-001	-6.531655e-001	7.573249e-001	-6.524665e-001	-3.210242e-003	1.042080e-003
43533458.412	-6.095913e-004	-1.973647e-003	7.570150e-001	-6.533461e-001	7.570370e-001	-6.527632e-001	-3.154310e-003	9.871349e-004
43564727.955	-6.809405e-004	-2.000455e-003	7.567528e-001	-6.537358e-001	7.567716e-001	-6.534193e-001	-3.229447e-003	9.669045e-004
43595997.498	-6.314807e-004	-2.066452e-003	7.563473e-001	-6.541348e-001	7.562784e-001	-6.535954e-001	-3.250977e-003	1.010567e-003
43627267.042	-6.339478e-004	-2.078038e-003	7.561510e-001	-6.545334e-001	7.560690e-001	-6.540799e-001	-3.265268e-003	1.057727e-003
43658536.585	-5.957698e-004	-2.083658e-003	7.556826e-001	-6.549324e-001	7.557100e-001	-6.543810e-001	-3.260746e-003	1.039360e-003
43689806.129	-5.557402e-004	-2.089032e-003	7.552724e-001	-6.553548e-001	7.554232e-001	-6.547707e-001	-3.224282e-003	9.846833e-004
43721075.672	-7.027773e-004	-1.944569e-003	7.549315e-001	-6.556850e-001	7.550675e-001	-6.551970e-001	-3.220389e-003	9.867150e-004
43752345.216	-5.927239e-004	-2.059738e-003	7.548496e-001	-6.561875e-001	7.546789e-001	-6.556498e-001	-3.212300e-003	1.055922e-003
43783614.759	-5.949316e-004	-2.068666e-003	7.542927e-001	-6.564947e-001	7.544905e-001	-6.559598e-001	-3.224711e-003	9.952084e-004
43814884.303	-7.030240e-004	-2.031147e-003	7.540812e-001	-6.568652e-001	7.540826e-001	-6.562914e-001	-3.269332e-003	1.063194e-003
43846153.846	-5.925358e-004	-2.068275e-003	7.538110e-001	-6.572306e-001	7.539044e-001	-6.567434e-001	-3.279716e-003	1.040675e-003
43877423.390	-6.210388e-004	-2.075850e-003	7.532779e-001	-6.578276e-001	7.534118e-001	-6.571061e-001	-3.219357e-003	1.044602e-003
43908692.933	-6.729979e-004	-1.981754e-003	7.529046e-001	-6.582218e-001	7.532005e-001	-6.573788e-001	-3.285469e-003	1.101162e-003
43939962.477	-6.633652e-004	-2.001269e-003	7.527778e-001	-6.585711e-001	7.528166e-001	-6.579191e-001	-3.270676e-003	1.082519e-003
43971232.020	-6.232239e-004	-2.058412e-003	7.522619e-001	-6.588874e-001	7.524048e-001	-6.582978e-001	-3.247220e-003	1.074762e-003
44002501.563	-6.178407e-004	-2.085666e-003	7.518847e-001	-6.591264e-001	7.521361e-001	-6.584964e-001	-3.262928e-003	1.143251e-003
44033771.107	-5.950438e-004	-2.074779e-003	7.516410e-001	-6.596980e-001	7.517820e-001	-6.588855e-001	-3.258606e-003	1.099314e-003
44065040.650	-6.004330e-004	-1.966667e-003	7.513591e-001	-6.600474e-001	7.514649e-001	-6.593893e-001	-3.201996e-003	1.171243e-003
44096310.194	-6.679969e-004	-2.045157e-003	7.510999e-001	-6.603689e-001	7.510410e-001	-6.597410e-001	-3.255003e-003	1.081618e-003
44127579.737	-6.395767e-004	-2.065578e-003	7.506883e-001	-6.607997e-001	7.507706e-001	-6.600108e-001	-3.251201e-003	1.078951e-003
44158849.281	-6.086836e-004	-2.043963e-003	7.503446e-001	-6.610835e-001	7.505163e-001	-6.605554e-001	-3.242253e-003	1.095634e-003
44190118.824	-6.509311e-004	-2.050472e-003	7.499557e-001	-6.615014e-001	7.501807e-001	-6.609735e-001	-3.271651e-003	1.112897e-003
44221388.368	-6.808457e-004	-2.055562e-003	7.497726e-001	-6.619780e-001	7.496824e-001	-6.613149e-001	-3.361558e-003	1.129043e-003
44252657.911	-6.605986e-004	-2.029282e-003	7.493481e-001	-6.622963e-001	7.493694e-001	-6.617650e-001	-3.217460e-003	1.108430e-003
44283927.455	-6.630942e-004	-2.048297e-003	7.489387e-001	-6.626176e-001	7.491102e-001	-6.620393e-001	-3.372996e-003	1.054321e-003
44315196.998	-6.596575e-004	-2.044990e-003	7.487661e-001	-6.631383e-001	7.487532e-001	-6.624230e-001	-3.248863e-003	1.064746e-003
44346466.542	-6.454663e-004	-2.052262e-003	7.482592e-001	-6.634744e-001	7.483914e-001	-6.628571e-001	-3.341194e-003	1.115040e-003
44377736.085	-6.388000e-004	-2.032891e-003	7.479483e-001	-6.636618e-001	7.479133e-001	-6.631803e-001	-3.408763e-003	1.149966e-003
44409005.629	-6.139277e-004	-1.973435e-003	7.475232e-001	-6.643060e-001	7.476065e-001	-6.635097e-001	-3.309634e-003	1.125642e-003
44440275.172	-5.924852e-004	-2.108542e-003	7.471666e-001	-6.645122e-001	7.474118e-001	-6.639723e-001	-3.346474e-003	1.166320e-003
44471544.715	-6.297863e-004	-2.092747e-003	7.468374e-001	-6.649751e-001	7.470922e-001	-6.643419e-001	-3.285362e-003	1.179909e-003
44502814.259	-5.392640e-004	-2.111591e-003	7.465529e-001	-6.651244e-001	7.465351e-001	-6.647643e-001	-3.270929e-003	1.169423e-003
44534083.802	-6.626919e-004	-2.035989e-003	7.461366e-001	-6.658188e-001	7.462819e-001	-6.650777e-001	-3.299008e-003	1.108962e-003
44565353.346	-6.589432e-004	-2.027843e-003	7.458467e-001	-6.661727e-001	7.460528e-001	-6.654453e-001	-3.375297e-003	1.233956e-003
44596622.889	-6.626014e-004	-2.081083e-003	7.455624e-001	-6.664504e-001	7.456876e-001	-6.658072e-001	-3.324243e-003	1.185738e-003
44627892.433	-6.102082e-004	-2.051944e-003	7.451843e-001	-6.668128e-001	7.453081e-001	-6.662386e-001	-3.390288e-003	1.119326e-003
44659161.976	-6.412801e-004	-2.028704e-003	7.446704e-001	-6.672439e-001	7.450223e-001	-6.665535e-001	-3.348720e-003	1.185649e-003
44690431.520	-5.955899e-004	-2.122778e-003	7.445303e-001	-6.676151e-001	7.445735e-001	-6.669666e-001	-3.357594e-003	1.202290e-003
44721701.063	-6.255827e-004	-2.050150e-003	7.443074e-001	-6.679843e-001	7.442962e-001	-6.675408e-001	-3.339979e-003	1.262808e-003
