! COPPER MOUNTAIN TECHNOLOGIES, PLANAR TR1300/1, 00000000, 23.1.2/1.0
! Date: 7/3/2023 12:09:28 PM
! Data: Format [Calibration Info]
! Freq          	S11: Mag/Ang                   	S21: Mag/Ang                   	S12: Mag/Ang                   	S22: Mag/Ang                   
# HZ S MA R 50
4.00000000E+07	 3.06658683E-19	 1.35000000E+02	 1.00000000E+00	 3.29232253E-15	 0.00000000E+00	 0.00000000E+00	 0.00000000E+00	 0.00000000E+00
4.00312695E+07	 0.00000000E+00	 NAN	 1.00000000E+00	-3.16900421E-15	 0.00000000E+00	 0.00000000E+00	 0.00000000E+00	 0.00000000E+00
4.00625391E+07	 2.16840434E-19	-9.00000000E+01	 1.00000000E+00	-9.06566795E-17	 0.00000000E+00	 0.00000000E+00	 0.00000000E+00	 0.00000000E+00
4.00938086E+07	 4.84869952E-19	-2.65650512E+01	 1.00000000E+00	-1.78998411E-15	 0.00000000E+00	 0.00000000E+00	 0.00000000E+00	 0.00000000E+00
4.01250782E+07	 0.00000000E+00	 NAN	 1.00000000E+00	-3.16958658E-16	 0.00000000E+00	 0.00000000E+00	 0.00000000E+00	 0.00000000E+00
4.01563477E+07	 0.00000000E+00	 NAN	 1.00000000E+00	-1.37562290E-15	 0.00000000E+00	 0.00000000E+00	 0.00000000E+00	 0.00000000E+00
4.01876173E+07	 0.00000000E+00	 NAN	 1.00000000E+00	 1.49248654E-15	 0.00000000E+00	 0.00000000E+00	 0.00000000E+00	 0.00000000E+00
4.02188868E+07	 2.16840434E-19	-9.00000000E+01	 1.00000000E+00	 5.27584991E-16	 0.00000000E+00	 0.00000000E+00	 0.00000000E+00	 0.00000000E+00
4.02501563E+07	 2.16840434E-19	 9.00000000E+01	 1.00000000E+00	 2.57478558E-15	 0.00000000E+00	 0.00000000E+00	 0.00000000E+00	 0.00000000E+00
4.02814259E+07	 4.84869952E-19	-2.65650512E+01	 1.00000000E+00	 2.78851793E-15	 0.00000000E+00	 0.00000000E+00	 0.00000000E+00	 0.00000000E+00
4.03126954E+07	 2.16840434E-19	-9.00000000E+01	 1.00000000E+00	 7.61749058E-16	 0.00000000E+00	 0.00000000E+00	 0.00000000E+00	 0.00000000E+00
4.03439650E+07	 3.06658683E-19	 1.35000000E+02	 1.00000000E+00	-3.50571515E-15	 0.00000000E+00	 0.00000000E+00	 0.00000000E+00	 0.00000000E+00
4.03752345E+07	 2.16840434E-19	-9.00000000E+01	 1.00000000E+00	 1.95799986E-15	 0.00000000E+00	 0.00000000E+00	 0.00000000E+00	 0.00000000E+00
4.04065041E+07	 2.16840434E-19	 9.00000000E+01	 1.00000000E+00	 5.67414721E-15	 0.00000000E+00	 0.00000000E+00	 0.00000000E+00	 0.00000000E+00
4.04377736E+07	 2.16840434E-19	-1.80000000E+02	 1.00000000E+00	 2.26253447E-15	 0.00000000E+00	 0.00000000E+00	 0.00000000E+00	 0.00000000E+00
4.04690432E+07	 0.00000000E+00	 NAN	 1.00000000E+00	-1.92863835E-16	 0.00000000E+00	 0.00000000E+00	 0.00000000E+00	 0.00000000E+00
4.05003127E+07	 4.33680869E-19	 1.80000000E+02	 1.00000000E+00	-8.93317719E-16	 0.00000000E+00	 0.00000000E+00	 0.00000000E+00	 0.00000000E+00
4.05315822E+07	 2.16840434E-19	-9.00000000E+01	 1.00000000E+00	 6.45899722E-15	 0.00000000E+00	 0.00000000E+00	 0.00000000E+00	 0.00000000E+00
4.05628518E+07	 3.06658683E-19	 4.50000000E+01	 1.00000000E+00	-8.24548707E-16	 0.00000000E+00	 0.00000000E+00	 0.00000000E+00	 0.00000000E+00
4.05941213E+07	 4.33680869E-19	-1.80000000E+02	 1.00000000E+00	 1.67428522E-15	 0.00000000E+00	 0.00000000E+00	 0.00000000E+00	 0.00000000E+00
4.06253909E+07	 3.06658683E-19	 1.35000000E+02	 1.00000000E+00	 2.60108961E-15	 0.00000000E+00	 0.00000000E+00	 0.00000000E+00	 0.00000000E+00
4.06566604E+07	 2.16840434E-19	-5.71797108E-16	 1.00000000E+00	-5.71797108E-16	 0.00000000E+00	 0.00000000E+00	 0.00000000E+00	 0.00000000E+00
4.06879300E+07	 0.00000000E+00	 NAN	 1.00000000E+00	-6.78275028E-16	 0.00000000E+00	 0.00000000E+00	 0.00000000E+00	 0.00000000E+00
4.07191995E+07	 2.16840434E-19	 5.69370537E-16	 1.00000000E+00	 5.69370537E-16	 0.00000000E+00	 0.00000000E+00	 0.00000000E+00	 0.00000000E+00
4.07504690E+07	 2.16840434E-19	 9.00000000E+01	 1.00000000E+00	 2.00871518E-15	 0.00000000E+00	 0.00000000E+00	 0.00000000E+00	 0.00000000E+00
4.07817386E+07	 2.16840434E-19	-9.00000000E+01	 1.00000000E+00	 1.14689435E-15	 0.00000000E+00	 0.00000000E+00	 0.00000000E+00	 0.00000000E+00
4.08130081E+07	 0.00000000E+00	 NAN	 1.00000000E+00	-1.21600308E-15	 0.00000000E+00	 0.00000000E+00	 0.00000000E+00	 0.00000000E+00
4.08442777E+07	 2.16840434E-19	 9.00000000E+01	 1.00000000E+00	-1.13049073E-15	 0.00000000E+00	 0.00000000E+00	 0.00000000E+00	 0.00000000E+00
4.08755472E+07	 2.16840434E-19	-9.00000000E+01	 1.00000000E+00	-1.25919604E-15	 0.00000000E+00	 0.00000000E+00	 0.00000000E+00	 0.00000000E+00
4.09068168E+07	 4.33680869E-19	 9.00000000E+01	 1.00000000E+00	 2.65214466E-15	 0.00000000E+00	 0.00000000E+00	 0.00000000E+00	 0.00000000E+00
4.09380863E+07	 2.16840434E-19	 1.80000000E+02	 1.00000000E+00	-2.96357073E-15	 0.00000000E+00	 0.00000000E+00	 0.00000000E+00	 0.00000000E+00
4.09693558E+07	 2.16840434E-19	-9.00000000E+01	 1.00000000E+00	 3.97249028E-15	 0.00000000E+00	 0.00000000E+00	 0.00000000E+00	 0.00000000E+00
4.10006254E+07	 4.33680869E-19	-3.64723275E-15	 1.00000000E+00	-3.64723275E-15	 0.00000000E+00	 0.00000000E+00	 0.00000000E+00	 0.00000000E+00
4.10318949E+07	 2.16840434E-19	-2.08874348E-15	 1.00000000E+00	-2.08874348E-15	 0.00000000E+00	 0.00000000E+00	 0.00000000E+00	 0.00000000E+00
4.10631645E+07	 0.00000000E+00	 NAN	 1.00000000E+00	-5.74029553E-16	 0.00000000E+00	 0.00000000E+00	 0.00000000E+00	 0.00000000E+00
4.10944340E+07	 2.16840434E-19	 9.00000000E+01	 1.00000000E+00	 5.96984911E-16	 0.00000000E+00	 0.00000000E+00	 0.00000000E+00	 0.00000000E+00
4.11257036E+07	 4.84869952E-19	-1.16565051E+02	 1.00000000E+00	 2.02565265E-15	 0.00000000E+00	 0.00000000E+00	 0.00000000E+00	 0.00000000E+00
4.11569731E+07	 2.16840434E-19	-9.00000000E+01	 1.00000000E+00	 2.54697708E-15	 0.00000000E+00	 0.00000000E+00	 0.00000000E+00	 0.00000000E+00
4.11882427E+07	 3.06658683E-19	 4.50000000E+01	 1.00000000E+00	-2.09597466E-15	 0.00000000E+00	 0.00000000E+00	 0.00000000E+00	 0.00000000E+00
4.12195122E+07	 4.33680869E-19	 1.80000000E+02	 1.00000000E+00	-4.10672817E-15	 0.00000000E+00	 0.00000000E+00	 0.00000000E+00	 0.00000000E+00
4.12507817E+07	 2.16840434E-19	 5.07541517E-16	 1.00000000E+00	 5.07541517E-16	 0.00000000E+00	 0.00000000E+00	 0.00000000E+00	 0.00000000E+00
4.12820513E+07	 0.00000000E+00	 NAN	 1.00000000E+00	 5.35204422E-15	 0.00000000E+00	 0.00000000E+00	 0.00000000E+00	 0.00000000E+00
4.13133208E+07	 3.06658683E-19	-4.50000000E+01	 1.00000000E+00	 5.70850745E-15	 0.00000000E+00	 0.00000000E+00	 0.00000000E+00	 0.00000000E+00
4.13445904E+07	 0.00000000E+00	 NAN	 1.00000000E+00	-7.30883080E-17	 0.00000000E+00	 0.00000000E+00	 0.00000000E+00	 0.00000000E+00
4.13758599E+07	 0.00000000E+00	 NAN	 1.00000000E+00	 3.36322692E-16	 0.00000000E+00	 0.00000000E+00	 0.00000000E+00	 0.00000000E+00
4.14071295E+07	 0.00000000E+00	 NAN	 1.00000000E+00	-3.36851684E-15	 0.00000000E+00	 0.00000000E+00	 0.00000000E+00	 0.00000000E+00
4.14383990E+07	 0.00000000E+00	 NAN	 1.00000000E+00	-4.56418527E-15	 0.00000000E+00	 0.00000000E+00	 0.00000000E+00	 0.00000000E+00
4.14696685E+07	 2.16840434E-19	-1.80000000E+02	 1.00000000E+00	 2.28767375E-15	 0.00000000E+00	 0.00000000E+00	 0.00000000E+00	 0.00000000E+00
4.15009381E+07	 4.84869952E-19	-1.53434949E+02	 1.00000000E+00	-5.80115392E-15	 0.00000000E+00	 0.00000000E+00	 0.00000000E+00	 0.00000000E+00
4.15322076E+07	 2.16840434E-19	-9.00000000E+01	 1.00000000E+00	-6.76916148E-16	 0.00000000E+00	 0.00000000E+00	 0.00000000E+00	 0.00000000E+00
4.15634772E+07	 0.00000000E+00	 NAN	 1.00000000E+00	 1.33801106E-15	 0.00000000E+00	 0.00000000E+00	 0.00000000E+00	 0.00000000E+00
4.15947467E+07	 4.84869952E-19	-6.34349488E+01	 1.00000000E+00	 2.92586183E-15	 0.00000000E+00	 0.00000000E+00	 0.00000000E+00	 0.00000000E+00
4.16260163E+07	 3.06658683E-19	 1.35000000E+02	 1.00000000E+00	 3.54570503E-16	 0.00000000E+00	 0.00000000E+00	 0.00000000E+00	 0.00000000E+00
4.16572858E+07	 2.16840434E-19	-9.00000000E+01	 1.00000000E+00	-1.43264731E-15	 0.00000000E+00	 0.00000000E+00	 0.00000000E+00	 0.00000000E+00
4.16885553E+07	 4.33680869E-19	-9.00000000E+01	 1.00000000E+00	-4.10512663E-15	 0.00000000E+00	 0.00000000E+00	 0.00000000E+00	 0.00000000E+00
4.17198249E+07	 3.06658683E-19	 1.35000000E+02	 1.00000000E+00	-5.44231265E-16	 0.00000000E+00	 0.00000000E+00	 0.00000000E+00	 0.00000000E+00
4.17510944E+07	 3.06658683E-19	-4.50000000E+01	 1.00000000E+00	-1.28462650E-15	 0.00000000E+00	 0.00000000E+00	 0.00000000E+00	 0.00000000E+00
4.17823640E+07	 4.84869952E-19	 1.53434949E+02	 1.00000000E+00	-3.06213803E-15	 0.00000000E+00	 0.00000000E+00	 0.00000000E+00	 0.00000000E+00
4.18136335E+07	 2.16840434E-19	-9.00000000E+01	 1.00000000E+00	 4.89046196E-15	 0.00000000E+00	 0.00000000E+00	 0.00000000E+00	 0.00000000E+00
4.18449031E+07	 4.33680869E-19	 9.00000000E+01	 1.00000000E+00	 2.03909585E-15	 0.00000000E+00	 0.00000000E+00	 0.00000000E+00	 0.00000000E+00
4.18761726E+07	 0.00000000E+00	 NAN	 1.00000000E+00	 3.48683643E-15	 0.00000000E+00	 0.00000000E+00	 0.00000000E+00	 0.00000000E+00
4.19074422E+07	 0.00000000E+00	 NAN	 1.00000000E+00	 2.39740327E-15	 0.00000000E+00	 0.00000000E+00	 0.00000000E+00	 0.00000000E+00
4.19387117E+07	 3.06658683E-19	-1.35000000E+02	 1.00000000E+00	 6.72839510E-16	 0.00000000E+00	 0.00000000E+00	 0.00000000E+00	 0.00000000E+00
4.19699812E+07	 0.00000000E+00	 NAN	 1.00000000E+00	 5.00824769E-15	 0.00000000E+00	 0.00000000E+00	 0.00000000E+00	 0.00000000E+00
4.20012508E+07	 2.16840434E-19	-9.00000000E+01	 1.00000000E+00	 2.68281651E-16	 0.00000000E+00	 0.00000000E+00	 0.00000000E+00	 0.00000000E+00
4.20325203E+07	 2.16840434E-19	-9.00000000E+01	 1.00000000E+00	 2.45860138E-15	 0.00000000E+00	 0.00000000E+00	 0.00000000E+00	 0.00000000E+00
4.20637899E+07	 2.16840434E-19	 4.92642373E-16	 1.00000000E+00	 4.92642373E-16	 0.00000000E+00	 0.00000000E+00	 0.00000000E+00	 0.00000000E+00
4.20950594E+07	 0.00000000E+00	 NAN	 1.00000000E+00	 1.32752827E-15	 0.00000000E+00	 0.00000000E+00	 0.00000000E+00	 0.00000000E+00
4.21263290E+07	 3.06658683E-19	 1.35000000E+02	 1.00000000E+00	-1.00945339E-17	 0.00000000E+00	 0.00000000E+00	 0.00000000E+00	 0.00000000E+00
4.21575985E+07	 4.84869952E-19	-6.34349488E+01	 1.00000000E+00	 4.52118643E-16	 0.00000000E+00	 0.00000000E+00	 0.00000000E+00	 0.00000000E+00
4.21888680E+07	 0.00000000E+00	 NAN	 1.00000000E+00	-5.39285914E-15	 0.00000000E+00	 0.00000000E+00	 0.00000000E+00	 0.00000000E+00
4.22201376E+07	 3.25260652E-19	-9.00000000E+01	 1.00000000E+00	-1.36538277E-15	 0.00000000E+00	 0.00000000E+00	 0.00000000E+00	 0.00000000E+00
4.22514071E+07	 2.16840434E-19	 9.00000000E+01	 1.00000000E+00	 1.95659245E-15	 0.00000000E+00	 0.00000000E+00	 0.00000000E+00	 0.00000000E+00
4.22826767E+07	 0.00000000E+00	 NAN	 1.00000000E+00	 5.12933357E-15	 0.00000000E+00	 0.00000000E+00	 0.00000000E+00	 0.00000000E+00
4.23139462E+07	 0.00000000E+00	 NAN	 1.00000000E+00	-1.00100892E-15	 0.00000000E+00	 0.00000000E+00	 0.00000000E+00	 0.00000000E+00
4.23452158E+07	 6.13317367E-19	 1.35000000E+02	 1.00000000E+00	 6.48331146E-16	 0.00000000E+00	 0.00000000E+00	 0.00000000E+00	 0.00000000E+00
4.23764853E+07	 4.33680869E-19	 1.80000000E+02	 1.00000000E+00	-1.21949735E-15	 0.00000000E+00	 0.00000000E+00	 0.00000000E+00	 0.00000000E+00
4.24077548E+07	 2.16840434E-19	 2.79735064E-16	 1.00000000E+00	 2.79735064E-16	 0.00000000E+00	 0.00000000E+00	 0.00000000E+00	 0.00000000E+00
4.24390244E+07	 3.06658683E-19	 4.50000000E+01	 1.00000000E+00	-1.02896302E-15	 0.00000000E+00	 0.00000000E+00	 0.00000000E+00	 0.00000000E+00
4.24702939E+07	 0.00000000E+00	 NAN	 1.00000000E+00	-2.22880514E-15	 0.00000000E+00	 0.00000000E+00	 0.00000000E+00	 0.00000000E+00
4.25015635E+07	 3.06658683E-19	-1.35000000E+02	 1.00000000E+00	-3.13066439E-15	 0.00000000E+00	 0.00000000E+00	 0.00000000E+00	 0.00000000E+00
4.25328330E+07	 2.16840434E-19	-9.00000000E+01	 1.00000000E+00	 2.52499235E-15	 0.00000000E+00	 0.00000000E+00	 0.00000000E+00	 0.00000000E+00
4.25641026E+07	 4.84869952E-19	 1.16565051E+02	 1.00000000E+00	-6.70820603E-15	 0.00000000E+00	 0.00000000E+00	 0.00000000E+00	 0.00000000E+00
