!Agilent Technologies,E5061B,MY49102235,A.02.00
!Date: Tue Jul 11 14:39:29 2023
!Data & Calibration Information:
!Freq	S11:SOLT2(ON)	S21:SOLT2(ON)	S12:SOLT2(ON)	S22:SOLT2(ON)
# Hz S RI R 50
5.000	-5.293357e-003	-5.634132e-003	1.001583e+000	7.744395e-003	1.000141e+000	1.033240e-002	-1.492211e-003	-7.544183e-003
62544.084	5.787633e-003	-5.175218e-004	1.001551e+000	3.927486e-004	1.000868e+000	1.302319e-003	7.718509e-003	-2.905557e-003
125083.168	5.669145e-003	-4.966595e-004	1.001039e+000	-1.074755e-003	1.000692e+000	-8.135048e-004	7.483150e-003	-2.303023e-003
187622.251	5.439645e-003	-3.591562e-004	1.000578e+000	-2.268141e-003	1.000911e+000	-9.437475e-004	7.366119e-003	-2.391364e-003
250161.335	5.256881e-003	-2.084310e-004	1.000701e+000	-3.386584e-003	1.000560e+000	-3.085045e-003	7.260588e-003	-2.061522e-003
312700.419	5.410094e-003	5.052942e-004	1.000934e+000	-3.935947e-003	1.000583e+000	-3.502982e-003	7.763924e-003	-2.378671e-003
375239.503	5.284087e-003	-1.009153e-003	1.001121e+000	-5.427908e-003	1.000488e+000	-4.679401e-003	7.258773e-003	-2.576669e-003
437778.587	5.117138e-003	-6.326310e-004	1.001467e+000	-5.548533e-003	1.000997e+000	-6.026058e-003	6.594237e-003	-2.272708e-003
500317.670	4.569955e-003	-5.189604e-004	1.001345e+000	-7.873249e-003	1.001602e+000	-7.528955e-003	4.782414e-003	-2.114645e-003
562856.754	5.861028e-003	-8.264781e-004	1.001484e+000	-9.501929e-003	1.001174e+000	-8.978714e-003	5.996007e-003	-1.632333e-003
625395.838	5.034808e-003	-6.945674e-004	1.002451e+000	-1.069658e-002	1.002089e+000	-9.894821e-003	6.090935e-003	-1.079116e-003
687934.922	5.115201e-003	-1.063092e-003	1.001370e+000	-1.147595e-002	1.001231e+000	-1.138658e-002	5.721818e-003	-1.567994e-003
750474.006	4.397532e-003	-6.865172e-004	1.001147e+000	-1.109993e-002	1.000875e+000	-1.052761e-002	5.562001e-003	-1.357145e-003
813013.089	4.576275e-003	-6.802704e-004	1.001448e+000	-1.279826e-002	1.000492e+000	-1.219065e-002	4.918336e-003	-1.213325e-003
875552.173	4.292415e-003	-5.274185e-004	1.001330e+000	-1.354048e-002	1.000942e+000	-1.351044e-002	5.709612e-003	-1.628031e-003
938091.257	4.384735e-003	-4.816389e-004	1.001462e+000	-1.513187e-002	1.001073e+000	-1.465156e-002	5.934213e-003	-1.051964e-003
1000630.341	3.814727e-003	-8.459638e-004	1.001023e+000	-1.655583e-002	1.001041e+000	-1.590115e-002	5.178362e-003	-1.765218e-003
1063169.425	4.174712e-003	-1.006939e-003	1.001344e+000	-1.783595e-002	1.000667e+000	-1.673536e-002	4.356420e-003	-2.120937e-003
1125708.508	4.057435e-003	-9.818821e-004	1.001117e+000	-1.901508e-002	1.000748e+000	-1.822478e-002	3.867702e-003	-1.836037e-003
1188247.592	4.599718e-003	-1.433828e-003	1.001220e+000	-2.023581e-002	1.000972e+000	-1.924111e-002	2.762158e-003	-2.413612e-003
1250786.676	4.448454e-003	-2.186725e-003	1.000828e+000	-1.996325e-002	1.000704e+000	-1.993604e-002	2.030240e-003	-4.086523e-003
1313325.760	4.562727e-003	-2.294701e-003	1.001328e+000	-2.157472e-002	1.000888e+000	-2.146898e-002	2.743040e-003	-3.892492e-003
1375864.844	4.269654e-003	-2.505437e-003	1.000844e+000	-2.342420e-002	1.000574e+000	-2.326351e-002	2.609546e-003	-3.627477e-003
1438403.927	4.178644e-003	-2.678847e-003	1.000920e+000	-2.411380e-002	1.000875e+000	-2.307191e-002	2.678655e-003	-3.370034e-003
1500943.011	4.401389e-003	-2.610027e-003	1.001624e+000	-2.497929e-002	1.001423e+000	-2.461978e-002	3.039164e-003	-3.784410e-003
1563482.095	4.394716e-003	-3.017376e-003	1.001134e+000	-2.643156e-002	1.000584e+000	-2.521567e-002	3.170762e-003	-3.588132e-003
1626021.179	4.199943e-003	-2.878878e-003	1.001052e+000	-2.755760e-002	1.000916e+000	-2.781393e-002	3.438452e-003	-3.653684e-003
1688560.263	3.899736e-003	-2.825260e-003	1.000746e+000	-2.931310e-002	1.001335e+000	-2.905598e-002	3.615761e-003	-3.690452e-003
1751099.346	4.015807e-003	-2.750246e-003	1.001229e+000	-3.040189e-002	1.000676e+000	-2.954176e-002	3.410169e-003	-2.853757e-003
1813638.430	3.662752e-003	-2.806109e-003	1.001625e+000	-3.202415e-002	1.000996e+000	-3.139439e-002	3.599213e-003	-3.244682e-003
1876177.514	3.715747e-003	-2.517263e-003	1.001905e+000	-3.283204e-002	1.001292e+000	-3.308689e-002	3.264264e-003	-2.598045e-003
1938716.598	3.158379e-003	-2.467247e-003	1.002076e+000	-3.366413e-002	1.001437e+000	-3.290164e-002	3.438473e-003	-2.216092e-003
2001255.682	3.073593e-003	-2.964429e-003	1.002023e+000	-3.520281e-002	1.001221e+000	-3.436012e-002	3.179837e-003	-2.689659e-003
2063794.765	3.155638e-003	-2.597079e-003	1.001505e+000	-3.610876e-002	1.000779e+000	-3.613392e-002	3.564367e-003	-2.794147e-003
2126333.849	2.698514e-003	-3.130699e-003	1.001083e+000	-3.727559e-002	1.000201e+000	-3.644884e-002	3.813804e-003	-2.536272e-003
2188872.933	3.175385e-003	-3.143189e-003	1.000807e+000	-3.844205e-002	1.000217e+000	-3.742280e-002	3.711392e-003	-2.602814e-003
2251412.017	3.283072e-003	-3.509484e-003	1.000593e+000	-3.986384e-002	1.000230e+000	-3.848667e-002	3.689941e-003	-2.741806e-003
2313951.101	3.594439e-003	-3.109203e-003	1.000139e+000	-4.103913e-002	1.000294e+000	-3.934648e-002	3.982361e-003	-2.805055e-003
2376490.184	3.340712e-003	-3.149655e-003	9.999455e-001	-4.134543e-002	1.000253e+000	-4.129180e-002	3.951678e-003	-2.829560e-003
2439029.268	3.784703e-003	-3.213643e-003	9.999030e-001	-4.316447e-002	9.993553e-001	-4.232373e-002	3.609660e-003	-2.725680e-003
2501568.352	3.747709e-003	-3.231160e-003	9.996323e-001	-4.322458e-002	1.000075e+000	-4.290667e-002	3.895400e-003	-2.791703e-003
2564107.436	3.655934e-003	-3.394314e-003	9.999221e-001	-4.510114e-002	9.999972e-001	-4.452897e-002	3.219873e-003	-3.177612e-003
2626646.520	4.150289e-003	-3.595629e-003	9.997555e-001	-4.608734e-002	9.989910e-001	-4.556125e-002	3.469664e-003	-3.248296e-003
2689185.604	4.100224e-003	-3.445903e-003	1.000115e+000	-4.680541e-002	9.996297e-001	-4.642491e-002	3.581005e-003	-3.224037e-003
2751724.687	4.200976e-003	-3.531380e-003	1.000102e+000	-4.741107e-002	9.996284e-001	-4.716967e-002	3.179102e-003	-3.273641e-003
2814263.771	4.152352e-003	-3.637985e-003	9.991885e-001	-4.936934e-002	9.991584e-001	-4.837526e-002	3.157853e-003	-3.421042e-003
2876802.855	4.114818e-003	-3.874067e-003	9.991853e-001	-5.082902e-002	9.991227e-001	-4.952647e-002	3.224526e-003	-3.328164e-003
2939341.939	4.227175e-003	-3.809402e-003	9.997556e-001	-5.130986e-002	9.990934e-001	-5.100195e-002	3.136143e-003	-3.442094e-003
3001881.023	4.134261e-003	-3.833690e-003	9.994823e-001	-5.244620e-002	9.990271e-001	-5.203628e-002	3.212784e-003	-3.606280e-003
3064420.106	4.180542e-003	-3.908294e-003	9.999907e-001	-5.351089e-002	9.989318e-001	-5.292998e-002	3.051297e-003	-3.754692e-003
3126959.190	4.368128e-003	-4.024804e-003	9.995936e-001	-5.466066e-002	9.991766e-001	-5.419424e-002	3.216917e-003	-3.832917e-003
3189498.274	4.344364e-003	-4.016986e-003	9.994752e-001	-5.560182e-002	9.990886e-001	-5.523820e-002	3.202349e-003	-3.932983e-003
3252037.358	4.264823e-003	-4.407339e-003	9.995795e-001	-5.676608e-002	9.991366e-001	-5.622028e-002	3.152272e-003	-3.899482e-003
3314576.442	4.275187e-003	-4.281318e-003	9.994098e-001	-5.778359e-002	9.990522e-001	-5.739806e-002	3.207533e-003	-4.042861e-003
3377115.525	4.233417e-003	-4.303834e-003	9.992582e-001	-5.879779e-002	9.987968e-001	-5.862848e-002	3.047007e-003	-4.211080e-003
3439654.609	4.230024e-003	-4.417981e-003	9.990936e-001	-5.991684e-002	9.990541e-001	-5.956775e-002	3.061464e-003	-4.060236e-003
3502193.693	4.195870e-003	-4.753081e-003	9.990695e-001	-6.115090e-002	9.987308e-001	-6.053773e-002	3.227484e-003	-4.143399e-003
3564732.777	4.239463e-003	-4.654362e-003	9.991023e-001	-6.216357e-002	9.987682e-001	-6.176049e-002	3.314924e-003	-4.161405e-003
3627271.861	4.089307e-003	-4.836583e-003	9.991226e-001	-6.332501e-002	9.987971e-001	-6.271297e-002	3.077805e-003	-4.415384e-003
3689810.944	3.982690e-003	-5.003274e-003	9.989527e-001	-6.446157e-002	9.987048e-001	-6.378840e-002	3.240529e-003	-4.443594e-003
3752350.028	4.091995e-003	-5.024922e-003	9.988252e-001	-6.529072e-002	9.984389e-001	-6.484942e-002	3.160748e-003	-4.556059e-003
3814889.112	4.195556e-003	-4.956608e-003	9.986849e-001	-6.640983e-002	9.986258e-001	-6.618107e-002	3.058808e-003	-4.731068e-003
3877428.196	4.137230e-003	-4.983982e-003	9.988481e-001	-6.754933e-002	9.984968e-001	-6.706951e-002	3.386740e-003	-4.781958e-003
3939967.280	4.092320e-003	-5.334643e-003	9.987361e-001	-6.871664e-002	9.985210e-001	-6.814979e-002	3.358896e-003	-4.745462e-003
4002506.363	4.152378e-003	-5.252503e-003	9.987076e-001	-6.973994e-002	9.983997e-001	-6.910724e-002	3.298442e-003	-4.877859e-003
4065045.447	3.966397e-003	-5.396458e-003	9.984754e-001	-7.090821e-002	9.981813e-001	-7.033223e-002	3.374506e-003	-5.044318e-003
4127584.531	3.950257e-003	-5.483418e-003	9.983571e-001	-7.194125e-002	9.981986e-001	-7.129163e-002	3.399315e-003	-4.996396e-003
4190123.615	3.973929e-003	-5.521009e-003	9.983598e-001	-7.318180e-002	9.980280e-001	-7.252596e-002	3.299576e-003	-5.290262e-003
4252662.699	3.921523e-003	-5.676380e-003	9.984422e-001	-7.430779e-002	9.978884e-001	-7.378415e-002	3.406418e-003	-5.326122e-003
4315201.782	4.063301e-003	-5.772491e-003	9.983016e-001	-7.511868e-002	9.980827e-001	-7.483782e-002	3.210535e-003	-5.588771e-003
4377740.866	3.955759e-003	-5.865531e-003	9.982685e-001	-7.638477e-002	9.977897e-001	-7.589539e-002	3.381418e-003	-5.364954e-003
4440279.950	3.849880e-003	-6.075884e-003	9.981890e-001	-7.732912e-002	9.976460e-001	-7.683800e-002	3.254884e-003	-5.601174e-003
4502819.034	3.835064e-003	-6.015033e-003	9.978543e-001	-7.854346e-002	9.976546e-001	-7.796785e-002	3.339854e-003	-5.522578e-003
4565358.118	3.741597e-003	-6.144900e-003	9.977931e-001	-7.957451e-002	9.974276e-001	-7.883593e-002	3.323878e-003	-5.714704e-003
4627897.201	3.908388e-003	-6.083320e-003	9.979135e-001	-8.064157e-002	9.974601e-001	-7.995605e-002	3.430573e-003	-5.674072e-003
4690436.285	3.734256e-003	-6.287995e-003	9.978550e-001	-8.179380e-002	9.974415e-001	-8.140454e-002	3.413418e-003	-5.955395e-003
4752975.369	3.731325e-003	-6.376695e-003	9.975235e-001	-8.295635e-002	9.974282e-001	-8.240449e-002	3.228824e-003	-6.076551e-003
4815514.453	3.845876e-003	-6.458020e-003	9.976370e-001	-8.394573e-002	9.972908e-001	-8.357087e-002	3.439331e-003	-6.052587e-003
4878053.537	3.938454e-003	-6.624471e-003	9.976144e-001	-8.499548e-002	9.971601e-001	-8.446293e-002	3.403865e-003	-6.209558e-003
4940592.620	3.659122e-003	-6.666259e-003	9.973605e-001	-8.615304e-002	9.971168e-001	-8.566301e-002	3.167272e-003	-6.328439e-003
5003131.704	3.708350e-003	-6.887670e-003	9.972563e-001	-8.720176e-002	9.971405e-001	-8.649344e-002	3.264630e-003	-6.472425e-003
5065670.788	3.640066e-003	-6.765174e-003	9.971626e-001	-8.837927e-002	9.969510e-001	-8.768442e-002	3.245146e-003	-6.507674e-003
5128209.872	3.751596e-003	-6.986946e-003	9.972716e-001	-8.939524e-002	9.968533e-001	-8.879886e-002	3.206436e-003	-6.786931e-003
5190748.956	3.645882e-003	-7.068243e-003	9.970578e-001	-9.050435e-002	9.968680e-001	-8.999082e-002	3.159293e-003	-6.755909e-003
5253288.039	3.689364e-003	-7.193835e-003	9.970431e-001	-9.161756e-002	9.967478e-001	-9.102187e-002	3.077028e-003	-6.761867e-003
5315827.123	3.653695e-003	-7.348111e-003	9.968057e-001	-9.264724e-002	9.965937e-001	-9.216172e-002	3.069556e-003	-6.942860e-003
5378366.207	3.727957e-003	-7.392671e-003	9.968633e-001	-9.376049e-002	9.965462e-001	-9.342218e-002	3.043970e-003	-7.112873e-003
5440905.291	3.527348e-003	-7.386496e-003	9.967863e-001	-9.489004e-002	9.964390e-001	-9.436706e-002	2.916820e-003	-7.157529e-003
5503444.375	3.740874e-003	-7.635343e-003	9.966418e-001	-9.598957e-002	9.964383e-001	-9.531790e-002	3.104906e-003	-7.315853e-003
5565983.458	3.366869e-003	-7.611557e-003	9.965879e-001	-9.698766e-002	9.962885e-001	-9.637875e-002	3.024559e-003	-7.253277e-003
5628522.542	3.611220e-003	-7.771132e-003	9.965190e-001	-9.798717e-002	9.961786e-001	-9.761420e-002	3.049972e-003	-7.451198e-003
5691061.626	3.679871e-003	-8.023178e-003	9.963633e-001	-9.928356e-002	9.960445e-001	-9.874416e-002	2.941845e-003	-7.494052e-003
5753600.710	3.505624e-003	-8.027943e-003	9.961752e-001	-1.002469e-001	9.959974e-001	-9.975241e-002	2.990774e-003	-7.716320e-003
5816139.794	3.591052e-003	-7.940208e-003	9.961399e-001	-1.013963e-001	9.956995e-001	-1.010208e-001	2.841790e-003	-7.768329e-003
5878678.877	3.494497e-003	-8.258340e-003	9.960488e-001	-1.025364e-001	9.956891e-001	-1.019694e-001	2.936948e-003	-7.995462e-003
5941217.961	3.463832e-003	-8.415249e-003	9.958804e-001	-1.037019e-001	9.956365e-001	-1.029078e-001	2.726364e-003	-7.994606e-003
6003757.045	3.305897e-003	-8.294489e-003	9.956127e-001	-1.046259e-001	9.954952e-001	-1.039925e-001	2.844237e-003	-8.100961e-003
6066296.129	3.412947e-003	-8.569960e-003	9.957233e-001	-1.056886e-001	9.954040e-001	-1.050670e-001	2.805215e-003	-8.207641e-003
6128835.213	3.505993e-003	-8.635087e-003	9.956091e-001	-1.064946e-001	9.954408e-001	-1.062972e-001	2.882153e-003	-8.302041e-003
6191374.296	3.419894e-003	-8.750383e-003	9.954273e-001	-1.078858e-001	9.951135e-001	-1.074514e-001	2.719385e-003	-8.322520e-003
6253913.380	3.324116e-003	-8.721870e-003	9.954250e-001	-1.089864e-001	9.950357e-001	-1.084514e-001	2.587754e-003	-8.296568e-003
6316452.464	3.275738e-003	-8.738404e-003	9.952797e-001	-1.099549e-001	9.948153e-001	-1.097130e-001	2.612592e-003	-8.611535e-003
6378991.548	3.227641e-003	-8.978709e-003	9.951596e-001	-1.113788e-001	9.948831e-001	-1.106261e-001	2.671659e-003	-8.822114e-003
6441530.632	3.162486e-003	-9.169021e-003	9.948984e-001	-1.121956e-001	9.946976e-001	-1.118701e-001	2.687157e-003	-8.809818e-003
6504069.715	3.143380e-003	-9.271907e-003	9.947660e-001	-1.135007e-001	9.947249e-001	-1.128688e-001	2.678707e-003	-8.911931e-003
6566608.799	3.279163e-003	-9.422621e-003	9.948169e-001	-1.146448e-001	9.945070e-001	-1.140071e-001	2.570639e-003	-8.815014e-003
6629147.883	3.190398e-003	-9.390169e-003	9.946420e-001	-1.153869e-001	9.943361e-001	-1.150891e-001	2.649370e-003	-9.040464e-003
6691686.967	3.060970e-003	-9.474981e-003	9.944112e-001	-1.165573e-001	9.941567e-001	-1.161531e-001	2.647532e-003	-9.056246e-003
6754226.051	2.987715e-003	-9.593271e-003	9.942634e-001	-1.177756e-001	9.939695e-001	-1.173651e-001	2.442109e-003	-9.359318e-003
6816765.134	3.071989e-003	-9.678423e-003	9.942345e-001	-1.187716e-001	9.939386e-001	-1.183484e-001	2.470599e-003	-9.248501e-003
6879304.218	2.934857e-003	-9.942760e-003	9.940377e-001	-1.198939e-001	9.938310e-001	-1.193514e-001	2.450813e-003	-9.413960e-003
6941843.302	3.009122e-003	-9.869588e-003	9.938671e-001	-1.210308e-001	9.937004e-001	-1.204484e-001	2.422839e-003	-9.433042e-003
7004382.386	2.787884e-003	-9.906413e-003	9.938632e-001	-1.220088e-001	9.935459e-001	-1.214925e-001	2.313986e-003	-9.494114e-003
7066921.470	2.869345e-003	-1.004877e-002	9.935700e-001	-1.232578e-001	9.934893e-001	-1.224692e-001	2.469932e-003	-9.733649e-003
7129460.553	2.746362e-003	-1.025096e-002	9.935451e-001	-1.241474e-001	9.933169e-001	-1.236807e-001	2.447497e-003	-9.770848e-003
7191999.637	2.710439e-003	-1.010283e-002	9.931803e-001	-1.252881e-001	9.930145e-001	-1.247288e-001	2.278126e-003	-9.852713e-003
7254538.721	2.748045e-003	-1.031859e-002	9.934156e-001	-1.264565e-001	9.930868e-001	-1.258937e-001	2.311027e-003	-9.935918e-003
7317077.805	2.914913e-003	-1.043330e-002	9.931955e-001	-1.274024e-001	9.929354e-001	-1.269229e-001	2.273730e-003	-1.013794e-002
7379616.889	2.746092e-003	-1.052337e-002	9.931693e-001	-1.286803e-001	9.927452e-001	-1.280164e-001	2.209881e-003	-1.020266e-002
7442155.972	2.573577e-003	-1.062189e-002	9.928658e-001	-1.296119e-001	9.926581e-001	-1.290513e-001	2.263446e-003	-1.007390e-002
7504695.056	2.596904e-003	-1.080485e-002	9.926199e-001	-1.306095e-001	9.923505e-001	-1.302965e-001	2.279065e-003	-1.009760e-002
7567234.140	2.754260e-003	-1.096202e-002	9.926458e-001	-1.316808e-001	9.922503e-001	-1.313168e-001	2.172545e-003	-1.030189e-002
7629773.224	2.626032e-003	-1.076309e-002	9.925230e-001	-1.329466e-001	9.922263e-001	-1.323499e-001	2.078083e-003	-1.043352e-002
7692312.308	2.469091e-003	-1.091880e-002	9.923437e-001	-1.340105e-001	9.919828e-001	-1.335094e-001	2.113610e-003	-1.062146e-002
7754851.391	2.434674e-003	-1.116230e-002	9.921824e-001	-1.351305e-001	9.917350e-001	-1.343653e-001	2.035009e-003	-1.058451e-002
7817390.475	2.482760e-003	-1.104624e-002	9.920419e-001	-1.363074e-001	9.916616e-001	-1.356990e-001	1.933232e-003	-1.055065e-002
7879929.559	2.368594e-003	-1.132128e-002	9.917599e-001	-1.373803e-001	9.914941e-001	-1.369202e-001	2.039039e-003	-1.064857e-002
7942468.643	2.299446e-003	-1.147224e-002	9.917538e-001	-1.383600e-001	9.914105e-001	-1.379754e-001	1.982072e-003	-1.091108e-002
8005007.727	2.393740e-003	-1.152890e-002	9.914584e-001	-1.395521e-001	9.913125e-001	-1.390428e-001	1.862949e-003	-1.077309e-002
8067546.811	2.205645e-003	-1.156586e-002	9.913854e-001	-1.405410e-001	9.909890e-001	-1.400323e-001	1.756099e-003	-1.107665e-002
8130085.894	2.249729e-003	-1.172899e-002	9.911916e-001	-1.415711e-001	9.909436e-001	-1.411938e-001	1.963920e-003	-1.121055e-002
8192624.978	2.065085e-003	-1.187419e-002	9.908762e-001	-1.428064e-001	9.907781e-001	-1.421849e-001	1.981359e-003	-1.131594e-002
8255164.062	2.144166e-003	-1.195866e-002	9.908514e-001	-1.438261e-001	9.905576e-001	-1.433052e-001	1.910806e-003	-1.143842e-002
8317703.146	2.000106e-003	-1.192341e-002	9.907548e-001	-1.448978e-001	9.905502e-001	-1.443926e-001	1.704029e-003	-1.147635e-002
8380242.230	2.096566e-003	-1.225809e-002	9.904474e-001	-1.461004e-001	9.902292e-001	-1.454127e-001	1.649513e-003	-1.163156e-002
8442781.313	2.037222e-003	-1.230607e-002	9.905399e-001	-1.470582e-001	9.901682e-001	-1.464961e-001	1.592823e-003	-1.180657e-002
8505320.397	1.991539e-003	-1.226163e-002	9.903028e-001	-1.482200e-001	9.899549e-001	-1.476181e-001	1.507890e-003	-1.184474e-002
8567859.481	1.907686e-003	-1.219276e-002	9.900888e-001	-1.491505e-001	9.899071e-001	-1.486557e-001	1.508702e-003	-1.175780e-002
8630398.565	1.958426e-003	-1.233579e-002	9.897749e-001	-1.502305e-001	9.897046e-001	-1.496863e-001	1.365264e-003	-1.211416e-002
8692937.649	1.875622e-003	-1.264596e-002	9.896822e-001	-1.512826e-001	9.893631e-001	-1.508068e-001	1.264762e-003	-1.209465e-002
8755476.732	1.852291e-003	-1.266090e-002	9.895369e-001	-1.524786e-001	9.892534e-001	-1.517846e-001	1.296007e-003	-1.216250e-002
8818015.816	1.699150e-003	-1.278588e-002	9.893094e-001	-1.535012e-001	9.889170e-001	-1.529090e-001	1.381881e-003	-1.235274e-002
8880554.900	1.877961e-003	-1.282836e-002	9.892683e-001	-1.546620e-001	9.890399e-001	-1.538762e-001	1.209890e-003	-1.259273e-002
8943093.984	1.677822e-003	-1.280547e-002	9.890633e-001	-1.556093e-001	9.888569e-001	-1.549494e-001	1.197117e-003	-1.262148e-002
9005633.068	1.704407e-003	-1.300127e-002	9.888239e-001	-1.567339e-001	9.886821e-001	-1.562002e-001	1.063997e-003	-1.285553e-002
9068172.151	1.517507e-003	-1.309993e-002	9.887498e-001	-1.578548e-001	9.884380e-001	-1.571145e-001	1.091206e-003	-1.289747e-002
9130711.235	1.704527e-003	-1.325390e-002	9.884469e-001	-1.589310e-001	9.882969e-001	-1.581766e-001	1.079862e-003	-1.316484e-002
9193250.319	1.643386e-003	-1.336670e-002	9.883982e-001	-1.598734e-001	9.880625e-001	-1.593864e-001	9.737489e-004	-1.318676e-002
9255789.403	1.494237e-003	-1.362883e-002	9.882940e-001	-1.608329e-001	9.878814e-001	-1.603555e-001	8.007845e-004	-1.322859e-002
9318328.487	1.420041e-003	-1.361139e-002	9.880540e-001	-1.621677e-001	9.878921e-001	-1.614096e-001	8.766839e-004	-1.331412e-002
9380867.570	1.390258e-003	-1.356903e-002	9.879450e-001	-1.632331e-001	9.875291e-001	-1.626501e-001	8.544713e-004	-1.341316e-002
9443406.654	1.407145e-003	-1.366736e-002	9.877793e-001	-1.642166e-001	9.875005e-001	-1.637393e-001	8.339709e-004	-1.358671e-002
9505945.738	1.342978e-003	-1.374407e-002	9.874154e-001	-1.654591e-001	9.873779e-001	-1.648114e-001	7.422121e-004	-1.368904e-002
9568484.822	1.339704e-003	-1.387408e-002	9.873820e-001	-1.664912e-001	9.869305e-001	-1.658656e-001	5.150246e-004	-1.354085e-002
