!Agilent Technologies,E5061B,MY49102235,A.02.00
!Date: Tue Jul 11 16:13:11 2023
!Data & Calibration Information:
!Freq	S11:SOLT2(ON)	S21:SOLT2(ON)	S12:SOLT2(ON)	S22:SOLT2(ON)
# Hz S RI R 50
5.000	-5.191595e-003	-5.637076e-003	1.001753e+000	8.130305e-003	1.000405e+000	1.019559e-002	-1.512535e-003	-7.535485e-003
62544.084	5.837536e-003	-1.011027e-004	1.001223e+000	2.967654e-004	1.000928e+000	7.587303e-004	7.716625e-003	-2.487998e-003
125083.168	5.716518e-003	2.921781e-004	1.000917e+000	-1.368732e-003	1.000736e+000	-1.629198e-003	7.509988e-003	-1.479187e-003
187622.251	5.514257e-003	8.849968e-004	1.000267e+000	-3.238424e-003	1.000930e+000	-2.170433e-003	7.408004e-003	-1.186424e-003
250161.335	5.347686e-003	1.393135e-003	1.000435e+000	-4.586116e-003	1.000672e+000	-4.820330e-003	7.301956e-003	-4.559070e-004
312700.419	5.510361e-003	2.521889e-003	1.000656e+000	-5.646413e-003	1.000671e+000	-5.510121e-003	7.824805e-003	-3.911079e-004
375239.503	5.389197e-003	1.384082e-003	1.000965e+000	-7.346653e-003	1.000447e+000	-7.355833e-003	7.335254e-003	-1.383799e-004
437778.587	5.234267e-003	2.168011e-003	1.001220e+000	-7.987908e-003	1.000977e+000	-8.930678e-003	6.704646e-003	5.362260e-004
500317.670	4.700867e-003	2.680378e-003	1.001126e+000	-1.073022e-002	1.001556e+000	-1.085187e-002	4.908287e-003	1.108216e-003
562856.754	6.044147e-003	2.755537e-003	1.001149e+000	-1.268691e-002	1.001051e+000	-1.257935e-002	6.141829e-003	1.956174e-003
625395.838	5.247678e-003	3.316993e-003	1.001981e+000	-1.428492e-002	1.001974e+000	-1.391219e-002	6.270448e-003	2.910223e-003
687934.922	5.308377e-003	3.370682e-003	1.001109e+000	-1.571892e-002	1.001167e+000	-1.592582e-002	5.916828e-003	2.848112e-003
750474.006	4.519047e-003	4.073733e-003	1.000545e+000	-1.557564e-002	1.000799e+000	-1.536060e-002	5.697824e-003	3.409699e-003
813013.089	4.711799e-003	4.474527e-003	1.000845e+000	-1.764357e-002	1.000516e+000	-1.743086e-002	5.068378e-003	3.964743e-003
875552.173	4.466917e-003	5.018474e-003	1.000780e+000	-1.887894e-002	1.000974e+000	-1.908899e-002	5.890740e-003	3.944671e-003
938091.257	4.571620e-003	5.491027e-003	1.000852e+000	-2.085114e-002	1.001071e+000	-2.043925e-002	6.146417e-003	4.898402e-003
1000630.341	4.055371e-003	5.531551e-003	1.000432e+000	-2.261449e-002	1.000964e+000	-2.232039e-002	5.426094e-003	4.597205e-003
1063169.425	4.440555e-003	5.746767e-003	1.000740e+000	-2.435139e-002	1.000682e+000	-2.382213e-002	4.627088e-003	4.672955e-003
1125708.508	4.355439e-003	6.186768e-003	1.000503e+000	-2.590795e-002	1.000602e+000	-2.526993e-002	4.167767e-003	5.368295e-003
1188247.592	4.911153e-003	6.131884e-003	1.000617e+000	-2.732726e-002	1.000852e+000	-2.689445e-002	3.095855e-003	5.190620e-003
1250786.676	4.775423e-003	5.781846e-003	1.000184e+000	-2.770703e-002	1.000489e+000	-2.800764e-002	2.364916e-003	3.943820e-003
1313325.760	4.935348e-003	6.089721e-003	1.000500e+000	-2.965846e-002	1.000716e+000	-2.994404e-002	3.131214e-003	4.531130e-003
1375864.844	4.697415e-003	6.287892e-003	1.000093e+000	-3.206412e-002	1.000174e+000	-3.219113e-002	3.043248e-003	5.217326e-003
1438403.927	4.621579e-003	6.532665e-003	1.000150e+000	-3.307452e-002	1.000653e+000	-3.244710e-002	3.154269e-003	5.896142e-003
1500943.011	4.895174e-003	7.010805e-003	1.000676e+000	-3.437656e-002	1.001009e+000	-3.433182e-002	3.536171e-003	5.869298e-003
1563482.095	4.918909e-003	7.027172e-003	1.000184e+000	-3.607867e-002	1.000272e+000	-3.552361e-002	3.732565e-003	6.478685e-003
1626021.179	4.773502e-003	7.588242e-003	1.000167e+000	-3.766664e-002	1.000456e+000	-3.840343e-002	4.035116e-003	6.814311e-003
1688560.263	4.525119e-003	8.058149e-003	9.996768e-001	-3.983027e-002	1.000768e+000	-4.033145e-002	4.271606e-003	7.215864e-003
1751099.346	4.705730e-003	8.565386e-003	1.000280e+000	-4.141962e-002	1.000149e+000	-4.100474e-002	4.143689e-003	8.484863e-003
1813638.430	4.406934e-003	8.964460e-003	1.000488e+000	-4.330064e-002	1.000342e+000	-4.344387e-002	4.364600e-003	8.513851e-003
1876177.514	4.497406e-003	9.661733e-003	1.000761e+000	-4.472844e-002	1.000617e+000	-4.539330e-002	4.112593e-003	9.616321e-003
1938716.598	4.033657e-003	1.018467e-002	1.000977e+000	-4.599368e-002	1.000527e+000	-4.571747e-002	4.331059e-003	1.042660e-002
2001255.682	3.984500e-003	1.012791e-002	1.000752e+000	-4.775592e-002	1.000486e+000	-4.778531e-002	4.156146e-003	1.040683e-002
2063794.765	4.153750e-003	1.095237e-002	1.000352e+000	-4.916987e-002	9.998397e-001	-4.982481e-002	4.594240e-003	1.074495e-002
2126333.849	3.742626e-003	1.087489e-002	9.996819e-001	-5.096167e-002	9.991797e-001	-5.052090e-002	4.930166e-003	1.142127e-002
2188872.933	4.321718e-003	1.129345e-002	9.994206e-001	-5.256236e-002	9.991351e-001	-5.208675e-002	4.880918e-003	1.182924e-002
2251412.017	4.486941e-003	1.138199e-002	9.990573e-001	-5.441559e-002	9.990715e-001	-5.363339e-002	4.958816e-003	1.214335e-002
2313951.101	4.918461e-003	1.222906e-002	9.983501e-001	-5.593794e-002	9.991771e-001	-5.501656e-002	5.372855e-003	1.252085e-002
2376490.184	4.764768e-003	1.265051e-002	9.982305e-001	-5.677771e-002	9.988758e-001	-5.723565e-002	5.409017e-003	1.296912e-002
2439029.268	5.322407e-003	1.307094e-002	9.981468e-001	-5.889580e-002	9.977985e-001	-5.880632e-002	5.200921e-003	1.353267e-002
2501568.352	5.405693e-003	1.351869e-002	9.977235e-001	-5.956569e-002	9.986768e-001	-5.985697e-002	5.600596e-003	1.394388e-002
2564107.436	5.433046e-003	1.381805e-002	9.979273e-001	-6.187035e-002	9.983041e-001	-6.198163e-002	5.018679e-003	1.403862e-002
2626646.520	6.026990e-003	1.408511e-002	9.975520e-001	-6.338204e-002	9.970238e-001	-6.332964e-002	5.402780e-003	1.440920e-002
2689185.604	6.132122e-003	1.470236e-002	9.978851e-001	-6.466240e-002	9.976120e-001	-6.469223e-002	5.666263e-003	1.492909e-002
2751724.687	6.401562e-003	1.505960e-002	9.975837e-001	-6.593128e-002	9.974238e-001	-6.599283e-002	5.411898e-003	1.537553e-002
2814263.771	6.491208e-003	1.543810e-002	9.965477e-001	-6.825264e-002	9.968617e-001	-6.760893e-002	5.544288e-003	1.568654e-002
2876802.855	6.597375e-003	1.571031e-002	9.965514e-001	-6.988782e-002	9.967787e-001	-6.934442e-002	5.780350e-003	1.625857e-002
2939341.939	6.883897e-003	1.623814e-002	9.968280e-001	-7.100509e-002	9.966463e-001	-7.128029e-002	5.859341e-003	1.663394e-002
3001881.023	6.984961e-003	1.668538e-002	9.963792e-001	-7.268598e-002	9.962303e-001	-7.285898e-002	6.115117e-003	1.693519e-002
3064420.106	7.222232e-003	1.709996e-002	9.966961e-001	-7.407657e-002	9.960100e-001	-7.426024e-002	6.132579e-003	1.727727e-002
3126959.190	7.614954e-003	1.744676e-002	9.960704e-001	-7.581921e-002	9.960273e-001	-7.590009e-002	6.498135e-003	1.765590e-002
3189498.274	7.793781e-003	1.792138e-002	9.957669e-001	-7.724178e-002	9.957312e-001	-7.748104e-002	6.694030e-003	1.804773e-002
3252037.358	7.895983e-003	1.802881e-002	9.956422e-001	-7.891894e-002	9.955533e-001	-7.888435e-002	6.847965e-003	1.856778e-002
3314576.442	8.155171e-003	1.863077e-002	9.953065e-001	-8.042725e-002	9.952187e-001	-8.056084e-002	7.127865e-003	1.890004e-002
3377115.525	8.355746e-003	1.908981e-002	9.948511e-001	-8.191135e-002	9.947340e-001	-8.225146e-002	7.196318e-003	1.921827e-002
3439654.609	8.593971e-003	1.945593e-002	9.944649e-001	-8.351641e-002	9.947506e-001	-8.375400e-002	7.477206e-003	1.983603e-002
3502193.693	8.803959e-003	1.961228e-002	9.942044e-001	-8.522431e-002	9.941987e-001	-8.520218e-002	7.898850e-003	2.022666e-002
3564732.777	9.107781e-003	2.015904e-002	9.939376e-001	-8.666126e-002	9.939340e-001	-8.683197e-002	8.244387e-003	2.067859e-002
3627271.861	9.237619e-003	2.046688e-002	9.936880e-001	-8.829098e-002	9.936612e-001	-8.830855e-002	8.292971e-003	2.089689e-002
3689810.944	9.419491e-003	2.076446e-002	9.932433e-001	-8.987872e-002	9.933154e-001	-8.983098e-002	8.741677e-003	2.133875e-002
3752350.028	9.830106e-003	2.120279e-002	9.928405e-001	-9.116140e-002	9.927781e-001	-9.135776e-002	8.960439e-003	2.170253e-002
3814889.112	1.025166e-002	2.173437e-002	9.923977e-001	-9.278500e-002	9.926384e-001	-9.317097e-002	9.185699e-003	2.198736e-002
3877428.196	1.051809e-002	2.214967e-002	9.922132e-001	-9.439737e-002	9.922147e-001	-9.448263e-002	9.822121e-003	2.237660e-002
3939967.280	1.078310e-002	2.224495e-002	9.917567e-001	-9.597930e-002	9.918698e-001	-9.604343e-002	1.013554e-002	2.284116e-002
4002506.363	1.121343e-002	2.276597e-002	9.913909e-001	-9.746617e-002	9.914495e-001	-9.744650e-002	1.041784e-002	2.316015e-002
4065045.447	1.137525e-002	2.305944e-002	9.907852e-001	-9.903291e-002	9.908661e-001	-9.905917e-002	1.084433e-002	2.343227e-002
4127584.531	1.170801e-002	2.339512e-002	9.903315e-001	-1.005570e-001	9.904615e-001	-1.004991e-001	1.124159e-002	2.390081e-002
4190123.615	1.210953e-002	2.376750e-002	9.899537e-001	-1.022245e-001	9.899030e-001	-1.021709e-001	1.149133e-002	2.402711e-002
4252662.699	1.244279e-002	2.405054e-002	9.896294e-001	-1.037728e-001	9.894091e-001	-1.037867e-001	1.196387e-002	2.438511e-002
4315201.782	1.295422e-002	2.431943e-002	9.891225e-001	-1.049850e-001	9.892481e-001	-1.052846e-001	1.215412e-002	2.454566e-002
4377740.866	1.324716e-002	2.462589e-002	9.887359e-001	-1.066369e-001	9.885163e-001	-1.067301e-001	1.273687e-002	2.515141e-002
4440279.950	1.353885e-002	2.482068e-002	9.882305e-001	-1.079615e-001	9.879634e-001	-1.080873e-001	1.301720e-002	2.531884e-002
4502819.034	1.395939e-002	2.523771e-002	9.874653e-001	-1.094899e-001	9.875918e-001	-1.095828e-001	1.351670e-002	2.575123e-002
4565358.118	1.427301e-002	2.549026e-002	9.870690e-001	-1.109263e-001	9.869260e-001	-1.108301e-001	1.392164e-002	2.593162e-002
4627897.201	1.486158e-002	2.589885e-002	9.867134e-001	-1.123759e-001	9.865006e-001	-1.122862e-001	1.445927e-002	2.630949e-002
4690436.285	1.510892e-002	2.605821e-002	9.861869e-001	-1.139331e-001	9.860210e-001	-1.140858e-001	1.486001e-002	2.638591e-002
4752975.369	1.555909e-002	2.629143e-002	9.854195e-001	-1.154084e-001	9.855869e-001	-1.154281e-001	1.510937e-002	2.661297e-002
4815514.453	1.609429e-002	2.655493e-002	9.851285e-001	-1.167336e-001	9.850483e-001	-1.168785e-001	1.576150e-002	2.692234e-002
4878053.537	1.662240e-002	2.667579e-002	9.846220e-001	-1.180740e-001	9.844751e-001	-1.181110e-001	1.616945e-002	2.710158e-002
4940592.620	1.681543e-002	2.696030e-002	9.839366e-001	-1.195147e-001	9.839882e-001	-1.196778e-001	1.638447e-002	2.730679e-002
5003131.704	1.731680e-002	2.704428e-002	9.833656e-001	-1.208585e-001	9.834963e-001	-1.207977e-001	1.694579e-002	2.746438e-002
5065670.788	1.771071e-002	2.743560e-002	9.828172e-001	-1.223403e-001	9.829141e-001	-1.222753e-001	1.737616e-002	2.771204e-002
5128209.872	1.827689e-002	2.749097e-002	9.824533e-001	-1.236368e-001	9.823265e-001	-1.236304e-001	1.779418e-002	2.768061e-002
5190748.956	1.865326e-002	2.766860e-002	9.817651e-001	-1.250181e-001	9.818410e-001	-1.251360e-001	1.821421e-002	2.800059e-002
5253288.039	1.914695e-002	2.778713e-002	9.812875e-001	-1.263855e-001	9.812770e-001	-1.263966e-001	1.861776e-002	2.824582e-002
5315827.123	1.957069e-002	2.788730e-002	9.805449e-001	-1.277050e-001	9.806166e-001	-1.277609e-001	1.905981e-002	2.830237e-002
5378366.207	2.012113e-002	2.808270e-002	9.801465e-001	-1.289957e-001	9.800943e-001	-1.292426e-001	1.949835e-002	2.836620e-002
5440905.291	2.040284e-002	2.829967e-002	9.795900e-001	-1.303613e-001	9.795530e-001	-1.303935e-001	1.985578e-002	2.855310e-002
5503444.375	2.106859e-002	2.825466e-002	9.790208e-001	-1.316726e-001	9.790724e-001	-1.315814e-001	2.050525e-002	2.857800e-002
5565983.458	2.119882e-002	2.850885e-002	9.784629e-001	-1.329127e-001	9.784423e-001	-1.328334e-001	2.092190e-002	2.884435e-002
5628522.542	2.190636e-002	2.851219e-002	9.779141e-001	-1.340849e-001	9.778715e-001	-1.342849e-001	2.140987e-002	2.882250e-002
5691061.626	2.241318e-002	2.842563e-002	9.772610e-001	-1.356062e-001	9.772266e-001	-1.355607e-001	2.178563e-002	2.896735e-002
5753600.710	2.273436e-002	2.859694e-002	9.766308e-001	-1.367221e-001	9.767096e-001	-1.367360e-001	2.229664e-002	2.891124e-002
5816139.794	2.331964e-002	2.884358e-002	9.761053e-001	-1.379827e-001	9.759369e-001	-1.382274e-001	2.261278e-002	2.903934e-002
5878678.877	2.366664e-002	2.867181e-002	9.754971e-001	-1.392211e-001	9.754768e-001	-1.392836e-001	2.318563e-002	2.894804e-002
5941217.961	2.409915e-002	2.864923e-002	9.749127e-001	-1.405058e-001	9.748573e-001	-1.404264e-001	2.345764e-002	2.910547e-002
6003757.045	2.443287e-002	2.890789e-002	9.741822e-001	-1.415356e-001	9.743078e-001	-1.416316e-001	2.402989e-002	2.910688e-002
6066296.129	2.498318e-002	2.874628e-002	9.738543e-001	-1.428224e-001	9.737188e-001	-1.427491e-001	2.446163e-002	2.910667e-002
6128835.213	2.552947e-002	2.877775e-002	9.732456e-001	-1.437461e-001	9.732983e-001	-1.440741e-001	2.500151e-002	2.910532e-002
6191374.296	2.591615e-002	2.878022e-002	9.726037e-001	-1.451363e-001	9.725470e-001	-1.453914e-001	2.528040e-002	2.920680e-002
6253913.380	2.628349e-002	2.888734e-002	9.720438e-001	-1.464240e-001	9.719935e-001	-1.464156e-001	2.563049e-002	2.932331e-002
6316452.464	2.669093e-002	2.895661e-002	9.715607e-001	-1.473971e-001	9.713188e-001	-1.477449e-001	2.608750e-002	2.909690e-002
6378991.548	2.706779e-002	2.879416e-002	9.708988e-001	-1.489702e-001	9.709874e-001	-1.488677e-001	2.657723e-002	2.895282e-002
6441530.632	2.743533e-002	2.869768e-002	9.702743e-001	-1.498160e-001	9.703512e-001	-1.500709e-001	2.704347e-002	2.903206e-002
6504069.715	2.785982e-002	2.863907e-002	9.697197e-001	-1.511697e-001	9.699189e-001	-1.511087e-001	2.748991e-002	2.900200e-002
6566608.799	2.840726e-002	2.852836e-002	9.692900e-001	-1.523983e-001	9.692186e-001	-1.522892e-001	2.781429e-002	2.913985e-002
6629147.883	2.877999e-002	2.860710e-002	9.686903e-001	-1.531518e-001	9.686466e-001	-1.534546e-001	2.828990e-002	2.894654e-002
6691686.967	2.906465e-002	2.857429e-002	9.680336e-001	-1.544238e-001	9.680885e-001	-1.545475e-001	2.874074e-002	2.898232e-002
6754226.051	2.941528e-002	2.851048e-002	9.674801e-001	-1.555894e-001	9.673990e-001	-1.558300e-001	2.893368e-002	2.873351e-002
6816765.134	2.989618e-002	2.842932e-002	9.670302e-001	-1.566773e-001	9.669943e-001	-1.567772e-001	2.939255e-002	2.885512e-002
6879304.218	3.016828e-002	2.819947e-002	9.664158e-001	-1.578307e-001	9.665043e-001	-1.579133e-001	2.977216e-002	2.870135e-002
6941843.302	3.064504e-002	2.827959e-002	9.659004e-001	-1.589692e-001	9.659477e-001	-1.589716e-001	3.015144e-002	2.871158e-002
7004382.386	3.084986e-002	2.826818e-002	9.654213e-001	-1.599496e-001	9.653463e-001	-1.600643e-001	3.045884e-002	2.868420e-002
7066921.470	3.131216e-002	2.813124e-002	9.648104e-001	-1.611948e-001	9.649010e-001	-1.609805e-001	3.099047e-002	2.843045e-002
7129460.553	3.156981e-002	2.794302e-002	9.643421e-001	-1.620814e-001	9.643578e-001	-1.622506e-001	3.135714e-002	2.838713e-002
7191999.637	3.194596e-002	2.807024e-002	9.636442e-001	-1.632716e-001	9.636925e-001	-1.632855e-001	3.157548e-002	2.831043e-002
7254538.721	3.235303e-002	2.785840e-002	9.634338e-001	-1.643773e-001	9.633440e-001	-1.644514e-001	3.198182e-002	2.822052e-002
7317077.805	3.286419e-002	2.771857e-002	9.628262e-001	-1.653188e-001	9.628509e-001	-1.654389e-001	3.232216e-002	2.801177e-002
7379616.889	3.307633e-002	2.763726e-002	9.624448e-001	-1.666137e-001	9.622689e-001	-1.665595e-001	3.261860e-002	2.794261e-002
7442155.972	3.327473e-002	2.755552e-002	9.618032e-001	-1.674980e-001	9.617795e-001	-1.675579e-001	3.306116e-002	2.802371e-002
7504695.056	3.364599e-002	2.733293e-002	9.611818e-001	-1.684901e-001	9.611289e-001	-1.687537e-001	3.343754e-002	2.797849e-002
7567234.140	3.413998e-002	2.713693e-002	9.608619e-001	-1.695259e-001	9.606425e-001	-1.697532e-001	3.368785e-002	2.776545e-002
7629773.224	3.439361e-002	2.731175e-002	9.603692e-001	-1.707814e-001	9.603081e-001	-1.707674e-001	3.393169e-002	2.760989e-002
7692312.308	3.458691e-002	2.713637e-002	9.598606e-001	-1.718068e-001	9.597083e-001	-1.719124e-001	3.431399e-002	2.740025e-002
7754851.391	3.487813e-002	2.688166e-002	9.593113e-001	-1.728718e-001	9.591620e-001	-1.727797e-001	3.458279e-002	2.742368e-002
7817390.475	3.530215e-002	2.693764e-002	9.588812e-001	-1.741038e-001	9.586795e-001	-1.739882e-001	3.483164e-002	2.740711e-002
7879929.559	3.549197e-002	2.665453e-002	9.582899e-001	-1.750959e-001	9.581811e-001	-1.752157e-001	3.525881e-002	2.727150e-002
7942468.643	3.576196e-002	2.648333e-002	9.579156e-001	-1.760957e-001	9.578068e-001	-1.762133e-001	3.552636e-002	2.697197e-002
8005007.727	3.614340e-002	2.638433e-002	9.573548e-001	-1.771447e-001	9.573456e-001	-1.772439e-001	3.575474e-002	2.707671e-002
8067546.811	3.628762e-002	2.630163e-002	9.568868e-001	-1.781882e-001	9.567239e-001	-1.781918e-001	3.596021e-002	2.675762e-002
8130085.894	3.664539e-002	2.610014e-002	9.563622e-001	-1.791504e-001	9.563456e-001	-1.792854e-001	3.644408e-002	2.656252e-002
8192624.978	3.677521e-002	2.593123e-002	9.557835e-001	-1.803737e-001	9.558618e-001	-1.802985e-001	3.677257e-002	2.642170e-002
8255164.062	3.717289e-002	2.581246e-002	9.554623e-001	-1.812885e-001	9.553694e-001	-1.813724e-001	3.703434e-002	2.624528e-002
8317703.146	3.735804e-002	2.579438e-002	9.550293e-001	-1.823771e-001	9.549943e-001	-1.824049e-001	3.714396e-002	2.618138e-002
8380242.230	3.771525e-002	2.541616e-002	9.544436e-001	-1.834757e-001	9.544108e-001	-1.833866e-001	3.738000e-002	2.598512e-002
8442781.313	3.796278e-002	2.532669e-002	9.542258e-001	-1.844455e-001	9.540139e-001	-1.843821e-001	3.762864e-002	2.577710e-002
8505320.397	3.823404e-002	2.532306e-002	9.536863e-001	-1.855507e-001	9.535152e-001	-1.854406e-001	3.785951e-002	2.568359e-002
8567859.481	3.847509e-002	2.531836e-002	9.531752e-001	-1.863130e-001	9.531313e-001	-1.864756e-001	3.816701e-002	2.568655e-002
8630398.565	3.879940e-002	2.512850e-002	9.525586e-001	-1.873305e-001	9.526834e-001	-1.874513e-001	3.828974e-002	2.532594e-002
8692937.649	3.897863e-002	2.479326e-002	9.521830e-001	-1.883564e-001	9.520697e-001	-1.885314e-001	3.850322e-002	2.528609e-002
8755476.732	3.925770e-002	2.470224e-002	9.517716e-001	-1.895191e-001	9.516336e-001	-1.894513e-001	3.881762e-002	2.515568e-002
8818015.816	3.938765e-002	2.453952e-002	9.512644e-001	-1.905151e-001	9.510413e-001	-1.905090e-001	3.914959e-002	2.491043e-002
8880554.900	3.984014e-002	2.442113e-002	9.509699e-001	-1.915773e-001	9.509060e-001	-1.914309e-001	3.925751e-002	2.463703e-002
8943093.984	3.991521e-002	2.438476e-002	9.504324e-001	-1.924960e-001	9.504531e-001	-1.924658e-001	3.952029e-002	2.454017e-002
9005633.068	4.019886e-002	2.414300e-002	9.498985e-001	-1.935533e-001	9.500453e-001	-1.936342e-001	3.965266e-002	2.428305e-002
9068172.151	4.029767e-002	2.400954e-002	9.496064e-001	-1.946234e-001	9.494792e-001	-1.944963e-001	3.993384e-002	2.417217e-002
9130711.235	4.072261e-002	2.377423e-002	9.490608e-001	-1.956006e-001	9.490935e-001	-1.955300e-001	4.019099e-002	2.385433e-002
9193250.319	4.093219e-002	2.359897e-002	9.487820e-001	-1.964994e-001	9.485855e-001	-1.966681e-001	4.035956e-002	2.376249e-002
9255789.403	4.105135e-002	2.331521e-002	9.483542e-001	-1.974464e-001	9.481467e-001	-1.976144e-001	4.045689e-002	2.367615e-002
9318328.487	4.123922e-002	2.327455e-002	9.478451e-001	-1.986815e-001	9.478760e-001	-1.985435e-001	4.078508e-002	2.352351e-002
9380867.570	4.148788e-002	2.323658e-002	9.474845e-001	-1.997336e-001	9.472775e-001	-1.996920e-001	4.100437e-002	2.335542e-002
9443406.654	4.175197e-002	2.305382e-002	9.470497e-001	-2.006160e-001	9.469765e-001	-2.007586e-001	4.125151e-002	2.311903e-002
9505945.738	4.193247e-002	2.292648e-002	9.464221e-001	-2.017806e-001	9.465968e-001	-2.017590e-001	4.140438e-002	2.296863e-002
9568484.822	4.216956e-002	2.274510e-002	9.461542e-001	-2.027852e-001	9.459091e-001	-2.027761e-001	4.145070e-002	2.306297e-002
9631023.906	4.236435e-002	2.260350e-002	9.457494e-001	-2.037551e-001	9.454844e-001	-2.037836e-001	4.181532e-002	2.259504e-002
9693562.989	4.258989e-002	2.242693e-002	9.452018e-001	-2.047593e-001	9.451558e-001	-2.047770e-001	4.178504e-002	2.256994e-002
9756102.073	4.277597e-002	2.223078e-002	9.449932e-001	-2.058336e-001	9.447768e-001	-2.056992e-001	4.203173e-002	2.228300e-002
