!Agilent Technologies,E5061B,MY49102235,A.02.00
!Date: Tue Jul 11 15:17:37 2023
!Data & Calibration Information:
!Freq	S11:SOLT2(ON)	S21:SOLT2(ON)	S12:SOLT2(ON)	S22:SOLT2(ON)
# Hz S RI R 50
5.000	-5.236323e-003	-5.635871e-003	1.001576e+000	7.938782e-003	1.000240e+000	1.026876e-002	-1.502632e-003	-7.542366e-003
62544.084	5.805348e-003	-5.013172e-004	1.001418e+000	5.613156e-004	1.000878e+000	1.180169e-003	7.691680e-003	-2.888368e-003
125083.168	5.684034e-003	-5.051364e-004	1.000918e+000	-8.132699e-004	1.000665e+000	-7.600059e-004	7.502051e-003	-2.289945e-003
187622.251	5.435705e-003	-3.288512e-004	1.000519e+000	-2.212504e-003	1.001000e+000	-9.432405e-004	7.356945e-003	-2.374147e-003
250161.335	5.273478e-003	-1.896032e-004	1.000530e+000	-3.156396e-003	1.000723e+000	-3.058513e-003	7.251954e-003	-2.050908e-003
312700.419	5.421976e-003	5.348710e-004	1.000799e+000	-3.813412e-003	1.000662e+000	-3.514552e-003	7.764465e-003	-2.360190e-003
375239.503	5.292762e-003	-9.674124e-004	1.000986e+000	-5.321038e-003	1.000487e+000	-4.865893e-003	7.261825e-003	-2.517037e-003
437778.587	5.123669e-003	-5.823079e-004	1.001394e+000	-5.395045e-003	1.001067e+000	-6.066662e-003	6.599281e-003	-2.233949e-003
500317.670	4.577179e-003	-4.649277e-004	1.001256e+000	-7.777862e-003	1.001690e+000	-7.524078e-003	4.799558e-003	-2.064710e-003
562856.754	5.890404e-003	-7.738668e-004	1.001377e+000	-9.312845e-003	1.001200e+000	-8.977314e-003	5.999552e-003	-1.579723e-003
625395.838	5.085555e-003	-6.386419e-004	1.002189e+000	-1.040668e-002	1.002128e+000	-9.908085e-003	6.105889e-003	-1.022228e-003
687934.922	5.103841e-003	-9.522016e-004	1.001373e+000	-1.155101e-002	1.001290e+000	-1.147158e-002	5.728570e-003	-1.483441e-003
750474.006	4.367258e-003	-6.286746e-004	1.000923e+000	-1.081927e-002	1.000817e+000	-1.065031e-002	5.550479e-003	-1.300943e-003
813013.089	4.545944e-003	-6.268356e-004	1.001209e+000	-1.270661e-002	1.000653e+000	-1.239759e-002	4.916945e-003	-1.131523e-003
875552.173	4.276670e-003	-4.675303e-004	1.001152e+000	-1.343744e-002	1.001085e+000	-1.357549e-002	5.692770e-003	-1.541313e-003
938091.257	4.344826e-003	-4.052527e-004	1.001179e+000	-1.497589e-002	1.001186e+000	-1.470444e-002	5.926314e-003	-9.722335e-004
1000630.341	3.805906e-003	-7.605387e-004	1.000811e+000	-1.638348e-002	1.001021e+000	-1.606464e-002	5.167189e-003	-1.683457e-003
1063169.425	4.142500e-003	-9.211151e-004	1.001152e+000	-1.767830e-002	1.000858e+000	-1.686067e-002	4.349415e-003	-2.007873e-003
1125708.508	4.031996e-003	-8.843170e-004	1.000861e+000	-1.890620e-002	1.000883e+000	-1.818528e-002	3.854035e-003	-1.725190e-003
1188247.592	4.575024e-003	-1.340152e-003	1.001047e+000	-1.994627e-002	1.001096e+000	-1.945796e-002	2.756848e-003	-2.306332e-003
1250786.676	4.422236e-003	-2.085593e-003	1.000638e+000	-1.984218e-002	1.000842e+000	-2.008889e-002	2.028807e-003	-3.979977e-003
1313325.760	4.529458e-003	-2.184801e-003	1.001007e+000	-2.149278e-002	1.001110e+000	-2.154410e-002	2.753583e-003	-3.769125e-003
1375864.844	4.259497e-003	-2.389861e-003	1.000753e+000	-2.328392e-002	1.000637e+000	-2.335755e-002	2.608877e-003	-3.501655e-003
1438403.927	4.155920e-003	-2.556699e-003	1.000734e+000	-2.386892e-002	1.001050e+000	-2.327059e-002	2.688793e-003	-3.252899e-003
1500943.011	4.375537e-003	-2.500956e-003	1.001453e+000	-2.490120e-002	1.001429e+000	-2.490974e-002	3.042973e-003	-3.649352e-003
1563482.095	4.378245e-003	-2.875589e-003	1.001069e+000	-2.626642e-002	1.000622e+000	-2.548245e-002	3.176865e-003	-3.468333e-003
1626021.179	4.187145e-003	-2.738869e-003	1.000823e+000	-2.747579e-002	1.001120e+000	-2.795779e-002	3.453126e-003	-3.510055e-003
1688560.263	3.883751e-003	-2.711511e-003	1.000449e+000	-2.920295e-002	1.001391e+000	-2.928987e-002	3.613960e-003	-3.541426e-003
1751099.346	4.023069e-003	-2.605774e-003	1.001125e+000	-3.028183e-002	1.000713e+000	-2.976035e-002	3.428291e-003	-2.705506e-003
1813638.430	3.651785e-003	-2.662826e-003	1.001372e+000	-3.179594e-002	1.001045e+000	-3.152333e-002	3.604528e-003	-3.097034e-003
1876177.514	3.691060e-003	-2.372985e-003	1.001716e+000	-3.269010e-002	1.001435e+000	-3.311006e-002	3.264196e-003	-2.428062e-003
1938716.598	3.143577e-003	-2.304601e-003	1.001885e+000	-3.346935e-002	1.001520e+000	-3.299964e-002	3.445859e-003	-2.044409e-003
2001255.682	3.047951e-003	-2.795206e-003	1.001819e+000	-3.492311e-002	1.001312e+000	-3.459904e-002	3.188101e-003	-2.522508e-003
2063794.765	3.140687e-003	-2.419287e-003	1.001442e+000	-3.595900e-002	1.000910e+000	-3.617704e-002	3.566442e-003	-2.605671e-003
2126333.849	2.678470e-003	-2.956807e-003	1.000863e+000	-3.706662e-002	1.000253e+000	-3.659026e-002	3.836570e-003	-2.370005e-003
2188872.933	3.165796e-003	-2.954542e-003	1.000652e+000	-3.819521e-002	1.000287e+000	-3.762761e-002	3.719095e-003	-2.432306e-003
2251412.017	3.263436e-003	-3.333034e-003	1.000412e+000	-3.982653e-002	1.000311e+000	-3.872178e-002	3.707398e-003	-2.550728e-003
2313951.101	3.578290e-003	-2.912681e-003	9.999371e-001	-4.074881e-002	1.000434e+000	-3.955196e-002	4.014044e-003	-2.617510e-003
2376490.184	3.331292e-003	-2.958995e-003	9.998479e-001	-4.102735e-002	1.000340e+000	-4.146210e-002	3.965886e-003	-2.628191e-003
2439029.268	3.782773e-003	-3.014261e-003	9.998925e-001	-4.296590e-002	9.995055e-001	-4.249372e-002	3.634066e-003	-2.531144e-003
2501568.352	3.754806e-003	-3.015785e-003	9.995224e-001	-4.312689e-002	1.000302e+000	-4.314909e-002	3.931143e-003	-2.567410e-003
2564107.436	3.659128e-003	-3.186073e-003	9.998581e-001	-4.480200e-002	9.999845e-001	-4.463291e-002	3.230582e-003	-2.970964e-003
2626646.520	4.141656e-003	-3.379536e-003	9.996988e-001	-4.598567e-002	9.989961e-001	-4.579381e-002	3.481815e-003	-3.043494e-003
2689185.604	4.097841e-003	-3.228066e-003	1.000059e+000	-4.668007e-002	9.996414e-001	-4.647439e-002	3.598052e-003	-3.003628e-003
2751724.687	4.199244e-003	-3.325901e-003	9.999002e-001	-4.734920e-002	9.995629e-001	-4.730521e-002	3.203439e-003	-3.065749e-003
2814263.771	4.153709e-003	-3.417310e-003	9.990670e-001	-4.931766e-002	9.994033e-001	-4.861985e-002	3.183691e-003	-3.194281e-003
2876802.855	4.092338e-003	-3.644899e-003	9.991060e-001	-5.061095e-002	9.994219e-001	-4.965991e-002	3.260937e-003	-3.081261e-003
2939341.939	4.217827e-003	-3.583528e-003	9.996535e-001	-5.114549e-002	9.992926e-001	-5.113374e-002	3.152212e-003	-3.203685e-003
3001881.023	4.129292e-003	-3.574025e-003	9.993145e-001	-5.219621e-002	9.991536e-001	-5.221583e-002	3.241696e-003	-3.364797e-003
3064420.106	4.185538e-003	-3.653095e-003	9.998724e-001	-5.333129e-002	9.990397e-001	-5.325670e-002	3.076257e-003	-3.519270e-003
3126959.190	4.378921e-003	-3.775630e-003	9.994512e-001	-5.453274e-002	9.992693e-001	-5.435950e-002	3.243397e-003	-3.594917e-003
3189498.274	4.344352e-003	-3.757689e-003	9.993645e-001	-5.543441e-002	9.991485e-001	-5.540082e-002	3.239521e-003	-3.669319e-003
3252037.358	4.264668e-003	-4.140465e-003	9.994369e-001	-5.661369e-002	9.992285e-001	-5.638761e-002	3.173315e-003	-3.648206e-003
3314576.442	4.276078e-003	-4.018001e-003	9.992920e-001	-5.766616e-002	9.990972e-001	-5.758814e-002	3.239131e-003	-3.786175e-003
3377115.525	4.242668e-003	-4.030901e-003	9.991174e-001	-5.866005e-002	9.988191e-001	-5.878003e-002	3.074377e-003	-3.953211e-003
3439654.609	4.253849e-003	-4.128043e-003	9.989294e-001	-5.976971e-002	9.991323e-001	-5.976007e-002	3.091110e-003	-3.786610e-003
3502193.693	4.204370e-003	-4.470941e-003	9.989266e-001	-6.099427e-002	9.987683e-001	-6.077057e-002	3.252910e-003	-3.873132e-003
3564732.777	4.246526e-003	-4.360685e-003	9.989663e-001	-6.200707e-002	9.988076e-001	-6.188210e-002	3.341400e-003	-3.875312e-003
3627271.861	4.087444e-003	-4.542837e-003	9.989880e-001	-6.316276e-002	9.988172e-001	-6.288930e-002	3.101343e-003	-4.133182e-003
3689810.944	3.979938e-003	-4.718381e-003	9.987976e-001	-6.429214e-002	9.987661e-001	-6.393316e-002	3.264254e-003	-4.151587e-003
3752350.028	4.105602e-003	-4.718758e-003	9.987161e-001	-6.510797e-002	9.985323e-001	-6.501609e-002	3.192772e-003	-4.251845e-003
3814889.112	4.210174e-003	-4.631877e-003	9.985842e-001	-6.625923e-002	9.987000e-001	-6.635752e-002	3.109870e-003	-4.426800e-003
3877428.196	4.152668e-003	-4.664264e-003	9.987227e-001	-6.742954e-002	9.985775e-001	-6.723239e-002	3.424177e-003	-4.471885e-003
3939967.280	4.119727e-003	-5.008672e-003	9.985720e-001	-6.859844e-002	9.986035e-001	-6.834630e-002	3.390544e-003	-4.427844e-003
4002506.363	4.179091e-003	-4.929908e-003	9.985877e-001	-6.960970e-002	9.984582e-001	-6.928740e-002	3.341120e-003	-4.565396e-003
4065045.447	3.985220e-003	-5.087553e-003	9.982897e-001	-7.075396e-002	9.982614e-001	-7.048875e-002	3.416701e-003	-4.728214e-003
4127584.531	3.955839e-003	-5.153827e-003	9.982250e-001	-7.180506e-002	9.982485e-001	-7.149976e-002	3.434866e-003	-4.668611e-003
4190123.615	4.004201e-003	-5.190325e-003	9.982429e-001	-7.305407e-002	9.980395e-001	-7.275464e-002	3.342594e-003	-4.959624e-003
4252662.699	3.941134e-003	-5.329672e-003	9.982639e-001	-7.418185e-002	9.979194e-001	-7.393124e-002	3.428185e-003	-4.988200e-003
4315201.782	4.073521e-003	-5.436108e-003	9.981640e-001	-7.503172e-002	9.981584e-001	-7.501949e-002	3.259274e-003	-5.244125e-003
4377740.866	3.968243e-003	-5.519296e-003	9.981625e-001	-7.624635e-002	9.978583e-001	-7.609356e-002	3.417688e-003	-5.021500e-003
4440279.950	3.877028e-003	-5.722418e-003	9.980577e-001	-7.719386e-002	9.976743e-001	-7.704567e-002	3.309348e-003	-5.253001e-003
4502819.034	3.848218e-003	-5.666324e-003	9.977358e-001	-7.837995e-002	9.977360e-001	-7.816222e-002	3.376945e-003	-5.172389e-003
4565358.118	3.771272e-003	-5.775004e-003	9.976908e-001	-7.942650e-002	9.974555e-001	-7.907134e-002	3.375943e-003	-5.340771e-003
4627897.201	3.939247e-003	-5.725732e-003	9.977978e-001	-8.051037e-002	9.974585e-001	-8.011972e-002	3.471365e-003	-5.299787e-003
4690436.285	3.760367e-003	-5.919065e-003	9.977356e-001	-8.169809e-002	9.974576e-001	-8.158972e-002	3.468352e-003	-5.575391e-003
4752975.369	3.745948e-003	-5.990217e-003	9.973679e-001	-8.286584e-002	9.974655e-001	-8.259459e-002	3.281405e-003	-5.709680e-003
4815514.453	3.869224e-003	-6.067967e-003	9.974842e-001	-8.384168e-002	9.973548e-001	-8.375970e-002	3.495531e-003	-5.691119e-003
4878053.537	3.958610e-003	-6.221449e-003	9.974921e-001	-8.486142e-002	9.972237e-001	-8.467398e-002	3.460658e-003	-5.837938e-003
4940592.620	3.692005e-003	-6.264694e-003	9.972258e-001	-8.604829e-002	9.971746e-001	-8.587867e-002	3.211732e-003	-5.951469e-003
5003131.704	3.745845e-003	-6.475164e-003	9.971279e-001	-8.708360e-002	9.971208e-001	-8.671647e-002	3.336148e-003	-6.080689e-003
5065670.788	3.673389e-003	-6.361265e-003	9.970375e-001	-8.824731e-002	9.969851e-001	-8.789191e-002	3.298672e-003	-6.109664e-003
5128209.872	3.785452e-003	-6.566326e-003	9.971301e-001	-8.928656e-002	9.968623e-001	-8.896482e-002	3.268685e-003	-6.396083e-003
5190748.956	3.686659e-003	-6.661324e-003	9.969103e-001	-9.037998e-002	9.968588e-001	-9.023537e-002	3.226982e-003	-6.347472e-003
5253288.039	3.728912e-003	-6.782607e-003	9.969510e-001	-9.147839e-002	9.967537e-001	-9.126284e-002	3.141266e-003	-6.349665e-003
5315827.123	3.685654e-003	-6.918762e-003	9.966270e-001	-9.254122e-002	9.966353e-001	-9.238052e-002	3.128295e-003	-6.528297e-003
5378366.207	3.767755e-003	-6.947638e-003	9.967119e-001	-9.364018e-002	9.965858e-001	-9.359835e-002	3.103258e-003	-6.698005e-003
5440905.291	3.580142e-003	-6.949153e-003	9.966341e-001	-9.476835e-002	9.964834e-001	-9.457194e-002	2.989281e-003	-6.729560e-003
5503444.375	3.781226e-003	-7.184883e-003	9.965065e-001	-9.592652e-002	9.964840e-001	-9.554076e-002	3.175413e-003	-6.888561e-003
5565983.458	3.411069e-003	-7.148457e-003	9.964314e-001	-9.691218e-002	9.963420e-001	-9.657723e-002	3.083860e-003	-6.816681e-003
5628522.542	3.652514e-003	-7.308126e-003	9.963689e-001	-9.789293e-002	9.962369e-001	-9.783022e-002	3.119447e-003	-7.018677e-003
5691061.626	3.722132e-003	-7.580989e-003	9.961805e-001	-9.920849e-002	9.960673e-001	-9.892780e-002	3.021507e-003	-7.054838e-003
5753600.710	3.561347e-003	-7.567624e-003	9.960257e-001	-1.001587e-001	9.960096e-001	-9.996600e-002	3.060133e-003	-7.278317e-003
5816139.794	3.637762e-003	-7.466950e-003	9.960061e-001	-1.012886e-001	9.957376e-001	-1.012218e-001	2.894440e-003	-7.306407e-003
5878678.877	3.534756e-003	-7.788472e-003	9.958956e-001	-1.023849e-001	9.957336e-001	-1.021890e-001	3.002685e-003	-7.537860e-003
5941217.961	3.511961e-003	-7.930957e-003	9.957350e-001	-1.035758e-001	9.956212e-001	-1.031251e-001	2.810563e-003	-7.526546e-003
6003757.045	3.352560e-003	-7.808109e-003	9.954889e-001	-1.045014e-001	9.955357e-001	-1.042471e-001	2.921838e-003	-7.637410e-003
6066296.129	3.477711e-003	-8.074438e-003	9.956007e-001	-1.056329e-001	9.954062e-001	-1.052600e-001	2.884182e-003	-7.748429e-003
6128835.213	3.560266e-003	-8.139061e-003	9.954557e-001	-1.064533e-001	9.954346e-001	-1.065076e-001	2.974655e-003	-7.837776e-003
6191374.296	3.489870e-003	-8.267917e-003	9.953258e-001	-1.077718e-001	9.951560e-001	-1.077307e-001	2.795783e-003	-7.840115e-003
6253913.380	3.383855e-003	-8.227838e-003	9.952433e-001	-1.088829e-001	9.950763e-001	-1.086248e-001	2.663020e-003	-7.816567e-003
6316452.464	3.337548e-003	-8.236229e-003	9.951445e-001	-1.098533e-001	9.948026e-001	-1.099139e-001	2.700283e-003	-8.124109e-003
6378991.548	3.297201e-003	-8.480300e-003	9.949508e-001	-1.112688e-001	9.949578e-001	-1.108825e-001	2.752545e-003	-8.333142e-003
6441530.632	3.218050e-003	-8.629437e-003	9.947764e-001	-1.120484e-001	9.947470e-001	-1.120822e-001	2.780266e-003	-8.324340e-003
6504069.715	3.198206e-003	-8.754398e-003	9.946587e-001	-1.134229e-001	9.947730e-001	-1.130978e-001	2.772303e-003	-8.403019e-003
6566608.799	3.339433e-003	-8.901831e-003	9.946771e-001	-1.145341e-001	9.945200e-001	-1.141947e-001	2.665350e-003	-8.299019e-003
6629147.883	3.273003e-003	-8.862902e-003	9.944743e-001	-1.153008e-001	9.943887e-001	-1.153154e-001	2.743125e-003	-8.543718e-003
6691686.967	3.136402e-003	-8.926994e-003	9.942429e-001	-1.165236e-001	9.941813e-001	-1.163348e-001	2.752266e-003	-8.546297e-003
6754226.051	3.058850e-003	-9.044438e-003	9.941290e-001	-1.177020e-001	9.939811e-001	-1.176070e-001	2.531134e-003	-8.841326e-003
6816765.134	3.146985e-003	-9.138440e-003	9.940734e-001	-1.186860e-001	9.939906e-001	-1.185700e-001	2.582206e-003	-8.736620e-003
6879304.218	3.026004e-003	-9.385025e-003	9.938678e-001	-1.198266e-001	9.938762e-001	-1.195795e-001	2.539768e-003	-8.881423e-003
6941843.302	3.082725e-003	-9.312936e-003	9.937223e-001	-1.209517e-001	9.937291e-001	-1.206516e-001	2.522212e-003	-8.895004e-003
7004382.386	2.860070e-003	-9.344954e-003	9.937033e-001	-1.219248e-001	9.935418e-001	-1.217523e-001	2.424687e-003	-8.948344e-003
7066921.470	2.953937e-003	-9.488704e-003	9.934945e-001	-1.231561e-001	9.934378e-001	-1.227058e-001	2.572301e-003	-9.195647e-003
7129460.553	2.824809e-003	-9.679708e-003	9.934009e-001	-1.240675e-001	9.933238e-001	-1.239188e-001	2.547505e-003	-9.236271e-003
7191999.637	2.792267e-003	-9.526252e-003	9.930408e-001	-1.252552e-001	9.930455e-001	-1.249611e-001	2.390621e-003	-9.315332e-003
7254538.721	2.833511e-003	-9.732927e-003	9.932534e-001	-1.263819e-001	9.931045e-001	-1.261200e-001	2.419100e-003	-9.384830e-003
7317077.805	2.986699e-003	-9.850878e-003	9.930400e-001	-1.273184e-001	9.929260e-001	-1.271189e-001	2.393181e-003	-9.574851e-003
7379616.889	2.840553e-003	-9.934328e-003	9.930179e-001	-1.286028e-001	9.927383e-001	-1.282666e-001	2.316636e-003	-9.633008e-003
7442155.972	2.659623e-003	-1.002257e-002	9.927515e-001	-1.295028e-001	9.926598e-001	-1.292635e-001	2.379002e-003	-9.499669e-003
7504695.056	2.684164e-003	-1.019992e-002	9.924760e-001	-1.304971e-001	9.923648e-001	-1.305506e-001	2.389438e-003	-9.526756e-003
7567234.140	2.844190e-003	-1.035628e-002	9.924742e-001	-1.316056e-001	9.922472e-001	-1.315706e-001	2.297106e-003	-9.723895e-003
7629773.224	2.720601e-003	-1.014956e-002	9.923549e-001	-1.328798e-001	9.922340e-001	-1.325812e-001	2.204740e-003	-9.853617e-003
7692312.308	2.556604e-003	-1.030580e-002	9.922047e-001	-1.339580e-001	9.919700e-001	-1.337407e-001	2.236190e-003	-1.003796e-002
7754851.391	2.525825e-003	-1.055062e-002	9.919917e-001	-1.350584e-001	9.917376e-001	-1.346157e-001	2.148288e-003	-9.991806e-003
7817390.475	2.579820e-003	-1.040938e-002	9.919084e-001	-1.362342e-001	9.916310e-001	-1.359627e-001	2.054667e-003	-9.952378e-003
7879929.559	2.472679e-003	-1.068752e-002	9.916460e-001	-1.373215e-001	9.914961e-001	-1.371798e-001	2.164794e-003	-1.004650e-002
7942468.643	2.395051e-003	-1.083054e-002	9.916287e-001	-1.383213e-001	9.914395e-001	-1.382359e-001	2.112849e-003	-1.031199e-002
8005007.727	2.490834e-003	-1.088122e-002	9.913751e-001	-1.394586e-001	9.913285e-001	-1.392833e-001	2.003355e-003	-1.016687e-002
8067546.811	2.310886e-003	-1.092829e-002	9.912296e-001	-1.404840e-001	9.909834e-001	-1.402400e-001	1.893264e-003	-1.047285e-002
8130085.894	2.351189e-003	-1.107730e-002	9.910431e-001	-1.415068e-001	9.909286e-001	-1.413844e-001	2.088413e-003	-1.059212e-002
8192624.978	2.165214e-003	-1.121778e-002	9.907458e-001	-1.427381e-001	9.907491e-001	-1.424383e-001	2.112295e-003	-1.068996e-002
8255164.062	2.259598e-003	-1.128425e-002	9.907247e-001	-1.437725e-001	9.905416e-001	-1.435524e-001	2.051176e-003	-1.081970e-002
8317703.146	2.103650e-003	-1.126398e-002	9.906046e-001	-1.449046e-001	9.905331e-001	-1.446264e-001	1.839133e-003	-1.085275e-002
8380242.230	2.209283e-003	-1.158015e-002	9.902981e-001	-1.460557e-001	9.902571e-001	-1.456640e-001	1.792172e-003	-1.100140e-002
8442781.313	2.157048e-003	-1.162827e-002	9.903912e-001	-1.470387e-001	9.901731e-001	-1.467154e-001	1.738193e-003	-1.116434e-002
8505320.397	2.100804e-003	-1.158158e-002	9.901598e-001	-1.481515e-001	9.899555e-001	-1.478499e-001	1.653592e-003	-1.120309e-002
8567859.481	2.023890e-003	-1.150985e-002	9.899071e-001	-1.490564e-001	9.898792e-001	-1.489015e-001	1.668195e-003	-1.111160e-002
8630398.565	2.078031e-003	-1.163800e-002	9.896167e-001	-1.501097e-001	9.897253e-001	-1.499156e-001	1.516726e-003	-1.145377e-002
8692937.649	1.998801e-003	-1.193672e-002	9.895531e-001	-1.512353e-001	9.893820e-001	-1.510679e-001	1.423599e-003	-1.143278e-002
8755476.732	1.981429e-003	-1.196354e-002	9.894374e-001	-1.524167e-001	9.892304e-001	-1.520637e-001	1.461968e-003	-1.151106e-002
8818015.816	1.820790e-003	-1.207195e-002	9.891674e-001	-1.534324e-001	9.889178e-001	-1.531931e-001	1.539665e-003	-1.168095e-002
8880554.900	2.013045e-003	-1.212063e-002	9.891382e-001	-1.545792e-001	9.890425e-001	-1.541448e-001	1.368326e-003	-1.191916e-002
8943093.984	1.804457e-003	-1.209823e-002	9.889333e-001	-1.555564e-001	9.888379e-001	-1.552531e-001	1.354694e-003	-1.195949e-002
9005633.068	1.836175e-003	-1.228045e-002	9.886225e-001	-1.566834e-001	9.887315e-001	-1.564480e-001	1.219452e-003	-1.217120e-002
9068172.151	1.654205e-003	-1.236458e-002	9.886213e-001	-1.577875e-001	9.884198e-001	-1.573723e-001	1.245719e-003	-1.220657e-002
9130711.235	1.830414e-003	-1.253013e-002	9.883472e-001	-1.588520e-001	9.882779e-001	-1.584447e-001	1.258179e-003	-1.248406e-002
9193250.319	1.783525e-003	-1.262889e-002	9.882751e-001	-1.597817e-001	9.880629e-001	-1.596335e-001	1.149396e-003	-1.248944e-002
9255789.403	1.642415e-003	-1.288209e-002	9.881297e-001	-1.607585e-001	9.879060e-001	-1.606419e-001	9.770143e-004	-1.251715e-002
9318328.487	1.561244e-003	-1.285617e-002	9.878995e-001	-1.621113e-001	9.878725e-001	-1.616647e-001	1.044502e-003	-1.260047e-002
9380867.570	1.533712e-003	-1.283000e-002	9.877833e-001	-1.631839e-001	9.875092e-001	-1.628963e-001	1.015125e-003	-1.271114e-002
9443406.654	1.550364e-003	-1.291408e-002	9.876017e-001	-1.641745e-001	9.875001e-001	-1.640312e-001	1.013404e-003	-1.287822e-002
9505945.738	1.490083e-003	-1.297485e-002	9.872365e-001	-1.654120e-001	9.873603e-001	-1.650651e-001	9.218986e-004	-1.296508e-002
9568484.822	1.499904e-003	-1.310533e-002	9.872082e-001	-1.664441e-001	9.869098e-001	-1.661270e-001	6.891238e-004	-1.280574e-002
