!Agilent Technologies,E5061B,MY49102235,A.02.00
!Date: Tue Jul 11 16:18:27 2023
!Data & Calibration Information:
!Freq	S11:SOLT2(ON)	S21:SOLT2(ON)	S12:SOLT2(ON)	S22:SOLT2(ON)
# Hz S RI R 50
5.000	-5.187371e-003	-5.630541e-003	1.001684e+000	8.084911e-003	1.000408e+000	1.020777e-002	-1.560109e-003	-7.549124e-003
62544.084	5.820362e-003	-2.643591e-004	1.001243e+000	4.958704e-004	1.000947e+000	9.775579e-004	7.702846e-003	-2.652953e-003
125083.168	5.681110e-003	-2.900495e-005	1.001031e+000	-1.165190e-003	1.000754e+000	-1.323113e-003	7.496650e-003	-1.820110e-003
187622.251	5.452420e-003	3.889722e-004	1.000427e+000	-2.863321e-003	1.001004e+000	-1.703972e-003	7.387041e-003	-1.671068e-003
250161.335	5.302636e-003	7.617734e-004	1.000465e+000	-4.063924e-003	1.000760e+000	-4.101571e-003	7.273302e-003	-1.106297e-003
312700.419	5.447812e-003	1.725155e-003	1.000830e+000	-4.915941e-003	1.000693e+000	-4.730704e-003	7.784293e-003	-1.192884e-003
375239.503	5.317918e-003	4.031872e-004	1.001082e+000	-6.456971e-003	1.000557e+000	-6.344864e-003	7.272020e-003	-1.123023e-003
437778.587	5.175248e-003	1.051854e-003	1.001283e+000	-6.890961e-003	1.001070e+000	-7.706667e-003	6.635226e-003	-5.973606e-004
500317.670	4.628970e-003	1.407082e-003	1.001182e+000	-9.490653e-003	1.001759e+000	-9.470233e-003	4.830924e-003	-1.948648e-004
562856.754	5.946739e-003	1.334989e-003	1.001274e+000	-1.129802e-002	1.001243e+000	-1.120722e-002	6.047622e-003	5.287204e-004
625395.838	5.156926e-003	1.712947e-003	1.002087e+000	-1.270363e-002	1.002131e+000	-1.231355e-002	6.159865e-003	1.318125e-003
687934.922	5.190015e-003	1.618725e-003	1.001297e+000	-1.402664e-002	1.001252e+000	-1.408804e-002	5.814565e-003	1.091701e-003
750474.006	4.394383e-003	2.150422e-003	1.000664e+000	-1.361362e-002	1.000995e+000	-1.353540e-002	5.590909e-003	1.503257e-003
813013.089	4.601300e-003	2.420605e-003	1.001075e+000	-1.562215e-002	1.000787e+000	-1.536384e-002	4.962457e-003	1.910920e-003
875552.173	4.332419e-003	2.804929e-003	1.000933e+000	-1.674444e-002	1.001051e+000	-1.682783e-002	5.742573e-003	1.729640e-003
938091.257	4.425425e-003	3.103582e-003	1.001144e+000	-1.843498e-002	1.001064e+000	-1.819811e-002	5.990637e-003	2.515410e-003
1000630.341	3.886751e-003	2.964787e-003	1.000684e+000	-2.011901e-002	1.001026e+000	-1.976411e-002	5.245567e-003	2.051238e-003
1063169.425	4.244614e-003	3.034683e-003	1.000898e+000	-2.156189e-002	1.000605e+000	-2.096617e-002	4.442283e-003	1.956322e-003
1125708.508	4.139995e-003	3.318387e-003	1.000701e+000	-2.312673e-002	1.000768e+000	-2.242579e-002	3.967231e-003	2.493231e-003
1188247.592	4.690007e-003	3.095716e-003	1.000944e+000	-2.432940e-002	1.000991e+000	-2.381032e-002	2.874388e-003	2.144979e-003
1250786.676	4.532417e-003	2.567899e-003	1.000321e+000	-2.454682e-002	1.000765e+000	-2.476813e-002	2.146202e-003	7.122582e-004
1313325.760	4.673803e-003	2.723450e-003	1.000855e+000	-2.633181e-002	1.000912e+000	-2.662817e-002	2.878920e-003	1.140778e-003
1375864.844	4.403777e-003	2.746358e-003	1.000472e+000	-2.829770e-002	1.000511e+000	-2.849455e-002	2.760214e-003	1.639677e-003
1438403.927	4.312665e-003	2.796195e-003	1.000460e+000	-2.938991e-002	1.000846e+000	-2.871879e-002	2.853959e-003	2.136857e-003
1500943.011	4.574432e-003	3.094603e-003	1.001091e+000	-3.038410e-002	1.001342e+000	-3.045601e-002	3.216921e-003	1.948732e-003
1563482.095	4.571238e-003	2.943613e-003	1.000613e+000	-3.214267e-002	1.000559e+000	-3.121982e-002	3.371232e-003	2.385589e-003
1626021.179	4.412157e-003	3.311897e-003	1.000508e+000	-3.356469e-002	1.000867e+000	-3.414208e-002	3.658880e-003	2.550998e-003
1688560.263	4.110422e-003	3.600324e-003	1.000234e+000	-3.543710e-002	1.001104e+000	-3.559979e-002	3.848583e-003	2.762087e-003
1751099.346	4.274630e-003	3.915100e-003	1.000706e+000	-3.688353e-002	1.000557e+000	-3.637695e-002	3.694803e-003	3.833509e-003
1813638.430	3.934113e-003	4.102062e-003	1.000932e+000	-3.857022e-002	1.000810e+000	-3.844993e-002	3.880650e-003	3.673757e-003
1876177.514	3.996621e-003	4.617687e-003	1.001276e+000	-3.964000e-002	1.001172e+000	-4.026838e-002	3.581840e-003	4.570889e-003
1938716.598	3.479081e-003	4.921356e-003	1.001448e+000	-4.081904e-002	1.001188e+000	-4.041213e-002	3.781487e-003	5.180646e-003
2001255.682	3.402602e-003	4.675600e-003	1.001415e+000	-4.238578e-002	1.000964e+000	-4.213903e-002	3.537687e-003	4.952179e-003
2063794.765	3.510791e-003	5.280114e-003	1.000992e+000	-4.358435e-002	1.000559e+000	-4.404041e-002	3.944728e-003	5.082857e-003
2126333.849	3.076732e-003	4.991747e-003	1.000336e+000	-4.513472e-002	9.998608e-001	-4.474566e-002	4.240783e-003	5.553343e-003
2188872.933	3.568880e-003	5.219920e-003	1.000174e+000	-4.644681e-002	9.998818e-001	-4.585663e-002	4.119247e-003	5.744581e-003
2251412.017	3.693567e-003	5.058335e-003	9.999799e-001	-4.826606e-002	9.999150e-001	-4.732361e-002	4.148532e-003	5.831251e-003
2313951.101	4.038554e-003	5.702291e-003	9.993542e-001	-4.944511e-002	1.000011e+000	-4.832562e-002	4.471097e-003	5.992932e-003
2376490.184	3.812395e-003	5.910362e-003	9.992721e-001	-4.993323e-002	9.998612e-001	-5.048285e-002	4.448553e-003	6.220481e-003
2439029.268	4.285187e-003	6.082911e-003	9.991062e-001	-5.214545e-002	9.989562e-001	-5.167443e-002	4.158450e-003	6.567339e-003
2501568.352	4.289784e-003	6.298868e-003	9.988493e-001	-5.252950e-002	9.997500e-001	-5.258385e-002	4.469755e-003	6.732916e-003
2564107.436	4.220141e-003	6.367837e-003	9.992265e-001	-5.440259e-002	9.995424e-001	-5.436753e-002	3.790520e-003	6.608311e-003
2626646.520	4.724824e-003	6.408984e-003	9.990386e-001	-5.578903e-002	9.982571e-001	-5.559737e-002	4.065052e-003	6.746161e-003
2689185.604	4.707240e-003	6.798279e-003	9.992925e-001	-5.673226e-002	9.990655e-001	-5.667292e-002	4.214813e-003	7.014578e-003
2751724.687	4.848168e-003	6.906309e-003	9.991600e-001	-5.784734e-002	9.990013e-001	-5.770661e-002	3.856893e-003	7.221949e-003
2814263.771	4.835502e-003	7.063651e-003	9.982620e-001	-5.986820e-002	9.985927e-001	-5.925992e-002	3.860814e-003	7.300733e-003
2876802.855	4.809698e-003	7.083768e-003	9.981943e-001	-6.147128e-002	9.987627e-001	-6.066348e-002	3.976052e-003	7.654036e-003
2939341.939	4.957178e-003	7.381086e-003	9.989063e-001	-6.221903e-002	9.985153e-001	-6.235742e-002	3.898422e-003	7.760265e-003
3001881.023	4.915946e-003	7.618838e-003	9.984552e-001	-6.353797e-002	9.983737e-001	-6.370335e-002	4.010462e-003	7.839257e-003
3064420.106	4.996511e-003	7.774007e-003	9.989742e-001	-6.489592e-002	9.983626e-001	-6.482475e-002	3.876047e-003	7.934279e-003
3126959.190	5.219103e-003	7.882490e-003	9.985479e-001	-6.629611e-002	9.984330e-001	-6.626629e-002	4.076877e-003	8.089434e-003
3189498.274	5.239015e-003	8.128069e-003	9.983884e-001	-6.751793e-002	9.982802e-001	-6.756078e-002	4.106612e-003	8.235499e-003
3252037.358	5.176195e-003	7.974755e-003	9.984533e-001	-6.890668e-002	9.983619e-001	-6.880697e-002	4.075749e-003	8.509556e-003
3314576.442	5.206756e-003	8.358355e-003	9.982890e-001	-7.010256e-002	9.982012e-001	-7.018628e-002	4.172570e-003	8.608274e-003
3377115.525	5.219592e-003	8.569145e-003	9.980376e-001	-7.137594e-002	9.978993e-001	-7.166610e-002	4.044305e-003	8.683292e-003
3439654.609	5.257584e-003	8.705140e-003	9.978500e-001	-7.278353e-002	9.980975e-001	-7.291468e-002	4.103692e-003	9.074793e-003
3502193.693	5.245830e-003	8.604548e-003	9.978003e-001	-7.426875e-002	9.977580e-001	-7.409630e-002	4.296791e-003	9.230780e-003
3564732.777	5.333061e-003	8.947030e-003	9.978124e-001	-7.547748e-002	9.977336e-001	-7.553507e-002	4.420175e-003	9.454012e-003
3627271.861	5.217823e-003	9.007153e-003	9.977808e-001	-7.691400e-002	9.977210e-001	-7.675206e-002	4.221613e-003	9.450521e-003
3689810.944	5.157239e-003	9.092181e-003	9.975774e-001	-7.824042e-002	9.975897e-001	-7.805142e-002	4.418742e-003	9.653871e-003
3752350.028	5.313411e-003	9.317275e-003	9.974327e-001	-7.932965e-002	9.973220e-001	-7.933757e-002	4.383879e-003	9.806722e-003
3814889.112	5.455723e-003	9.629981e-003	9.972354e-001	-8.068263e-002	9.974441e-001	-8.095434e-002	4.341492e-003	9.865162e-003
3877428.196	5.428684e-003	9.833637e-003	9.973639e-001	-8.206626e-002	9.973005e-001	-8.204747e-002	4.696702e-003	1.005311e-002
3939967.280	5.432465e-003	9.720846e-003	9.971494e-001	-8.348531e-002	9.972568e-001	-8.342794e-002	4.715249e-003	1.033901e-002
4002506.363	5.536973e-003	1.005945e-002	9.971433e-001	-8.475702e-002	9.971132e-001	-8.460657e-002	4.695801e-003	1.044261e-002
4065045.447	5.409586e-003	1.014979e-002	9.968378e-001	-8.616716e-002	9.968183e-001	-8.604981e-002	4.814565e-003	1.052889e-002
4127584.531	5.408177e-003	1.032468e-002	9.966928e-001	-8.747349e-002	9.968285e-001	-8.732095e-002	4.883061e-003	1.081522e-002
4190123.615	5.486001e-003	1.052776e-002	9.966855e-001	-8.896199e-002	9.965740e-001	-8.879455e-002	4.818035e-003	1.075902e-002
4252662.699	5.486087e-003	1.062860e-002	9.966396e-001	-9.032744e-002	9.963976e-001	-9.024223e-002	4.965199e-003	1.096891e-002
4315201.782	5.666951e-003	1.075288e-002	9.965075e-001	-9.144461e-002	9.965755e-001	-9.157926e-002	4.816986e-003	1.095648e-002
4377740.866	5.610578e-003	1.091167e-002	9.964704e-001	-9.292781e-002	9.962206e-001	-9.288412e-002	5.041268e-003	1.143628e-002
4440279.950	5.542445e-003	1.094257e-002	9.962925e-001	-9.407463e-002	9.959939e-001	-9.411154e-002	4.979006e-003	1.143864e-002
4502819.034	5.589196e-003	1.125143e-002	9.959531e-001	-9.555915e-002	9.959527e-001	-9.545890e-002	5.092155e-003	1.176305e-002
4565358.118	5.544823e-003	1.138412e-002	9.958523e-001	-9.684515e-002	9.956952e-001	-9.660475e-002	5.151052e-003	1.183957e-002
4627897.201	5.781244e-003	1.167985e-002	9.958992e-001	-9.811884e-002	9.956700e-001	-9.793422e-002	5.295200e-003	1.211381e-002
4690436.285	5.647067e-003	1.173827e-002	9.957393e-001	-9.956915e-002	9.955997e-001	-9.965228e-002	5.325025e-003	1.207798e-002
4752975.369	5.693832e-003	1.190467e-002	9.953509e-001	-1.010054e-001	9.955407e-001	-1.008882e-001	5.200727e-003	1.220663e-002
4815514.453	5.863694e-003	1.206906e-002	9.954413e-001	-1.022409e-001	9.953184e-001	-1.022933e-001	5.466533e-003	1.248166e-002
4878053.537	6.005926e-003	1.215332e-002	9.953537e-001	-1.035466e-001	9.951766e-001	-1.034313e-001	5.472927e-003	1.256158e-002
4940592.620	5.796145e-003	1.235924e-002	9.950730e-001	-1.049289e-001	9.951009e-001	-1.048773e-001	5.285848e-003	1.270742e-002
5003131.704	5.902309e-003	1.239699e-002	9.948905e-001	-1.062051e-001	9.949753e-001	-1.060060e-001	5.458262e-003	1.282143e-002
5065670.788	5.883832e-003	1.276690e-002	9.947357e-001	-1.075826e-001	9.947588e-001	-1.074531e-001	5.483905e-003	1.303212e-002
5128209.872	6.054333e-003	1.280733e-002	9.947639e-001	-1.089296e-001	9.946430e-001	-1.087848e-001	5.495416e-003	1.300328e-002
5190748.956	6.013501e-003	1.295943e-002	9.945072e-001	-1.102894e-001	9.945421e-001	-1.102387e-001	5.520435e-003	1.330092e-002
5253288.039	6.125878e-003	1.308318e-002	9.944603e-001	-1.116746e-001	9.944084e-001	-1.115794e-001	5.493053e-003	1.354705e-002
5315827.123	6.133051e-003	1.319918e-002	9.941140e-001	-1.129742e-001	9.941465e-001	-1.129373e-001	5.542374e-003	1.361278e-002
5378366.207	6.277259e-003	1.340181e-002	9.940907e-001	-1.143355e-001	9.940351e-001	-1.144300e-001	5.577498e-003	1.370047e-002
5440905.291	6.161881e-003	1.366280e-002	9.940263e-001	-1.156912e-001	9.939199e-001	-1.156671e-001	5.528889e-003	1.393144e-002
5503444.375	6.417840e-003	1.365850e-002	9.938097e-001	-1.171043e-001	9.938304e-001	-1.168425e-001	5.771663e-003	1.401327e-002
5565983.458	6.125318e-003	1.396870e-002	9.936766e-001	-1.183568e-001	9.936599e-001	-1.181797e-001	5.766764e-003	1.433320e-002
5628522.542	6.437162e-003	1.406207e-002	9.935386e-001	-1.195983e-001	9.934939e-001	-1.196687e-001	5.851581e-003	1.437764e-002
5691061.626	6.553913e-003	1.403186e-002	9.932730e-001	-1.211124e-001	9.932071e-001	-1.210311e-001	5.811480e-003	1.460580e-002
5753600.710	6.463809e-003	1.430455e-002	9.930192e-001	-1.223934e-001	9.930763e-001	-1.223301e-001	5.929332e-003	1.463397e-002
5816139.794	6.625982e-003	1.465726e-002	9.929338e-001	-1.237492e-001	9.927343e-001	-1.238867e-001	5.847434e-003	1.484549e-002
5878678.877	6.592136e-003	1.459176e-002	9.927144e-001	-1.251253e-001	9.926694e-001	-1.250828e-001	5.996238e-003	1.487338e-002
5941217.961	6.635296e-003	1.468621e-002	9.925207e-001	-1.265148e-001	9.925166e-001	-1.263058e-001	5.879702e-003	1.515425e-002
6003757.045	6.561354e-003	1.508996e-002	9.921995e-001	-1.277077e-001	9.923507e-001	-1.276063e-001	6.064441e-003	1.530431e-002
6066296.129	6.740547e-003	1.506098e-002	9.922174e-001	-1.291382e-001	9.921202e-001	-1.289700e-001	6.116308e-003	1.543045e-002
6128835.213	6.912924e-003	1.525057e-002	9.920202e-001	-1.301912e-001	9.920928e-001	-1.304429e-001	6.278719e-003	1.560007e-002
6191374.296	6.923145e-003	1.539467e-002	9.917642e-001	-1.317755e-001	9.917217e-001	-1.319093e-001	6.186146e-003	1.587702e-002
6253913.380	6.903230e-003	1.568296e-002	9.916373e-001	-1.332291e-001	9.915262e-001	-1.330498e-001	6.133887e-003	1.614277e-002
6316452.464	6.937553e-003	1.593841e-002	9.914461e-001	-1.343622e-001	9.912516e-001	-1.346114e-001	6.234319e-003	1.609639e-002
6378991.548	6.971668e-003	1.595565e-002	9.912011e-001	-1.361217e-001	9.912612e-001	-1.358540e-001	6.362768e-003	1.614528e-002
6441530.632	6.987254e-003	1.604572e-002	9.909472e-001	-1.371356e-001	9.909974e-001	-1.373293e-001	6.487005e-003	1.642190e-002
6504069.715	7.060260e-003	1.619922e-002	9.907263e-001	-1.387630e-001	9.909151e-001	-1.385948e-001	6.562695e-003	1.658148e-002
6566608.799	7.266290e-003	1.629924e-002	9.906466e-001	-1.401656e-001	9.905690e-001	-1.399704e-001	6.557115e-003	1.695894e-002
6629147.883	7.300690e-003	1.659056e-002	9.903410e-001	-1.411297e-001	9.903141e-001	-1.413355e-001	6.716422e-003	1.697942e-002
6691686.967	7.264022e-003	1.678788e-002	9.900294e-001	-1.426832e-001	9.900619e-001	-1.426558e-001	6.817476e-003	1.723317e-002
6754226.051	7.278380e-003	1.694829e-002	9.898022e-001	-1.441016e-001	9.897534e-001	-1.441612e-001	6.683624e-003	1.719927e-002
6816765.134	7.463059e-003	1.710981e-002	9.896590e-001	-1.453429e-001	9.896352e-001	-1.453944e-001	6.818615e-003	1.755176e-002
6879304.218	7.430224e-003	1.711576e-002	9.893730e-001	-1.467324e-001	9.894383e-001	-1.466966e-001	6.893549e-003	1.765555e-002
6941843.302	7.594897e-003	1.744952e-002	9.891343e-001	-1.481911e-001	9.891960e-001	-1.480373e-001	6.964147e-003	1.791940e-002
7004382.386	7.496993e-003	1.769436e-002	9.890033e-001	-1.493677e-001	9.888886e-001	-1.493885e-001	6.972573e-003	1.814022e-002
7066921.470	7.670077e-003	1.781282e-002	9.886542e-001	-1.508825e-001	9.887385e-001	-1.505792e-001	7.219031e-003	1.815067e-002
7129460.553	7.637517e-003	1.786776e-002	9.885210e-001	-1.520475e-001	9.884720e-001	-1.520766e-001	7.308793e-003	1.838565e-002
7191999.637	7.739489e-003	1.828741e-002	9.880067e-001	-1.534762e-001	9.880840e-001	-1.534005e-001	7.246163e-003	1.855784e-002
7254538.721	7.876011e-003	1.832849e-002	9.881107e-001	-1.549097e-001	9.880339e-001	-1.547853e-001	7.385829e-003	1.873974e-002
7317077.805	8.140572e-003	1.847262e-002	9.877930e-001	-1.561010e-001	9.877660e-001	-1.560925e-001	7.471021e-003	1.880392e-002
7379616.889	8.106455e-003	1.865887e-002	9.876659e-001	-1.576625e-001	9.874683e-001	-1.574875e-001	7.504266e-003	1.901451e-002
7442155.972	8.039765e-003	1.883589e-002	9.872443e-001	-1.588249e-001	9.872310e-001	-1.587449e-001	7.689978e-003	1.939667e-002
7504695.056	8.177707e-003	1.891516e-002	9.868998e-001	-1.600959e-001	9.868456e-001	-1.602530e-001	7.822713e-003	1.963429e-002
7567234.140	8.448668e-003	1.900575e-002	9.867774e-001	-1.614494e-001	9.865701e-001	-1.615667e-001	7.842638e-003	1.970377e-002
7629773.224	8.465772e-003	1.947819e-002	9.865063e-001	-1.629589e-001	9.864733e-001	-1.628371e-001	7.864583e-003	1.983141e-002
7692312.308	8.425942e-003	1.959168e-002	9.862381e-001	-1.643041e-001	9.861349e-001	-1.642933e-001	8.023428e-003	1.991805e-002
7754851.391	8.516520e-003	1.960337e-002	9.859378e-001	-1.656559e-001	9.857327e-001	-1.654635e-001	8.073773e-003	2.022240e-002
7817390.475	8.707977e-003	1.998204e-002	9.856794e-001	-1.671527e-001	9.854769e-001	-1.670232e-001	8.095219e-003	2.051990e-002
7879929.559	8.716111e-003	1.997669e-002	9.853088e-001	-1.684883e-001	9.852126e-001	-1.685173e-001	8.336000e-003	2.067712e-002
7942468.643	8.771270e-003	2.010063e-002	9.851517e-001	-1.697310e-001	9.850226e-001	-1.698397e-001	8.409158e-003	2.067569e-002
8005007.727	8.985111e-003	2.029220e-002	9.847257e-001	-1.711746e-001	9.847292e-001	-1.711184e-001	8.432135e-003	2.108256e-002
8067546.811	8.951896e-003	2.051188e-002	9.844901e-001	-1.724564e-001	9.843147e-001	-1.723632e-001	8.446422e-003	2.105522e-002
8130085.894	9.130181e-003	2.062035e-002	9.841668e-001	-1.737450e-001	9.841100e-001	-1.737694e-001	8.769146e-003	2.116680e-002
8192624.978	9.066195e-003	2.074918e-002	9.837250e-001	-1.752279e-001	9.838343e-001	-1.750683e-001	8.928232e-003	2.132369e-002
8255164.062	9.306937e-003	2.093484e-002	9.835670e-001	-1.764823e-001	9.834575e-001	-1.764723e-001	9.011594e-003	2.145152e-002
8317703.146	9.309749e-003	2.121359e-002	9.833244e-001	-1.778816e-001	9.832988e-001	-1.778009e-001	8.956330e-003	2.169713e-002
8380242.230	9.523694e-003	2.113965e-002	9.828054e-001	-1.793104e-001	9.828992e-001	-1.791038e-001	9.029066e-003	2.179632e-002
8442781.313	9.622021e-003	2.134546e-002	9.827645e-001	-1.805059e-001	9.826174e-001	-1.804047e-001	9.120734e-003	2.189858e-002
8505320.397	9.737057e-003	2.164452e-002	9.823898e-001	-1.819490e-001	9.822482e-001	-1.817803e-001	9.190034e-003	2.211412e-002
8567859.481	9.819464e-003	2.197482e-002	9.820176e-001	-1.830383e-001	9.820347e-001	-1.831088e-001	9.361960e-003	2.244835e-002
8630398.565	1.003095e-002	2.208968e-002	9.815482e-001	-1.843669e-001	9.816543e-001	-1.844009e-001	9.344332e-003	2.237365e-002
8692937.649	1.007490e-002	2.204682e-002	9.813137e-001	-1.857595e-001	9.812025e-001	-1.857896e-001	9.416724e-003	2.264940e-002
8755476.732	1.021395e-002	2.228783e-002	9.810389e-001	-1.871979e-001	9.809200e-001	-1.869778e-001	9.609485e-003	2.282793e-002
8818015.816	1.022138e-002	2.241039e-002	9.806584e-001	-1.884829e-001	9.804353e-001	-1.884306e-001	9.822591e-003	2.289495e-002
8880554.900	1.055810e-002	2.260316e-002	9.804574e-001	-1.898583e-001	9.804120e-001	-1.896044e-001	9.803653e-003	2.291984e-002
8943093.984	1.052929e-002	2.288118e-002	9.800764e-001	-1.911464e-001	9.800557e-001	-1.910181e-001	9.963601e-003	2.312413e-002
9005633.068	1.072580e-002	2.294454e-002	9.796185e-001	-1.924689e-001	9.798264e-001	-1.924517e-001	9.982816e-003	2.316211e-002
9068172.151	1.069487e-002	2.311494e-002	9.794346e-001	-1.938311e-001	9.792929e-001	-1.936380e-001	1.016048e-002	2.337762e-002
9130711.235	1.105158e-002	2.318463e-002	9.789855e-001	-1.951762e-001	9.790157e-001	-1.949109e-001	1.033192e-002	2.334883e-002
9193250.319	1.116951e-002	2.333828e-002	9.788212e-001	-1.963265e-001	9.786187e-001	-1.963315e-001	1.039096e-002	2.358864e-002
9255789.403	1.117688e-002	2.333459e-002	9.784742e-001	-1.975573e-001	9.782656e-001	-1.976387e-001	1.039791e-002	2.381184e-002
9318328.487	1.128219e-002	2.359263e-002	9.780596e-001	-1.991524e-001	9.780913e-001	-1.989405e-001	1.063656e-002	2.397277e-002
9380867.570	1.143591e-002	2.387865e-002	9.777569e-001	-2.005131e-001	9.775675e-001	-2.003739e-001	1.077016e-002	2.410876e-002
9443406.654	1.162270e-002	2.402350e-002	9.774183e-001	-2.017355e-001	9.773410e-001	-2.017667e-001	1.092900e-002	2.418682e-002
9505945.738	1.174613e-002	2.419305e-002	9.768415e-001	-2.032229e-001	9.770289e-001	-2.030511e-001	1.102212e-002	2.432583e-002
9568484.822	1.192035e-002	2.429683e-002	9.766354e-001	-2.044875e-001	9.764255e-001	-2.043530e-001	1.099059e-002	2.474987e-002
9631023.906	1.205127e-002	2.447469e-002	9.762941e-001	-2.057691e-001	9.760610e-001	-2.057043e-001	1.128522e-002	2.457694e-002
9693562.989	1.221648e-002	2.459793e-002	9.758027e-001	-2.070969e-001	9.758018e-001	-2.069604e-001	1.118529e-002	2.483771e-002
9756102.073	1.233402e-002	2.470674e-002	9.756845e-001	-2.084571e-001	9.754577e-001	-2.081937e-001	1.137628e-002	2.487066e-002
