!Agilent Technologies,E5061B,MY49102235,A.02.00
!Date: Tue Jul 11 16:24:51 2023
!Data & Calibration Information:
!Freq	S11:SOLT2(ON)	S21:SOLT2(ON)	S12:SOLT2(ON)	S22:SOLT2(ON)
# Hz S RI R 50
5.000	-5.216429e-003	-5.645532e-003	1.001546e+000	8.004414e-003	1.000215e+000	1.027157e-002	-1.494086e-003	-7.542347e-003
62544.084	5.819785e-003	-5.015400e-004	1.001206e+000	6.316561e-004	1.000885e+000	1.255226e-003	7.709351e-003	-2.885747e-003
125083.168	5.675860e-003	-5.066463e-004	1.000860e+000	-7.986924e-004	1.000882e+000	-7.609088e-004	7.505003e-003	-2.298078e-003
187622.251	5.451061e-003	-3.418283e-004	1.000331e+000	-2.063348e-003	1.001134e+000	-8.800623e-004	7.385863e-003	-2.403352e-003
250161.335	5.269086e-003	-1.893469e-004	1.000489e+000	-3.221088e-003	1.000722e+000	-3.112459e-003	7.273947e-003	-2.054668e-003
312700.419	5.411091e-003	5.327706e-004	1.000797e+000	-3.876131e-003	1.000676e+000	-3.519089e-003	7.789810e-003	-2.364652e-003
375239.503	5.283601e-003	-1.004647e-003	1.001070e+000	-5.251397e-003	1.000582e+000	-4.846752e-003	7.273942e-003	-2.548001e-003
437778.587	5.138591e-003	-6.328876e-004	1.001245e+000	-5.271046e-003	1.000961e+000	-5.950956e-003	6.643356e-003	-2.279154e-003
500317.670	4.606016e-003	-4.963783e-004	1.001104e+000	-7.671517e-003	1.001643e+000	-7.514024e-003	4.828583e-003	-2.106621e-003
562856.754	5.886025e-003	-7.899369e-004	1.001334e+000	-9.274216e-003	1.001150e+000	-9.081721e-003	6.016927e-003	-1.610221e-003
625395.838	5.085495e-003	-6.763314e-004	1.002149e+000	-1.039196e-002	1.002154e+000	-9.906133e-003	6.118545e-003	-1.076526e-003
687934.922	5.135257e-003	-1.019741e-003	1.001171e+000	-1.130332e-002	1.001368e+000	-1.157944e-002	5.737286e-003	-1.526616e-003
750474.006	4.360473e-003	-6.906977e-004	1.000760e+000	-1.079696e-002	1.000924e+000	-1.055055e-002	5.530305e-003	-1.346672e-003
813013.089	4.537478e-003	-6.766298e-004	1.001143e+000	-1.266192e-002	1.000735e+000	-1.231824e-002	4.898479e-003	-1.195722e-003
875552.173	4.264028e-003	-5.353291e-004	1.000961e+000	-1.345954e-002	1.001090e+000	-1.358284e-002	5.679097e-003	-1.602367e-003
938091.257	4.344403e-003	-4.725873e-004	1.001202e+000	-1.490497e-002	1.001262e+000	-1.450365e-002	5.898746e-003	-1.036563e-003
1000630.341	3.775231e-003	-8.429719e-004	1.000646e+000	-1.626384e-002	1.001154e+000	-1.599627e-002	5.166895e-003	-1.753085e-003
1063169.425	4.143552e-003	-9.897451e-004	1.001129e+000	-1.767419e-002	1.000797e+000	-1.681210e-002	4.335837e-003	-2.082995e-003
1125708.508	4.022649e-003	-9.763979e-004	1.000714e+000	-1.874392e-002	1.000829e+000	-1.823316e-002	3.844399e-003	-1.816329e-003
1188247.592	4.555097e-003	-1.425745e-003	1.000975e+000	-1.990664e-002	1.001057e+000	-1.928763e-002	2.749681e-003	-2.382801e-003
1250786.676	4.389910e-003	-2.186334e-003	1.000458e+000	-1.975093e-002	1.000928e+000	-1.993420e-002	2.003185e-003	-4.050640e-003
1313325.760	4.516658e-003	-2.283340e-003	1.000980e+000	-2.126905e-002	1.001195e+000	-2.163444e-002	2.734460e-003	-3.870443e-003
1375864.844	4.242617e-003	-2.492774e-003	1.000595e+000	-2.330087e-002	1.000667e+000	-2.324044e-002	2.598874e-003	-3.581884e-003
1438403.927	4.132640e-003	-2.661067e-003	1.000570e+000	-2.376599e-002	1.001007e+000	-2.316772e-002	2.675197e-003	-3.350428e-003
1500943.011	4.359049e-003	-2.611479e-003	1.001255e+000	-2.468484e-002	1.001408e+000	-2.483608e-002	3.030952e-003	-3.759683e-003
1563482.095	4.361363e-003	-2.984597e-003	1.000835e+000	-2.610676e-002	1.000790e+000	-2.545088e-002	3.172838e-003	-3.565002e-003
1626021.179	4.162759e-003	-2.863692e-003	1.000679e+000	-2.736421e-002	1.001183e+000	-2.798153e-002	3.436113e-003	-3.625232e-003
1688560.263	3.876160e-003	-2.819094e-003	1.000395e+000	-2.907709e-002	1.001365e+000	-2.922217e-002	3.595249e-003	-3.665878e-003
1751099.346	3.988904e-003	-2.716412e-003	1.001086e+000	-3.008604e-002	1.000880e+000	-2.978622e-002	3.407122e-003	-2.829213e-003
1813638.430	3.644635e-003	-2.789028e-003	1.001202e+000	-3.161991e-002	1.001133e+000	-3.149067e-002	3.590402e-003	-3.224353e-003
1876177.514	3.677772e-003	-2.513516e-003	1.001472e+000	-3.253630e-002	1.001469e+000	-3.308327e-002	3.258297e-003	-2.572190e-003
1938716.598	3.129856e-003	-2.440047e-003	1.001794e+000	-3.335009e-002	1.001434e+000	-3.295712e-002	3.420887e-003	-2.197362e-003
2001255.682	3.026516e-003	-2.937172e-003	1.001742e+000	-3.480700e-002	1.001552e+000	-3.460906e-002	3.168777e-003	-2.656880e-003
2063794.765	3.119416e-003	-2.568963e-003	1.001221e+000	-3.580997e-002	1.000825e+000	-3.621567e-002	3.562803e-003	-2.765818e-003
2126333.849	2.665529e-003	-3.094330e-003	1.000797e+000	-3.709332e-002	1.000378e+000	-3.667872e-002	3.820116e-003	-2.525559e-003
2188872.933	3.152225e-003	-3.115711e-003	1.000555e+000	-3.806284e-002	1.000086e+000	-3.757875e-002	3.696544e-003	-2.593757e-003
2251412.017	3.250698e-003	-3.507259e-003	1.000339e+000	-3.961303e-002	1.000361e+000	-3.868848e-002	3.672665e-003	-2.709573e-003
2313951.101	3.579577e-003	-3.089382e-003	9.998431e-001	-4.072375e-002	1.000379e+000	-3.947140e-002	3.992774e-003	-2.783997e-003
2376490.184	3.313969e-003	-3.137900e-003	9.996287e-001	-4.105729e-002	1.000336e+000	-4.135747e-002	3.944059e-003	-2.791900e-003
2439029.268	3.756439e-003	-3.171735e-003	9.997245e-001	-4.281871e-002	9.995469e-001	-4.252407e-002	3.603384e-003	-2.708491e-003
2501568.352	3.732720e-003	-3.196170e-003	9.994589e-001	-4.297373e-002	1.000427e+000	-4.313132e-002	3.904502e-003	-2.760180e-003
2564107.436	3.638958e-003	-3.369912e-003	9.997913e-001	-4.466029e-002	1.000273e+000	-4.462046e-002	3.191851e-003	-3.144999e-003
2626646.520	4.126533e-003	-3.561072e-003	9.996328e-001	-4.577015e-002	9.989312e-001	-4.570274e-002	3.463067e-003	-3.233135e-003
2689185.604	4.077246e-003	-3.424847e-003	1.000005e+000	-4.649761e-002	9.997254e-001	-4.647400e-002	3.585514e-003	-3.193706e-003
2751724.687	4.176664e-003	-3.533759e-003	9.998680e-001	-4.734413e-002	9.995846e-001	-4.722460e-002	3.185038e-003	-3.251965e-003
2814263.771	4.132580e-003	-3.621485e-003	9.988524e-001	-4.921044e-002	9.993217e-001	-4.859166e-002	3.153862e-003	-3.400442e-003
2876802.855	4.084226e-003	-3.849407e-003	9.989548e-001	-5.046885e-002	9.993298e-001	-4.961854e-002	3.216677e-003	-3.288993e-003
2939341.939	4.192425e-003	-3.790782e-003	9.995372e-001	-5.101482e-002	9.992648e-001	-5.101306e-002	3.118933e-003	-3.403911e-003
3001881.023	4.115054e-003	-3.806140e-003	9.991263e-001	-5.207062e-002	9.990669e-001	-5.215200e-002	3.199697e-003	-3.581536e-003
3064420.106	4.155214e-003	-3.862961e-003	9.997967e-001	-5.314602e-002	9.992738e-001	-5.312125e-002	3.049054e-003	-3.721614e-003
3126959.190	4.360157e-003	-3.998307e-003	9.993427e-001	-5.438579e-002	9.992556e-001	-5.429765e-002	3.207809e-003	-3.825166e-003
3189498.274	4.335563e-003	-3.992799e-003	9.992958e-001	-5.536320e-002	9.991962e-001	-5.537631e-002	3.196329e-003	-3.893687e-003
3252037.358	4.250724e-003	-4.384777e-003	9.993410e-001	-5.648235e-002	9.992502e-001	-5.636612e-002	3.140577e-003	-3.885996e-003
3314576.442	4.251279e-003	-4.247313e-003	9.992264e-001	-5.750551e-002	9.991322e-001	-5.751588e-002	3.197409e-003	-4.014510e-003
3377115.525	4.214641e-003	-4.280572e-003	9.990451e-001	-5.853207e-002	9.989269e-001	-5.872818e-002	3.035248e-003	-4.184582e-003
3439654.609	4.203543e-003	-4.367298e-003	9.988398e-001	-5.960253e-002	9.991423e-001	-5.973114e-002	3.048949e-003	-4.026885e-003
3502193.693	4.186837e-003	-4.732824e-003	9.988590e-001	-6.083694e-002	9.988328e-001	-6.072465e-002	3.205792e-003	-4.117332e-003
3564732.777	4.221598e-003	-4.618379e-003	9.989043e-001	-6.186729e-002	9.988433e-001	-6.191120e-002	3.291068e-003	-4.120748e-003
3627271.861	4.065344e-003	-4.801902e-003	9.988837e-001	-6.303531e-002	9.989148e-001	-6.286586e-002	3.063209e-003	-4.388329e-003
3689810.944	3.971200e-003	-4.978803e-003	9.987409e-001	-6.412589e-002	9.988095e-001	-6.390456e-002	3.217999e-003	-4.428827e-003
3752350.028	4.078741e-003	-4.982906e-003	9.985944e-001	-6.497152e-002	9.985396e-001	-6.496964e-002	3.146689e-003	-4.521271e-003
3814889.112	4.185435e-003	-4.903088e-003	9.984961e-001	-6.610344e-002	9.987194e-001	-6.632382e-002	3.059372e-003	-4.706350e-003
3877428.196	4.118096e-003	-4.943285e-003	9.986387e-001	-6.723818e-002	9.986589e-001	-6.718990e-002	3.370494e-003	-4.734128e-003
3939967.280	4.085763e-003	-5.294782e-003	9.985106e-001	-6.840357e-002	9.986186e-001	-6.834236e-002	3.349435e-003	-4.707207e-003
4002506.363	4.144755e-003	-5.216284e-003	9.984913e-001	-6.944322e-002	9.985248e-001	-6.922065e-002	3.289061e-003	-4.831381e-003
4065045.447	3.959715e-003	-5.359795e-003	9.982183e-001	-7.060285e-002	9.983350e-001	-7.044525e-002	3.377689e-003	-5.008271e-003
4127584.531	3.929735e-003	-5.443239e-003	9.981782e-001	-7.163284e-002	9.982867e-001	-7.142695e-002	3.381146e-003	-4.960294e-003
4190123.615	3.968887e-003	-5.492166e-003	9.981576e-001	-7.293642e-002	9.981061e-001	-7.266764e-002	3.292087e-003	-5.258508e-003
4252662.699	3.913235e-003	-5.629439e-003	9.982312e-001	-7.401977e-002	9.980011e-001	-7.390880e-002	3.376258e-003	-5.288134e-003
4315201.782	4.044605e-003	-5.734689e-003	9.980788e-001	-7.484709e-002	9.981903e-001	-7.498048e-002	3.190839e-003	-5.555540e-003
4377740.866	3.939328e-003	-5.827577e-003	9.980906e-001	-7.610354e-002	9.979106e-001	-7.604945e-002	3.359044e-003	-5.325824e-003
4440279.950	3.839079e-003	-6.047909e-003	9.980000e-001	-7.700096e-002	9.977264e-001	-7.701733e-002	3.241746e-003	-5.552795e-003
4502819.034	3.826570e-003	-5.982323e-003	9.976695e-001	-7.821420e-002	9.977949e-001	-7.808844e-002	3.313868e-003	-5.481584e-003
4565358.118	3.723745e-003	-6.104382e-003	9.976121e-001	-7.926656e-002	9.975018e-001	-7.900600e-002	3.320658e-003	-5.659768e-003
4627897.201	3.913987e-003	-6.046598e-003	9.977240e-001	-8.034791e-002	9.975311e-001	-8.010957e-002	3.410665e-003	-5.628809e-003
4690436.285	3.713800e-003	-6.247744e-003	9.976646e-001	-8.151378e-002	9.975474e-001	-8.156908e-002	3.401537e-003	-5.905650e-003
4752975.369	3.716224e-003	-6.338965e-003	9.973177e-001	-8.272118e-002	9.974981e-001	-8.254146e-002	3.217280e-003	-6.031102e-003
4815514.453	3.835836e-003	-6.401641e-003	9.974468e-001	-8.366770e-002	9.973829e-001	-8.369506e-002	3.422047e-003	-6.010722e-003
4878053.537	3.925829e-003	-6.563758e-003	9.974127e-001	-8.472049e-002	9.972674e-001	-8.462408e-002	3.383217e-003	-6.169284e-003
4940592.620	3.648412e-003	-6.617252e-003	9.972018e-001	-8.587084e-002	9.972104e-001	-8.584126e-002	3.138468e-003	-6.280046e-003
5003131.704	3.708187e-003	-6.832284e-003	9.970496e-001	-8.691678e-002	9.971753e-001	-8.668985e-002	3.261436e-003	-6.414196e-003
5065670.788	3.626459e-003	-6.718411e-003	9.969684e-001	-8.805439e-002	9.970374e-001	-8.781046e-002	3.224862e-003	-6.455646e-003
5128209.872	3.755330e-003	-6.923740e-003	9.970556e-001	-8.910196e-002	9.969265e-001	-8.891032e-002	3.192366e-003	-6.743609e-003
5190748.956	3.657757e-003	-7.019492e-003	9.968649e-001	-9.020194e-002	9.969237e-001	-9.012066e-002	3.134986e-003	-6.694134e-003
5253288.039	3.688570e-003	-7.156181e-003	9.968690e-001	-9.132995e-002	9.967934e-001	-9.117100e-002	3.066735e-003	-6.708113e-003
5315827.123	3.650426e-003	-7.295980e-003	9.965824e-001	-9.243237e-002	9.967015e-001	-9.228813e-002	3.033407e-003	-6.885155e-003
5378366.207	3.723115e-003	-7.323350e-003	9.966474e-001	-9.349905e-002	9.966220e-001	-9.354812e-002	3.013624e-003	-7.065028e-003
5440905.291	3.542899e-003	-7.317690e-003	9.965875e-001	-9.460670e-002	9.965372e-001	-9.451174e-002	2.907433e-003	-7.102708e-003
5503444.375	3.743853e-003	-7.571617e-003	9.964278e-001	-9.572576e-002	9.964876e-001	-9.546528e-002	3.086830e-003	-7.254831e-003
5565983.458	3.370684e-003	-7.543088e-003	9.963786e-001	-9.671316e-002	9.964083e-001	-9.650931e-002	2.999651e-003	-7.186548e-003
5628522.542	3.616189e-003	-7.698575e-003	9.962926e-001	-9.772847e-002	9.962757e-001	-9.777085e-002	3.032133e-003	-7.403375e-003
5691061.626	3.689139e-003	-7.963390e-003	9.960797e-001	-9.906417e-002	9.961238e-001	-9.885782e-002	2.929295e-003	-7.440753e-003
5753600.710	3.511539e-003	-7.970057e-003	9.959671e-001	-1.000090e-001	9.960774e-001	-9.989573e-002	2.966603e-003	-7.658606e-003
5816139.794	3.598600e-003	-7.883532e-003	9.959192e-001	-1.011042e-001	9.957847e-001	-1.011731e-001	2.807315e-003	-7.698329e-003
5878678.877	3.501744e-003	-8.197620e-003	9.958353e-001	-1.021961e-001	9.957820e-001	-1.021224e-001	2.910024e-003	-7.927137e-003
5941217.961	3.470945e-003	-8.354223e-003	9.956594e-001	-1.034262e-001	9.956592e-001	-1.030800e-001	2.710557e-003	-7.920837e-003
6003757.045	3.296711e-003	-8.218666e-003	9.954548e-001	-1.043498e-001	9.955846e-001	-1.041914e-001	2.824039e-003	-8.024322e-003
6066296.129	3.434951e-003	-8.498324e-003	9.955194e-001	-1.054433e-001	9.954963e-001	-1.051973e-001	2.786597e-003	-8.150451e-003
6128835.213	3.519122e-003	-8.568767e-003	9.953524e-001	-1.062679e-001	9.955301e-001	-1.064187e-001	2.861152e-003	-8.250341e-003
6191374.296	3.437514e-003	-8.687295e-003	9.952613e-001	-1.075696e-001	9.952040e-001	-1.076701e-001	2.697646e-003	-8.245057e-003
6253913.380	3.342510e-003	-8.659718e-003	9.951453e-001	-1.087189e-001	9.951506e-001	-1.085498e-001	2.562763e-003	-8.229009e-003
6316452.464	3.298073e-003	-8.668109e-003	9.950864e-001	-1.096511e-001	9.949041e-001	-1.098433e-001	2.601492e-003	-8.536323e-003
6378991.548	3.240556e-003	-8.921078e-003	9.949270e-001	-1.111100e-001	9.950455e-001	-1.107937e-001	2.639960e-003	-8.765163e-003
6441530.632	3.171213e-003	-9.088901e-003	9.947111e-001	-1.118923e-001	9.947964e-001	-1.119978e-001	2.657763e-003	-8.738216e-003
6504069.715	3.160486e-003	-9.206678e-003	9.945988e-001	-1.132267e-001	9.948303e-001	-1.130274e-001	2.659200e-003	-8.835860e-003
6566608.799	3.292420e-003	-9.363208e-003	9.946053e-001	-1.143733e-001	9.945907e-001	-1.141223e-001	2.547673e-003	-8.738224e-003
6629147.883	3.221410e-003	-9.310452e-003	9.943977e-001	-1.150963e-001	9.944487e-001	-1.152329e-001	2.625448e-003	-8.976101e-003
6691686.967	3.085514e-003	-9.388085e-003	9.941901e-001	-1.163137e-001	9.942269e-001	-1.162549e-001	2.625654e-003	-8.979945e-003
6754226.051	3.014587e-003	-9.508958e-003	9.940548e-001	-1.175391e-001	9.940489e-001	-1.175438e-001	2.417601e-003	-9.282765e-003
6816765.134	3.105757e-003	-9.600343e-003	9.939756e-001	-1.184913e-001	9.940428e-001	-1.184921e-001	2.449614e-003	-9.171650e-003
6879304.218	2.979978e-003	-9.862313e-003	9.938582e-001	-1.196586e-001	9.939226e-001	-1.195421e-001	2.427335e-003	-9.340623e-003
6941843.302	3.036397e-003	-9.806013e-003	9.936857e-001	-1.207771e-001	9.937710e-001	-1.205932e-001	2.397427e-003	-9.346707e-003
7004382.386	2.815808e-003	-9.830832e-003	9.936266e-001	-1.217192e-001	9.936066e-001	-1.216943e-001	2.303281e-003	-9.413612e-003
7066921.470	2.902683e-003	-9.967341e-003	9.934159e-001	-1.229826e-001	9.935290e-001	-1.226277e-001	2.443881e-003	-9.656724e-003
7129460.553	2.777567e-003	-1.015813e-002	9.933786e-001	-1.238271e-001	9.933834e-001	-1.238399e-001	2.429453e-003	-9.680609e-003
7191999.637	2.754265e-003	-1.002378e-002	9.929923e-001	-1.250510e-001	9.930809e-001	-1.248889e-001	2.269659e-003	-9.777489e-003
7254538.721	2.773970e-003	-1.023306e-002	9.931970e-001	-1.261728e-001	9.931577e-001	-1.260489e-001	2.285207e-003	-9.853933e-003
7317077.805	2.935825e-003	-1.035290e-002	9.929584e-001	-1.271413e-001	9.929931e-001	-1.270495e-001	2.253677e-003	-1.004444e-002
7379616.889	2.784526e-003	-1.043098e-002	9.929907e-001	-1.284329e-001	9.928064e-001	-1.281413e-001	2.184090e-003	-1.011847e-002
7442155.972	2.610532e-003	-1.052740e-002	9.926787e-001	-1.293181e-001	9.927318e-001	-1.291964e-001	2.247701e-003	-9.991901e-003
7504695.056	2.635676e-003	-1.072150e-002	9.924533e-001	-1.303126e-001	9.924070e-001	-1.304305e-001	2.248812e-003	-1.001383e-002
7567234.140	2.783288e-003	-1.087568e-002	9.924289e-001	-1.313946e-001	9.922981e-001	-1.314558e-001	2.157042e-003	-1.021378e-002
7629773.224	2.666812e-003	-1.067456e-002	9.923126e-001	-1.326616e-001	9.922917e-001	-1.325110e-001	2.061753e-003	-1.035354e-002
7692312.308	2.505316e-003	-1.082338e-002	9.921711e-001	-1.337186e-001	9.920524e-001	-1.336752e-001	2.106984e-003	-1.052651e-002
7754851.391	2.472971e-003	-1.107315e-002	9.919980e-001	-1.348486e-001	9.918400e-001	-1.345738e-001	2.025443e-003	-1.048442e-002
7817390.475	2.532787e-003	-1.094679e-002	9.918570e-001	-1.360697e-001	9.917097e-001	-1.358705e-001	1.917046e-003	-1.045974e-002
7879929.559	2.422440e-003	-1.122229e-002	9.915892e-001	-1.371078e-001	9.915791e-001	-1.370941e-001	2.015925e-003	-1.055162e-002
7942468.643	2.351497e-003	-1.136257e-002	9.915602e-001	-1.381201e-001	9.915043e-001	-1.381509e-001	1.970939e-003	-1.082343e-002
8005007.727	2.427157e-003	-1.142104e-002	9.912887e-001	-1.392731e-001	9.914048e-001	-1.391721e-001	1.867558e-003	-1.068136e-002
8067546.811	2.256404e-003	-1.148384e-002	9.911963e-001	-1.403460e-001	9.910877e-001	-1.402243e-001	1.743778e-003	-1.097863e-002
8130085.894	2.299262e-003	-1.163792e-002	9.910198e-001	-1.413359e-001	9.909879e-001	-1.413480e-001	1.934239e-003	-1.112047e-002
8192624.978	2.110761e-003	-1.178406e-002	9.906762e-001	-1.425541e-001	9.908348e-001	-1.423562e-001	1.953441e-003	-1.121490e-002
8255164.062	2.198736e-003	-1.185423e-002	9.906762e-001	-1.435588e-001	9.906343e-001	-1.434622e-001	1.896062e-003	-1.134709e-002
8317703.146	2.050132e-003	-1.181832e-002	9.905567e-001	-1.446782e-001	9.905978e-001	-1.445475e-001	1.688606e-003	-1.137782e-002
8380242.230	2.148259e-003	-1.216113e-002	9.902522e-001	-1.458700e-001	9.903099e-001	-1.455815e-001	1.629290e-003	-1.154100e-002
8442781.313	2.093844e-003	-1.219843e-002	9.903337e-001	-1.467880e-001	9.902053e-001	-1.465995e-001	1.582398e-003	-1.170758e-002
8505320.397	2.048836e-003	-1.215682e-002	9.900744e-001	-1.479501e-001	9.900027e-001	-1.477712e-001	1.493899e-003	-1.173548e-002
8567859.481	1.964307e-003	-1.208623e-002	9.898762e-001	-1.488416e-001	9.899323e-001	-1.488203e-001	1.501600e-003	-1.165719e-002
8630398.565	2.024440e-003	-1.222654e-002	9.895912e-001	-1.499046e-001	9.897928e-001	-1.498611e-001	1.351228e-003	-1.200259e-002
8692937.649	1.934803e-003	-1.252450e-002	9.894684e-001	-1.510144e-001	9.894414e-001	-1.509639e-001	1.257224e-003	-1.198493e-002
8755476.732	1.915234e-003	-1.254731e-002	9.893596e-001	-1.521859e-001	9.892784e-001	-1.519719e-001	1.291991e-003	-1.206640e-002
8818015.816	1.770642e-003	-1.267336e-002	9.891039e-001	-1.532112e-001	9.889733e-001	-1.530818e-001	1.368159e-003	-1.222878e-002
8880554.900	1.947358e-003	-1.272147e-002	9.890658e-001	-1.544002e-001	9.890803e-001	-1.540512e-001	1.190742e-003	-1.249604e-002
8943093.984	1.747075e-003	-1.271134e-002	9.888702e-001	-1.553756e-001	9.889200e-001	-1.551437e-001	1.181981e-003	-1.252255e-002
9005633.068	1.777580e-003	-1.289353e-002	9.886134e-001	-1.564835e-001	9.887730e-001	-1.563705e-001	1.052453e-003	-1.274434e-002
9068172.151	1.588617e-003	-1.298817e-002	9.885718e-001	-1.575560e-001	9.884431e-001	-1.573017e-001	1.074972e-003	-1.278115e-002
9130711.235	1.774366e-003	-1.314653e-002	9.883016e-001	-1.586730e-001	9.883517e-001	-1.583730e-001	1.081121e-003	-1.305995e-002
9193250.319	1.721933e-003	-1.325103e-002	9.882647e-001	-1.595729e-001	9.881381e-001	-1.595283e-001	9.709596e-004	-1.307354e-002
9255789.403	1.573790e-003	-1.350180e-002	9.880777e-001	-1.605545e-001	9.879403e-001	-1.605550e-001	7.893505e-004	-1.309781e-002
9318328.487	1.495809e-003	-1.349422e-002	9.878272e-001	-1.618823e-001	9.879255e-001	-1.615629e-001	8.567205e-004	-1.319707e-002
9380867.570	1.463072e-003	-1.346916e-002	9.877301e-001	-1.629895e-001	9.875898e-001	-1.627835e-001	8.221251e-004	-1.330531e-002
9443406.654	1.475959e-003	-1.355506e-002	9.875840e-001	-1.639333e-001	9.875639e-001	-1.639376e-001	8.156150e-004	-1.347194e-002
9505945.738	1.413590e-003	-1.362420e-002	9.871865e-001	-1.651855e-001	9.874324e-001	-1.649753e-001	7.383312e-004	-1.355822e-002
9568484.822	1.424239e-003	-1.375021e-002	9.871792e-001	-1.662144e-001	9.869882e-001	-1.660214e-001	4.945634e-004	-1.341871e-002
