!Agilent Technologies,E5061B,MY49102235,A.02.00
!Date: Tue Jul 11 14:37:29 2023
!Data & Calibration Information:
!Freq	S11:SOLT2(ON)	S21:SOLT2(ON)	S12:SOLT2(ON)	S22:SOLT2(ON)
# Hz S RI R 50
5.000	-5.223351e-003	-5.639991e-003	1.001527e+000	7.879397e-003	1.000104e+000	1.027707e-002	-1.444278e-003	-7.552884e-003
62544.084	5.809941e-003	-8.265552e-005	1.001551e+000	-6.085230e-005	1.000834e+000	7.913351e-004	7.714259e-003	-2.461758e-003
125083.168	5.667813e-003	3.540862e-004	1.001089e+000	-1.870162e-003	1.000762e+000	-1.603084e-003	7.504308e-003	-1.440690e-003
187622.251	5.464078e-003	9.818093e-004	1.000495e+000	-3.684272e-003	1.000877e+000	-2.293972e-003	7.387092e-003	-1.096720e-003
250161.335	5.288968e-003	1.505231e-003	1.000682e+000	-5.020597e-003	1.000677e+000	-4.692223e-003	7.294807e-003	-3.589456e-004
312700.419	5.440965e-003	2.670742e-003	1.000969e+000	-6.150757e-003	1.000476e+000	-5.638040e-003	7.831461e-003	-2.322725e-004
375239.503	5.361496e-003	1.581608e-003	1.001002e+000	-7.987405e-003	1.000435e+000	-7.417302e-003	7.320954e-003	2.333194e-005
437778.587	5.192730e-003	2.392683e-003	1.001439e+000	-8.547170e-003	1.000892e+000	-9.091092e-003	6.671574e-003	7.360986e-004
500317.670	4.673688e-003	2.941438e-003	1.001226e+000	-1.139278e-002	1.001516e+000	-1.102469e-002	4.895876e-003	1.346732e-003
562856.754	5.991917e-003	3.041841e-003	1.001417e+000	-1.333476e-002	1.000945e+000	-1.293549e-002	6.124860e-003	2.242504e-003
625395.838	5.200551e-003	3.619257e-003	1.002247e+000	-1.495709e-002	1.001914e+000	-1.425216e-002	6.240690e-003	3.210128e-003
687934.922	5.274161e-003	3.698715e-003	1.001216e+000	-1.640851e-002	1.001091e+000	-1.618159e-002	5.882210e-003	3.159556e-003
750474.006	4.613164e-003	4.493633e-003	1.000887e+000	-1.611362e-002	1.000652e+000	-1.576343e-002	5.796922e-003	3.804864e-003
813013.089	4.825344e-003	4.933277e-003	1.001181e+000	-1.833702e-002	1.000365e+000	-1.792013e-002	5.171125e-003	4.393278e-003
875552.173	4.585646e-003	5.499346e-003	1.001040e+000	-1.961953e-002	1.000611e+000	-1.953165e-002	5.973817e-003	4.394548e-003
938091.257	4.697685e-003	5.985862e-003	1.001209e+000	-2.162332e-002	1.000835e+000	-2.108821e-002	6.245304e-003	5.380233e-003
1000630.341	4.161381e-003	6.051244e-003	1.000658e+000	-2.340854e-002	1.000729e+000	-2.294267e-002	5.518971e-003	5.106258e-003
1063169.425	4.561294e-003	6.301760e-003	1.001045e+000	-2.524568e-002	1.000398e+000	-2.417925e-002	4.710814e-003	5.221729e-003
1125708.508	4.470007e-003	6.780286e-003	1.000839e+000	-2.666418e-002	1.000311e+000	-2.601676e-002	4.255792e-003	5.919206e-003
1188247.592	5.040360e-003	6.744137e-003	1.000959e+000	-2.843987e-002	1.000691e+000	-2.752453e-002	3.195879e-003	5.801538e-003
1250786.676	4.900959e-003	6.426887e-003	1.000534e+000	-2.853419e-002	1.000289e+000	-2.856894e-002	2.453507e-003	4.575525e-003
1313325.760	5.047130e-003	6.746873e-003	1.000819e+000	-3.061550e-002	1.000574e+000	-3.069446e-002	3.227218e-003	5.179135e-003
1375864.844	4.813890e-003	6.974349e-003	1.000397e+000	-3.297750e-002	1.000039e+000	-3.277676e-002	3.126431e-003	5.891711e-003
1438403.927	4.741401e-003	7.253031e-003	1.000456e+000	-3.396726e-002	1.000399e+000	-3.324557e-002	3.254236e-003	6.575079e-003
1500943.011	5.015275e-003	7.729403e-003	1.001081e+000	-3.541286e-002	1.000719e+000	-3.503516e-002	3.629469e-003	6.604457e-003
1563482.095	5.054444e-003	7.792601e-003	1.000549e+000	-3.722107e-002	1.000007e+000	-3.628532e-002	3.816430e-003	7.221050e-003
1626021.179	4.900240e-003	8.363004e-003	1.000485e+000	-3.883503e-002	1.000349e+000	-3.926039e-002	4.134819e-003	7.594496e-003
1688560.263	4.650600e-003	8.848278e-003	9.999893e-001	-4.109105e-002	1.000655e+000	-4.085419e-002	4.342683e-003	8.015575e-003
1751099.346	4.822147e-003	9.384732e-003	1.000514e+000	-4.247020e-002	9.999426e-001	-4.186616e-002	4.226530e-003	9.285914e-003
1813638.430	4.522630e-003	9.778681e-003	1.000892e+000	-4.452426e-002	1.000242e+000	-4.414373e-002	4.442949e-003	9.336581e-003
1876177.514	4.625100e-003	1.050613e-002	1.000946e+000	-4.584268e-002	1.000313e+000	-4.615329e-002	4.182228e-003	1.046238e-002
1938716.598	4.144293e-003	1.104163e-002	1.001114e+000	-4.734606e-002	1.000395e+000	-4.646627e-002	4.414521e-003	1.129373e-002
2001255.682	4.081936e-003	1.101574e-002	1.000990e+000	-4.909320e-002	1.000288e+000	-4.858383e-002	4.232544e-003	1.128439e-002
2063794.765	4.268337e-003	1.182644e-002	1.000542e+000	-5.065497e-002	9.996932e-001	-5.057779e-002	4.665361e-003	1.163351e-002
2126333.849	3.838914e-003	1.178476e-002	9.999021e-001	-5.220072e-002	9.990937e-001	-5.149543e-002	5.000707e-003	1.231178e-002
2188872.933	4.401529e-003	1.220970e-002	9.996005e-001	-5.379415e-002	9.988670e-001	-5.291512e-002	4.938266e-003	1.272439e-002
2251412.017	4.568629e-003	1.230494e-002	9.994912e-001	-5.582606e-002	9.989804e-001	-5.446243e-002	5.001650e-003	1.307054e-002
2313951.101	4.980665e-003	1.315892e-002	9.986875e-001	-5.727361e-002	9.989015e-001	-5.580362e-002	5.387538e-003	1.344605e-002
2376490.184	4.799553e-003	1.359277e-002	9.986354e-001	-5.809858e-002	9.988493e-001	-5.806751e-002	5.427171e-003	1.390449e-002
2439029.268	5.329477e-003	1.401566e-002	9.984622e-001	-6.025177e-002	9.977093e-001	-5.965599e-002	5.176139e-003	1.447782e-002
2501568.352	5.398590e-003	1.446913e-002	9.980446e-001	-6.097472e-002	9.986476e-001	-6.078979e-002	5.575919e-003	1.490146e-002
2564107.436	5.392923e-003	1.478803e-002	9.982365e-001	-6.320201e-002	9.982159e-001	-6.281544e-002	4.943528e-003	1.499895e-002
2626646.520	5.975849e-003	1.503843e-002	9.980351e-001	-6.487760e-002	9.970669e-001	-6.429000e-002	5.305287e-003	1.539804e-002
2689185.604	6.031313e-003	1.567621e-002	9.982744e-001	-6.595199e-002	9.977300e-001	-6.561286e-002	5.533466e-003	1.590442e-002
2751724.687	6.238027e-003	1.605226e-002	9.981076e-001	-6.724114e-002	9.975349e-001	-6.689145e-002	5.242642e-003	1.636960e-002
2814263.771	6.304958e-003	1.644370e-002	9.969863e-001	-6.965188e-002	9.971490e-001	-6.859034e-002	5.330950e-003	1.670684e-002
2876802.855	6.373008e-003	1.672389e-002	9.970074e-001	-7.135341e-002	9.969681e-001	-7.023077e-002	5.538517e-003	1.729218e-002
2939341.939	6.627884e-003	1.727780e-002	9.975654e-001	-7.250822e-002	9.968270e-001	-7.219627e-002	5.562385e-003	1.769234e-002
3001881.023	6.664887e-003	1.775462e-002	9.969964e-001	-7.403380e-002	9.965211e-001	-7.365144e-002	5.775528e-003	1.800183e-002
3064420.106	6.862787e-003	1.818197e-002	9.974507e-001	-7.559678e-002	9.962912e-001	-7.528283e-002	5.738880e-003	1.836229e-002
3126959.190	7.190259e-003	1.853240e-002	9.968272e-001	-7.732851e-002	9.963754e-001	-7.689870e-002	6.040119e-003	1.876294e-002
3189498.274	7.311080e-003	1.903739e-002	9.965782e-001	-7.874764e-002	9.961453e-001	-7.846382e-002	6.191338e-003	1.918009e-002
3252037.358	7.363800e-003	1.915673e-002	9.965051e-001	-8.042663e-002	9.960568e-001	-8.002210e-002	6.296467e-003	1.970142e-002
3314576.442	7.550451e-003	1.980037e-002	9.962154e-001	-8.193259e-002	9.957947e-001	-8.166405e-002	6.509694e-003	2.007752e-002
3377115.525	7.683677e-003	2.029024e-002	9.958566e-001	-8.345883e-002	9.953438e-001	-8.340441e-002	6.510468e-003	2.042986e-002
3439654.609	7.851585e-003	2.069456e-002	9.955213e-001	-8.509186e-002	9.954191e-001	-8.489486e-002	6.720529e-003	2.108885e-002
3502193.693	7.983836e-003	2.086561e-002	9.953202e-001	-8.682689e-002	9.949297e-001	-8.638637e-002	7.072200e-003	2.151097e-002
3564732.777	8.239877e-003	2.147446e-002	9.951753e-001	-8.836590e-002	9.947274e-001	-8.805047e-002	7.357008e-003	2.199921e-002
3627271.861	8.284017e-003	2.181664e-002	9.950088e-001	-9.009618e-002	9.945739e-001	-8.958256e-002	7.313403e-003	2.227674e-002
3689810.944	8.386565e-003	2.217188e-002	9.945888e-001	-9.172735e-002	9.943231e-001	-9.116305e-002	7.684786e-003	2.275623e-002
3752350.028	8.706846e-003	2.266596e-002	9.942700e-001	-9.303637e-002	9.938362e-001	-9.270378e-002	7.835232e-003	2.317915e-002
3814889.112	9.064923e-003	2.325363e-002	9.938909e-001	-9.472399e-002	9.938096e-001	-9.460662e-002	7.977466e-003	2.352391e-002
3877428.196	9.233394e-003	2.373480e-002	9.937859e-001	-9.637754e-002	9.934768e-001	-9.597180e-002	8.536355e-003	2.397026e-002
3939967.280	9.431107e-003	2.390290e-002	9.934466e-001	-9.802004e-002	9.931850e-001	-9.760804e-002	8.752186e-003	2.451810e-002
4002506.363	9.756720e-003	2.449152e-002	9.931834e-001	-9.959904e-002	9.928204e-001	-9.908847e-002	8.945916e-003	2.490822e-002
4065045.447	9.845540e-003	2.486781e-002	9.926387e-001	-1.012788e-001	9.923893e-001	-1.007881e-001	9.291271e-003	2.524751e-002
4127584.531	1.008359e-002	2.530266e-002	9.922929e-001	-1.028628e-001	9.920834e-001	-1.022849e-001	9.600404e-003	2.581185e-002
4190123.615	1.041325e-002	2.576265e-002	9.919988e-001	-1.045848e-001	9.915741e-001	-1.040724e-001	9.764858e-003	2.603518e-002
4252662.699	1.064825e-002	2.614013e-002	9.917236e-001	-1.062536e-001	9.911573e-001	-1.057990e-001	1.017266e-002	2.650039e-002
4315201.782	1.109297e-002	2.652377e-002	9.913164e-001	-1.075689e-001	9.910496e-001	-1.073765e-001	1.027561e-002	2.675758e-002
4377740.866	1.128657e-002	2.692755e-002	9.909869e-001	-1.093340e-001	9.904408e-001	-1.089246e-001	1.078193e-002	2.746939e-002
4440279.950	1.150612e-002	2.723548e-002	9.905714e-001	-1.107939e-001	9.899720e-001	-1.104238e-001	1.097956e-002	2.773956e-002
4502819.034	1.184636e-002	2.778058e-002	9.898752e-001	-1.124293e-001	9.896798e-001	-1.119858e-001	1.140586e-002	2.830837e-002
4565358.118	1.209226e-002	2.815738e-002	9.895133e-001	-1.139909e-001	9.890894e-001	-1.133746e-001	1.172690e-002	2.861577e-002
4627897.201	1.262979e-002	2.868700e-002	9.892946e-001	-1.155712e-001	9.887362e-001	-1.149776e-001	1.220800e-002	2.911784e-002
4690436.285	1.282025e-002	2.898051e-002	9.888023e-001	-1.172307e-001	9.883481e-001	-1.169363e-001	1.254829e-002	2.933728e-002
4752975.369	1.318979e-002	2.936921e-002	9.881000e-001	-1.188889e-001	9.879631e-001	-1.183652e-001	1.273561e-002	2.969061e-002
4815514.453	1.366624e-002	2.976150e-002	9.878041e-001	-1.203311e-001	9.874523e-001	-1.200051e-001	1.333050e-002	3.016738e-002
4878053.537	1.414736e-002	3.004714e-002	9.873946e-001	-1.218146e-001	9.869302e-001	-1.214132e-001	1.368317e-002	3.046909e-002
4940592.620	1.429594e-002	3.047398e-002	9.867540e-001	-1.234433e-001	9.864835e-001	-1.230952e-001	1.385479e-002	3.083023e-002
5003131.704	1.474166e-002	3.070782e-002	9.862615e-001	-1.249573e-001	9.860804e-001	-1.243936e-001	1.438097e-002	3.115054e-002
5065670.788	1.510724e-002	3.127341e-002	9.857438e-001	-1.265527e-001	9.854634e-001	-1.260011e-001	1.476920e-002	3.155357e-002
5128209.872	1.564224e-002	3.147441e-002	9.853847e-001	-1.280246e-001	9.849304e-001	-1.275525e-001	1.514687e-002	3.169661e-002
5190748.956	1.597125e-002	3.182403e-002	9.847468e-001	-1.296014e-001	9.844614e-001	-1.291694e-001	1.555312e-002	3.218064e-002
5253288.039	1.647204e-002	3.211675e-002	9.842903e-001	-1.310873e-001	9.839444e-001	-1.306427e-001	1.592306e-002	3.260387e-002
5315827.123	1.686229e-002	3.238604e-002	9.835631e-001	-1.325864e-001	9.833447e-001	-1.321654e-001	1.636022e-002	3.282299e-002
5378366.207	1.741327e-002	3.274711e-002	9.831480e-001	-1.340909e-001	9.828066e-001	-1.338279e-001	1.678890e-002	3.304753e-002
5440905.291	1.770296e-002	3.315434e-002	9.826482e-001	-1.355481e-001	9.822708e-001	-1.351862e-001	1.714710e-002	3.342689e-002
5503444.375	1.834493e-002	3.327082e-002	9.819908e-001	-1.370926e-001	9.817565e-001	-1.365188e-001	1.779879e-002	3.361776e-002
5565983.458	1.848511e-002	3.370712e-002	9.814463e-001	-1.384610e-001	9.811434e-001	-1.379561e-001	1.822946e-002	3.408407e-002
5628522.542	1.921264e-002	3.389262e-002	9.808953e-001	-1.398396e-001	9.805593e-001	-1.395612e-001	1.872797e-002	3.421446e-002
5691061.626	1.974626e-002	3.396708e-002	9.801937e-001	-1.414972e-001	9.798643e-001	-1.410227e-001	1.912161e-002	3.453960e-002
5753600.710	2.010696e-002	3.432950e-002	9.795482e-001	-1.428212e-001	9.793178e-001	-1.424126e-001	1.966301e-002	3.465878e-002
5816139.794	2.070642e-002	3.474119e-002	9.789769e-001	-1.442608e-001	9.784896e-001	-1.440042e-001	2.002929e-002	3.495870e-002
5878678.877	2.111064e-002	3.474515e-002	9.783449e-001	-1.457238e-001	9.780606e-001	-1.453146e-001	2.063262e-002	3.504958e-002
5941217.961	2.158869e-002	3.489078e-002	9.776771e-001	-1.472466e-001	9.773647e-001	-1.465665e-001	2.096000e-002	3.537998e-002
6003757.045	2.197214e-002	3.533822e-002	9.769386e-001	-1.484589e-001	9.767265e-001	-1.479772e-001	2.158771e-002	3.555314e-002
6066296.129	2.258703e-002	3.533195e-002	9.765332e-001	-1.498464e-001	9.761348e-001	-1.492893e-001	2.207379e-002	3.571702e-002
6128835.213	2.318619e-002	3.552675e-002	9.758454e-001	-1.509028e-001	9.756664e-001	-1.507297e-001	2.267989e-002	3.589243e-002
6191374.296	2.364754e-002	3.569822e-002	9.751455e-001	-1.525369e-001	9.747955e-001	-1.522999e-001	2.304272e-002	3.618116e-002
6253913.380	2.409632e-002	3.597514e-002	9.745480e-001	-1.539035e-001	9.741596e-001	-1.534272e-001	2.345864e-002	3.644600e-002
6316452.464	2.457893e-002	3.619510e-002	9.739072e-001	-1.550870e-001	9.733837e-001	-1.549471e-001	2.400275e-002	3.637000e-002
6378991.548	2.505774e-002	3.618232e-002	9.732031e-001	-1.567572e-001	9.729726e-001	-1.561423e-001	2.456973e-002	3.638608e-002
6441530.632	2.549861e-002	3.623245e-002	9.725018e-001	-1.577736e-001	9.722330e-001	-1.575686e-001	2.513125e-002	3.660923e-002
6504069.715	2.600837e-002	3.633125e-002	9.718019e-001	-1.593214e-001	9.717326e-001	-1.587859e-001	2.565522e-002	3.672446e-002
6566608.799	2.665366e-002	3.636020e-002	9.712870e-001	-1.606515e-001	9.709023e-001	-1.601046e-001	2.610492e-002	3.701372e-002
6629147.883	2.714328e-002	3.657564e-002	9.705868e-001	-1.615652e-001	9.702712e-001	-1.613827e-001	2.668786e-002	3.697270e-002
6691686.967	2.754132e-002	3.668344e-002	9.697977e-001	-1.629333e-001	9.695765e-001	-1.626089e-001	2.723757e-002	3.713502e-002
6754226.051	2.798433e-002	3.674691e-002	9.691448e-001	-1.643230e-001	9.687933e-001	-1.640420e-001	2.753113e-002	3.700496e-002
6816765.134	2.858610e-002	3.679118e-002	9.686017e-001	-1.654807e-001	9.682696e-001	-1.651077e-001	2.811682e-002	3.725937e-002
6879304.218	2.897252e-002	3.669416e-002	9.678673e-001	-1.667515e-001	9.676633e-001	-1.663390e-001	2.860433e-002	3.723633e-002
6941843.302	2.955805e-002	3.689843e-002	9.672030e-001	-1.680190e-001	9.669708e-001	-1.675498e-001	2.911335e-002	3.735743e-002
7004382.386	2.989243e-002	3.702153e-002	9.666288e-001	-1.691220e-001	9.662666e-001	-1.687470e-001	2.952868e-002	3.743997e-002
7066921.470	3.046421e-002	3.697647e-002	9.658467e-001	-1.704754e-001	9.657281e-001	-1.697891e-001	3.017531e-002	3.729043e-002
7129460.553	3.083884e-002	3.689017e-002	9.653218e-001	-1.714535e-001	9.650177e-001	-1.711035e-001	3.066623e-002	3.737060e-002
7191999.637	3.134004e-002	3.711919e-002	9.644321e-001	-1.727866e-001	9.642442e-001	-1.723039e-001	3.101854e-002	3.738779e-002
7254538.721	3.185949e-002	3.700329e-002	9.641214e-001	-1.740414e-001	9.637722e-001	-1.735186e-001	3.153823e-002	3.739909e-002
7317077.805	3.249815e-002	3.695952e-002	9.634326e-001	-1.750313e-001	9.631416e-001	-1.746395e-001	3.199743e-002	3.730057e-002
7379616.889	3.284594e-002	3.697111e-002	9.629104e-001	-1.764035e-001	9.624552e-001	-1.758159e-001	3.242149e-002	3.731288e-002
7442155.972	3.316757e-002	3.696805e-002	9.621095e-001	-1.773969e-001	9.618379e-001	-1.769362e-001	3.299705e-002	3.749028e-002
7504695.056	3.366146e-002	3.684893e-002	9.614057e-001	-1.784615e-001	9.610704e-001	-1.781943e-001	3.350002e-002	3.751684e-002
7567234.140	3.428460e-002	3.671804e-002	9.609359e-001	-1.795996e-001	9.604613e-001	-1.792859e-001	3.388304e-002	3.739436e-002
7629773.224	3.467278e-002	3.697460e-002	9.603139e-001	-1.808849e-001	9.600021e-001	-1.803942e-001	3.426828e-002	3.730741e-002
7692312.308	3.499694e-002	3.688888e-002	9.596767e-001	-1.820136e-001	9.592662e-001	-1.816150e-001	3.476655e-002	3.717459e-002
7754851.391	3.540159e-002	3.668221e-002	9.590149e-001	-1.831763e-001	9.585319e-001	-1.825224e-001	3.517286e-002	3.725502e-002
7817390.475	3.594950e-002	3.680485e-002	9.584166e-001	-1.843734e-001	9.579381e-001	-1.838867e-001	3.556019e-002	3.730936e-002
7879929.559	3.626234e-002	3.658407e-002	9.576841e-001	-1.854990e-001	9.573193e-001	-1.851468e-001	3.610349e-002	3.722690e-002
7942468.643	3.665632e-002	3.648837e-002	9.571960e-001	-1.864975e-001	9.568051e-001	-1.861958e-001	3.650117e-002	3.700286e-002
8005007.727	3.718169e-002	3.642751e-002	9.565102e-001	-1.876623e-001	9.562230e-001	-1.872630e-001	3.686781e-002	3.716791e-002
8067546.811	3.746785e-002	3.640776e-002	9.559212e-001	-1.887324e-001	9.555331e-001	-1.882714e-001	3.718566e-002	3.690392e-002
8130085.894	3.794620e-002	3.626086e-002	9.552770e-001	-1.897675e-001	9.549641e-001	-1.894293e-001	3.780287e-002	3.674842e-002
8192624.978	3.819417e-002	3.613434e-002	9.545605e-001	-1.909763e-001	9.543930e-001	-1.904868e-001	3.826260e-002	3.665355e-002
8255164.062	3.870931e-002	3.605983e-002	9.540948e-001	-1.920303e-001	9.537383e-001	-1.915818e-001	3.863577e-002	3.652327e-002
8317703.146	3.901124e-002	3.607737e-002	9.535262e-001	-1.931320e-001	9.532722e-001	-1.926436e-001	3.887289e-002	3.651886e-002
8380242.230	3.950263e-002	3.574595e-002	9.528305e-001	-1.942822e-001	9.525340e-001	-1.936494e-001	3.923877e-002	3.635512e-002
8442781.313	3.986785e-002	3.570052e-002	9.524538e-001	-1.952444e-001	9.520106e-001	-1.947599e-001	3.960885e-002	3.618361e-002
8505320.397	4.026194e-002	3.573642e-002	9.517841e-001	-1.963589e-001	9.513878e-001	-1.958271e-001	3.995383e-002	3.613089e-002
8567859.481	4.063277e-002	3.575309e-002	9.511649e-001	-1.972262e-001	9.508909e-001	-1.968817e-001	4.040243e-002	3.617139e-002
8630398.565	4.107044e-002	3.560052e-002	9.504231e-001	-1.982731e-001	9.503110e-001	-1.979072e-001	4.064746e-002	3.583706e-002
8692937.649	4.138557e-002	3.528600e-002	9.499730e-001	-1.993483e-001	9.495902e-001	-1.990052e-001	4.098216e-002	3.582172e-002
8755476.732	4.177326e-002	3.523189e-002	9.494011e-001	-2.005420e-001	9.490440e-001	-1.999360e-001	4.141672e-002	3.571243e-002
8818015.816	4.201473e-002	3.509013e-002	9.487849e-001	-2.015460e-001	9.483084e-001	-2.010613e-001	4.187181e-002	3.549623e-002
8880554.900	4.258839e-002	3.498317e-002	9.483576e-001	-2.026583e-001	9.480409e-001	-2.019703e-001	4.208665e-002	3.525295e-002
8943093.984	4.279737e-002	3.497115e-002	9.477228e-001	-2.035887e-001	9.474794e-001	-2.030682e-001	4.247148e-002	3.516238e-002
9005633.068	4.319388e-002	3.474872e-002	9.470747e-001	-2.046573e-001	9.469819e-001	-2.042535e-001	4.271348e-002	3.493779e-002
9068172.151	4.339171e-002	3.463988e-002	9.466554e-001	-2.057034e-001	9.462757e-001	-2.051345e-001	4.311382e-002	3.484227e-002
9130711.235	4.394087e-002	3.441118e-002	9.460164e-001	-2.067403e-001	9.457733e-001	-2.061690e-001	4.348851e-002	3.452325e-002
9193250.319	4.425830e-002	3.425051e-002	9.456161e-001	-2.076629e-001	9.451679e-001	-2.072605e-001	4.376966e-002	3.445599e-002
9255789.403	4.447780e-002	3.398338e-002	9.450634e-001	-2.085694e-001	9.446290e-001	-2.082674e-001	4.398457e-002	3.439659e-002
9318328.487	4.477493e-002	3.393581e-002	9.444305e-001	-2.098557e-001	9.442137e-001	-2.092358e-001	4.441503e-002	3.423827e-002
9380867.570	4.513824e-002	3.390191e-002	9.439421e-001	-2.108358e-001	9.435083e-001	-2.103853e-001	4.474341e-002	3.408311e-002
9443406.654	4.550076e-002	3.374577e-002	9.433912e-001	-2.118095e-001	9.431264e-001	-2.114119e-001	4.509282e-002	3.386102e-002
9505945.738	4.581044e-002	3.361930e-002	9.426772e-001	-2.129548e-001	9.426050e-001	-2.124567e-001	4.537225e-002	3.370138e-002
9568484.822	4.615509e-002	3.341675e-002	9.422927e-001	-2.139215e-001	9.418149e-001	-2.134486e-001	4.553153e-002	3.378906e-002
9631023.906	4.644386e-002	3.329675e-002	9.417964e-001	-2.149086e-001	9.413163e-001	-2.144829e-001	4.598688e-002	3.332881e-002
9693562.989	4.677853e-002	3.311787e-002	9.411476e-001	-2.159602e-001	9.408440e-001	-2.154171e-001	4.606129e-002	3.331449e-002
9756102.073	4.705504e-002	3.291608e-002	9.408200e-001	-2.169869e-001	9.403742e-001	-2.163876e-001	4.640495e-002	3.302422e-002
