!Agilent Technologies,E5061B,MY49102235,A.02.00
!Date: Tue Jul 11 15:15:46 2023
!Data & Calibration Information:
!Freq	S11:SOLT2(ON)	S21:SOLT2(ON)	S12:SOLT2(ON)	S22:SOLT2(ON)
# Hz S RI R 50
5.000	-5.220261e-003	-5.649283e-003	1.001511e+000	7.973666e-003	1.000141e+000	1.023064e-002	-1.484846e-003	-7.547976e-003
62544.084	5.808948e-003	-5.231750e-005	1.001344e+000	1.509971e-005	1.000868e+000	7.320284e-004	7.705048e-003	-2.431008e-003
125083.168	5.701769e-003	3.873216e-004	1.000848e+000	-1.671170e-003	1.000858e+000	-1.703296e-003	7.503737e-003	-1.410747e-003
187622.251	5.475191e-003	9.959653e-004	1.000426e+000	-3.440972e-003	1.000939e+000	-2.276476e-003	7.397797e-003	-1.049986e-003
250161.335	5.316475e-003	1.569849e-003	1.000480e+000	-4.864147e-003	1.000729e+000	-4.874551e-003	7.287613e-003	-3.050980e-004
312700.419	5.472525e-003	2.725119e-003	1.000817e+000	-5.975571e-003	1.000602e+000	-5.684185e-003	7.827008e-003	-1.882558e-004
375239.503	5.373136e-003	1.647775e-003	1.000967e+000	-7.797248e-003	1.000472e+000	-7.551247e-003	7.319071e-003	1.021966e-004
437778.587	5.219481e-003	2.482570e-003	1.001256e+000	-8.410820e-003	1.001016e+000	-9.217555e-003	6.693455e-003	8.241107e-004
500317.670	4.688963e-003	3.041072e-003	1.001197e+000	-1.130113e-002	1.001613e+000	-1.110564e-002	4.897729e-003	1.427959e-003
562856.754	6.017208e-003	3.158649e-003	1.001168e+000	-1.321463e-002	1.001019e+000	-1.304804e-002	6.138894e-003	2.353887e-003
625395.838	5.219837e-003	3.741944e-003	1.002133e+000	-1.484093e-002	1.002133e+000	-1.436593e-002	6.236744e-003	3.328113e-003
687934.922	5.324267e-003	3.836553e-003	1.001099e+000	-1.627312e-002	1.001132e+000	-1.634943e-002	5.919075e-003	3.308296e-003
750474.006	4.599167e-003	4.609525e-003	1.000675e+000	-1.609371e-002	1.000772e+000	-1.603123e-002	5.772025e-003	3.930138e-003
813013.089	4.794015e-003	5.043548e-003	1.000925e+000	-1.827080e-002	1.000474e+000	-1.798823e-002	5.138226e-003	4.536322e-003
875552.173	4.573912e-003	5.647171e-003	1.000863e+000	-1.968604e-002	1.000872e+000	-1.969352e-002	5.952006e-003	4.564572e-003
938091.257	4.656995e-003	6.142384e-003	1.000952e+000	-2.139996e-002	1.000932e+000	-2.125515e-002	6.224532e-003	5.546776e-003
1000630.341	4.146234e-003	6.229759e-003	1.000463e+000	-2.339777e-002	1.000744e+000	-2.306209e-002	5.494886e-003	5.276110e-003
1063169.425	4.525845e-003	6.480097e-003	1.000708e+000	-2.512729e-002	1.000456e+000	-2.439778e-002	4.703269e-003	5.392816e-003
1125708.508	4.439474e-003	6.976133e-003	1.000479e+000	-2.664127e-002	1.000512e+000	-2.610823e-002	4.250243e-003	6.121754e-003
1188247.592	5.013724e-003	6.946137e-003	1.000728e+000	-2.820140e-002	1.000671e+000	-2.762746e-002	3.169125e-003	6.006680e-003
1250786.676	4.874477e-003	6.641091e-003	1.000281e+000	-2.844576e-002	1.000484e+000	-2.867914e-002	2.442698e-003	4.792713e-003
1313325.760	5.030564e-003	6.976167e-003	1.000623e+000	-3.060458e-002	1.000618e+000	-3.079418e-002	3.214558e-003	5.425222e-003
1375864.844	4.786744e-003	7.201317e-003	1.000180e+000	-3.290776e-002	1.000086e+000	-3.299016e-002	3.121157e-003	6.129401e-003
1438403.927	4.726392e-003	7.499563e-003	1.000154e+000	-3.400676e-002	1.000482e+000	-3.347766e-002	3.247722e-003	6.835357e-003
1500943.011	4.992015e-003	7.992704e-003	1.000716e+000	-3.530650e-002	1.000903e+000	-3.530061e-002	3.636595e-003	6.867344e-003
1563482.095	5.040559e-003	8.060611e-003	1.000362e+000	-3.715747e-002	1.000089e+000	-3.646504e-002	3.824273e-003	7.501134e-003
1626021.179	4.886050e-003	8.639618e-003	1.000244e+000	-3.880728e-002	1.000403e+000	-3.949499e-002	4.139232e-003	7.893467e-003
1688560.263	4.638022e-003	9.143669e-003	9.997820e-001	-4.098404e-002	1.000711e+000	-4.118041e-002	4.359910e-003	8.310053e-003
1751099.346	4.818083e-003	9.690732e-003	1.000244e+000	-4.260517e-002	1.000057e+000	-4.216187e-002	4.241626e-003	9.601048e-003
1813638.430	4.535206e-003	1.009758e-002	1.000563e+000	-4.465255e-002	1.000174e+000	-4.439015e-002	4.449865e-003	9.670589e-003
1876177.514	4.626559e-003	1.083532e-002	1.000761e+000	-4.588818e-002	1.000517e+000	-4.638519e-002	4.204477e-003	1.080039e-002
1938716.598	4.140088e-003	1.138432e-002	1.000879e+000	-4.725702e-002	1.000474e+000	-4.677047e-002	4.432227e-003	1.163310e-002
2001255.682	4.106143e-003	1.136222e-002	1.000798e+000	-4.918860e-002	1.000402e+000	-4.885821e-002	4.238205e-003	1.164855e-002
2063794.765	4.265177e-003	1.221002e-002	1.000316e+000	-5.061454e-002	9.995049e-001	-5.106935e-002	4.691628e-003	1.198706e-002
2126333.849	3.860375e-003	1.215137e-002	9.997348e-001	-5.221106e-002	9.990292e-001	-5.175449e-002	5.017114e-003	1.269131e-002
2188872.933	4.414868e-003	1.260139e-002	9.994009e-001	-5.390894e-002	9.990579e-001	-5.334611e-002	4.989099e-003	1.312272e-002
2251412.017	4.581886e-003	1.270742e-002	9.992343e-001	-5.588172e-002	9.991260e-001	-5.472246e-002	5.044468e-003	1.348154e-002
2313951.101	5.004875e-003	1.358423e-002	9.985639e-001	-5.728324e-002	9.989693e-001	-5.615793e-002	5.421964e-003	1.386884e-002
2376490.184	4.832989e-003	1.403355e-002	9.983997e-001	-5.825501e-002	9.987648e-001	-5.848499e-002	5.464264e-003	1.433965e-002
2439029.268	5.362087e-003	1.445123e-002	9.982021e-001	-6.048967e-002	9.979075e-001	-5.997479e-002	5.239798e-003	1.493228e-002
2501568.352	5.436249e-003	1.491770e-002	9.978802e-001	-6.108060e-002	9.986148e-001	-6.114106e-002	5.630916e-003	1.535693e-002
2564107.436	5.439208e-003	1.524304e-002	9.980177e-001	-6.338910e-002	9.982090e-001	-6.326712e-002	5.014617e-003	1.546576e-002
2626646.520	6.016038e-003	1.552803e-002	9.977443e-001	-6.489037e-002	9.970059e-001	-6.467349e-002	5.375397e-003	1.587890e-002
2689185.604	6.089344e-003	1.615897e-002	9.979937e-001	-6.614794e-002	9.977127e-001	-6.599053e-002	5.610793e-003	1.640135e-002
2751724.687	6.294993e-003	1.657020e-002	9.977873e-001	-6.737664e-002	9.975770e-001	-6.733480e-002	5.325680e-003	1.687638e-002
2814263.771	6.380221e-003	1.696882e-002	9.967001e-001	-6.971786e-002	9.971796e-001	-6.901598e-002	5.414477e-003	1.722015e-002
2876802.855	6.451451e-003	1.725494e-002	9.966505e-001	-7.151247e-002	9.970354e-001	-7.077321e-002	5.644912e-003	1.782453e-002
2939341.939	6.702802e-003	1.782009e-002	9.971474e-001	-7.265062e-002	9.967789e-001	-7.272256e-002	5.661417e-003	1.821538e-002
3001881.023	6.768167e-003	1.831993e-002	9.966521e-001	-7.430633e-002	9.967233e-001	-7.429291e-002	5.888763e-003	1.855965e-002
3064420.106	6.951271e-003	1.874724e-002	9.971408e-001	-7.574563e-002	9.962364e-001	-7.568748e-002	5.833040e-003	1.892976e-002
3126959.190	7.279045e-003	1.911666e-002	9.965204e-001	-7.749986e-002	9.963513e-001	-7.740268e-002	6.172365e-003	1.935423e-002
3189498.274	7.425485e-003	1.964849e-002	9.962943e-001	-7.896828e-002	9.961259e-001	-7.899633e-002	6.317007e-003	1.977689e-002
3252037.358	7.483843e-003	1.978128e-002	9.962302e-001	-8.067098e-002	9.960258e-001	-8.050017e-002	6.431568e-003	2.031460e-002
3314576.442	7.673810e-003	2.043615e-002	9.959102e-001	-8.213653e-002	9.957254e-001	-8.218073e-002	6.651584e-003	2.070560e-002
3377115.525	7.822746e-003	2.092481e-002	9.955418e-001	-8.369350e-002	9.952785e-001	-8.395391e-002	6.665274e-003	2.105647e-002
3439654.609	8.010553e-003	2.135319e-002	9.951444e-001	-8.534505e-002	9.953469e-001	-8.544128e-002	6.881857e-003	2.174639e-002
3502193.693	8.155904e-003	2.153839e-002	9.949909e-001	-8.709136e-002	9.948455e-001	-8.693058e-002	7.247010e-003	2.217189e-002
3564732.777	8.416089e-003	2.215003e-002	9.947959e-001	-8.861660e-002	9.946314e-001	-8.865394e-002	7.542394e-003	2.268162e-002
3627271.861	8.468701e-003	2.251393e-002	9.946304e-001	-9.033587e-002	9.944706e-001	-9.017081e-002	7.508928e-003	2.296030e-002
3689810.944	8.592639e-003	2.288198e-002	9.942398e-001	-9.197987e-002	9.941579e-001	-9.170613e-002	7.884542e-003	2.344861e-002
3752350.028	8.917602e-003	2.338853e-002	9.939029e-001	-9.331452e-002	9.936787e-001	-9.333354e-002	8.056514e-003	2.389657e-002
3814889.112	9.273512e-003	2.398223e-002	9.934724e-001	-9.495699e-002	9.936418e-001	-9.525330e-002	8.206152e-003	2.423888e-002
3877428.196	9.461124e-003	2.448184e-002	9.933705e-001	-9.666359e-002	9.932940e-001	-9.658367e-002	8.780126e-003	2.471273e-002
3939967.280	9.682107e-003	2.465340e-002	9.930305e-001	-9.834065e-002	9.930386e-001	-9.825203e-002	9.022360e-003	2.527408e-002
4002506.363	1.001706e-002	2.526435e-002	9.927331e-001	-9.993313e-002	9.926408e-001	-9.973064e-002	9.230438e-003	2.566808e-002
4065045.447	1.011996e-002	2.565334e-002	9.921933e-001	-1.015936e-001	9.921629e-001	-1.014482e-001	9.582004e-003	2.601717e-002
4127584.531	1.038332e-002	2.609599e-002	9.918249e-001	-1.031768e-001	9.918325e-001	-1.029333e-001	9.897569e-003	2.658623e-002
4190123.615	1.071657e-002	2.656297e-002	9.915068e-001	-1.049389e-001	9.913107e-001	-1.047179e-001	1.009072e-002	2.681334e-002
4252662.699	1.097671e-002	2.695185e-002	9.912531e-001	-1.065790e-001	9.909099e-001	-1.064577e-001	1.051418e-002	2.729158e-002
4315201.782	1.142835e-002	2.733793e-002	9.908078e-001	-1.079232e-001	9.907976e-001	-1.080253e-001	1.063528e-002	2.755313e-002
4377740.866	1.165438e-002	2.776171e-002	9.904868e-001	-1.097230e-001	9.901446e-001	-1.096207e-001	1.116382e-002	2.828256e-002
4440279.950	1.189741e-002	2.806045e-002	9.900239e-001	-1.111510e-001	9.896533e-001	-1.110770e-001	1.137684e-002	2.855993e-002
4502819.034	1.224183e-002	2.861799e-002	9.893311e-001	-1.128137e-001	9.893513e-001	-1.127039e-001	1.181902e-002	2.914083e-002
4565358.118	1.251283e-002	2.900224e-002	9.889463e-001	-1.143605e-001	9.887300e-001	-1.140594e-001	1.216592e-002	2.944380e-002
4627897.201	1.306400e-002	2.953333e-002	9.886425e-001	-1.159573e-001	9.883834e-001	-1.156435e-001	1.265795e-002	2.995356e-002
4690436.285	1.325962e-002	2.984303e-002	9.881917e-001	-1.175566e-001	9.879373e-001	-1.176026e-001	1.301061e-002	3.018081e-002
4752975.369	1.365691e-002	3.021837e-002	9.874678e-001	-1.192342e-001	9.875403e-001	-1.190857e-001	1.321212e-002	3.053507e-002
4815514.453	1.416932e-002	3.061929e-002	9.872036e-001	-1.206971e-001	9.870332e-001	-1.207333e-001	1.384953e-002	3.101530e-002
4878053.537	1.466420e-002	3.091491e-002	9.867606e-001	-1.221943e-001	9.865190e-001	-1.220896e-001	1.421306e-002	3.133011e-002
4940592.620	1.482469e-002	3.134581e-002	9.860813e-001	-1.237974e-001	9.860490e-001	-1.237556e-001	1.439090e-002	3.169182e-002
5003131.704	1.529711e-002	3.156694e-002	9.855498e-001	-1.253175e-001	9.855936e-001	-1.250774e-001	1.494522e-002	3.199367e-002
5065670.788	1.567853e-002	3.214186e-002	9.850375e-001	-1.268944e-001	9.849439e-001	-1.266745e-001	1.534957e-002	3.241503e-002
5128209.872	1.623267e-002	3.234528e-002	9.846540e-001	-1.284124e-001	9.844362e-001	-1.282278e-001	1.574454e-002	3.255912e-002
5190748.956	1.658726e-002	3.270154e-002	9.839735e-001	-1.299168e-001	9.839394e-001	-1.298530e-001	1.618192e-002	3.302966e-002
5253288.039	1.709097e-002	3.298889e-002	9.834855e-001	-1.314556e-001	9.833692e-001	-1.313044e-001	1.656695e-002	3.345148e-002
5315827.123	1.751597e-002	3.325341e-002	9.827753e-001	-1.329635e-001	9.827659e-001	-1.328154e-001	1.701272e-002	3.367738e-002
5378366.207	1.807790e-002	3.360464e-002	9.823251e-001	-1.344247e-001	9.822226e-001	-1.344534e-001	1.746880e-002	3.390109e-002
5440905.291	1.838732e-002	3.400870e-002	9.817783e-001	-1.359512e-001	9.816159e-001	-1.358442e-001	1.784237e-002	3.426404e-002
5503444.375	1.905717e-002	3.412327e-002	9.811830e-001	-1.374339e-001	9.811521e-001	-1.371768e-001	1.852805e-002	3.446677e-002
5565983.458	1.922448e-002	3.454714e-002	9.805955e-001	-1.388361e-001	9.804770e-001	-1.385975e-001	1.895530e-002	3.489993e-002
5628522.542	1.995921e-002	3.473281e-002	9.800230e-001	-1.401808e-001	9.798837e-001	-1.402090e-001	1.949806e-002	3.504974e-002
5691061.626	2.051092e-002	3.480217e-002	9.793389e-001	-1.418098e-001	9.791863e-001	-1.416249e-001	1.989638e-002	3.535973e-002
5753600.710	2.088507e-002	3.515308e-002	9.786338e-001	-1.431012e-001	9.786206e-001	-1.429839e-001	2.044780e-002	3.547074e-002
5816139.794	2.150357e-002	3.555492e-002	9.780989e-001	-1.445287e-001	9.777776e-001	-1.445824e-001	2.082942e-002	3.576447e-002
5878678.877	2.190895e-002	3.556691e-002	9.774268e-001	-1.459683e-001	9.773072e-001	-1.459002e-001	2.145607e-002	3.584533e-002
5941217.961	2.240936e-002	3.569272e-002	9.767358e-001	-1.474281e-001	9.765830e-001	-1.471388e-001	2.178650e-002	3.616005e-002
6003757.045	2.281121e-002	3.611931e-002	9.759248e-001	-1.486525e-001	9.759898e-001	-1.485123e-001	2.243856e-002	3.632019e-002
6066296.129	2.343703e-002	3.611167e-002	9.755259e-001	-1.500526e-001	9.753732e-001	-1.497927e-001	2.294369e-002	3.647186e-002
6128835.213	2.405581e-002	3.630411e-002	9.748837e-001	-1.510814e-001	9.748499e-001	-1.512553e-001	2.355407e-002	3.663199e-002
6191374.296	2.452882e-002	3.645853e-002	9.741384e-001	-1.526916e-001	9.739490e-001	-1.527819e-001	2.393905e-002	3.690989e-002
6253913.380	2.497697e-002	3.672378e-002	9.734950e-001	-1.540911e-001	9.733658e-001	-1.538849e-001	2.435627e-002	3.716018e-002
6316452.464	2.547098e-002	3.692164e-002	9.728717e-001	-1.552533e-001	9.725971e-001	-1.553996e-001	2.490965e-002	3.707500e-002
6378991.548	2.595711e-002	3.690866e-002	9.721908e-001	-1.568934e-001	9.721636e-001	-1.565500e-001	2.548234e-002	3.707900e-002
6441530.632	2.641571e-002	3.694257e-002	9.714586e-001	-1.578722e-001	9.714147e-001	-1.580113e-001	2.606354e-002	3.729790e-002
6504069.715	2.693733e-002	3.701764e-002	9.707883e-001	-1.594300e-001	9.708877e-001	-1.592020e-001	2.659462e-002	3.738496e-002
6566608.799	2.759267e-002	3.704524e-002	9.702665e-001	-1.607421e-001	9.700783e-001	-1.605090e-001	2.704562e-002	3.767378e-002
6629147.883	2.807146e-002	3.726074e-002	9.695379e-001	-1.616397e-001	9.693722e-001	-1.617413e-001	2.763812e-002	3.760752e-002
6691686.967	2.846905e-002	3.734937e-002	9.687962e-001	-1.630058e-001	9.687169e-001	-1.629911e-001	2.819606e-002	3.776149e-002
6754226.051	2.893510e-002	3.739156e-002	9.681369e-001	-1.643707e-001	9.679406e-001	-1.643922e-001	2.850005e-002	3.763421e-002
6816765.134	2.953243e-002	3.743622e-002	9.675358e-001	-1.655153e-001	9.674240e-001	-1.654557e-001	2.907032e-002	3.787426e-002
6879304.218	2.993454e-002	3.732274e-002	9.668250e-001	-1.667516e-001	9.668279e-001	-1.666537e-001	2.956080e-002	3.783728e-002
6941843.302	3.051151e-002	3.751169e-002	9.661652e-001	-1.680004e-001	9.661229e-001	-1.678512e-001	3.006489e-002	3.795244e-002
7004382.386	3.085158e-002	3.761292e-002	9.655510e-001	-1.691059e-001	9.653744e-001	-1.690558e-001	3.049428e-002	3.802867e-002
7066921.470	3.143319e-002	3.756002e-002	9.648117e-001	-1.704324e-001	9.648343e-001	-1.700824e-001	3.114289e-002	3.786698e-002
7129460.553	3.178721e-002	3.747043e-002	9.642870e-001	-1.714420e-001	9.641514e-001	-1.714146e-001	3.163659e-002	3.791830e-002
7191999.637	3.230679e-002	3.770850e-002	9.633686e-001	-1.727021e-001	9.633492e-001	-1.725591e-001	3.198614e-002	3.793575e-002
7254538.721	3.282745e-002	3.757554e-002	9.630657e-001	-1.739313e-001	9.629100e-001	-1.737821e-001	3.251202e-002	3.794286e-002
7317077.805	3.346218e-002	3.751501e-002	9.623595e-001	-1.749296e-001	9.622988e-001	-1.748489e-001	3.297836e-002	3.781895e-002
7379616.889	3.380663e-002	3.751794e-002	9.618426e-001	-1.763085e-001	9.615717e-001	-1.760281e-001	3.340198e-002	3.783369e-002
7442155.972	3.413377e-002	3.750737e-002	9.610617e-001	-1.772727e-001	9.609655e-001	-1.771108e-001	3.397764e-002	3.801086e-002
7504695.056	3.462845e-002	3.738240e-002	9.603265e-001	-1.783423e-001	9.601818e-001	-1.783840e-001	3.447585e-002	3.801731e-002
7567234.140	3.524023e-002	3.725643e-002	9.598925e-001	-1.794417e-001	9.596097e-001	-1.794680e-001	3.484932e-002	3.789875e-002
7629773.224	3.564292e-002	3.749378e-002	9.592666e-001	-1.807498e-001	9.591190e-001	-1.805937e-001	3.524031e-002	3.779825e-002
7692312.308	3.595233e-002	3.737757e-002	9.586263e-001	-1.818553e-001	9.583960e-001	-1.817413e-001	3.574103e-002	3.766188e-002
7754851.391	3.637402e-002	3.718747e-002	9.579721e-001	-1.829983e-001	9.576609e-001	-1.826785e-001	3.613399e-002	3.773054e-002
7817390.475	3.691687e-002	3.731443e-002	9.573800e-001	-1.842112e-001	9.570771e-001	-1.840052e-001	3.652919e-002	3.778703e-002
7879929.559	3.724362e-002	3.708435e-002	9.566732e-001	-1.853074e-001	9.564814e-001	-1.852510e-001	3.707726e-002	3.770461e-002
7942468.643	3.761858e-002	3.696900e-002	9.561685e-001	-1.863512e-001	9.559532e-001	-1.862814e-001	3.746288e-002	3.745916e-002
8005007.727	3.814585e-002	3.691120e-002	9.554513e-001	-1.874346e-001	9.553684e-001	-1.873426e-001	3.784949e-002	3.761744e-002
8067546.811	3.842517e-002	3.687537e-002	9.548876e-001	-1.884835e-001	9.546596e-001	-1.883721e-001	3.815366e-002	3.734241e-002
8130085.894	3.890090e-002	3.673210e-002	9.542634e-001	-1.895384e-001	9.541434e-001	-1.894927e-001	3.877298e-002	3.718577e-002
8192624.978	3.914509e-002	3.660981e-002	9.535242e-001	-1.907539e-001	9.535373e-001	-1.905286e-001	3.922050e-002	3.709118e-002
8255164.062	3.967669e-002	3.652536e-002	9.530788e-001	-1.918137e-001	9.528942e-001	-1.916294e-001	3.959557e-002	3.695792e-002
8317703.146	3.997644e-002	3.654432e-002	9.525359e-001	-1.929030e-001	9.524155e-001	-1.927298e-001	3.983697e-002	3.693493e-002
8380242.230	4.045986e-002	3.619721e-002	9.517870e-001	-1.940630e-001	9.516912e-001	-1.937418e-001	4.020152e-002	3.676949e-002
8442781.313	4.082701e-002	3.613967e-002	9.514580e-001	-1.949690e-001	9.511892e-001	-1.948080e-001	4.056777e-002	3.660052e-002
8505320.397	4.120665e-002	3.615829e-002	9.508015e-001	-1.960892e-001	9.505515e-001	-1.958887e-001	4.091348e-002	3.653153e-002
8567859.481	4.158044e-002	3.620051e-002	9.501671e-001	-1.969456e-001	9.500632e-001	-1.969046e-001	4.135402e-002	3.658507e-002
8630398.565	4.202037e-002	3.602828e-002	9.494250e-001	-1.979887e-001	9.494996e-001	-1.979231e-001	4.159359e-002	3.623651e-002
8692937.649	4.232499e-002	3.572165e-002	9.489596e-001	-1.990484e-001	9.487356e-001	-1.990142e-001	4.192346e-002	3.622382e-002
8755476.732	4.271312e-002	3.566857e-002	9.484287e-001	-2.002020e-001	9.482259e-001	-1.999611e-001	4.236244e-002	3.610888e-002
8818015.816	4.296297e-002	3.551050e-002	9.478011e-001	-2.012088e-001	9.475099e-001	-2.010609e-001	4.282070e-002	3.589081e-002
8880554.900	4.352371e-002	3.540099e-002	9.473458e-001	-2.022946e-001	9.472239e-001	-2.019903e-001	4.303590e-002	3.563706e-002
8943093.984	4.372960e-002	3.539510e-002	9.467672e-001	-2.032518e-001	9.466792e-001	-2.030720e-001	4.340515e-002	3.554883e-002
9005633.068	4.412573e-002	3.516573e-002	9.460800e-001	-2.043136e-001	9.461415e-001	-2.042356e-001	4.364797e-002	3.531342e-002
9068172.151	4.434379e-002	3.505263e-002	9.456791e-001	-2.053919e-001	9.454552e-001	-2.051116e-001	4.404949e-002	3.521195e-002
9130711.235	4.487488e-002	3.482100e-002	9.450193e-001	-2.063710e-001	9.449993e-001	-2.061238e-001	4.441991e-002	3.490135e-002
9193250.319	4.518917e-002	3.465690e-002	9.446253e-001	-2.072700e-001	9.443670e-001	-2.072436e-001	4.470597e-002	3.482945e-002
9255789.403	4.540859e-002	3.439158e-002	9.441491e-001	-2.082287e-001	9.438186e-001	-2.081761e-001	4.492159e-002	3.476175e-002
9318328.487	4.571491e-002	3.433118e-002	9.435015e-001	-2.094871e-001	9.434397e-001	-2.091934e-001	4.535218e-002	3.460453e-002
9380867.570	4.604803e-002	3.431120e-002	9.429885e-001	-2.104702e-001	9.427211e-001	-2.102994e-001	4.566806e-002	3.443798e-002
9443406.654	4.643268e-002	3.413522e-002	9.424565e-001	-2.114072e-001	9.423096e-001	-2.113549e-001	4.602288e-002	3.421510e-002
9505945.738	4.671360e-002	3.401693e-002	9.417470e-001	-2.125655e-001	9.418120e-001	-2.123796e-001	4.628757e-002	3.405956e-002
9568484.822	4.706239e-002	3.381351e-002	9.413599e-001	-2.135181e-001	9.410142e-001	-2.133617e-001	4.645128e-002	3.415542e-002
9631023.906	4.736543e-002	3.368442e-002	9.408361e-001	-2.145259e-001	9.405249e-001	-2.144011e-001	4.691164e-002	3.368418e-002
9693562.989	4.769317e-002	3.351408e-002	9.402144e-001	-2.155489e-001	9.400939e-001	-2.153180e-001	4.697831e-002	3.366213e-002
9756102.073	4.797221e-002	3.330869e-002	9.399038e-001	-2.165744e-001	9.396081e-001	-2.162546e-001	4.731572e-002	3.337299e-002
