!Agilent Technologies,E5061B,MY49102235,A.02.00
!Date: Tue Jul 11 16:20:57 2023
!Data & Calibration Information:
!Freq	S11:SOLT2(ON)	S21:SOLT2(ON)	S12:SOLT2(ON)	S22:SOLT2(ON)
# Hz S RI R 50
5.000	-5.184953e-003	-5.645627e-003	1.001449e+000	8.078646e-003	1.000233e+000	1.022754e-002	-1.459985e-003	-7.531142e-003
62544.084	5.825661e-003	-5.001888e-004	1.001331e+000	6.278564e-004	1.000904e+000	1.282083e-003	7.710000e-003	-2.874472e-003
125083.168	5.684354e-003	-4.681833e-004	1.000874e+000	-7.951933e-004	1.000770e+000	-9.589166e-004	7.493017e-003	-2.247806e-003
187622.251	5.454134e-003	-3.050281e-004	1.000427e+000	-2.144162e-003	1.001121e+000	-8.708873e-004	7.380656e-003	-2.365370e-003
250161.335	5.296816e-003	-1.307331e-004	1.000461e+000	-3.216467e-003	1.000725e+000	-3.214856e-003	7.264175e-003	-1.997817e-003
312700.419	5.418947e-003	5.809596e-004	1.000852e+000	-3.753289e-003	1.000656e+000	-3.530891e-003	7.785562e-003	-2.315281e-003
375239.503	5.294406e-003	-9.299683e-004	1.001014e+000	-5.215370e-003	1.000645e+000	-5.022346e-003	7.246619e-003	-2.455341e-003
437778.587	5.160446e-003	-5.084460e-004	1.001216e+000	-5.463572e-003	1.001035e+000	-6.138735e-003	6.623657e-003	-2.166134e-003
500317.670	4.593493e-003	-3.996065e-004	1.001180e+000	-7.768871e-003	1.001802e+000	-7.597308e-003	4.809196e-003	-2.007114e-003
562856.754	5.903883e-003	-6.787978e-004	1.001246e+000	-9.368352e-003	1.001251e+000	-9.218022e-003	6.008262e-003	-1.478825e-003
625395.838	5.089625e-003	-5.551805e-004	1.002250e+000	-1.043493e-002	1.002231e+000	-1.011727e-002	6.110262e-003	-9.211836e-004
687934.922	5.141123e-003	-8.762065e-004	1.001226e+000	-1.148795e-002	1.001287e+000	-1.161986e-002	5.761201e-003	-1.387352e-003
750474.006	4.341887e-003	-5.350674e-004	1.000866e+000	-1.089675e-002	1.001016e+000	-1.064507e-002	5.538409e-003	-1.193500e-003
813013.089	4.513843e-003	-5.087898e-004	1.001127e+000	-1.273674e-002	1.000726e+000	-1.242171e-002	4.875349e-003	-1.014620e-003
875552.173	4.251440e-003	-3.377857e-004	1.001019e+000	-1.367469e-002	1.001062e+000	-1.372867e-002	5.679122e-003	-1.419148e-003
938091.257	4.319109e-003	-2.775634e-004	1.001105e+000	-1.507181e-002	1.001175e+000	-1.480510e-002	5.898506e-003	-8.509692e-004
1000630.341	3.770898e-003	-6.223290e-004	1.000772e+000	-1.635134e-002	1.001065e+000	-1.614915e-002	5.143310e-003	-1.540495e-003
1063169.425	4.129014e-003	-7.839147e-004	1.000938e+000	-1.783846e-002	1.000757e+000	-1.698424e-002	4.333353e-003	-1.856629e-003
1125708.508	4.012348e-003	-7.268427e-004	1.000899e+000	-1.904631e-002	1.000927e+000	-1.847345e-002	3.832805e-003	-1.571200e-003
1188247.592	4.547311e-003	-1.181225e-003	1.001000e+000	-1.999034e-002	1.001045e+000	-1.958028e-002	2.731438e-003	-2.146566e-003
1250786.676	4.382420e-003	-1.903691e-003	1.000642e+000	-1.999594e-002	1.000866e+000	-2.019071e-002	1.995615e-003	-3.791666e-003
1313325.760	4.508521e-003	-1.989363e-003	1.000988e+000	-2.147836e-002	1.001054e+000	-2.180434e-002	2.731370e-003	-3.594655e-003
1375864.844	4.233181e-003	-2.200471e-003	1.000674e+000	-2.363778e-002	1.000748e+000	-2.355462e-002	2.589536e-003	-3.291108e-003
1438403.927	4.131016e-003	-2.348566e-003	1.000779e+000	-2.417185e-002	1.001040e+000	-2.352414e-002	2.669945e-003	-3.040926e-003
1500943.011	4.354775e-003	-2.283344e-003	1.001222e+000	-2.511231e-002	1.001483e+000	-2.503006e-002	3.022479e-003	-3.432326e-003
1563482.095	4.354427e-003	-2.659554e-003	1.000736e+000	-2.636372e-002	1.000903e+000	-2.562852e-002	3.157535e-003	-3.241506e-003
1626021.179	4.177442e-003	-2.514051e-003	1.000732e+000	-2.769106e-002	1.001130e+000	-2.832108e-002	3.430935e-003	-3.286174e-003
1688560.263	3.864214e-003	-2.473056e-003	1.000462e+000	-2.941712e-002	1.001478e+000	-2.948151e-002	3.605163e-003	-3.301281e-003
1751099.346	4.000953e-003	-2.360106e-003	1.000968e+000	-3.052996e-002	1.000780e+000	-3.002565e-002	3.413956e-003	-2.449880e-003
1813638.430	3.640261e-003	-2.410583e-003	1.001239e+000	-3.199013e-002	1.001149e+000	-3.196385e-002	3.598443e-003	-2.829776e-003
1876177.514	3.668836e-003	-2.105242e-003	1.001551e+000	-3.284080e-002	1.001370e+000	-3.349667e-002	3.253536e-003	-2.171591e-003
1938716.598	3.142407e-003	-2.039604e-003	1.001836e+000	-3.384034e-002	1.001584e+000	-3.340288e-002	3.431944e-003	-1.764876e-003
2001255.682	3.047137e-003	-2.504342e-003	1.001681e+000	-3.513846e-002	1.001297e+000	-3.507557e-002	3.175156e-003	-2.229799e-003
2063794.765	3.134031e-003	-2.134628e-003	1.001302e+000	-3.630483e-002	1.000912e+000	-3.667428e-002	3.569284e-003	-2.314022e-003
2126333.849	2.666712e-003	-2.650978e-003	1.000798e+000	-3.755334e-002	1.000305e+000	-3.694166e-002	3.832042e-003	-2.056269e-003
2188872.933	3.147865e-003	-2.660088e-003	1.000529e+000	-3.861306e-002	1.000252e+000	-3.811361e-002	3.706891e-003	-2.118106e-003
2251412.017	3.247725e-003	-3.014765e-003	1.000373e+000	-4.024467e-002	1.000395e+000	-3.915463e-002	3.704354e-003	-2.228394e-003
2313951.101	3.565689e-003	-2.595142e-003	9.998253e-001	-4.109144e-002	1.000435e+000	-3.997444e-002	4.003985e-003	-2.296160e-003
2376490.184	3.327711e-003	-2.636163e-003	9.997630e-001	-4.148084e-002	1.000391e+000	-4.190824e-002	3.960933e-003	-2.291365e-003
2439029.268	3.770291e-003	-2.659198e-003	9.996661e-001	-4.326450e-002	9.994522e-001	-4.298543e-002	3.619635e-003	-2.208719e-003
2501568.352	3.753561e-003	-2.673975e-003	9.994101e-001	-4.354836e-002	1.000285e+000	-4.359013e-002	3.914434e-003	-2.230063e-003
2564107.436	3.647814e-003	-2.830162e-003	9.997389e-001	-4.525465e-002	1.000111e+000	-4.508610e-002	3.214901e-003	-2.601650e-003
2626646.520	4.143782e-003	-3.005207e-003	9.995585e-001	-4.631644e-002	9.989009e-001	-4.618640e-002	3.471201e-003	-2.679401e-003
2689185.604	4.089679e-003	-2.848845e-003	9.999241e-001	-4.705507e-002	9.998191e-001	-4.697009e-002	3.603002e-003	-2.631048e-003
2751724.687	4.192166e-003	-2.940059e-003	9.997880e-001	-4.786427e-002	9.996429e-001	-4.771768e-002	3.190704e-003	-2.667023e-003
2814263.771	4.156270e-003	-3.021821e-003	9.987843e-001	-4.973344e-002	9.992990e-001	-4.916094e-002	3.178858e-003	-2.814630e-003
2876802.855	4.097425e-003	-3.247132e-003	9.989276e-001	-5.109464e-002	9.993044e-001	-5.028520e-002	3.256720e-003	-2.695634e-003
2939341.939	4.222540e-003	-3.169941e-003	9.996124e-001	-5.161532e-002	9.991998e-001	-5.182414e-002	3.155327e-003	-2.808437e-003
3001881.023	4.131077e-003	-3.164763e-003	9.992963e-001	-5.275971e-002	9.991931e-001	-5.274048e-002	3.233680e-003	-2.932120e-003
3064420.106	4.180103e-003	-3.226116e-003	9.997218e-001	-5.382729e-002	9.989491e-001	-5.375971e-002	3.060269e-003	-3.082106e-003
3126959.190	4.378356e-003	-3.335066e-003	9.993274e-001	-5.502344e-002	9.992638e-001	-5.499688e-002	3.246041e-003	-3.160373e-003
3189498.274	4.359448e-003	-3.314885e-003	9.992159e-001	-5.599196e-002	9.991937e-001	-5.607458e-002	3.217981e-003	-3.218499e-003
3252037.358	4.276828e-003	-3.686823e-003	9.993125e-001	-5.717231e-002	9.992495e-001	-5.709737e-002	3.176896e-003	-3.196269e-003
3314576.442	4.269152e-003	-3.552353e-003	9.991868e-001	-5.819853e-002	9.991307e-001	-5.826122e-002	3.243524e-003	-3.318890e-003
3377115.525	4.242589e-003	-3.562213e-003	9.990240e-001	-5.921599e-002	9.988454e-001	-5.949451e-002	3.081789e-003	-3.481389e-003
3439654.609	4.254592e-003	-3.645536e-003	9.988021e-001	-6.035803e-002	9.991224e-001	-6.048418e-002	3.085732e-003	-3.304198e-003
3502193.693	4.208035e-003	-3.974031e-003	9.987904e-001	-6.158314e-002	9.987870e-001	-6.147733e-002	3.245247e-003	-3.387707e-003
3564732.777	4.259957e-003	-3.865268e-003	9.988635e-001	-6.263572e-002	9.987994e-001	-6.269317e-002	3.331129e-003	-3.373981e-003
3627271.861	4.102984e-003	-4.040711e-003	9.988980e-001	-6.381582e-002	9.988632e-001	-6.363783e-002	3.108950e-003	-3.620022e-003
3689810.944	4.002193e-003	-4.184807e-003	9.986816e-001	-6.485490e-002	9.987284e-001	-6.469951e-002	3.263018e-003	-3.631118e-003
3752350.028	4.108571e-003	-4.194288e-003	9.985995e-001	-6.570636e-002	9.985119e-001	-6.575058e-002	3.191736e-003	-3.734455e-003
3814889.112	4.224878e-003	-4.090254e-003	9.984523e-001	-6.693431e-002	9.987141e-001	-6.715316e-002	3.097611e-003	-3.889845e-003
3877428.196	4.156528e-003	-4.126489e-003	9.985847e-001	-6.804436e-002	9.985677e-001	-6.802699e-002	3.432781e-003	-3.925648e-003
3939967.280	4.121144e-003	-4.463414e-003	9.984264e-001	-6.922369e-002	9.986006e-001	-6.911974e-002	3.405032e-003	-3.877344e-003
4002506.363	4.191962e-003	-4.366559e-003	9.984424e-001	-7.031011e-002	9.984619e-001	-7.007741e-002	3.347452e-003	-3.999068e-003
4065045.447	4.011666e-003	-4.507089e-003	9.982020e-001	-7.142881e-002	9.982711e-001	-7.134362e-002	3.417999e-003	-4.147569e-003
4127584.531	3.975234e-003	-4.572750e-003	9.981075e-001	-7.250660e-002	9.982289e-001	-7.239110e-002	3.441021e-003	-4.089927e-003
4190123.615	4.018385e-003	-4.596247e-003	9.980888e-001	-7.378952e-002	9.980703e-001	-7.361986e-002	3.348557e-003	-4.363104e-003
4252662.699	3.967830e-003	-4.738491e-003	9.981319e-001	-7.493650e-002	9.979133e-001	-7.478734e-002	3.449697e-003	-4.391901e-003
4315201.782	4.099326e-003	-4.840062e-003	9.979895e-001	-7.576087e-002	9.981117e-001	-7.587265e-002	3.255919e-003	-4.638984e-003
4377740.866	3.996357e-003	-4.899037e-003	9.980639e-001	-7.701140e-002	9.978149e-001	-7.697733e-002	3.420856e-003	-4.388927e-003
4440279.950	3.893622e-003	-5.106799e-003	9.979231e-001	-7.796851e-002	9.976453e-001	-7.794369e-002	3.315728e-003	-4.624108e-003
4502819.034	3.875966e-003	-5.032484e-003	9.975707e-001	-7.913840e-002	9.976982e-001	-7.908398e-002	3.389214e-003	-4.535578e-003
4565358.118	3.795323e-003	-5.145817e-003	9.975322e-001	-8.022031e-002	9.974490e-001	-8.002886e-002	3.394689e-003	-4.700187e-003
4627897.201	3.973415e-003	-5.071695e-003	9.976382e-001	-8.132494e-002	9.974438e-001	-8.108888e-002	3.498609e-003	-4.657003e-003
4690436.285	3.791424e-003	-5.247172e-003	9.975795e-001	-8.250008e-002	9.974427e-001	-8.260776e-002	3.485719e-003	-4.910552e-003
4752975.369	3.791106e-003	-5.323221e-003	9.972465e-001	-8.370690e-002	9.973993e-001	-8.352292e-002	3.297614e-003	-5.022174e-003
4815514.453	3.905513e-003	-5.390078e-003	9.973582e-001	-8.468821e-002	9.973361e-001	-8.473044e-002	3.507116e-003	-4.999423e-003
4878053.537	3.996716e-003	-5.536110e-003	9.973434e-001	-8.575952e-002	9.971602e-001	-8.567045e-002	3.472758e-003	-5.142798e-003
4940592.620	3.732477e-003	-5.569643e-003	9.971081e-001	-8.688401e-002	9.971354e-001	-8.688084e-002	3.223098e-003	-5.240239e-003
5003131.704	3.794041e-003	-5.774305e-003	9.969962e-001	-8.794816e-002	9.970890e-001	-8.775479e-002	3.353200e-003	-5.359123e-003
5065670.788	3.718006e-003	-5.645898e-003	9.968641e-001	-8.912623e-002	9.969564e-001	-8.893829e-002	3.324387e-003	-5.391362e-003
5128209.872	3.838050e-003	-5.849455e-003	9.969795e-001	-9.020110e-002	9.968437e-001	-9.006024e-002	3.285078e-003	-5.664491e-003
5190748.956	3.729086e-003	-5.934477e-003	9.967490e-001	-9.128947e-002	9.968566e-001	-9.128160e-002	3.245125e-003	-5.603818e-003
5253288.039	3.765251e-003	-6.037667e-003	9.967537e-001	-9.240332e-002	9.967192e-001	-9.230368e-002	3.161748e-003	-5.602806e-003
5315827.123	3.735818e-003	-6.170073e-003	9.964478e-001	-9.352212e-002	9.966138e-001	-9.346005e-002	3.141786e-003	-5.761979e-003
5378366.207	3.824988e-003	-6.193010e-003	9.965483e-001	-9.466585e-002	9.965113e-001	-9.469279e-002	3.127334e-003	-5.927435e-003
5440905.291	3.635330e-003	-6.182043e-003	9.964831e-001	-9.572588e-002	9.964352e-001	-9.569010e-002	3.013211e-003	-5.952213e-003
5503444.375	3.835575e-003	-6.405966e-003	9.963518e-001	-9.683957e-002	9.964343e-001	-9.666635e-002	3.195812e-003	-6.106538e-003
5565983.458	3.470655e-003	-6.368829e-003	9.962555e-001	-9.788331e-002	9.962927e-001	-9.775528e-002	3.119649e-003	-6.026829e-003
5628522.542	3.720451e-003	-6.506067e-003	9.961871e-001	-9.888984e-002	9.961972e-001	-9.898337e-002	3.145502e-003	-6.211618e-003
5691061.626	3.773272e-003	-6.756251e-003	9.959702e-001	-1.002025e-001	9.960168e-001	-1.000698e-001	3.038638e-003	-6.237776e-003
5753600.710	3.628176e-003	-6.759894e-003	9.958417e-001	-1.012025e-001	9.959205e-001	-1.011586e-001	3.085815e-003	-6.455833e-003
5816139.794	3.701421e-003	-6.645144e-003	9.958258e-001	-1.023618e-001	9.956717e-001	-1.024052e-001	2.935883e-003	-6.489304e-003
5878678.877	3.614759e-003	-6.960791e-003	9.956847e-001	-1.034641e-001	9.956507e-001	-1.034168e-001	3.037882e-003	-6.691701e-003
5941217.961	3.582939e-003	-7.107942e-003	9.955430e-001	-1.046209e-001	9.955754e-001	-1.043541e-001	2.831395e-003	-6.681188e-003
6003757.045	3.414346e-003	-6.958636e-003	9.952778e-001	-1.055598e-001	9.954738e-001	-1.054211e-001	2.959157e-003	-6.762389e-003
6066296.129	3.542176e-003	-7.217623e-003	9.953735e-001	-1.067596e-001	9.953093e-001	-1.065281e-001	2.918781e-003	-6.875757e-003
6128835.213	3.628594e-003	-7.263208e-003	9.952699e-001	-1.075371e-001	9.953691e-001	-1.077345e-001	3.011675e-003	-6.953231e-003
6191374.296	3.565079e-003	-7.387480e-003	9.950779e-001	-1.088231e-001	9.951055e-001	-1.089776e-001	2.845331e-003	-6.948664e-003
6253913.380	3.467601e-003	-7.329637e-003	9.950113e-001	-1.100095e-001	9.950347e-001	-1.099097e-001	2.702186e-003	-6.924797e-003
6316452.464	3.423980e-003	-7.340161e-003	9.949307e-001	-1.109975e-001	9.947667e-001	-1.112183e-001	2.748524e-003	-7.220257e-003
6378991.548	3.373450e-003	-7.578543e-003	9.947502e-001	-1.124525e-001	9.948708e-001	-1.121759e-001	2.784945e-003	-7.412413e-003
6441530.632	3.309753e-003	-7.732958e-003	9.945774e-001	-1.132364e-001	9.946695e-001	-1.134334e-001	2.811885e-003	-7.391648e-003
6504069.715	3.287384e-003	-7.833397e-003	9.944815e-001	-1.146012e-001	9.946530e-001	-1.144148e-001	2.822559e-003	-7.468736e-003
6566608.799	3.423306e-003	-7.966940e-003	9.944858e-001	-1.157356e-001	9.944258e-001	-1.155787e-001	2.708305e-003	-7.357342e-003
6629147.883	3.357281e-003	-7.914063e-003	9.942358e-001	-1.164967e-001	9.942524e-001	-1.166734e-001	2.781274e-003	-7.592682e-003
6691686.967	3.232348e-003	-7.981261e-003	9.940468e-001	-1.177208e-001	9.940705e-001	-1.177289e-001	2.794762e-003	-7.576968e-003
6754226.051	3.164752e-003	-8.088926e-003	9.939194e-001	-1.189356e-001	9.938811e-001	-1.189761e-001	2.581538e-003	-7.865900e-003
6816765.134	3.252364e-003	-8.171940e-003	9.939057e-001	-1.199642e-001	9.938749e-001	-1.199395e-001	2.633622e-003	-7.746442e-003
6879304.218	3.123749e-003	-8.417984e-003	9.936723e-001	-1.210520e-001	9.937570e-001	-1.210013e-001	2.597584e-003	-7.893881e-003
6941843.302	3.188920e-003	-8.330275e-003	9.935333e-001	-1.222289e-001	9.935675e-001	-1.220993e-001	2.574854e-003	-7.892217e-003
7004382.386	2.978729e-003	-8.338591e-003	9.935019e-001	-1.231933e-001	9.934236e-001	-1.231731e-001	2.476927e-003	-7.932927e-003
7066921.470	3.049976e-003	-8.479608e-003	9.932400e-001	-1.244125e-001	9.933571e-001	-1.241532e-001	2.631556e-003	-8.163692e-003
7129460.553	2.943808e-003	-8.677741e-003	9.931675e-001	-1.253646e-001	9.932144e-001	-1.253618e-001	2.610281e-003	-8.197971e-003
7191999.637	2.919310e-003	-8.505673e-003	9.928354e-001	-1.265873e-001	9.929346e-001	-1.264645e-001	2.464519e-003	-8.277512e-003
7254538.721	2.956765e-003	-8.693076e-003	9.930168e-001	-1.276915e-001	9.929797e-001	-1.275956e-001	2.474982e-003	-8.326490e-003
7317077.805	3.112706e-003	-8.804942e-003	9.927665e-001	-1.286634e-001	9.927894e-001	-1.286325e-001	2.455068e-003	-8.515301e-003
7379616.889	2.965317e-003	-8.880356e-003	9.928013e-001	-1.299848e-001	9.925828e-001	-1.297653e-001	2.387315e-003	-8.572640e-003
7442155.972	2.791590e-003	-8.972026e-003	9.924302e-001	-1.308584e-001	9.925186e-001	-1.308011e-001	2.446071e-003	-8.434212e-003
7504695.056	2.817266e-003	-9.129669e-003	9.922033e-001	-1.319015e-001	9.922152e-001	-1.320677e-001	2.463925e-003	-8.446825e-003
7567234.140	2.982592e-003	-9.282143e-003	9.922146e-001	-1.330084e-001	9.920727e-001	-1.331085e-001	2.376849e-003	-8.625519e-003
7629773.224	2.859237e-003	-9.057221e-003	9.921165e-001	-1.342718e-001	9.920978e-001	-1.341173e-001	2.275679e-003	-8.759348e-003
7692312.308	2.696868e-003	-9.203431e-003	9.919610e-001	-1.352881e-001	9.918476e-001	-1.353125e-001	2.321771e-003	-8.911981e-003
7754851.391	2.672666e-003	-9.436829e-003	9.917340e-001	-1.364746e-001	9.915864e-001	-1.362196e-001	2.247269e-003	-8.859191e-003
7817390.475	2.724956e-003	-9.308166e-003	9.916241e-001	-1.377131e-001	9.914755e-001	-1.376016e-001	2.142928e-003	-8.817665e-003
7879929.559	2.622953e-003	-9.556596e-003	9.913816e-001	-1.387625e-001	9.913113e-001	-1.388047e-001	2.241002e-003	-8.899761e-003
7942468.643	2.558264e-003	-9.697544e-003	9.913344e-001	-1.397631e-001	9.912500e-001	-1.398306e-001	2.206933e-003	-9.155058e-003
8005007.727	2.634764e-003	-9.733828e-003	9.910966e-001	-1.409377e-001	9.911405e-001	-1.409035e-001	2.090117e-003	-9.012351e-003
8067546.811	2.460717e-003	-9.771139e-003	9.909718e-001	-1.419766e-001	9.908306e-001	-1.419327e-001	1.990838e-003	-9.290726e-003
8130085.894	2.501574e-003	-9.916185e-003	9.907748e-001	-1.430725e-001	9.907797e-001	-1.430665e-001	2.175254e-003	-9.414406e-003
8192624.978	2.329937e-003	-1.005864e-002	9.904667e-001	-1.442695e-001	9.906173e-001	-1.441336e-001	2.202649e-003	-9.496323e-003
8255164.062	2.419418e-003	-1.011337e-002	9.904301e-001	-1.452919e-001	9.903572e-001	-1.452442e-001	2.141750e-003	-9.620835e-003
8317703.146	2.272240e-003	-1.006934e-002	9.902985e-001	-1.463880e-001	9.903598e-001	-1.463171e-001	1.941967e-003	-9.637820e-003
8380242.230	2.380181e-003	-1.038591e-002	9.900066e-001	-1.476162e-001	9.900650e-001	-1.473496e-001	1.880415e-003	-9.782046e-003
8442781.313	2.330350e-003	-1.042831e-002	9.900990e-001	-1.485701e-001	9.899637e-001	-1.484402e-001	1.838893e-003	-9.940357e-003
8505320.397	2.272899e-003	-1.035414e-002	9.898678e-001	-1.497264e-001	9.897506e-001	-1.495522e-001	1.756614e-003	-9.958623e-003
8567859.481	2.201402e-003	-1.027471e-002	9.896363e-001	-1.506573e-001	9.896616e-001	-1.506608e-001	1.766344e-003	-9.858927e-003
8630398.565	2.263028e-003	-1.040908e-002	9.893125e-001	-1.517105e-001	9.894903e-001	-1.516793e-001	1.624223e-003	-1.019454e-002
8692937.649	2.175496e-003	-1.070006e-002	9.892364e-001	-1.528073e-001	9.891763e-001	-1.528450e-001	1.531329e-003	-1.015947e-002
8755476.732	2.167785e-003	-1.069980e-002	9.890860e-001	-1.540220e-001	9.890071e-001	-1.538374e-001	1.574438e-003	-1.022832e-002
8818015.816	2.014926e-003	-1.082234e-002	9.888619e-001	-1.550721e-001	9.886817e-001	-1.549709e-001	1.656351e-003	-1.038388e-002
8880554.900	2.201644e-003	-1.085418e-002	9.888412e-001	-1.562193e-001	9.888330e-001	-1.559369e-001	1.479883e-003	-1.063251e-002
8943093.984	2.015572e-003	-1.082505e-002	9.886103e-001	-1.572089e-001	9.886347e-001	-1.570423e-001	1.478618e-003	-1.064762e-002
9005633.068	2.038855e-003	-1.098692e-002	9.883107e-001	-1.583527e-001	9.884658e-001	-1.582795e-001	1.342031e-003	-1.086198e-002
9068172.151	1.866276e-003	-1.107791e-002	9.882964e-001	-1.594952e-001	9.881957e-001	-1.592294e-001	1.370672e-003	-1.087352e-002
9130711.235	2.043762e-003	-1.122241e-002	9.879764e-001	-1.605592e-001	9.880543e-001	-1.602807e-001	1.385030e-003	-1.115340e-002
9193250.319	1.997534e-003	-1.130977e-002	9.879701e-001	-1.615031e-001	9.877885e-001	-1.614958e-001	1.268848e-003	-1.115017e-002
9255789.403	1.856644e-003	-1.154964e-002	9.877920e-001	-1.625021e-001	9.876594e-001	-1.625565e-001	1.097655e-003	-1.116819e-002
9318328.487	1.782853e-003	-1.152912e-002	9.875805e-001	-1.638590e-001	9.876273e-001	-1.635682e-001	1.182978e-003	-1.124590e-002
9380867.570	1.767080e-003	-1.148139e-002	9.874437e-001	-1.649515e-001	9.872420e-001	-1.647850e-001	1.152206e-003	-1.134111e-002
9443406.654	1.779666e-003	-1.156125e-002	9.872571e-001	-1.659477e-001	9.872481e-001	-1.659484e-001	1.147986e-003	-1.150273e-002
9505945.738	1.720874e-003	-1.161898e-002	9.868654e-001	-1.672085e-001	9.871202e-001	-1.670214e-001	1.061744e-003	-1.157315e-002
9568484.822	1.731158e-003	-1.173299e-002	9.868526e-001	-1.682446e-001	9.866396e-001	-1.680849e-001	8.369028e-004	-1.142006e-002
