!Agilent Technologies,E5061B,MY49102235,A.02.00
!Date: Tue Jul 11 14:38:04 2023
!Data & Calibration Information:
!Freq	S11:SOLT2(ON)	S21:SOLT2(ON)	S12:SOLT2(ON)	S22:SOLT2(ON)
# Hz S RI R 50
5.000	-5.170154e-003	-5.649880e-003	1.001481e+000	7.787196e-003	1.000094e+000	1.026509e-002	-1.431000e-003	-7.531390e-003
62544.084	5.788549e-003	-4.454060e-004	1.001489e+000	3.170001e-004	1.000843e+000	1.193374e-003	7.708454e-003	-2.845066e-003
125083.168	5.661515e-003	-3.710778e-004	1.001084e+000	-1.144642e-003	1.000653e+000	-9.754103e-004	7.484412e-003	-2.158105e-003
187622.251	5.437416e-003	-1.525097e-004	1.000648e+000	-2.464729e-003	1.000949e+000	-1.120529e-003	7.357829e-003	-2.205972e-003
250161.335	5.257326e-003	7.259110e-005	1.000739e+000	-3.624587e-003	1.000643e+000	-3.360452e-003	7.246563e-003	-1.786578e-003
312700.419	5.401958e-003	8.459572e-004	1.001004e+000	-4.272540e-003	1.000636e+000	-3.884156e-003	7.758058e-003	-2.045646e-003
375239.503	5.289487e-003	-6.201681e-004	1.001150e+000	-5.685774e-003	1.000555e+000	-5.379511e-003	7.240041e-003	-2.145628e-003
437778.587	5.127240e-003	-1.578542e-004	1.001402e+000	-5.994100e-003	1.000889e+000	-6.492194e-003	6.610398e-003	-1.801667e-003
500317.670	4.563628e-003	2.289166e-005	1.001387e+000	-8.432320e-003	1.001658e+000	-8.055237e-003	4.797349e-003	-1.575884e-003
562856.754	5.883983e-003	-2.249552e-004	1.001417e+000	-1.002024e-002	1.001136e+000	-9.595380e-003	6.007595e-003	-1.035867e-003
625395.838	5.047742e-003	-1.811894e-005	1.002449e+000	-1.130720e-002	1.002116e+000	-1.062881e-002	6.079259e-003	-4.010141e-004
687934.922	5.104148e-003	-2.963747e-004	1.001437e+000	-1.224110e-002	1.001288e+000	-1.216749e-002	5.719498e-003	-8.192434e-004
750474.006	4.410218e-003	1.346944e-004	1.001118e+000	-1.178275e-002	1.000868e+000	-1.145653e-002	5.587004e-003	-5.330313e-004
813013.089	4.599915e-003	2.138334e-004	1.001484e+000	-1.363496e-002	1.000569e+000	-1.311945e-002	4.946195e-003	-3.063703e-004
875552.173	4.332016e-003	4.263665e-004	1.001374e+000	-1.455047e-002	1.000965e+000	-1.446134e-002	5.723773e-003	-6.577067e-004
938091.257	4.398587e-003	5.584688e-004	1.001486e+000	-1.612998e-002	1.001140e+000	-1.556465e-002	5.963573e-003	-3.379890e-005
1000630.341	3.860051e-003	2.496995e-004	1.001043e+000	-1.756586e-002	1.000929e+000	-1.705097e-002	5.211117e-003	-6.783128e-004
1063169.425	4.211481e-003	1.568634e-004	1.001379e+000	-1.891909e-002	1.000756e+000	-1.792227e-002	4.383469e-003	-9.499802e-004
1125708.508	4.091622e-003	2.647136e-004	1.001186e+000	-2.030090e-002	1.000539e+000	-1.941868e-002	3.899139e-003	-5.920940e-004
1188247.592	4.641447e-003	-1.224910e-004	1.001363e+000	-2.138517e-002	1.000928e+000	-2.061924e-002	2.795165e-003	-1.112118e-003
1250786.676	4.480653e-003	-8.172511e-004	1.000865e+000	-2.140115e-002	1.000607e+000	-2.126137e-002	2.054526e-003	-2.709644e-003
1313325.760	4.587114e-003	-8.490226e-004	1.001229e+000	-2.291170e-002	1.000950e+000	-2.294017e-002	2.790452e-003	-2.451683e-003
1375864.844	4.325495e-003	-9.933616e-004	1.001025e+000	-2.504835e-002	1.000428e+000	-2.482453e-002	2.647690e-003	-2.107192e-003
1438403.927	4.213040e-003	-1.113581e-003	1.000984e+000	-2.558096e-002	1.000914e+000	-2.478691e-002	2.722554e-003	-1.796888e-003
1500943.011	4.454135e-003	-9.826212e-004	1.001548e+000	-2.670027e-002	1.001281e+000	-2.629514e-002	3.075150e-003	-2.141603e-003
1563482.095	4.456462e-003	-1.292839e-003	1.001230e+000	-2.804892e-002	1.000546e+000	-2.688300e-002	3.221583e-003	-1.879287e-003
1626021.179	4.252043e-003	-1.096423e-003	1.001018e+000	-2.928893e-002	1.000807e+000	-2.972057e-002	3.504511e-003	-1.881486e-003
1688560.263	3.961837e-003	-9.947707e-004	1.000617e+000	-3.121184e-002	1.001323e+000	-3.097381e-002	3.673597e-003	-1.834047e-003
1751099.346	4.106360e-003	-8.254572e-004	1.001284e+000	-3.239973e-002	1.000624e+000	-3.163212e-002	3.488126e-003	-9.350374e-004
1813638.430	3.735264e-003	-8.178131e-004	1.001488e+000	-3.401490e-002	1.000894e+000	-3.349152e-002	3.669984e-003	-1.260200e-003
1876177.514	3.779206e-003	-4.783293e-004	1.001811e+000	-3.485857e-002	1.001214e+000	-3.504268e-002	3.341367e-003	-5.359776e-004
1938716.598	3.247835e-003	-3.498659e-004	1.001986e+000	-3.577949e-002	1.001269e+000	-3.494890e-002	3.522699e-003	-8.088573e-005
2001255.682	3.150769e-003	-7.673495e-004	1.002023e+000	-3.734009e-002	1.001318e+000	-3.661257e-002	3.267587e-003	-4.809372e-004
2063794.765	3.239202e-003	-3.380247e-004	1.001480e+000	-3.831014e-002	1.000660e+000	-3.838667e-002	3.649521e-003	-5.284304e-004
2126333.849	2.797813e-003	-8.023948e-004	1.001048e+000	-3.967097e-002	1.000081e+000	-3.877032e-002	3.925206e-003	-2.065860e-004
2188872.933	3.284866e-003	-7.456303e-004	1.000710e+000	-4.090689e-002	1.000032e+000	-3.993400e-002	3.802564e-003	-2.088795e-004
2251412.017	3.385464e-003	-1.045687e-003	1.000524e+000	-4.234419e-002	1.000158e+000	-4.102430e-002	3.797480e-003	-2.739105e-004
2313951.101	3.714154e-003	-5.789527e-004	1.000025e+000	-4.358954e-002	1.000132e+000	-4.199086e-002	4.104620e-003	-2.833188e-004
2376490.184	3.454215e-003	-5.534081e-004	1.000009e+000	-4.384423e-002	1.000142e+000	-4.387308e-002	4.068846e-003	-2.191899e-004
2439029.268	3.906691e-003	-5.430663e-004	9.998396e-001	-4.572510e-002	9.992331e-001	-4.503160e-002	3.742284e-003	-6.572993e-005
2501568.352	3.868889e-003	-4.918879e-004	9.995990e-001	-4.591845e-002	1.000005e+000	-4.566291e-002	4.041547e-003	-4.727793e-005
2564107.436	3.797249e-003	-5.988802e-004	9.998334e-001	-4.772648e-002	9.997664e-001	-4.738076e-002	3.352825e-003	-3.788666e-004
2626646.520	4.279025e-003	-7.204738e-004	9.996616e-001	-4.879462e-002	9.986738e-001	-4.835614e-002	3.602087e-003	-3.924455e-004
2689185.604	4.249871e-003	-5.127362e-004	1.000113e+000	-4.982120e-002	9.994317e-001	-4.930911e-002	3.742552e-003	-2.762243e-004
2751724.687	4.366170e-003	-5.487707e-004	9.999461e-001	-5.058663e-002	9.993158e-001	-5.024166e-002	3.338637e-003	-2.709878e-004
2814263.771	4.314433e-003	-5.676649e-004	9.990184e-001	-5.253679e-002	9.990633e-001	-5.148654e-002	3.317753e-003	-3.494001e-004
2876802.855	4.272163e-003	-7.321576e-004	9.992070e-001	-5.391728e-002	9.990813e-001	-5.263465e-002	3.401670e-003	-1.737565e-004
2939341.939	4.394641e-003	-6.112717e-004	9.996521e-001	-5.438792e-002	9.989926e-001	-5.434271e-002	3.310982e-003	-2.381324e-004
3001881.023	4.320161e-003	-5.532173e-004	9.992095e-001	-5.569320e-002	9.989464e-001	-5.534326e-002	3.399364e-003	-3.268687e-004
3064420.106	4.367420e-003	-5.664944e-004	9.998657e-001	-5.682820e-002	9.987696e-001	-5.630743e-002	3.239760e-003	-4.118670e-004
3126959.190	4.575046e-003	-6.193220e-004	9.994348e-001	-5.806268e-002	9.989853e-001	-5.758815e-002	3.411269e-003	-4.284479e-004
3189498.274	4.560815e-003	-5.457722e-004	9.993358e-001	-5.908909e-002	9.988688e-001	-5.874653e-002	3.419319e-003	-4.463850e-004
3252037.358	4.470749e-003	-8.613783e-004	9.993716e-001	-6.033798e-002	9.989399e-001	-5.982959e-002	3.376298e-003	-3.487907e-004
3314576.442	4.494640e-003	-6.673283e-004	9.992718e-001	-6.140328e-002	9.988180e-001	-6.104171e-002	3.433687e-003	-4.256694e-004
3377115.525	4.468414e-003	-6.289669e-004	9.990591e-001	-6.247372e-002	9.985727e-001	-6.234696e-002	3.272448e-003	-5.316003e-004
3439654.609	4.476157e-003	-6.528557e-004	9.988565e-001	-6.367083e-002	9.988030e-001	-6.342218e-002	3.311449e-003	-2.991148e-004
3502193.693	4.438738e-003	-9.276440e-004	9.988791e-001	-6.497404e-002	9.984726e-001	-6.441809e-002	3.464912e-003	-3.111529e-004
3564732.777	4.496620e-003	-7.585974e-004	9.988766e-001	-6.603447e-002	9.984404e-001	-6.568715e-002	3.577646e-003	-2.720144e-004
3627271.861	4.349639e-003	-8.733271e-004	9.989132e-001	-6.725612e-002	9.985025e-001	-6.671778e-002	3.349389e-003	-4.551172e-004
3689810.944	4.255789e-003	-9.702017e-004	9.987501e-001	-6.845186e-002	9.984080e-001	-6.785765e-002	3.506451e-003	-4.206129e-004
3752350.028	4.373665e-003	-9.218438e-004	9.986147e-001	-6.937042e-002	9.981842e-001	-6.894004e-002	3.439489e-003	-4.486197e-004
3814889.112	4.486333e-003	-7.782878e-004	9.984587e-001	-7.057278e-002	9.983777e-001	-7.040980e-002	3.357762e-003	-5.653682e-004
3877428.196	4.436127e-003	-7.508007e-004	9.985915e-001	-7.183554e-002	9.982064e-001	-7.133317e-002	3.703758e-003	-5.437279e-004
3939967.280	4.414471e-003	-1.035930e-003	9.984301e-001	-7.300842e-002	9.982347e-001	-7.249188e-002	3.674806e-003	-4.477797e-004
4002506.363	4.464625e-003	-8.964424e-004	9.984469e-001	-7.412375e-002	9.980829e-001	-7.356402e-002	3.626541e-003	-5.205647e-004
4065045.447	4.300555e-003	-9.614434e-004	9.981751e-001	-7.529931e-002	9.978757e-001	-7.479993e-002	3.724989e-003	-6.141382e-004
4127584.531	4.283961e-003	-9.913424e-004	9.980649e-001	-7.645711e-002	9.978532e-001	-7.581362e-002	3.740350e-003	-4.869771e-004
4190123.615	4.324552e-003	-9.680770e-004	9.980988e-001	-7.777080e-002	9.976610e-001	-7.718284e-002	3.652760e-003	-7.183825e-004
4252662.699	4.276985e-003	-1.034917e-003	9.981094e-001	-7.892354e-002	9.975147e-001	-7.844490e-002	3.761494e-003	-6.914907e-004
4315201.782	4.425843e-003	-1.078718e-003	9.979567e-001	-7.983064e-002	9.977134e-001	-7.958001e-002	3.583287e-003	-8.831750e-004
4377740.866	4.325640e-003	-1.100368e-003	9.979758e-001	-8.113224e-002	9.974065e-001	-8.070437e-002	3.770868e-003	-5.889854e-004
4440279.950	4.230437e-003	-1.253453e-003	9.978346e-001	-8.217397e-002	9.972453e-001	-8.175476e-002	3.661524e-003	-7.612715e-004
4502819.034	4.224967e-003	-1.128000e-003	9.975052e-001	-8.342241e-002	9.972710e-001	-8.289577e-002	3.745266e-003	-6.126956e-004
4565358.118	4.154497e-003	-1.173435e-003	9.974867e-001	-8.455986e-002	9.970190e-001	-8.389781e-002	3.754594e-003	-7.272401e-004
4627897.201	4.329855e-003	-1.050312e-003	9.975502e-001	-8.567728e-002	9.969834e-001	-8.502601e-002	3.854911e-003	-6.361145e-004
4690436.285	4.150945e-003	-1.175563e-003	9.974877e-001	-8.690454e-002	9.969695e-001	-8.658243e-002	3.858597e-003	-8.438416e-004
4752975.369	4.169273e-003	-1.200204e-003	9.970996e-001	-8.814498e-002	9.969577e-001	-8.764225e-002	3.692427e-003	-8.958875e-004
4815514.453	4.290200e-003	-1.200620e-003	9.972639e-001	-8.920042e-002	9.968691e-001	-8.882821e-002	3.910466e-003	-8.088855e-004
4878053.537	4.400321e-003	-1.308049e-003	9.971742e-001	-9.027470e-002	9.966793e-001	-8.983914e-002	3.868768e-003	-9.129267e-004
4940592.620	4.140250e-003	-1.276893e-003	9.969465e-001	-9.151987e-002	9.966344e-001	-9.108483e-002	3.644653e-003	-9.561659e-004
5003131.704	4.214943e-003	-1.441540e-003	9.968136e-001	-9.262193e-002	9.966306e-001	-9.199356e-002	3.777797e-003	-1.012133e-003
5065670.788	4.140217e-003	-1.254062e-003	9.967177e-001	-9.386516e-002	9.964010e-001	-9.326082e-002	3.756075e-003	-9.802798e-004
5128209.872	4.270087e-003	-1.400960e-003	9.968414e-001	-9.499305e-002	9.963276e-001	-9.441690e-002	3.732018e-003	-1.210792e-003
5190748.956	4.174485e-003	-1.422586e-003	9.965582e-001	-9.613552e-002	9.962936e-001	-9.571069e-002	3.693951e-003	-1.100173e-003
5253288.039	4.222073e-003	-1.484213e-003	9.965709e-001	-9.728679e-002	9.962004e-001	-9.680121e-002	3.634326e-003	-1.036739e-003
5315827.123	4.184434e-003	-1.565609e-003	9.962719e-001	-9.846481e-002	9.960282e-001	-9.796467e-002	3.614952e-003	-1.152604e-003
5378366.207	4.293492e-003	-1.531428e-003	9.962980e-001	-9.962225e-002	9.959873e-001	-9.931470e-002	3.617466e-003	-1.253106e-003
5440905.291	4.109405e-003	-1.471825e-003	9.962449e-001	-1.007715e-001	9.958747e-001	-1.003428e-001	3.502755e-003	-1.231432e-003
5503444.375	4.312661e-003	-1.641454e-003	9.961033e-001	-1.020078e-001	9.958256e-001	-1.013772e-001	3.709698e-003	-1.334612e-003
5565983.458	3.973352e-003	-1.539588e-003	9.960348e-001	-1.030807e-001	9.957196e-001	-1.024821e-001	3.631476e-003	-1.191150e-003
5628522.542	4.219903e-003	-1.629795e-003	9.959362e-001	-1.041310e-001	9.956008e-001	-1.037946e-001	3.677963e-003	-1.334817e-003
5691061.626	4.287586e-003	-1.828695e-003	9.957070e-001	-1.055015e-001	9.954465e-001	-1.049662e-001	3.579163e-003	-1.311785e-003
5753600.710	4.147911e-003	-1.780607e-003	9.955645e-001	-1.064965e-001	9.953014e-001	-1.060425e-001	3.641584e-003	-1.458810e-003
5816139.794	4.234963e-003	-1.617264e-003	9.955328e-001	-1.077154e-001	9.950217e-001	-1.074112e-001	3.486280e-003	-1.434923e-003
5878678.877	4.149543e-003	-1.868144e-003	9.953985e-001	-1.088667e-001	9.950260e-001	-1.084466e-001	3.613970e-003	-1.590675e-003
5941217.961	4.140844e-003	-1.955277e-003	9.952328e-001	-1.101452e-001	9.949424e-001	-1.094140e-001	3.424326e-003	-1.523259e-003
6003757.045	3.989895e-003	-1.739684e-003	9.950002e-001	-1.111276e-001	9.947598e-001	-1.105674e-001	3.546421e-003	-1.565857e-003
6066296.129	4.121371e-003	-1.976621e-003	9.950792e-001	-1.122962e-001	9.947060e-001	-1.117344e-001	3.517077e-003	-1.614364e-003
6128835.213	4.218247e-003	-1.977232e-003	9.948869e-001	-1.131998e-001	9.947387e-001	-1.130207e-001	3.611435e-003	-1.653079e-003
6191374.296	4.153322e-003	-2.025404e-003	9.947146e-001	-1.146295e-001	9.943445e-001	-1.142701e-001	3.461803e-003	-1.584928e-003
6253913.380	4.071986e-003	-1.933464e-003	9.946759e-001	-1.158124e-001	9.942758e-001	-1.152664e-001	3.350958e-003	-1.501413e-003
6316452.464	4.045043e-003	-1.875441e-003	9.945295e-001	-1.167773e-001	9.940467e-001	-1.166503e-001	3.385240e-003	-1.743362e-003
6378991.548	4.012976e-003	-2.051666e-003	9.943823e-001	-1.183402e-001	9.941195e-001	-1.176623e-001	3.460074e-003	-1.892981e-003
6441530.632	3.960041e-003	-2.158426e-003	9.941527e-001	-1.191756e-001	9.939305e-001	-1.189387e-001	3.498994e-003	-1.811793e-003
6504069.715	3.949868e-003	-2.206869e-003	9.940165e-001	-1.205423e-001	9.939496e-001	-1.199538e-001	3.508774e-003	-1.838524e-003
6566608.799	4.084806e-003	-2.296130e-003	9.940256e-001	-1.217551e-001	9.936427e-001	-1.211518e-001	3.407784e-003	-1.674031e-003
6629147.883	4.039541e-003	-2.188047e-003	9.937958e-001	-1.225850e-001	9.934952e-001	-1.223578e-001	3.488640e-003	-1.851215e-003
6691686.967	3.920696e-003	-2.211784e-003	9.935692e-001	-1.238788e-001	9.933013e-001	-1.234640e-001	3.515870e-003	-1.791424e-003
6754226.051	3.865613e-003	-2.242802e-003	9.934358e-001	-1.251173e-001	9.930556e-001	-1.247429e-001	3.327422e-003	-2.027174e-003
6816765.134	3.965811e-003	-2.281955e-003	9.933935e-001	-1.261666e-001	9.930442e-001	-1.257704e-001	3.376411e-003	-1.860408e-003
6879304.218	3.842609e-003	-2.474688e-003	9.931470e-001	-1.273805e-001	9.929261e-001	-1.269081e-001	3.363784e-003	-1.951264e-003
6941843.302	3.926874e-003	-2.334292e-003	9.930056e-001	-1.285585e-001	9.927619e-001	-1.280576e-001	3.362514e-003	-1.890298e-003
7004382.386	3.716321e-003	-2.292383e-003	9.929286e-001	-1.296308e-001	9.925855e-001	-1.291847e-001	3.265047e-003	-1.880621e-003
7066921.470	3.813631e-003	-2.372628e-003	9.926528e-001	-1.309677e-001	9.925111e-001	-1.301939e-001	3.432512e-003	-2.056961e-003
7129460.553	3.711909e-003	-2.506052e-003	9.926018e-001	-1.318965e-001	9.923312e-001	-1.314907e-001	3.421368e-003	-2.026222e-003
7191999.637	3.696887e-003	-2.296040e-003	9.922435e-001	-1.331316e-001	9.920212e-001	-1.325887e-001	3.283857e-003	-2.043841e-003
7254538.721	3.753696e-003	-2.441344e-003	9.923925e-001	-1.343384e-001	9.920644e-001	-1.338353e-001	3.318416e-003	-2.057515e-003
7317077.805	3.922033e-003	-2.497645e-003	9.921845e-001	-1.353418e-001	9.918922e-001	-1.348932e-001	3.319589e-003	-2.191676e-003
7379616.889	3.786660e-003	-2.518594e-003	9.921676e-001	-1.367519e-001	9.916484e-001	-1.360817e-001	3.257665e-003	-2.193888e-003
7442155.972	3.628904e-003	-2.544330e-003	9.918165e-001	-1.377048e-001	9.915549e-001	-1.371862e-001	3.332574e-003	-2.007851e-003
7504695.056	3.654724e-003	-2.657459e-003	9.915645e-001	-1.387513e-001	9.912852e-001	-1.384897e-001	3.358613e-003	-1.970134e-003
7567234.140	3.835359e-003	-2.748415e-003	9.915513e-001	-1.399127e-001	9.911189e-001	-1.395642e-001	3.286497e-003	-2.093215e-003
7629773.224	3.737142e-003	-2.488366e-003	9.914572e-001	-1.412282e-001	9.911516e-001	-1.406437e-001	3.204416e-003	-2.173626e-003
7692312.308	3.587347e-003	-2.566166e-003	9.912757e-001	-1.423583e-001	9.908367e-001	-1.419178e-001	3.254466e-003	-2.277580e-003
7754851.391	3.574909e-003	-2.757433e-003	9.910598e-001	-1.435657e-001	9.906206e-001	-1.428624e-001	3.198771e-003	-2.165667e-003
7817390.475	3.657207e-003	-2.574057e-003	9.909073e-001	-1.448043e-001	9.904695e-001	-1.442740e-001	3.117675e-003	-2.083176e-003
7879929.559	3.547909e-003	-2.772504e-003	9.906437e-001	-1.459282e-001	9.902752e-001	-1.455791e-001	3.230929e-003	-2.116757e-003
7942468.643	3.496758e-003	-2.844239e-003	9.905899e-001	-1.469950e-001	9.902241e-001	-1.466457e-001	3.200861e-003	-2.308713e-003
8005007.727	3.592879e-003	-2.849605e-003	9.902952e-001	-1.482022e-001	9.900467e-001	-1.477614e-001	3.104885e-003	-2.101109e-003
8067546.811	3.428506e-003	-2.829708e-003	9.901927e-001	-1.493389e-001	9.897518e-001	-1.488322e-001	3.013761e-003	-2.340193e-003
8130085.894	3.494116e-003	-2.916887e-003	9.899621e-001	-1.503924e-001	9.896454e-001	-1.500418e-001	3.219482e-003	-2.411552e-003
8192624.978	3.316783e-003	-2.990474e-003	9.896368e-001	-1.516902e-001	9.894473e-001	-1.511307e-001	3.261998e-003	-2.452805e-003
8255164.062	3.441096e-003	-3.000323e-003	9.895834e-001	-1.527965e-001	9.892431e-001	-1.522949e-001	3.216890e-003	-2.507732e-003
8317703.146	3.305104e-003	-2.909788e-003	9.894743e-001	-1.539517e-001	9.891888e-001	-1.534505e-001	3.036346e-003	-2.468862e-003
8380242.230	3.406468e-003	-3.175537e-003	9.891207e-001	-1.552319e-001	9.889013e-001	-1.545601e-001	2.998070e-003	-2.560645e-003
8442781.313	3.374817e-003	-3.156606e-003	9.891835e-001	-1.562171e-001	9.887798e-001	-1.556613e-001	2.956062e-003	-2.654891e-003
8505320.397	3.356199e-003	-3.052488e-003	9.889671e-001	-1.574232e-001	9.885508e-001	-1.568821e-001	2.892715e-003	-2.633268e-003
8567859.481	3.298314e-003	-2.916367e-003	9.887249e-001	-1.584222e-001	9.884499e-001	-1.580162e-001	2.926265e-003	-2.486484e-003
8630398.565	3.366285e-003	-2.979662e-003	9.883625e-001	-1.595501e-001	9.882668e-001	-1.590805e-001	2.787943e-003	-2.763729e-003
8692937.649	3.298220e-003	-3.213800e-003	9.882557e-001	-1.607048e-001	9.878722e-001	-1.602809e-001	2.721625e-003	-2.681439e-003
8755476.732	3.298846e-003	-3.178842e-003	9.881158e-001	-1.619462e-001	9.877505e-001	-1.613365e-001	2.778470e-003	-2.683077e-003
8818015.816	3.172101e-003	-3.241840e-003	9.878732e-001	-1.630993e-001	9.874237e-001	-1.625389e-001	2.872037e-003	-2.799253e-003
8880554.900	3.369092e-003	-3.213178e-003	9.878197e-001	-1.642846e-001	9.875278e-001	-1.635311e-001	2.722590e-003	-2.983471e-003
8943093.984	3.185417e-003	-3.144322e-003	9.875635e-001	-1.653152e-001	9.873037e-001	-1.647437e-001	2.720937e-003	-2.958158e-003
9005633.068	3.228289e-003	-3.261912e-003	9.872608e-001	-1.665114e-001	9.872048e-001	-1.660015e-001	2.612522e-003	-3.112450e-003
9068172.151	3.068775e-003	-3.278490e-003	9.872397e-001	-1.677024e-001	9.868377e-001	-1.669903e-001	2.650639e-003	-3.084712e-003
9130711.235	3.277572e-003	-3.380220e-003	9.869031e-001	-1.688051e-001	9.866966e-001	-1.681391e-001	2.679645e-003	-3.292170e-003
9193250.319	3.227275e-003	-3.428308e-003	9.868517e-001	-1.698314e-001	9.864588e-001	-1.694074e-001	2.589955e-003	-3.247483e-003
9255789.403	3.114153e-003	-3.598299e-003	9.866960e-001	-1.708787e-001	9.862517e-001	-1.704415e-001	2.440716e-003	-3.208770e-003
9318328.487	3.043268e-003	-3.530320e-003	9.864326e-001	-1.722471e-001	9.862147e-001	-1.715662e-001	2.534120e-003	-3.230920e-003
9380867.570	3.053398e-003	-3.430210e-003	9.863123e-001	-1.734128e-001	9.858389e-001	-1.728360e-001	2.512082e-003	-3.276390e-003
9443406.654	3.085142e-003	-3.465200e-003	9.860871e-001	-1.744368e-001	9.858159e-001	-1.740497e-001	2.530659e-003	-3.370924e-003
9505945.738	3.047315e-003	-3.463700e-003	9.857004e-001	-1.757688e-001	9.856157e-001	-1.751747e-001	2.467246e-003	-3.406878e-003
9568484.822	3.077595e-003	-3.529502e-003	9.856366e-001	-1.768682e-001	9.852074e-001	-1.762936e-001	2.252660e-003	-3.179153e-003
9631023.906	3.027894e-003	-3.539022e-003	9.854576e-001	-1.779567e-001	9.849832e-001	-1.774664e-001	2.423919e-003	-3.520970e-003
