!Agilent Technologies,E5061B,MY49102235,A.02.00
!Date: Tue Jul 11 15:17:01 2023
!Data & Calibration Information:
!Freq	S11:SOLT2(ON)	S21:SOLT2(ON)	S12:SOLT2(ON)	S22:SOLT2(ON)
# Hz S RI R 50
5.000	-5.191181e-003	-5.639707e-003	1.001604e+000	8.009189e-003	1.000163e+000	1.026958e-002	-1.489867e-003	-7.537709e-003
62544.084	5.805202e-003	-4.874224e-004	1.001339e+000	4.406008e-004	1.000871e+000	1.163847e-003	7.701861e-003	-2.872594e-003
125083.168	5.675473e-003	-4.949127e-004	1.000960e+000	-9.061391e-004	1.000734e+000	-6.933101e-004	7.498781e-003	-2.274612e-003
187622.251	5.449919e-003	-3.107920e-004	1.000477e+000	-2.159962e-003	1.001018e+000	-9.878166e-004	7.364996e-003	-2.365679e-003
250161.335	5.258740e-003	-1.344269e-004	1.000581e+000	-3.406629e-003	1.000686e+000	-3.199736e-003	7.254734e-003	-1.995786e-003
312700.419	5.408770e-003	5.963235e-004	1.000787e+000	-3.907533e-003	1.000634e+000	-3.488779e-003	7.771335e-003	-2.324609e-003
375239.503	5.293345e-003	-9.299471e-004	1.001098e+000	-5.302805e-003	1.000586e+000	-4.952362e-003	7.240227e-003	-2.475442e-003
437778.587	5.121870e-003	-5.406466e-004	1.001350e+000	-5.443800e-003	1.000964e+000	-6.091171e-003	6.615192e-003	-2.184187e-003
500317.670	4.567144e-003	-4.212317e-004	1.001277e+000	-7.790879e-003	1.001701e+000	-7.436975e-003	4.807185e-003	-2.033242e-003
562856.754	5.882920e-003	-7.064856e-004	1.001403e+000	-9.375052e-003	1.001190e+000	-9.124741e-003	5.993885e-003	-1.515502e-003
625395.838	5.064365e-003	-5.730638e-004	1.002263e+000	-1.047980e-002	1.002212e+000	-1.014866e-002	6.081438e-003	-9.338637e-004
687934.922	5.120336e-003	-8.886885e-004	1.001351e+000	-1.156838e-002	1.001336e+000	-1.152485e-002	5.727868e-003	-1.426608e-003
750474.006	4.372681e-003	-5.652770e-004	1.000952e+000	-1.100087e-002	1.000820e+000	-1.064721e-002	5.545595e-003	-1.218806e-003
813013.089	4.540756e-003	-5.338287e-004	1.001160e+000	-1.274836e-002	1.000711e+000	-1.243377e-002	4.902935e-003	-1.043602e-003
875552.173	4.268143e-003	-3.725068e-004	1.001165e+000	-1.360924e-002	1.001050e+000	-1.365716e-002	5.695334e-003	-1.452435e-003
938091.257	4.349818e-003	-2.975641e-004	1.001218e+000	-1.510303e-002	1.001421e+000	-1.464975e-002	5.925873e-003	-8.596706e-004
1000630.341	3.799142e-003	-6.525722e-004	1.000774e+000	-1.654961e-002	1.001173e+000	-1.605625e-002	5.164471e-003	-1.571633e-003
1063169.425	4.156360e-003	-8.103608e-004	1.001184e+000	-1.787619e-002	1.000854e+000	-1.701458e-002	4.350648e-003	-1.893525e-003
1125708.508	4.042121e-003	-7.565742e-004	1.001003e+000	-1.898472e-002	1.000943e+000	-1.833995e-002	3.862634e-003	-1.604661e-003
1188247.592	4.576214e-003	-1.207933e-003	1.001047e+000	-2.015025e-002	1.001215e+000	-1.949024e-002	2.758716e-003	-2.164412e-003
1250786.676	4.420100e-003	-1.959276e-003	1.000651e+000	-1.996992e-002	1.000727e+000	-2.008483e-002	2.027803e-003	-3.846195e-003
1313325.760	4.537503e-003	-2.047416e-003	1.001070e+000	-2.153701e-002	1.001151e+000	-2.168989e-002	2.749585e-003	-3.630826e-003
1375864.844	4.252586e-003	-2.242328e-003	1.000790e+000	-2.351943e-002	1.000560e+000	-2.349693e-002	2.594729e-003	-3.332986e-003
1438403.927	4.156436e-003	-2.401077e-003	1.000721e+000	-2.413331e-002	1.001065e+000	-2.341427e-002	2.691323e-003	-3.086117e-003
1500943.011	4.376402e-003	-2.331556e-003	1.001405e+000	-2.502514e-002	1.001524e+000	-2.492860e-002	3.042195e-003	-3.479092e-003
1563482.095	4.374147e-003	-2.711223e-003	1.000987e+000	-2.649308e-002	1.000778e+000	-2.561667e-002	3.176316e-003	-3.278369e-003
1626021.179	4.184513e-003	-2.572517e-003	1.000978e+000	-2.755900e-002	1.001039e+000	-2.808964e-002	3.453356e-003	-3.335989e-003
1688560.263	3.889511e-003	-2.506891e-003	1.000620e+000	-2.932153e-002	1.001472e+000	-2.946549e-002	3.619794e-003	-3.348319e-003
1751099.346	4.013798e-003	-2.412979e-003	1.000997e+000	-3.046499e-002	1.000764e+000	-2.987891e-002	3.422741e-003	-2.510458e-003
1813638.430	3.661861e-003	-2.475401e-003	1.001438e+000	-3.193407e-002	1.001166e+000	-3.172393e-002	3.609129e-003	-2.883589e-003
1876177.514	3.692359e-003	-2.172936e-003	1.001725e+000	-3.276411e-002	1.001416e+000	-3.335489e-002	3.271601e-003	-2.225982e-003
1938716.598	3.150339e-003	-2.108270e-003	1.001748e+000	-3.367880e-002	1.001401e+000	-3.320719e-002	3.440485e-003	-1.844831e-003
2001255.682	3.057139e-003	-2.596036e-003	1.001868e+000	-3.520462e-002	1.001384e+000	-3.480336e-002	3.202032e-003	-2.292871e-003
2063794.765	3.145746e-003	-2.191886e-003	1.001474e+000	-3.609193e-002	1.000837e+000	-3.642553e-002	3.595540e-003	-2.396613e-003
2126333.849	2.692205e-003	-2.720459e-003	1.000905e+000	-3.736650e-002	1.000264e+000	-3.678841e-002	3.851972e-003	-2.142237e-003
2188872.933	3.168126e-003	-2.723703e-003	1.000671e+000	-3.849921e-002	1.000117e+000	-3.777813e-002	3.718556e-003	-2.181724e-003
2251412.017	3.274951e-003	-3.095450e-003	1.000465e+000	-4.005365e-002	1.000337e+000	-3.898247e-002	3.711978e-003	-2.310008e-003
2313951.101	3.595200e-003	-2.666234e-003	9.998686e-001	-4.101733e-002	1.000281e+000	-3.980933e-002	4.015659e-003	-2.375698e-003
2376490.184	3.334548e-003	-2.701327e-003	9.998293e-001	-4.134628e-002	1.000223e+000	-4.166988e-002	3.987321e-003	-2.373294e-003
2439029.268	3.792757e-003	-2.753893e-003	9.997571e-001	-4.320701e-002	9.993717e-001	-4.272626e-002	3.635168e-003	-2.263360e-003
2501568.352	3.774777e-003	-2.747412e-003	9.995465e-001	-4.337350e-002	1.000238e+000	-4.334749e-002	3.926902e-003	-2.307527e-003
2564107.436	3.668541e-003	-2.913962e-003	9.997247e-001	-4.506735e-002	9.999416e-001	-4.488206e-002	3.236523e-003	-2.703419e-003
2626646.520	4.153426e-003	-3.081047e-003	9.996798e-001	-4.617881e-002	9.989033e-001	-4.608948e-002	3.487397e-003	-2.769403e-003
2689185.604	4.108305e-003	-2.936722e-003	9.999670e-001	-4.698614e-002	9.997106e-001	-4.665176e-002	3.617388e-003	-2.711472e-003
2751724.687	4.215087e-003	-3.027672e-003	9.999050e-001	-4.772664e-002	9.995783e-001	-4.763351e-002	3.210771e-003	-2.757444e-003
2814263.771	4.161474e-003	-3.111948e-003	9.990931e-001	-4.954619e-002	9.992384e-001	-4.889897e-002	3.192382e-003	-2.889680e-003
2876802.855	4.110531e-003	-3.335909e-003	9.989962e-001	-5.092580e-002	9.992543e-001	-4.995103e-002	3.268262e-003	-2.780325e-003
2939341.939	4.236729e-003	-3.254805e-003	9.996782e-001	-5.138801e-002	9.992919e-001	-5.142498e-002	3.169957e-003	-2.886075e-003
3001881.023	4.146099e-003	-3.263489e-003	9.992884e-001	-5.248674e-002	9.990730e-001	-5.257092e-002	3.243138e-003	-3.048300e-003
3064420.106	4.194963e-003	-3.319871e-003	9.999485e-001	-5.359430e-002	9.990876e-001	-5.344071e-002	3.088083e-003	-3.178787e-003
3126959.190	4.391431e-003	-3.435867e-003	9.994273e-001	-5.485535e-002	9.992520e-001	-5.466642e-002	3.260575e-003	-3.246913e-003
3189498.274	4.373561e-003	-3.417254e-003	9.992883e-001	-5.583317e-002	9.991421e-001	-5.576480e-002	3.259847e-003	-3.325119e-003
3252037.358	4.288425e-003	-3.798928e-003	9.993957e-001	-5.696642e-002	9.991803e-001	-5.677610e-002	3.189974e-003	-3.303107e-003
3314576.442	4.285840e-003	-3.659994e-003	9.992752e-001	-5.797835e-002	9.990740e-001	-5.794502e-002	3.254237e-003	-3.426176e-003
3377115.525	4.269590e-003	-3.672185e-003	9.991181e-001	-5.900657e-002	9.988191e-001	-5.915186e-002	3.099350e-003	-3.580229e-003
3439654.609	4.262720e-003	-3.756451e-003	9.989020e-001	-6.015490e-002	9.990964e-001	-6.017529e-002	3.113312e-003	-3.416186e-003
3502193.693	4.222130e-003	-4.094246e-003	9.988902e-001	-6.136906e-002	9.987679e-001	-6.112663e-002	3.278600e-003	-3.486337e-003
3564732.777	4.261238e-003	-3.982671e-003	9.989296e-001	-6.236359e-002	9.987517e-001	-6.231157e-002	3.361635e-003	-3.490675e-003
3627271.861	4.112633e-003	-4.159232e-003	9.989336e-001	-6.358063e-002	9.987777e-001	-6.328069e-002	3.130697e-003	-3.752357e-003
3689810.944	4.023042e-003	-4.306316e-003	9.987793e-001	-6.467972e-002	9.986951e-001	-6.437585e-002	3.285059e-003	-3.756347e-003
3752350.028	4.130392e-003	-4.314647e-003	9.987063e-001	-6.550974e-002	9.984942e-001	-6.540827e-002	3.226085e-003	-3.834439e-003
3814889.112	4.238071e-003	-4.224879e-003	9.984901e-001	-6.668207e-002	9.986442e-001	-6.677999e-002	3.133455e-003	-4.025611e-003
3877428.196	4.168901e-003	-4.238801e-003	9.986535e-001	-6.780265e-002	9.985749e-001	-6.767117e-002	3.456416e-003	-4.046331e-003
3939967.280	4.140334e-003	-4.602149e-003	9.985590e-001	-6.898057e-002	9.985563e-001	-6.881945e-002	3.423399e-003	-4.005093e-003
4002506.363	4.196455e-003	-4.490590e-003	9.985428e-001	-7.003051e-002	9.984341e-001	-6.973358e-002	3.361268e-003	-4.123917e-003
4065045.447	4.016385e-003	-4.636038e-003	9.982697e-001	-7.116305e-002	9.982336e-001	-7.096006e-002	3.453860e-003	-4.289814e-003
4127584.531	3.983950e-003	-4.709103e-003	9.981987e-001	-7.224392e-002	9.982324e-001	-7.195908e-002	3.460878e-003	-4.225686e-003
4190123.615	4.024077e-003	-4.744630e-003	9.981839e-001	-7.352876e-002	9.980160e-001	-7.322335e-002	3.359944e-003	-4.506417e-003
4252662.699	3.975626e-003	-4.863938e-003	9.982232e-001	-7.461932e-002	9.979252e-001	-7.440558e-002	3.473065e-003	-4.527546e-003
4315201.782	4.108882e-003	-4.961900e-003	9.981302e-001	-7.547229e-002	9.981264e-001	-7.550583e-002	3.291721e-003	-4.786242e-003
4377740.866	4.001188e-003	-5.050553e-003	9.981517e-001	-7.675264e-002	9.977794e-001	-7.655953e-002	3.456632e-003	-4.548911e-003
4440279.950	3.898599e-003	-5.253066e-003	9.979885e-001	-7.768048e-002	9.976476e-001	-7.753093e-002	3.342422e-003	-4.789457e-003
4502819.034	3.898628e-003	-5.175385e-003	9.976882e-001	-7.884750e-002	9.976609e-001	-7.863578e-002	3.405227e-003	-4.689475e-003
4565358.118	3.795954e-003	-5.287456e-003	9.976352e-001	-7.987535e-002	9.974359e-001	-7.955278e-002	3.410378e-003	-4.861156e-003
4627897.201	3.970630e-003	-5.222095e-003	9.977653e-001	-8.099932e-002	9.974284e-001	-8.064046e-002	3.515532e-003	-4.812560e-003
4690436.285	3.801394e-003	-5.413931e-003	9.976702e-001	-8.218118e-002	9.973977e-001	-8.217234e-002	3.514109e-003	-5.073972e-003
4752975.369	3.780167e-003	-5.492263e-003	9.973389e-001	-8.336891e-002	9.973983e-001	-8.311936e-002	3.325213e-003	-5.201713e-003
4815514.453	3.899705e-003	-5.561377e-003	9.974503e-001	-8.435711e-002	9.972714e-001	-8.431103e-002	3.534410e-003	-5.166942e-003
4878053.537	4.001205e-003	-5.703730e-003	9.974289e-001	-8.537017e-002	9.971720e-001	-8.524272e-002	3.498752e-003	-5.313539e-003
4940592.620	3.736093e-003	-5.739312e-003	9.971835e-001	-8.654147e-002	9.970984e-001	-8.642060e-002	3.259573e-003	-5.422180e-003
5003131.704	3.790148e-003	-5.939919e-003	9.971070e-001	-8.763573e-002	9.971031e-001	-8.728681e-002	3.385946e-003	-5.531496e-003
5065670.788	3.708084e-003	-5.827810e-003	9.970108e-001	-8.875120e-002	9.969278e-001	-8.850843e-002	3.342698e-003	-5.565170e-003
5128209.872	3.827864e-003	-6.009772e-003	9.970971e-001	-8.986186e-002	9.968268e-001	-8.958061e-002	3.314876e-003	-5.842923e-003
5190748.956	3.733010e-003	-6.105870e-003	9.968683e-001	-9.095628e-002	9.968071e-001	-9.078831e-002	3.275638e-003	-5.786348e-003
5253288.039	3.768451e-003	-6.215448e-003	9.968470e-001	-9.203325e-002	9.967168e-001	-9.182840e-002	3.200517e-003	-5.791397e-003
5315827.123	3.738416e-003	-6.353370e-003	9.965607e-001	-9.311357e-002	9.965629e-001	-9.296565e-002	3.175583e-003	-5.960986e-003
5378366.207	3.803717e-003	-6.371395e-003	9.966654e-001	-9.424440e-002	9.965190e-001	-9.420354e-002	3.161842e-003	-6.121135e-003
5440905.291	3.620046e-003	-6.365243e-003	9.966068e-001	-9.531981e-002	9.963976e-001	-9.512452e-002	3.039074e-003	-6.151596e-003
5503444.375	3.827059e-003	-6.599340e-003	9.964639e-001	-9.647910e-002	9.963750e-001	-9.612091e-002	3.228949e-003	-6.298642e-003
5565983.458	3.474377e-003	-6.560482e-003	9.964024e-001	-9.751709e-002	9.963094e-001	-9.720132e-002	3.158956e-003	-6.214324e-003
5628522.542	3.711070e-003	-6.703407e-003	9.963080e-001	-9.852740e-002	9.961650e-001	-9.844627e-002	3.178520e-003	-6.415721e-003
5691061.626	3.777629e-003	-6.965676e-003	9.960960e-001	-9.982692e-002	9.960293e-001	-9.958285e-002	3.073853e-003	-6.450630e-003
5753600.710	3.621819e-003	-6.957878e-003	9.959701e-001	-1.008332e-001	9.959648e-001	-1.005874e-001	3.121358e-003	-6.654989e-003
5816139.794	3.708328e-003	-6.833146e-003	9.959692e-001	-1.019326e-001	9.956876e-001	-1.018542e-001	2.972501e-003	-6.703942e-003
5878678.877	3.600953e-003	-7.147517e-003	9.958231e-001	-1.030285e-001	9.956462e-001	-1.028541e-001	3.065544e-003	-6.906766e-003
5941217.961	3.578408e-003	-7.308604e-003	9.956371e-001	-1.042207e-001	9.955557e-001	-1.037702e-001	2.867592e-003	-6.888896e-003
6003757.045	3.417073e-003	-7.164943e-003	9.954125e-001	-1.051559e-001	9.954362e-001	-1.048550e-001	2.984762e-003	-6.991487e-003
6066296.129	3.529918e-003	-7.423941e-003	9.955207e-001	-1.062494e-001	9.953656e-001	-1.059446e-001	2.950946e-003	-7.091137e-003
6128835.213	3.621454e-003	-7.474413e-003	9.953807e-001	-1.070557e-001	9.954015e-001	-1.071701e-001	3.037661e-003	-7.182387e-003
6191374.296	3.543866e-003	-7.596168e-003	9.952390e-001	-1.084090e-001	9.951060e-001	-1.084120e-001	2.868471e-003	-7.169499e-003
6253913.380	3.443057e-003	-7.553075e-003	9.951394e-001	-1.095663e-001	9.950187e-001	-1.092778e-001	2.737445e-003	-7.145140e-003
6316452.464	3.420594e-003	-7.564573e-003	9.950665e-001	-1.105131e-001	9.947373e-001	-1.106202e-001	2.774943e-003	-7.435965e-003
6378991.548	3.361086e-003	-7.796869e-003	9.949286e-001	-1.119785e-001	9.948810e-001	-1.115522e-001	2.829089e-003	-7.658503e-003
6441530.632	3.291382e-003	-7.948253e-003	9.946987e-001	-1.127521e-001	9.946959e-001	-1.127537e-001	2.861417e-003	-7.616672e-003
6504069.715	3.281898e-003	-8.057401e-003	9.945470e-001	-1.141271e-001	9.946917e-001	-1.138039e-001	2.850702e-003	-7.708607e-003
6566608.799	3.411892e-003	-8.196143e-003	9.945732e-001	-1.152494e-001	9.944477e-001	-1.149338e-001	2.728295e-003	-7.596067e-003
6629147.883	3.345992e-003	-8.145910e-003	9.943950e-001	-1.159997e-001	9.942530e-001	-1.160077e-001	2.812168e-003	-7.824134e-003
6691686.967	3.212857e-003	-8.216383e-003	9.941795e-001	-1.172121e-001	9.941314e-001	-1.170852e-001	2.824250e-003	-7.814227e-003
6754226.051	3.139868e-003	-8.319790e-003	9.940286e-001	-1.183925e-001	9.939066e-001	-1.183506e-001	2.616501e-003	-8.111137e-003
6816765.134	3.225887e-003	-8.393090e-003	9.939605e-001	-1.194470e-001	9.939056e-001	-1.192660e-001	2.656024e-003	-8.008244e-003
6879304.218	3.096133e-003	-8.653867e-003	9.937999e-001	-1.205467e-001	9.937815e-001	-1.203614e-001	2.626576e-003	-8.145733e-003
6941843.302	3.165333e-003	-8.575038e-003	9.936636e-001	-1.216866e-001	9.936168e-001	-1.214670e-001	2.607776e-003	-8.152444e-003
7004382.386	2.947665e-003	-8.589707e-003	9.936183e-001	-1.226573e-001	9.934554e-001	-1.225396e-001	2.506758e-003	-8.193535e-003
7066921.470	3.045953e-003	-8.719388e-003	9.933836e-001	-1.239349e-001	9.933737e-001	-1.234625e-001	2.654444e-003	-8.438809e-003
7129460.553	2.911087e-003	-8.921025e-003	9.932977e-001	-1.248069e-001	9.932134e-001	-1.246749e-001	2.649138e-003	-8.461057e-003
7191999.637	2.884649e-003	-8.742740e-003	9.929838e-001	-1.260069e-001	9.929305e-001	-1.257533e-001	2.486963e-003	-8.539166e-003
7254538.721	2.925705e-003	-8.956396e-003	9.931646e-001	-1.271221e-001	9.929737e-001	-1.269398e-001	2.505250e-003	-8.597926e-003
7317077.805	3.080895e-003	-9.068745e-003	9.929218e-001	-1.281144e-001	9.928467e-001	-1.279360e-001	2.483222e-003	-8.787891e-003
7379616.889	2.937420e-003	-9.140093e-003	9.929556e-001	-1.293847e-001	9.926698e-001	-1.290476e-001	2.414012e-003	-8.854123e-003
7442155.972	2.768752e-003	-9.225942e-003	9.926188e-001	-1.303040e-001	9.925673e-001	-1.301017e-001	2.483988e-003	-8.716027e-003
7504695.056	2.782525e-003	-9.387703e-003	9.923531e-001	-1.313263e-001	9.922806e-001	-1.313531e-001	2.486663e-003	-8.725132e-003
7567234.140	2.941194e-003	-9.551491e-003	9.923612e-001	-1.324050e-001	9.921338e-001	-1.323548e-001	2.410862e-003	-8.909456e-003
7629773.224	2.822914e-003	-9.312782e-003	9.922663e-001	-1.336700e-001	9.921402e-001	-1.333949e-001	2.313306e-003	-9.033233e-003
7692312.308	2.666378e-003	-9.479837e-003	9.921088e-001	-1.347464e-001	9.918693e-001	-1.346000e-001	2.354490e-003	-9.217947e-003
7754851.391	2.626523e-003	-9.708220e-003	9.919203e-001	-1.358342e-001	9.916202e-001	-1.355049e-001	2.264248e-003	-9.157366e-003
7817390.475	2.692388e-003	-9.579365e-003	9.917913e-001	-1.370827e-001	9.915464e-001	-1.368308e-001	2.165277e-003	-9.120611e-003
7879929.559	2.580133e-003	-9.844559e-003	9.915172e-001	-1.381569e-001	9.913615e-001	-1.380685e-001	2.274187e-003	-9.205494e-003
7942468.643	2.511598e-003	-9.982210e-003	9.914867e-001	-1.391808e-001	9.913440e-001	-1.391105e-001	2.237923e-003	-9.454874e-003
8005007.727	2.588872e-003	-1.002171e-002	9.912453e-001	-1.403366e-001	9.912152e-001	-1.401423e-001	2.117541e-003	-9.314857e-003
8067546.811	2.422291e-003	-1.006578e-002	9.911106e-001	-1.413670e-001	9.908759e-001	-1.411489e-001	2.013418e-003	-9.606022e-003
8130085.894	2.473397e-003	-1.020234e-002	9.908727e-001	-1.423727e-001	9.908267e-001	-1.422927e-001	2.210873e-003	-9.722001e-003
8192624.978	2.274898e-003	-1.034447e-002	9.906067e-001	-1.435837e-001	9.906305e-001	-1.433314e-001	2.224751e-003	-9.819725e-003
8255164.062	2.380334e-003	-1.039539e-002	9.906157e-001	-1.446311e-001	9.904446e-001	-1.444660e-001	2.162022e-003	-9.931813e-003
8317703.146	2.231587e-003	-1.036272e-002	9.905087e-001	-1.457466e-001	9.903935e-001	-1.455210e-001	1.968509e-003	-9.959965e-003
8380242.230	2.324434e-003	-1.067671e-002	9.901442e-001	-1.469520e-001	9.901130e-001	-1.466004e-001	1.914460e-003	-1.009401e-002
8442781.313	2.274047e-003	-1.072805e-002	9.902591e-001	-1.478942e-001	9.900125e-001	-1.476595e-001	1.862528e-003	-1.026635e-002
8505320.397	2.236425e-003	-1.066672e-002	9.900363e-001	-1.490597e-001	9.898364e-001	-1.487849e-001	1.795020e-003	-1.028230e-002
8567859.481	2.152595e-003	-1.059307e-002	9.897912e-001	-1.499724e-001	9.897597e-001	-1.498373e-001	1.792836e-003	-1.018709e-002
8630398.565	2.201608e-003	-1.071623e-002	9.894558e-001	-1.510380e-001	9.895729e-001	-1.508856e-001	1.647079e-003	-1.052725e-002
8692937.649	2.121639e-003	-1.100476e-002	9.894235e-001	-1.521518e-001	9.892185e-001	-1.520179e-001	1.561967e-003	-1.051185e-002
8755476.732	2.119838e-003	-1.101751e-002	9.892770e-001	-1.533474e-001	9.890946e-001	-1.529874e-001	1.606220e-003	-1.056759e-002
8818015.816	1.960820e-003	-1.112996e-002	9.890092e-001	-1.543867e-001	9.887315e-001	-1.541435e-001	1.673725e-003	-1.073036e-002
8880554.900	2.148146e-003	-1.116971e-002	9.890083e-001	-1.555242e-001	9.888834e-001	-1.551241e-001	1.504341e-003	-1.097789e-002
8943093.984	1.954300e-003	-1.114129e-002	9.887652e-001	-1.565131e-001	9.886919e-001	-1.562121e-001	1.505492e-003	-1.098962e-002
9005633.068	1.969819e-003	-1.131606e-002	9.884812e-001	-1.576330e-001	9.885794e-001	-1.574218e-001	1.371627e-003	-1.121496e-002
9068172.151	1.788924e-003	-1.139250e-002	9.884432e-001	-1.587442e-001	9.882452e-001	-1.583707e-001	1.395661e-003	-1.123782e-002
9130711.235	1.981208e-003	-1.154047e-002	9.882108e-001	-1.598218e-001	9.881345e-001	-1.594436e-001	1.400692e-003	-1.150856e-002
9193250.319	1.929206e-003	-1.165297e-002	9.881252e-001	-1.607706e-001	9.879208e-001	-1.606394e-001	1.299072e-003	-1.151260e-002
9255789.403	1.794860e-003	-1.187264e-002	9.880006e-001	-1.617566e-001	9.877520e-001	-1.616181e-001	1.123435e-003	-1.152949e-002
9318328.487	1.719161e-003	-1.185518e-002	9.877652e-001	-1.631019e-001	9.876916e-001	-1.626775e-001	1.202178e-003	-1.161714e-002
9380867.570	1.695054e-003	-1.182424e-002	9.876533e-001	-1.641935e-001	9.873622e-001	-1.639308e-001	1.173338e-003	-1.170737e-002
9443406.654	1.713822e-003	-1.190661e-002	9.874662e-001	-1.651716e-001	9.873155e-001	-1.650392e-001	1.173523e-003	-1.186751e-002
9505945.738	1.648161e-003	-1.196445e-002	9.870537e-001	-1.664442e-001	9.871952e-001	-1.661272e-001	1.093489e-003	-1.194417e-002
9568484.822	1.656767e-003	-1.207898e-002	9.870490e-001	-1.674585e-001	9.867236e-001	-1.671831e-001	8.529579e-004	-1.178125e-002
