!Agilent Technologies,E5061B,MY49102235,A.02.00
!Date: Tue Jul 11 16:22:57 2023
!Data & Calibration Information:
!Freq	S11:SOLT2(ON)	S21:SOLT2(ON)	S12:SOLT2(ON)	S22:SOLT2(ON)
# Hz S RI R 50
5.000	-5.200309e-003	-5.643841e-003	1.001490e+000	8.066321e-003	1.000241e+000	1.025130e-002	-1.531831e-003	-7.551958e-003
62544.084	5.814775e-003	-4.949379e-004	1.001321e+000	6.147270e-004	1.000989e+000	1.190183e-003	7.703130e-003	-2.890930e-003
125083.168	5.684894e-003	-4.925231e-004	1.000886e+000	-7.316267e-004	1.000844e+000	-8.604192e-004	7.495518e-003	-2.282757e-003
187622.251	5.472464e-003	-3.442926e-004	1.000416e+000	-2.095373e-003	1.001101e+000	-8.301776e-004	7.384107e-003	-2.399596e-003
250161.335	5.277964e-003	-1.803061e-004	1.000583e+000	-3.157137e-003	1.000585e+000	-3.285644e-003	7.277926e-003	-2.013305e-003
312700.419	5.407787e-003	5.317719e-004	1.000899e+000	-3.727267e-003	1.000729e+000	-3.444209e-003	7.787296e-003	-2.373112e-003
375239.503	5.297313e-003	-9.747685e-004	1.001034e+000	-5.239970e-003	1.000636e+000	-4.917968e-003	7.267502e-003	-2.523751e-003
437778.587	5.130691e-003	-5.903469e-004	1.001296e+000	-5.301666e-003	1.001101e+000	-5.933307e-003	6.623236e-003	-2.257255e-003
500317.670	4.602520e-003	-4.737127e-004	1.001114e+000	-7.603033e-003	1.001767e+000	-7.567903e-003	4.804551e-003	-2.071517e-003
562856.754	5.896069e-003	-7.787855e-004	1.001367e+000	-9.244730e-003	1.001186e+000	-8.952087e-003	6.017574e-003	-1.583628e-003
625395.838	5.087408e-003	-6.499567e-004	1.002138e+000	-1.037719e-002	1.002223e+000	-1.010609e-002	6.106804e-003	-1.008668e-003
687934.922	5.131464e-003	-9.773799e-004	1.001328e+000	-1.138349e-002	1.001262e+000	-1.143158e-002	5.766878e-003	-1.505225e-003
750474.006	4.345214e-003	-6.466973e-004	1.000735e+000	-1.086962e-002	1.001004e+000	-1.064699e-002	5.537851e-003	-1.309878e-003
813013.089	4.520549e-003	-6.335686e-004	1.000978e+000	-1.259231e-002	1.000857e+000	-1.242355e-002	4.903131e-003	-1.148050e-003
875552.173	4.249848e-003	-4.834878e-004	1.001010e+000	-1.357897e-002	1.001032e+000	-1.354270e-002	5.676402e-003	-1.548122e-003
938091.257	4.333571e-003	-4.147152e-004	1.001191e+000	-1.499588e-002	1.001353e+000	-1.471950e-002	5.909747e-003	-9.835695e-004
1000630.341	3.773802e-003	-7.895680e-004	1.000629e+000	-1.626510e-002	1.001144e+000	-1.604904e-002	5.149196e-003	-1.696879e-003
1063169.425	4.133327e-003	-9.373049e-004	1.000992e+000	-1.766324e-002	1.000885e+000	-1.688031e-002	4.331141e-003	-2.023597e-003
1125708.508	3.999598e-003	-9.049232e-004	1.000716e+000	-1.878845e-002	1.000962e+000	-1.826545e-002	3.852932e-003	-1.750709e-003
1188247.592	4.554511e-003	-1.357162e-003	1.000957e+000	-1.980626e-002	1.001147e+000	-1.938791e-002	2.740145e-003	-2.335078e-003
1250786.676	4.403007e-003	-2.106392e-003	1.000524e+000	-1.983484e-002	1.000949e+000	-2.004334e-002	2.003409e-003	-3.996007e-003
1313325.760	4.511937e-003	-2.220247e-003	1.001012e+000	-2.136037e-002	1.001155e+000	-2.157518e-002	2.737459e-003	-3.788507e-003
1375864.844	4.233795e-003	-2.419211e-003	1.000627e+000	-2.329481e-002	1.000671e+000	-2.328755e-002	2.589485e-003	-3.520361e-003
1438403.927	4.131834e-003	-2.585282e-003	1.000543e+000	-2.386363e-002	1.001164e+000	-2.338434e-002	2.673800e-003	-3.267801e-003
1500943.011	4.355513e-003	-2.508605e-003	1.001357e+000	-2.472290e-002	1.001598e+000	-2.475908e-002	3.022603e-003	-3.679666e-003
1563482.095	4.367626e-003	-2.916352e-003	1.000798e+000	-2.608658e-002	1.000722e+000	-2.553738e-002	3.158082e-003	-3.484052e-003
1626021.179	4.165561e-003	-2.783434e-003	1.000747e+000	-2.735932e-002	1.001025e+000	-2.815966e-002	3.431700e-003	-3.547596e-003
1688560.263	3.868551e-003	-2.732500e-003	1.000378e+000	-2.923444e-002	1.001562e+000	-2.922772e-002	3.598763e-003	-3.550877e-003
1751099.346	3.987252e-003	-2.646186e-003	1.000880e+000	-3.025514e-002	1.000942e+000	-2.979686e-002	3.411294e-003	-2.737624e-003
1813638.430	3.646682e-003	-2.688651e-003	1.001356e+000	-3.177929e-002	1.001157e+000	-3.166119e-002	3.593074e-003	-3.121904e-003
1876177.514	3.664101e-003	-2.415919e-003	1.001564e+000	-3.262998e-002	1.001536e+000	-3.324954e-002	3.262119e-003	-2.453459e-003
1938716.598	3.129971e-003	-2.341584e-003	1.001794e+000	-3.346584e-002	1.001527e+000	-3.304251e-002	3.421728e-003	-2.078230e-003
2001255.682	3.034628e-003	-2.838989e-003	1.001666e+000	-3.486235e-002	1.001429e+000	-3.462107e-002	3.161956e-003	-2.559089e-003
2063794.765	3.128341e-003	-2.458592e-003	1.001359e+000	-3.582696e-002	1.000747e+000	-3.634225e-002	3.554348e-003	-2.646221e-003
2126333.849	2.666059e-003	-2.992029e-003	1.000775e+000	-3.715861e-002	1.000269e+000	-3.681042e-002	3.825868e-003	-2.413114e-003
2188872.933	3.144900e-003	-3.009069e-003	1.000480e+000	-3.826028e-002	1.000187e+000	-3.768919e-002	3.688544e-003	-2.453209e-003
2251412.017	3.245153e-003	-3.374231e-003	1.000414e+000	-3.971011e-002	1.000356e+000	-3.876701e-002	3.676034e-003	-2.591070e-003
2313951.101	3.579842e-003	-2.962916e-003	9.998504e-001	-4.079966e-002	1.000322e+000	-3.957432e-002	3.984280e-003	-2.659363e-003
2376490.184	3.312312e-003	-3.015477e-003	9.998716e-001	-4.117880e-002	1.000354e+000	-4.152488e-002	3.937423e-003	-2.679968e-003
2439029.268	3.768682e-003	-3.050810e-003	9.996837e-001	-4.296114e-002	9.994759e-001	-4.258738e-002	3.610157e-003	-2.575212e-003
2501568.352	3.740574e-003	-3.064514e-003	9.994177e-001	-4.306670e-002	1.000287e+000	-4.323179e-002	3.902262e-003	-2.627836e-003
2564107.436	3.641833e-003	-3.233288e-003	9.997648e-001	-4.483547e-002	1.000071e+000	-4.478986e-002	3.201626e-003	-3.024110e-003
2626646.520	4.122437e-003	-3.428877e-003	9.994953e-001	-4.596596e-002	9.991010e-001	-4.586041e-002	3.454137e-003	-3.094006e-003
2689185.604	4.073224e-003	-3.275159e-003	9.998806e-001	-4.669961e-002	9.997027e-001	-4.660095e-002	3.574074e-003	-3.059342e-003
2751724.687	4.178517e-003	-3.366315e-003	9.997914e-001	-4.742971e-002	9.997103e-001	-4.743338e-002	3.180591e-003	-3.105286e-003
2814263.771	4.143136e-003	-3.472953e-003	9.988158e-001	-4.926555e-002	9.992547e-001	-4.868805e-002	3.154760e-003	-3.245478e-003
2876802.855	4.077783e-003	-3.700096e-003	9.989395e-001	-5.069780e-002	9.993892e-001	-4.983739e-002	3.228839e-003	-3.142994e-003
2939341.939	4.202598e-003	-3.625123e-003	9.995611e-001	-5.119399e-002	9.991988e-001	-5.135460e-002	3.129249e-003	-3.253254e-003
3001881.023	4.120137e-003	-3.644407e-003	9.991948e-001	-5.216607e-002	9.991775e-001	-5.231022e-002	3.193594e-003	-3.404772e-003
3064420.106	4.168763e-003	-3.718633e-003	9.997105e-001	-5.326462e-002	9.991097e-001	-5.324544e-002	3.042912e-003	-3.558922e-003
3126959.190	4.361072e-003	-3.825404e-003	9.993376e-001	-5.456958e-002	9.993127e-001	-5.448247e-002	3.221623e-003	-3.643018e-003
3189498.274	4.342275e-003	-3.822070e-003	9.992394e-001	-5.550264e-002	9.992144e-001	-5.559176e-002	3.202076e-003	-3.731295e-003
3252037.358	4.245733e-003	-4.212983e-003	9.993098e-001	-5.664657e-002	9.993010e-001	-5.656416e-002	3.146987e-003	-3.699909e-003
3314576.442	4.255150e-003	-4.069348e-003	9.992052e-001	-5.769356e-002	9.991626e-001	-5.773679e-002	3.202602e-003	-3.831994e-003
3377115.525	4.218434e-003	-4.096528e-003	9.990144e-001	-5.865631e-002	9.989045e-001	-5.894685e-002	3.037215e-003	-4.004614e-003
3439654.609	4.217436e-003	-4.192120e-003	9.988095e-001	-5.977738e-002	9.991505e-001	-5.994753e-002	3.063570e-003	-3.840217e-003
3502193.693	4.182932e-003	-4.532739e-003	9.988181e-001	-6.100013e-002	9.988283e-001	-6.091788e-002	3.212535e-003	-3.912695e-003
3564732.777	4.230241e-003	-4.427327e-003	9.988606e-001	-6.205484e-002	9.988253e-001	-6.210700e-002	3.294397e-003	-3.938368e-003
3627271.861	4.076660e-003	-4.608260e-003	9.988523e-001	-6.322413e-002	9.989137e-001	-6.309547e-002	3.075225e-003	-4.193643e-003
3689810.944	3.984446e-003	-4.769077e-003	9.986972e-001	-6.429805e-002	9.987468e-001	-6.414973e-002	3.230169e-003	-4.212415e-003
3752350.028	4.087279e-003	-4.781203e-003	9.986065e-001	-6.514104e-002	9.985646e-001	-6.521038e-002	3.147197e-003	-4.311908e-003
3814889.112	4.197340e-003	-4.696164e-003	9.984530e-001	-6.628150e-002	9.987287e-001	-6.658975e-002	3.063662e-003	-4.504872e-003
3877428.196	4.130994e-003	-4.736615e-003	9.986008e-001	-6.742262e-002	9.986027e-001	-6.744678e-002	3.381668e-003	-4.537960e-003
3939967.280	4.096980e-003	-5.089912e-003	9.985103e-001	-6.861075e-002	9.986203e-001	-6.856167e-002	3.351470e-003	-4.488363e-003
4002506.363	4.138613e-003	-4.992923e-003	9.984607e-001	-6.969108e-002	9.985323e-001	-6.948072e-002	3.300539e-003	-4.623688e-003
4065045.447	3.969873e-003	-5.143200e-003	9.981956e-001	-7.080872e-002	9.982581e-001	-7.066455e-002	3.375351e-003	-4.777968e-003
4127584.531	3.939148e-003	-5.210378e-003	9.981429e-001	-7.185729e-002	9.982941e-001	-7.171168e-002	3.389753e-003	-4.735040e-003
4190123.615	3.972770e-003	-5.251228e-003	9.981373e-001	-7.310766e-002	9.981146e-001	-7.293059e-002	3.288030e-003	-5.019886e-003
4252662.699	3.930281e-003	-5.393453e-003	9.981619e-001	-7.423567e-002	9.979509e-001	-7.411006e-002	3.387023e-003	-5.058490e-003
4315201.782	4.056353e-003	-5.506768e-003	9.980131e-001	-7.511262e-002	9.981862e-001	-7.520652e-002	3.193782e-003	-5.312530e-003
4377740.866	3.960014e-003	-5.581870e-003	9.980658e-001	-7.629573e-002	9.978624e-001	-7.629275e-002	3.381744e-003	-5.088320e-003
4440279.950	3.853182e-003	-5.804323e-003	9.979543e-001	-7.725095e-002	9.977208e-001	-7.727528e-002	3.263157e-003	-5.330832e-003
4502819.034	3.834249e-003	-5.742907e-003	9.976195e-001	-7.846251e-002	9.977949e-001	-7.835999e-002	3.324362e-003	-5.242006e-003
4565358.118	3.746537e-003	-5.843540e-003	9.975806e-001	-7.950013e-002	9.975340e-001	-7.926478e-002	3.332416e-003	-5.422984e-003
4627897.201	3.919682e-003	-5.793359e-003	9.977092e-001	-8.056052e-002	9.974910e-001	-8.032562e-002	3.420979e-003	-5.373305e-003
4690436.285	3.743717e-003	-5.987066e-003	9.976243e-001	-8.177617e-002	9.975120e-001	-8.186230e-002	3.424382e-003	-5.647992e-003
4752975.369	3.731954e-003	-6.062799e-003	9.972880e-001	-8.293885e-002	9.974899e-001	-8.279612e-002	3.235402e-003	-5.762597e-003
4815514.453	3.857248e-003	-6.151385e-003	9.973957e-001	-8.391676e-002	9.973841e-001	-8.399697e-002	3.440266e-003	-5.749814e-003
4878053.537	3.950145e-003	-6.307818e-003	9.973549e-001	-8.498870e-002	9.972907e-001	-8.487255e-002	3.397441e-003	-5.900859e-003
4940592.620	3.670158e-003	-6.351022e-003	9.971112e-001	-8.612496e-002	9.972283e-001	-8.610140e-002	3.153129e-003	-6.011631e-003
5003131.704	3.732496e-003	-6.558990e-003	9.970268e-001	-8.714067e-002	9.971785e-001	-8.694327e-002	3.267783e-003	-6.146894e-003
5065670.788	3.646340e-003	-6.434194e-003	9.969499e-001	-8.831617e-002	9.970376e-001	-8.813370e-002	3.243008e-003	-6.181028e-003
5128209.872	3.767615e-003	-6.652686e-003	9.970178e-001	-8.935236e-002	9.969155e-001	-8.922101e-002	3.195911e-003	-6.462102e-003
5190748.956	3.668028e-003	-6.732114e-003	9.968112e-001	-9.048192e-002	9.968887e-001	-9.045966e-002	3.163033e-003	-6.405693e-003
5253288.039	3.716062e-003	-6.863626e-003	9.968539e-001	-9.159400e-002	9.968197e-001	-9.149765e-002	3.088482e-003	-6.412336e-003
5315827.123	3.662281e-003	-7.008912e-003	9.965118e-001	-9.268167e-002	9.966708e-001	-9.262121e-002	3.065749e-003	-6.583530e-003
5378366.207	3.735500e-003	-7.025891e-003	9.966203e-001	-9.381153e-002	9.966555e-001	-9.385991e-002	3.037758e-003	-6.767762e-003
5440905.291	3.565106e-003	-7.031235e-003	9.965806e-001	-9.491049e-002	9.965145e-001	-9.483755e-002	2.925159e-003	-6.804905e-003
5503444.375	3.764623e-003	-7.276357e-003	9.963924e-001	-9.603907e-002	9.964809e-001	-9.575070e-002	3.118643e-003	-6.963761e-003
5565983.458	3.402630e-003	-7.240873e-003	9.963461e-001	-9.699361e-002	9.964094e-001	-9.682092e-002	3.029578e-003	-6.884621e-003
5628522.542	3.653350e-003	-7.397836e-003	9.962736e-001	-9.799754e-002	9.962528e-001	-9.808672e-002	3.057890e-003	-7.091202e-003
5691061.626	3.699761e-003	-7.664481e-003	9.960869e-001	-9.935486e-002	9.960716e-001	-9.920344e-002	2.941004e-003	-7.131070e-003
5753600.710	3.544089e-003	-7.661783e-003	9.959231e-001	-1.003012e-001	9.960575e-001	-1.002216e-001	2.990818e-003	-7.344682e-003
5816139.794	3.625538e-003	-7.563585e-003	9.959084e-001	-1.014273e-001	9.957868e-001	-1.015260e-001	2.838457e-003	-7.384243e-003
5878678.877	3.520628e-003	-7.869979e-003	9.957776e-001	-1.025275e-001	9.957496e-001	-1.024579e-001	2.939892e-003	-7.629396e-003
5941217.961	3.511862e-003	-8.035500e-003	9.955961e-001	-1.036879e-001	9.956721e-001	-1.034263e-001	2.730670e-003	-7.593587e-003
6003757.045	3.331052e-003	-7.895763e-003	9.953898e-001	-1.046386e-001	9.955581e-001	-1.045422e-001	2.845957e-003	-7.701384e-003
6066296.129	3.449742e-003	-8.176201e-003	9.954945e-001	-1.057488e-001	9.954107e-001	-1.055256e-001	2.815120e-003	-7.816503e-003
6128835.213	3.546251e-003	-8.234388e-003	9.953395e-001	-1.065134e-001	9.954689e-001	-1.067679e-001	2.899422e-003	-7.903666e-003
6191374.296	3.474111e-003	-8.344170e-003	9.952000e-001	-1.079130e-001	9.952185e-001	-1.080213e-001	2.711758e-003	-7.907559e-003
6253913.380	3.375555e-003	-8.311407e-003	9.951170e-001	-1.090396e-001	9.951088e-001	-1.089341e-001	2.604586e-003	-7.884981e-003
6316452.464	3.327152e-003	-8.324248e-003	9.950232e-001	-1.100132e-001	9.948683e-001	-1.102467e-001	2.638127e-003	-8.202034e-003
6378991.548	3.283995e-003	-8.572261e-003	9.948723e-001	-1.114301e-001	9.949787e-001	-1.111550e-001	2.677112e-003	-8.402937e-003
6441530.632	3.210697e-003	-8.733369e-003	9.946729e-001	-1.122316e-001	9.947861e-001	-1.123593e-001	2.703368e-003	-8.385913e-003
6504069.715	3.192419e-003	-8.857556e-003	9.945353e-001	-1.135555e-001	9.948074e-001	-1.134048e-001	2.696399e-003	-8.478905e-003
6566608.799	3.324483e-003	-8.993938e-003	9.945828e-001	-1.146903e-001	9.945035e-001	-1.145414e-001	2.586865e-003	-8.378840e-003
6629147.883	3.258036e-003	-8.953659e-003	9.943702e-001	-1.154770e-001	9.943530e-001	-1.156055e-001	2.666398e-003	-8.606632e-003
6691686.967	3.113963e-003	-9.020139e-003	9.941511e-001	-1.166676e-001	9.942340e-001	-1.166821e-001	2.666745e-003	-8.611841e-003
6754226.051	3.056134e-003	-9.140585e-003	9.939870e-001	-1.178475e-001	9.940130e-001	-1.179002e-001	2.466360e-003	-8.920460e-003
6816765.134	3.131404e-003	-9.243767e-003	9.939551e-001	-1.188847e-001	9.940012e-001	-1.189096e-001	2.493159e-003	-8.796208e-003
6879304.218	3.024652e-003	-9.495220e-003	9.937749e-001	-1.199890e-001	9.938667e-001	-1.199022e-001	2.458824e-003	-8.966120e-003
6941843.302	3.082099e-003	-9.423428e-003	9.936533e-001	-1.211299e-001	9.937485e-001	-1.209707e-001	2.440623e-003	-8.967118e-003
7004382.386	2.856860e-003	-9.445583e-003	9.935823e-001	-1.220840e-001	9.935454e-001	-1.221004e-001	2.331216e-003	-9.023020e-003
7066921.470	2.940350e-003	-9.576941e-003	9.933447e-001	-1.233771e-001	9.935335e-001	-1.230434e-001	2.481080e-003	-9.259166e-003
7129460.553	2.820031e-003	-9.775191e-003	9.932515e-001	-1.242120e-001	9.933422e-001	-1.242346e-001	2.465887e-003	-9.297197e-003
7191999.637	2.795632e-003	-9.640894e-003	9.929300e-001	-1.254357e-001	9.930321e-001	-1.253064e-001	2.300364e-003	-9.388903e-003
7254538.721	2.827731e-003	-9.836528e-003	9.931473e-001	-1.265465e-001	9.930970e-001	-1.264552e-001	2.322199e-003	-9.457906e-003
7317077.805	2.995363e-003	-9.959606e-003	9.928631e-001	-1.275265e-001	9.929648e-001	-1.274832e-001	2.298859e-003	-9.656449e-003
7379616.889	2.825016e-003	-1.003419e-002	9.929278e-001	-1.288207e-001	9.927583e-001	-1.286063e-001	2.233085e-003	-9.716086e-003
7442155.972	2.664596e-003	-1.012853e-002	9.926296e-001	-1.297044e-001	9.926686e-001	-1.296185e-001	2.284608e-003	-9.580898e-003
7504695.056	2.683019e-003	-1.031391e-002	9.923349e-001	-1.307276e-001	9.923956e-001	-1.308935e-001	2.301255e-003	-9.603989e-003
7567234.140	2.834886e-003	-1.046982e-002	9.923495e-001	-1.318192e-001	9.922766e-001	-1.319344e-001	2.203071e-003	-9.798648e-003
7629773.224	2.722305e-003	-1.025391e-002	9.922680e-001	-1.330552e-001	9.922747e-001	-1.329464e-001	2.107834e-003	-9.935066e-003
7692312.308	2.559374e-003	-1.040455e-002	9.920695e-001	-1.341293e-001	9.920003e-001	-1.341024e-001	2.149670e-003	-1.011146e-002
7754851.391	2.522753e-003	-1.065125e-002	9.919159e-001	-1.352698e-001	9.917561e-001	-1.350065e-001	2.063480e-003	-1.005474e-002
7817390.475	2.582300e-003	-1.052548e-002	9.918083e-001	-1.364785e-001	9.916844e-001	-1.363400e-001	1.972957e-003	-1.002983e-002
7879929.559	2.470896e-003	-1.079582e-002	9.915237e-001	-1.375482e-001	9.914829e-001	-1.375646e-001	2.065883e-003	-1.011885e-002
7942468.643	2.393708e-003	-1.093712e-002	9.915120e-001	-1.385341e-001	9.914431e-001	-1.385581e-001	2.026421e-003	-1.038907e-002
8005007.727	2.483081e-003	-1.098587e-002	9.912242e-001	-1.396618e-001	9.913136e-001	-1.396452e-001	1.906788e-003	-1.024885e-002
8067546.811	2.306330e-003	-1.103681e-002	9.911172e-001	-1.407360e-001	9.909675e-001	-1.406299e-001	1.803523e-003	-1.054494e-002
8130085.894	2.366741e-003	-1.119256e-002	9.909259e-001	-1.417436e-001	9.909474e-001	-1.417703e-001	1.987449e-003	-1.067279e-002
8192624.978	2.172481e-003	-1.133803e-002	9.906158e-001	-1.429529e-001	9.907601e-001	-1.428194e-001	2.014259e-003	-1.076955e-002
8255164.062	2.255519e-003	-1.140026e-002	9.905898e-001	-1.440112e-001	9.905672e-001	-1.439467e-001	1.957952e-003	-1.090088e-002
8317703.146	2.110193e-003	-1.137796e-002	9.905280e-001	-1.451406e-001	9.905122e-001	-1.450099e-001	1.742748e-003	-1.092816e-002
8380242.230	2.220864e-003	-1.168523e-002	9.901529e-001	-1.463012e-001	9.902408e-001	-1.460510e-001	1.688238e-003	-1.106656e-002
8442781.313	2.151987e-003	-1.173842e-002	9.902821e-001	-1.472353e-001	9.901621e-001	-1.470975e-001	1.646465e-003	-1.125154e-002
8505320.397	2.108554e-003	-1.169930e-002	9.900349e-001	-1.484232e-001	9.899316e-001	-1.482181e-001	1.549875e-003	-1.128461e-002
8567859.481	2.029504e-003	-1.161547e-002	9.897853e-001	-1.492881e-001	9.898931e-001	-1.492838e-001	1.553110e-003	-1.118522e-002
8630398.565	2.085427e-003	-1.176407e-002	9.894823e-001	-1.503718e-001	9.896724e-001	-1.503558e-001	1.410218e-003	-1.153696e-002
8692937.649	1.999170e-003	-1.206264e-002	9.894005e-001	-1.514574e-001	9.893712e-001	-1.514708e-001	1.321056e-003	-1.151345e-002
8755476.732	1.982860e-003	-1.207461e-002	9.893048e-001	-1.526527e-001	9.892025e-001	-1.524632e-001	1.354883e-003	-1.159003e-002
8818015.816	1.833866e-003	-1.219867e-002	9.890536e-001	-1.537140e-001	9.889004e-001	-1.535967e-001	1.430204e-003	-1.175338e-002
8880554.900	2.018423e-003	-1.224667e-002	9.889950e-001	-1.548574e-001	9.890021e-001	-1.545465e-001	1.261128e-003	-1.200863e-002
8943093.984	1.815803e-003	-1.222475e-002	9.887762e-001	-1.558171e-001	9.888258e-001	-1.556725e-001	1.252530e-003	-1.203437e-002
9005633.068	1.848315e-003	-1.240614e-002	9.885002e-001	-1.569528e-001	9.887168e-001	-1.568570e-001	1.119017e-003	-1.225806e-002
9068172.151	1.662068e-003	-1.249580e-002	9.884759e-001	-1.580638e-001	9.884052e-001	-1.578236e-001	1.137861e-003	-1.228981e-002
9130711.235	1.833503e-003	-1.264528e-002	9.882035e-001	-1.591259e-001	9.882586e-001	-1.589042e-001	1.145045e-003	-1.256436e-002
9193250.319	1.796855e-003	-1.275870e-002	9.881678e-001	-1.600735e-001	9.880604e-001	-1.600915e-001	1.024679e-003	-1.256806e-002
9255789.403	1.642282e-003	-1.300580e-002	9.880293e-001	-1.610476e-001	9.878638e-001	-1.610799e-001	8.660503e-004	-1.260497e-002
9318328.487	1.576771e-003	-1.298730e-002	9.877734e-001	-1.623868e-001	9.878728e-001	-1.621303e-001	9.432474e-004	-1.268495e-002
9380867.570	1.551071e-003	-1.294542e-002	9.876508e-001	-1.634706e-001	9.875199e-001	-1.633068e-001	9.013891e-004	-1.280217e-002
9443406.654	1.556382e-003	-1.304184e-002	9.874792e-001	-1.644580e-001	9.874983e-001	-1.644792e-001	9.087326e-004	-1.295077e-002
9505945.738	1.516003e-003	-1.311076e-002	9.871078e-001	-1.657291e-001	9.873362e-001	-1.654957e-001	8.135962e-004	-1.304462e-002
9568484.822	1.513471e-003	-1.321923e-002	9.870808e-001	-1.667454e-001	9.869274e-001	-1.665774e-001	5.734183e-004	-1.289829e-002
