!Agilent Technologies,E5061B,MY49102235,A.02.00
!Date: Tue Jul 11 16:11:36 2023
!Data & Calibration Information:
!Freq	S11:SOLT2(ON)	S21:SOLT2(ON)	S12:SOLT2(ON)	S22:SOLT2(ON)
# Hz S RI R 50
5.000	-5.146642e-003	-5.639896e-003	1.001740e+000	8.027582e-003	1.000381e+000	1.022634e-002	-1.431117e-003	-7.533452e-003
62544.084	5.827114e-003	-5.075065e-004	1.001314e+000	7.447338e-004	1.000917e+000	1.151489e-003	7.693716e-003	-2.878073e-003
125083.168	5.686376e-003	-4.881623e-004	1.000872e+000	-7.985366e-004	1.000810e+000	-7.690150e-004	7.498156e-003	-2.289200e-003
187622.251	5.456357e-003	-3.333396e-004	1.000460e+000	-2.072832e-003	1.001058e+000	-9.686662e-004	7.372835e-003	-2.367106e-003
250161.335	5.295547e-003	-1.948146e-004	1.000485e+000	-3.091579e-003	1.000685e+000	-3.093880e-003	7.274148e-003	-2.045884e-003
312700.419	5.433659e-003	5.448302e-004	1.000788e+000	-3.785763e-003	1.000715e+000	-3.521101e-003	7.779388e-003	-2.353723e-003
375239.503	5.330947e-003	-9.825204e-004	1.000988e+000	-5.149108e-003	1.000553e+000	-4.854074e-003	7.273088e-003	-2.524289e-003
437778.587	5.148365e-003	-5.943531e-004	1.001355e+000	-5.278688e-003	1.001066e+000	-6.109307e-003	6.623663e-003	-2.225240e-003
500317.670	4.577689e-003	-4.796055e-004	1.001350e+000	-7.671491e-003	1.001747e+000	-7.560372e-003	4.825000e-003	-2.064344e-003
562856.754	5.890756e-003	-7.625797e-004	1.001453e+000	-9.332212e-003	1.001126e+000	-9.047720e-003	6.019282e-003	-1.573131e-003
625395.838	5.113608e-003	-6.283726e-004	1.002118e+000	-1.037934e-002	1.002227e+000	-1.001762e-002	6.115467e-003	-1.013214e-003
687934.922	5.139314e-003	-9.866072e-004	1.001319e+000	-1.132584e-002	1.001329e+000	-1.145653e-002	5.755151e-003	-1.489035e-003
750474.006	4.311225e-003	-6.650412e-004	1.000830e+000	-1.070241e-002	1.000860e+000	-1.058146e-002	5.499897e-003	-1.336766e-003
813013.089	4.473008e-003	-6.539418e-004	1.001082e+000	-1.258796e-002	1.000719e+000	-1.228013e-002	4.848866e-003	-1.163251e-003
875552.173	4.208955e-003	-5.075764e-004	1.001077e+000	-1.347876e-002	1.001018e+000	-1.347265e-002	5.633542e-003	-1.568907e-003
938091.257	4.288891e-003	-4.425737e-004	1.001042e+000	-1.503100e-002	1.001183e+000	-1.451903e-002	5.869422e-003	-1.002821e-003
1000630.341	3.727865e-003	-7.878554e-004	1.000658e+000	-1.628480e-002	1.001027e+000	-1.605399e-002	5.107422e-003	-1.718841e-003
1063169.425	4.081670e-003	-9.585811e-004	1.001100e+000	-1.752808e-002	1.000785e+000	-1.689238e-002	4.287941e-003	-2.047851e-003
1125708.508	3.973435e-003	-9.282489e-004	1.000812e+000	-1.881308e-002	1.000727e+000	-1.822273e-002	3.805610e-003	-1.766127e-003
1188247.592	4.514792e-003	-1.373056e-003	1.001129e+000	-1.987008e-002	1.001124e+000	-1.929954e-002	2.701525e-003	-2.345222e-003
1250786.676	4.350477e-003	-2.136069e-003	1.000483e+000	-1.973288e-002	1.000818e+000	-2.001765e-002	1.975782e-003	-4.005065e-003
1313325.760	4.475714e-003	-2.232228e-003	1.001006e+000	-2.139545e-002	1.001031e+000	-2.145432e-002	2.699165e-003	-3.804273e-003
1375864.844	4.205711e-003	-2.428689e-003	1.000690e+000	-2.334031e-002	1.000739e+000	-2.325391e-002	2.552646e-003	-3.523963e-003
1438403.927	4.094394e-003	-2.618133e-003	1.000649e+000	-2.396226e-002	1.000957e+000	-2.319771e-002	2.642592e-003	-3.282039e-003
1500943.011	4.303472e-003	-2.538047e-003	1.001231e+000	-2.477104e-002	1.001440e+000	-2.457552e-002	2.996104e-003	-3.692199e-003
1563482.095	4.316169e-003	-2.925174e-003	1.000958e+000	-2.607953e-002	1.000693e+000	-2.541213e-002	3.122553e-003	-3.499118e-003
1626021.179	4.104466e-003	-2.803153e-003	1.000552e+000	-2.734433e-002	1.001179e+000	-2.793917e-002	3.403820e-003	-3.566080e-003
1688560.263	3.829309e-003	-2.743907e-003	1.000404e+000	-2.917294e-002	1.001450e+000	-2.924913e-002	3.580504e-003	-3.585205e-003
1751099.346	3.957678e-003	-2.654087e-003	1.001026e+000	-3.020072e-002	1.000748e+000	-2.967047e-002	3.382602e-003	-2.751312e-003
1813638.430	3.606767e-003	-2.719707e-003	1.001367e+000	-3.171995e-002	1.000999e+000	-3.153367e-002	3.559196e-003	-3.150116e-003
1876177.514	3.634677e-003	-2.424367e-003	1.001684e+000	-3.257386e-002	1.001414e+000	-3.325154e-002	3.221276e-003	-2.494579e-003
1938716.598	3.081932e-003	-2.371769e-003	1.001850e+000	-3.342049e-002	1.001486e+000	-3.294910e-002	3.389641e-003	-2.097390e-003
2001255.682	2.995715e-003	-2.859790e-003	1.001666e+000	-3.490697e-002	1.001372e+000	-3.455249e-002	3.149316e-003	-2.568445e-003
2063794.765	3.079848e-003	-2.480154e-003	1.001390e+000	-3.586524e-002	1.000939e+000	-3.628197e-002	3.548272e-003	-2.681108e-003
2126333.849	2.617752e-003	-3.009141e-003	1.000696e+000	-3.712303e-002	1.000353e+000	-3.658394e-002	3.806140e-003	-2.432144e-003
2188872.933	3.107947e-003	-3.025567e-003	1.000568e+000	-3.830857e-002	1.000179e+000	-3.755010e-002	3.672874e-003	-2.472942e-003
2251412.017	3.208932e-003	-3.388818e-003	1.000376e+000	-3.973002e-002	1.000341e+000	-3.862179e-002	3.664142e-003	-2.611925e-003
2313951.101	3.531270e-003	-2.995683e-003	9.998111e-001	-4.074419e-002	1.000344e+000	-3.947900e-002	3.959253e-003	-2.682142e-003
2376490.184	3.278964e-003	-3.033983e-003	9.996694e-001	-4.106510e-002	1.000184e+000	-4.153156e-002	3.917634e-003	-2.713306e-003
2439029.268	3.725967e-003	-3.072513e-003	9.996543e-001	-4.294483e-002	9.994707e-001	-4.242523e-002	3.584414e-003	-2.600204e-003
2501568.352	3.698277e-003	-3.089978e-003	9.994512e-001	-4.300416e-002	1.000253e+000	-4.309894e-002	3.871478e-003	-2.654372e-003
2564107.436	3.610375e-003	-3.264002e-003	9.997870e-001	-4.477404e-002	1.000060e+000	-4.468743e-002	3.186097e-003	-3.060247e-003
2626646.520	4.097312e-003	-3.446468e-003	9.996865e-001	-4.597170e-002	9.990260e-001	-4.575929e-002	3.448497e-003	-3.117735e-003
2689185.604	4.039121e-003	-3.303936e-003	9.999925e-001	-4.669397e-002	9.996042e-001	-4.650744e-002	3.558698e-003	-3.073911e-003
2751724.687	4.159386e-003	-3.402720e-003	1.000010e+000	-4.733572e-002	9.995339e-001	-4.737110e-002	3.149197e-003	-3.139078e-003
2814263.771	4.104542e-003	-3.503546e-003	9.989301e-001	-4.933863e-002	9.993711e-001	-4.860358e-002	3.144453e-003	-3.280002e-003
2876802.855	4.038518e-003	-3.716353e-003	9.990687e-001	-5.051519e-002	9.994337e-001	-4.969374e-002	3.219129e-003	-3.167338e-003
2939341.939	4.161106e-003	-3.656195e-003	9.996365e-001	-5.106882e-002	9.992283e-001	-5.120944e-002	3.107445e-003	-3.298845e-003
3001881.023	4.085535e-003	-3.661118e-003	9.992348e-001	-5.214785e-002	9.990721e-001	-5.229116e-002	3.192331e-003	-3.453049e-003
3064420.106	4.135409e-003	-3.743378e-003	9.998053e-001	-5.323066e-002	9.990630e-001	-5.316519e-002	3.027403e-003	-3.603823e-003
3126959.190	4.323073e-003	-3.858842e-003	9.994035e-001	-5.448945e-002	9.992868e-001	-5.443124e-002	3.193409e-003	-3.680300e-003
3189498.274	4.293312e-003	-3.854772e-003	9.992601e-001	-5.547559e-002	9.991565e-001	-5.546342e-002	3.191338e-003	-3.764057e-003
3252037.358	4.199355e-003	-4.253199e-003	9.993235e-001	-5.662588e-002	9.992302e-001	-5.646965e-002	3.134788e-003	-3.746952e-003
3314576.442	4.216887e-003	-4.107003e-003	9.992439e-001	-5.763778e-002	9.991369e-001	-5.763484e-002	3.180041e-003	-3.871859e-003
3377115.525	4.185183e-003	-4.130299e-003	9.990212e-001	-5.862102e-002	9.988532e-001	-5.887952e-002	3.032688e-003	-4.053752e-003
3439654.609	4.189463e-003	-4.238410e-003	9.988347e-001	-5.976242e-002	9.991218e-001	-5.987520e-002	3.039171e-003	-3.900398e-003
3502193.693	4.148954e-003	-4.569378e-003	9.988632e-001	-6.101426e-002	9.988321e-001	-6.083208e-002	3.200672e-003	-3.966417e-003
3564732.777	4.202193e-003	-4.474426e-003	9.988722e-001	-6.202943e-002	9.988073e-001	-6.200999e-002	3.285734e-003	-3.985920e-003
3627271.861	4.033835e-003	-4.646938e-003	9.989338e-001	-6.316184e-002	9.988653e-001	-6.296050e-002	3.057479e-003	-4.233107e-003
3689810.944	3.936266e-003	-4.811289e-003	9.987388e-001	-6.425431e-002	9.987851e-001	-6.401030e-002	3.206461e-003	-4.269053e-003
3752350.028	4.050198e-003	-4.831169e-003	9.986163e-001	-6.514452e-002	9.984871e-001	-6.511820e-002	3.142223e-003	-4.361578e-003
3814889.112	4.152971e-003	-4.748612e-003	9.984815e-001	-6.629491e-002	9.987490e-001	-6.647200e-002	3.059968e-003	-4.547423e-003
3877428.196	4.085413e-003	-4.778766e-003	9.986518e-001	-6.739233e-002	9.985808e-001	-6.735382e-002	3.370343e-003	-4.581972e-003
3939967.280	4.055211e-003	-5.115609e-003	9.985009e-001	-6.856039e-002	9.986149e-001	-6.846758e-002	3.348105e-003	-4.550019e-003
4002506.363	4.108742e-003	-5.043288e-003	9.984999e-001	-6.958358e-002	9.984792e-001	-6.940201e-002	3.288733e-003	-4.672584e-003
4065045.447	3.931391e-003	-5.188932e-003	9.982520e-001	-7.074768e-002	9.982415e-001	-7.063100e-002	3.366658e-003	-4.848519e-003
4127584.531	3.906221e-003	-5.271678e-003	9.981499e-001	-7.183552e-002	9.982404e-001	-7.161098e-002	3.384196e-003	-4.795183e-003
4190123.615	3.936897e-003	-5.304688e-003	9.981866e-001	-7.308409e-002	9.980699e-001	-7.283101e-002	3.288749e-003	-5.079031e-003
4252662.699	3.889386e-003	-5.449197e-003	9.981941e-001	-7.418458e-002	9.979490e-001	-7.403016e-002	3.392227e-003	-5.117609e-003
4315201.782	4.009842e-003	-5.544070e-003	9.980986e-001	-7.503682e-002	9.981455e-001	-7.512031e-002	3.200502e-003	-5.377127e-003
4377740.866	3.916797e-003	-5.638118e-003	9.981079e-001	-7.630901e-002	9.978569e-001	-7.619728e-002	3.375054e-003	-5.152248e-003
4440279.950	3.813679e-003	-5.846497e-003	9.979666e-001	-7.721380e-002	9.976545e-001	-7.717431e-002	3.246913e-003	-5.384712e-003
4502819.034	3.798068e-003	-5.790572e-003	9.976539e-001	-7.840983e-002	9.977510e-001	-7.829813e-002	3.319508e-003	-5.305537e-003
4565358.118	3.722822e-003	-5.910635e-003	9.976070e-001	-7.944224e-002	9.975182e-001	-7.918595e-002	3.328303e-003	-5.470536e-003
4627897.201	3.871184e-003	-5.849241e-003	9.977044e-001	-8.054767e-002	9.974760e-001	-8.025438e-002	3.416835e-003	-5.448023e-003
4690436.285	3.691148e-003	-6.048306e-003	9.976715e-001	-8.173181e-002	9.974658e-001	-8.176190e-002	3.418084e-003	-5.711295e-003
4752975.369	3.702655e-003	-6.124796e-003	9.973040e-001	-8.289262e-002	9.974628e-001	-8.274504e-002	3.233651e-003	-5.835626e-003
4815514.453	3.819448e-003	-6.198387e-003	9.974416e-001	-8.387570e-002	9.973493e-001	-8.386573e-002	3.432974e-003	-5.813206e-003
4878053.537	3.915013e-003	-6.373213e-003	9.973981e-001	-8.492709e-002	9.972593e-001	-8.479524e-002	3.402925e-003	-5.971712e-003
4940592.620	3.634747e-003	-6.396961e-003	9.971722e-001	-8.605594e-002	9.971850e-001	-8.602385e-002	3.149759e-003	-6.088713e-003
5003131.704	3.691315e-003	-6.612910e-003	9.970581e-001	-8.711196e-002	9.971499e-001	-8.686583e-002	3.283990e-003	-6.212795e-003
5065670.788	3.616797e-003	-6.494953e-003	9.969765e-001	-8.826819e-002	9.969548e-001	-8.805734e-002	3.248127e-003	-6.254708e-003
5128209.872	3.732861e-003	-6.718474e-003	9.970956e-001	-8.931034e-002	9.968603e-001	-8.914388e-002	3.211190e-003	-6.539595e-003
5190748.956	3.633902e-003	-6.803470e-003	9.968480e-001	-9.042361e-002	9.968502e-001	-9.033396e-002	3.158406e-003	-6.497546e-003
5253288.039	3.669379e-003	-6.933145e-003	9.968314e-001	-9.153401e-002	9.967545e-001	-9.140173e-002	3.086558e-003	-6.488842e-003
5315827.123	3.622485e-003	-7.069127e-003	9.965618e-001	-9.264972e-002	9.966477e-001	-9.251237e-002	3.068145e-003	-6.673186e-003
5378366.207	3.707964e-003	-7.109856e-003	9.966362e-001	-9.371875e-002	9.965733e-001	-9.375853e-002	3.049376e-003	-6.845668e-003
5440905.291	3.519664e-003	-7.092198e-003	9.965864e-001	-9.482589e-002	9.964712e-001	-9.473926e-002	2.931504e-003	-6.876477e-003
5503444.375	3.720959e-003	-7.341214e-003	9.964491e-001	-9.596259e-002	9.964289e-001	-9.567186e-002	3.116289e-003	-7.047575e-003
5565983.458	3.357925e-003	-7.305506e-003	9.963522e-001	-9.697066e-002	9.963288e-001	-9.675372e-002	3.025442e-003	-6.967434e-003
5628522.542	3.598529e-003	-7.468245e-003	9.962849e-001	-9.796622e-002	9.962425e-001	-9.797888e-002	3.066181e-003	-7.181387e-003
5691061.626	3.669434e-003	-7.718196e-003	9.961566e-001	-9.928341e-002	9.960636e-001	-9.910279e-002	2.964078e-003	-7.217213e-003
5753600.710	3.496839e-003	-7.725025e-003	9.959497e-001	-1.002339e-001	9.959810e-001	-1.001201e-001	3.003205e-003	-7.437693e-003
5816139.794	3.585371e-003	-7.620958e-003	9.958847e-001	-1.013858e-001	9.956896e-001	-1.014184e-001	2.838493e-003	-7.477140e-003
5878678.877	3.486611e-003	-7.942884e-003	9.957958e-001	-1.024723e-001	9.957239e-001	-1.023705e-001	2.949555e-003	-7.691768e-003
5941217.961	3.465973e-003	-8.096833e-003	9.955898e-001	-1.036236e-001	9.956563e-001	-1.033371e-001	2.733977e-003	-7.688651e-003
6003757.045	3.291393e-003	-7.967359e-003	9.954116e-001	-1.045283e-001	9.955073e-001	-1.044017e-001	2.853564e-003	-7.796601e-003
6066296.129	3.413096e-003	-8.245650e-003	9.955191e-001	-1.056647e-001	9.954023e-001	-1.054544e-001	2.818796e-003	-7.901502e-003
6128835.213	3.500395e-003	-8.306422e-003	9.953784e-001	-1.065054e-001	9.954743e-001	-1.067048e-001	2.903944e-003	-7.992261e-003
6191374.296	3.441276e-003	-8.419667e-003	9.951791e-001	-1.078324e-001	9.951644e-001	-1.078802e-001	2.735791e-003	-8.015178e-003
6253913.380	3.328382e-003	-8.385510e-003	9.951171e-001	-1.089766e-001	9.950771e-001	-1.088131e-001	2.594590e-003	-7.986847e-003
6316452.464	3.286683e-003	-8.399554e-003	9.950526e-001	-1.099375e-001	9.948432e-001	-1.101147e-001	2.640761e-003	-8.308081e-003
6378991.548	3.238925e-003	-8.641930e-003	9.949026e-001	-1.113604e-001	9.949235e-001	-1.110616e-001	2.679318e-003	-8.501099e-003
6441530.632	3.163188e-003	-8.813477e-003	9.946701e-001	-1.121699e-001	9.947671e-001	-1.122934e-001	2.707054e-003	-8.492551e-003
6504069.715	3.144587e-003	-8.920634e-003	9.945563e-001	-1.135167e-001	9.947533e-001	-1.132873e-001	2.720812e-003	-8.578467e-003
6566608.799	3.292814e-003	-9.073839e-003	9.945840e-001	-1.146442e-001	9.945191e-001	-1.144177e-001	2.608157e-003	-8.478722e-003
6629147.883	3.214308e-003	-9.032383e-003	9.943935e-001	-1.154157e-001	9.943488e-001	-1.155071e-001	2.675052e-003	-8.720088e-003
6691686.967	3.081638e-003	-9.104550e-003	9.942011e-001	-1.165856e-001	9.941782e-001	-1.165568e-001	2.680910e-003	-8.720293e-003
6754226.051	3.008296e-003	-9.214090e-003	9.940225e-001	-1.177737e-001	9.939795e-001	-1.178258e-001	2.480914e-003	-9.018663e-003
6816765.134	3.094472e-003	-9.317632e-003	9.939747e-001	-1.188052e-001	9.939677e-001	-1.187683e-001	2.508078e-003	-8.908591e-003
6879304.218	2.970035e-003	-9.565867e-003	9.937732e-001	-1.198971e-001	9.938643e-001	-1.198059e-001	2.472907e-003	-9.070060e-003
6941843.302	3.033739e-003	-9.490925e-003	9.936632e-001	-1.210451e-001	9.937096e-001	-1.208718e-001	2.451684e-003	-9.081598e-003
7004382.386	2.806226e-003	-9.524120e-003	9.936281e-001	-1.220379e-001	9.935435e-001	-1.219878e-001	2.352200e-003	-9.138140e-003
7066921.470	2.890530e-003	-9.668822e-003	9.933865e-001	-1.232766e-001	9.934661e-001	-1.229452e-001	2.494816e-003	-9.380836e-003
7129460.553	2.776859e-003	-9.868245e-003	9.932836e-001	-1.241196e-001	9.933331e-001	-1.241275e-001	2.476081e-003	-9.402162e-003
7191999.637	2.755533e-003	-9.720089e-003	9.929605e-001	-1.253336e-001	9.930710e-001	-1.251732e-001	2.318864e-003	-9.491697e-003
7254538.721	2.787205e-003	-9.921845e-003	9.931575e-001	-1.264892e-001	9.930743e-001	-1.263701e-001	2.347093e-003	-9.573774e-003
7317077.805	2.936435e-003	-1.003274e-002	9.929285e-001	-1.274079e-001	9.929330e-001	-1.273801e-001	2.324006e-003	-9.766163e-003
7379616.889	2.792592e-003	-1.012864e-002	9.929614e-001	-1.287196e-001	9.927173e-001	-1.284951e-001	2.246349e-003	-9.833603e-003
7442155.972	2.604843e-003	-1.022118e-002	9.926160e-001	-1.296397e-001	9.926400e-001	-1.295244e-001	2.305358e-003	-9.702587e-003
7504695.056	2.626761e-003	-1.039125e-002	9.923781e-001	-1.306355e-001	9.923448e-001	-1.307931e-001	2.312741e-003	-9.722197e-003
7567234.140	2.800599e-003	-1.055364e-002	9.923981e-001	-1.317360e-001	9.921949e-001	-1.317816e-001	2.222975e-003	-9.927905e-003
7629773.224	2.676711e-003	-1.034068e-002	9.922953e-001	-1.329871e-001	9.922265e-001	-1.327818e-001	2.132687e-003	-1.006588e-002
7692312.308	2.506475e-003	-1.050058e-002	9.921167e-001	-1.340271e-001	9.920007e-001	-1.339936e-001	2.167021e-003	-1.023244e-002
7754851.391	2.465149e-003	-1.074202e-002	9.919008e-001	-1.351586e-001	9.917380e-001	-1.348848e-001	2.089913e-003	-1.019042e-002
7817390.475	2.541788e-003	-1.061541e-002	9.918082e-001	-1.363430e-001	9.916265e-001	-1.361981e-001	1.991026e-003	-1.016521e-002
7879929.559	2.425652e-003	-1.089409e-002	9.915173e-001	-1.374509e-001	9.914700e-001	-1.374457e-001	2.087373e-003	-1.025925e-002
7942468.643	2.353471e-003	-1.102233e-002	9.915117e-001	-1.384451e-001	9.914065e-001	-1.384756e-001	2.043515e-003	-1.052535e-002
8005007.727	2.438584e-003	-1.108718e-002	9.912585e-001	-1.396068e-001	9.912977e-001	-1.395313e-001	1.933957e-003	-1.036886e-002
8067546.811	2.261834e-003	-1.112334e-002	9.911493e-001	-1.406518e-001	9.909689e-001	-1.405170e-001	1.826323e-003	-1.067200e-002
8130085.894	2.308806e-003	-1.128049e-002	9.909543e-001	-1.416341e-001	9.909333e-001	-1.416446e-001	2.023070e-003	-1.080319e-002
8192624.978	2.119156e-003	-1.142968e-002	9.906321e-001	-1.428847e-001	9.907438e-001	-1.427040e-001	2.037513e-003	-1.090236e-002
8255164.062	2.207083e-003	-1.149642e-002	9.906347e-001	-1.439398e-001	9.905069e-001	-1.438107e-001	1.971275e-003	-1.102893e-002
8317703.146	2.071019e-003	-1.146298e-002	9.904917e-001	-1.449852e-001	9.905044e-001	-1.448979e-001	1.775418e-003	-1.106077e-002
8380242.230	2.165171e-003	-1.178735e-002	9.901869e-001	-1.462147e-001	9.902236e-001	-1.459258e-001	1.721540e-003	-1.121033e-002
8442781.313	2.103227e-003	-1.184424e-002	9.902437e-001	-1.471471e-001	9.901344e-001	-1.470061e-001	1.660464e-003	-1.138912e-002
8505320.397	2.059465e-003	-1.179254e-002	9.900611e-001	-1.483138e-001	9.898923e-001	-1.481147e-001	1.575745e-003	-1.141779e-002
8567859.481	1.967830e-003	-1.171545e-002	9.898247e-001	-1.491617e-001	9.898451e-001	-1.491634e-001	1.595099e-003	-1.132159e-002
8630398.565	2.035176e-003	-1.185831e-002	9.895070e-001	-1.502631e-001	9.896484e-001	-1.502139e-001	1.441709e-003	-1.166823e-002
8692937.649	1.947803e-003	-1.215396e-002	9.894077e-001	-1.513452e-001	9.893573e-001	-1.513601e-001	1.347498e-003	-1.167165e-002
8755476.732	1.927590e-003	-1.217072e-002	9.893223e-001	-1.525333e-001	9.891580e-001	-1.523052e-001	1.383913e-003	-1.172563e-002
8818015.816	1.780526e-003	-1.229283e-002	9.890663e-001	-1.535841e-001	9.888747e-001	-1.534763e-001	1.465243e-003	-1.189400e-002
8880554.900	1.960627e-003	-1.233833e-002	9.890504e-001	-1.547561e-001	9.889896e-001	-1.543944e-001	1.292168e-003	-1.215661e-002
8943093.984	1.767289e-003	-1.231394e-002	9.888282e-001	-1.557219e-001	9.888012e-001	-1.555428e-001	1.279196e-003	-1.219185e-002
9005633.068	1.795326e-003	-1.249424e-002	9.885219e-001	-1.568539e-001	9.887350e-001	-1.567101e-001	1.151832e-003	-1.239686e-002
9068172.151	1.603075e-003	-1.260113e-002	9.885065e-001	-1.579814e-001	9.883626e-001	-1.576797e-001	1.164669e-003	-1.243306e-002
9130711.235	1.785567e-003	-1.274849e-002	9.882307e-001	-1.589987e-001	9.882434e-001	-1.587742e-001	1.181068e-003	-1.270633e-002
9193250.319	1.742865e-003	-1.286729e-002	9.881969e-001	-1.599367e-001	9.880435e-001	-1.599504e-001	1.064447e-003	-1.271498e-002
9255789.403	1.596079e-003	-1.310280e-002	9.880411e-001	-1.609612e-001	9.878618e-001	-1.609131e-001	8.881455e-004	-1.274687e-002
9318328.487	1.516765e-003	-1.308253e-002	9.877957e-001	-1.622812e-001	9.878353e-001	-1.619648e-001	9.677842e-004	-1.283911e-002
9380867.570	1.483859e-003	-1.305717e-002	9.876588e-001	-1.633852e-001	9.874778e-001	-1.631965e-001	9.341192e-004	-1.294916e-002
9443406.654	1.506570e-003	-1.314447e-002	9.874619e-001	-1.643552e-001	9.874528e-001	-1.643040e-001	9.289693e-004	-1.310936e-002
9505945.738	1.451372e-003	-1.320979e-002	9.871417e-001	-1.656151e-001	9.873147e-001	-1.653717e-001	8.391916e-004	-1.319821e-002
9568484.822	1.453432e-003	-1.333576e-002	9.871168e-001	-1.666410e-001	9.868905e-001	-1.664478e-001	6.130476e-004	-1.305683e-002
