!Agilent Technologies,E5061B,MY49102235,A.02.00
!Date: Tue Jul 11 14:38:30 2023
!Data & Calibration Information:
!Freq	S11:SOLT2(ON)	S21:SOLT2(ON)	S12:SOLT2(ON)	S22:SOLT2(ON)
# Hz S RI R 50
5.000	-5.165140e-003	-5.635462e-003	1.001618e+000	7.845634e-003	1.000180e+000	1.027829e-002	-1.526158e-003	-7.574287e-003
62544.084	5.798765e-003	-5.127716e-004	1.001451e+000	3.156187e-004	1.000850e+000	1.294749e-003	7.717617e-003	-2.891205e-003
125083.168	5.649911e-003	-4.742843e-004	1.001011e+000	-1.120271e-003	1.000642e+000	-9.023038e-004	7.487851e-003	-2.260079e-003
187622.251	5.423479e-003	-3.087165e-004	1.000596e+000	-2.391337e-003	1.000922e+000	-1.131610e-003	7.344614e-003	-2.345254e-003
250161.335	5.264135e-003	-1.810623e-004	1.000684e+000	-3.329031e-003	1.000581e+000	-3.169583e-003	7.259803e-003	-2.016605e-003
312700.419	5.401025e-003	5.712692e-004	1.000931e+000	-4.183020e-003	1.000463e+000	-3.490207e-003	7.783017e-003	-2.332870e-003
375239.503	5.281362e-003	-9.538020e-004	1.001132e+000	-5.445075e-003	1.000549e+000	-4.852020e-003	7.242888e-003	-2.517826e-003
437778.587	5.109222e-003	-5.744204e-004	1.001479e+000	-5.566804e-003	1.000975e+000	-6.007287e-003	6.594730e-003	-2.230250e-003
500317.670	4.572062e-003	-4.390434e-004	1.001387e+000	-7.970692e-003	1.001507e+000	-7.569310e-003	4.806678e-003	-2.023686e-003
562856.754	5.864931e-003	-7.429674e-004	1.001539e+000	-9.419396e-003	1.001197e+000	-9.035658e-003	5.979073e-003	-1.565158e-003
625395.838	5.046273e-003	-5.805190e-004	1.002389e+000	-1.075422e-002	1.002094e+000	-1.004949e-002	6.078639e-003	-9.695778e-004
687934.922	5.095405e-003	-9.450757e-004	1.001572e+000	-1.162861e-002	1.001189e+000	-1.155358e-002	5.721072e-003	-1.445541e-003
750474.006	4.416661e-003	-5.621113e-004	1.001049e+000	-1.113766e-002	1.000663e+000	-1.075051e-002	5.570071e-003	-1.242068e-003
813013.089	4.589496e-003	-5.430048e-004	1.001431e+000	-1.294804e-002	1.000541e+000	-1.246005e-002	4.920024e-003	-1.069405e-003
875552.173	4.308522e-003	-3.850616e-004	1.001371e+000	-1.377994e-002	1.001059e+000	-1.355526e-002	5.714675e-003	-1.456179e-003
938091.257	4.382212e-003	-3.097708e-004	1.001590e+000	-1.533897e-002	1.001108e+000	-1.475451e-002	5.946809e-003	-8.887507e-004
1000630.341	3.827408e-003	-6.704820e-004	1.000923e+000	-1.663470e-002	1.000994e+000	-1.608979e-002	5.186711e-003	-1.601511e-003
1063169.425	4.181097e-003	-8.298018e-004	1.001362e+000	-1.800371e-002	1.000691e+000	-1.691882e-002	4.359566e-003	-1.927483e-003
1125708.508	4.070733e-003	-7.751801e-004	1.001244e+000	-1.924980e-002	1.000653e+000	-1.832181e-002	3.864203e-003	-1.635808e-003
1188247.592	4.602558e-003	-1.243963e-003	1.001202e+000	-2.035689e-002	1.000898e+000	-1.945858e-002	2.758024e-003	-2.213754e-003
1250786.676	4.452324e-003	-1.976812e-003	1.000860e+000	-2.028403e-002	1.000667e+000	-2.008193e-002	2.022496e-003	-3.870484e-003
1313325.760	4.560036e-003	-2.069832e-003	1.001258e+000	-2.181190e-002	1.001061e+000	-2.173704e-002	2.765079e-003	-3.657902e-003
1375864.844	4.288965e-003	-2.259964e-003	1.000947e+000	-2.362395e-002	1.000439e+000	-2.350081e-002	2.605014e-003	-3.388726e-003
1438403.927	4.200983e-003	-2.422493e-003	1.001000e+000	-2.443185e-002	1.000901e+000	-2.344233e-002	2.688020e-003	-3.115223e-003
1500943.011	4.426162e-003	-2.363708e-003	1.001586e+000	-2.532417e-002	1.001324e+000	-2.488781e-002	3.048711e-003	-3.527534e-003
1563482.095	4.407859e-003	-2.753826e-003	1.001156e+000	-2.682419e-002	1.000581e+000	-2.555723e-002	3.174395e-003	-3.324987e-003
1626021.179	4.209614e-003	-2.603152e-003	1.001151e+000	-2.791434e-002	1.001041e+000	-2.808098e-002	3.453744e-003	-3.387236e-003
1688560.263	3.910719e-003	-2.561675e-003	1.000632e+000	-2.973768e-002	1.001278e+000	-2.942998e-002	3.632255e-003	-3.390061e-003
1751099.346	4.041314e-003	-2.448974e-003	1.001208e+000	-3.066349e-002	1.000571e+000	-2.984549e-002	3.435423e-003	-2.557878e-003
1813638.430	3.675631e-003	-2.505146e-003	1.001617e+000	-3.228444e-002	1.000948e+000	-3.174456e-002	3.605819e-003	-2.931247e-003
1876177.514	3.715299e-003	-2.204854e-003	1.001845e+000	-3.315060e-002	1.001300e+000	-3.336443e-002	3.279507e-003	-2.264667e-003
1938716.598	3.188236e-003	-2.130117e-003	1.002041e+000	-3.403302e-002	1.001221e+000	-3.327477e-002	3.445597e-003	-1.881914e-003
2001255.682	3.079845e-003	-2.606484e-003	1.002007e+000	-3.539419e-002	1.001289e+000	-3.489597e-002	3.205368e-003	-2.345814e-003
2063794.765	3.166089e-003	-2.243431e-003	1.001541e+000	-3.648044e-002	1.000841e+000	-3.647706e-002	3.587761e-003	-2.430774e-003
2126333.849	2.725493e-003	-2.758887e-003	1.001080e+000	-3.767625e-002	1.000218e+000	-3.670684e-002	3.836039e-003	-2.170729e-003
2188872.933	3.198135e-003	-2.769976e-003	1.000912e+000	-3.880150e-002	1.000178e+000	-3.791245e-002	3.728116e-003	-2.226130e-003
2251412.017	3.301465e-003	-3.136031e-003	1.000699e+000	-4.031488e-002	1.000223e+000	-3.892750e-002	3.702880e-003	-2.349912e-003
2313951.101	3.609005e-003	-2.729341e-003	9.999938e-001	-4.137970e-002	1.000095e+000	-3.974396e-002	3.998932e-003	-2.415079e-003
2376490.184	3.365725e-003	-2.757005e-003	1.000128e+000	-4.175349e-002	1.000261e+000	-4.168396e-002	3.972766e-003	-2.417932e-003
2439029.268	3.811050e-003	-2.791630e-003	9.999889e-001	-4.347753e-002	9.993616e-001	-4.272852e-002	3.636223e-003	-2.308734e-003
2501568.352	3.773939e-003	-2.803822e-003	9.995945e-001	-4.356553e-002	1.000067e+000	-4.345408e-002	3.927802e-003	-2.353011e-003
2564107.436	3.683249e-003	-2.953944e-003	9.999799e-001	-4.540795e-002	9.999805e-001	-4.493355e-002	3.238376e-003	-2.742571e-003
2626646.520	4.164891e-003	-3.146047e-003	9.997763e-001	-4.658007e-002	9.987769e-001	-4.584597e-002	3.478361e-003	-2.813548e-003
2689185.604	4.126015e-003	-2.975107e-003	1.000310e+000	-4.719724e-002	9.995375e-001	-4.681427e-002	3.604086e-003	-2.755774e-003
2751724.687	4.234528e-003	-3.087081e-003	1.000135e+000	-4.809690e-002	9.996270e-001	-4.760669e-002	3.222641e-003	-2.805393e-003
2814263.771	4.169755e-003	-3.160909e-003	9.991133e-001	-4.987860e-002	9.992428e-001	-4.886598e-002	3.184413e-003	-2.955149e-003
2876802.855	4.130828e-003	-3.381043e-003	9.992367e-001	-5.128993e-002	9.992935e-001	-5.003988e-002	3.271845e-003	-2.829278e-003
2939341.939	4.243768e-003	-3.300344e-003	9.997296e-001	-5.172060e-002	9.991102e-001	-5.142677e-002	3.174136e-003	-2.934391e-003
3001881.023	4.171798e-003	-3.315943e-003	9.994828e-001	-5.298991e-002	9.990480e-001	-5.257579e-002	3.247732e-003	-3.089518e-003
3064420.106	4.213745e-003	-3.375469e-003	1.000083e+000	-5.388237e-002	9.989888e-001	-5.349591e-002	3.075884e-003	-3.232764e-003
3126959.190	4.409546e-003	-3.492670e-003	9.996112e-001	-5.520070e-002	9.991397e-001	-5.471014e-002	3.246469e-003	-3.310445e-003
3189498.274	4.378289e-003	-3.485526e-003	9.994356e-001	-5.612811e-002	9.990493e-001	-5.580677e-002	3.244561e-003	-3.387041e-003
3252037.358	4.298122e-003	-3.865744e-003	9.995838e-001	-5.726799e-002	9.991119e-001	-5.681999e-002	3.188349e-003	-3.352463e-003
3314576.442	4.304115e-003	-3.712119e-003	9.994257e-001	-5.831794e-002	9.989799e-001	-5.796822e-002	3.242612e-003	-3.474252e-003
3377115.525	4.271915e-003	-3.732993e-003	9.992320e-001	-5.934606e-002	9.987172e-001	-5.920809e-002	3.084844e-003	-3.638645e-003
3439654.609	4.271063e-003	-3.818972e-003	9.990433e-001	-6.047319e-002	9.990194e-001	-6.022520e-002	3.104504e-003	-3.473307e-003
3502193.693	4.235513e-003	-4.156629e-003	9.990449e-001	-6.171384e-002	9.986961e-001	-6.119629e-002	3.267820e-003	-3.551096e-003
3564732.777	4.291742e-003	-4.053765e-003	9.990475e-001	-6.272483e-002	9.986839e-001	-6.238186e-002	3.354977e-003	-3.555090e-003
3627271.861	4.124045e-003	-4.221278e-003	9.990735e-001	-6.390753e-002	9.987212e-001	-6.336619e-002	3.128908e-003	-3.803785e-003
3689810.944	4.028286e-003	-4.386243e-003	9.989164e-001	-6.500208e-002	9.986647e-001	-6.441857e-002	3.283407e-003	-3.812321e-003
3752350.028	4.141576e-003	-4.388270e-003	9.988406e-001	-6.589513e-002	9.984197e-001	-6.549721e-002	3.204263e-003	-3.910181e-003
3814889.112	4.249114e-003	-4.295065e-003	9.986981e-001	-6.706483e-002	9.985956e-001	-6.685099e-002	3.106996e-003	-4.076974e-003
3877428.196	4.176416e-003	-4.323923e-003	9.988054e-001	-6.823364e-002	9.984900e-001	-6.776700e-002	3.443183e-003	-4.118598e-003
3939967.280	4.149331e-003	-4.662895e-003	9.987260e-001	-6.937585e-002	9.984897e-001	-6.885955e-002	3.410897e-003	-4.064581e-003
4002506.363	4.207720e-003	-4.573936e-003	9.986903e-001	-7.042842e-002	9.983484e-001	-6.981247e-002	3.358339e-003	-4.191954e-003
4065045.447	4.020951e-003	-4.701093e-003	9.984025e-001	-7.157044e-002	9.981637e-001	-7.105180e-002	3.437387e-003	-4.355328e-003
4127584.531	3.994713e-003	-4.788775e-003	9.983020e-001	-7.263108e-002	9.981419e-001	-7.201873e-002	3.449184e-003	-4.295747e-003
4190123.615	4.018927e-003	-4.816068e-003	9.983518e-001	-7.387355e-002	9.979296e-001	-7.326675e-002	3.349990e-003	-4.579616e-003
4252662.699	3.981948e-003	-4.955713e-003	9.983745e-001	-7.497568e-002	9.978276e-001	-7.447828e-002	3.452645e-003	-4.601774e-003
4315201.782	4.109560e-003	-5.056383e-003	9.982828e-001	-7.590378e-002	9.979991e-001	-7.559382e-002	3.276069e-003	-4.855426e-003
4377740.866	4.007254e-003	-5.132381e-003	9.982710e-001	-7.713459e-002	9.976915e-001	-7.667650e-002	3.448717e-003	-4.625023e-003
4440279.950	3.912991e-003	-5.334134e-003	9.981305e-001	-7.805445e-002	9.975734e-001	-7.766684e-002	3.336782e-003	-4.841803e-003
4502819.034	3.886423e-003	-5.267255e-003	9.978589e-001	-7.928975e-002	9.976215e-001	-7.873334e-002	3.399195e-003	-4.760366e-003
4565358.118	3.793942e-003	-5.365310e-003	9.978092e-001	-8.033842e-002	9.973912e-001	-7.966596e-002	3.406317e-003	-4.923543e-003
4627897.201	3.979648e-003	-5.315521e-003	9.979047e-001	-8.143819e-002	9.973544e-001	-8.076040e-002	3.511285e-003	-4.895098e-003
4690436.285	3.787897e-003	-5.502974e-003	9.978039e-001	-8.255030e-002	9.973247e-001	-8.225645e-002	3.494317e-003	-5.157016e-003
4752975.369	3.794934e-003	-5.570557e-003	9.974683e-001	-8.376384e-002	9.973481e-001	-8.320521e-002	3.310534e-003	-5.270636e-003
4815514.453	3.906470e-003	-5.640912e-003	9.976063e-001	-8.477936e-002	9.972026e-001	-8.439900e-002	3.509012e-003	-5.235787e-003
4878053.537	4.004734e-003	-5.796152e-003	9.975443e-001	-8.581083e-002	9.970910e-001	-8.531325e-002	3.476848e-003	-5.390011e-003
4940592.620	3.732545e-003	-5.818332e-003	9.973431e-001	-8.699158e-002	9.970814e-001	-8.653763e-002	3.232950e-003	-5.498324e-003
5003131.704	3.797380e-003	-6.037972e-003	9.972474e-001	-8.806301e-002	9.970297e-001	-8.736203e-002	3.362833e-003	-5.615509e-003
5065670.788	3.705378e-003	-5.913558e-003	9.971348e-001	-8.921351e-002	9.968686e-001	-8.859232e-002	3.326109e-003	-5.649849e-003
5128209.872	3.828508e-003	-6.113031e-003	9.972405e-001	-9.027680e-002	9.967408e-001	-8.967678e-002	3.293443e-003	-5.915389e-003
5190748.956	3.730832e-003	-6.208405e-003	9.969912e-001	-9.138951e-002	9.967168e-001	-9.090437e-002	3.251696e-003	-5.876714e-003
5253288.039	3.759801e-003	-6.312077e-003	9.969848e-001	-9.250244e-002	9.966153e-001	-9.193271e-002	3.174257e-003	-5.871007e-003
5315827.123	3.725142e-003	-6.441571e-003	9.967045e-001	-9.352241e-002	9.964940e-001	-9.307186e-002	3.150989e-003	-6.031131e-003
5378366.207	3.795033e-003	-6.471211e-003	9.968080e-001	-9.467142e-002	9.964498e-001	-9.435086e-002	3.135634e-003	-6.207219e-003
5440905.291	3.621163e-003	-6.453338e-003	9.967372e-001	-9.576338e-002	9.963549e-001	-9.530829e-002	3.012625e-003	-6.233385e-003
5503444.375	3.815579e-003	-6.694978e-003	9.965966e-001	-9.693229e-002	9.963115e-001	-9.625313e-002	3.198325e-003	-6.387502e-003
5565983.458	3.454420e-003	-6.647902e-003	9.965125e-001	-9.790529e-002	9.962281e-001	-9.730733e-002	3.114410e-003	-6.307720e-003
5628522.542	3.696136e-003	-6.805955e-003	9.964314e-001	-9.895781e-002	9.960993e-001	-9.856339e-002	3.162304e-003	-6.509725e-003
5691061.626	3.760448e-003	-7.047109e-003	9.962711e-001	-1.002491e-001	9.959463e-001	-9.971085e-002	3.037005e-003	-6.532553e-003
5753600.710	3.601135e-003	-7.064792e-003	9.960961e-001	-1.012474e-001	9.958497e-001	-1.007464e-001	3.088343e-003	-6.757620e-003
5816139.794	3.691477e-003	-6.950633e-003	9.960553e-001	-1.023647e-001	9.956098e-001	-1.020291e-001	2.928997e-003	-6.787785e-003
5878678.877	3.584211e-003	-7.257279e-003	9.959378e-001	-1.034813e-001	9.956169e-001	-1.029918e-001	3.038958e-003	-7.002293e-003
5941217.961	3.559757e-003	-7.418285e-003	9.957608e-001	-1.046643e-001	9.954915e-001	-1.039453e-001	2.828561e-003	-6.988138e-003
6003757.045	3.402374e-003	-7.271661e-003	9.955359e-001	-1.056159e-001	9.953942e-001	-1.050611e-001	2.954345e-003	-7.083855e-003
6066296.129	3.515779e-003	-7.541301e-003	9.956531e-001	-1.067545e-001	9.952232e-001	-1.060992e-001	2.921946e-003	-7.186033e-003
6128835.213	3.600923e-003	-7.591420e-003	9.955539e-001	-1.075927e-001	9.952871e-001	-1.073759e-001	3.011770e-003	-7.274913e-003
6191374.296	3.543093e-003	-7.704893e-003	9.952851e-001	-1.088992e-001	9.950479e-001	-1.085464e-001	2.825708e-003	-7.281825e-003
6253913.380	3.431376e-003	-7.668652e-003	9.952831e-001	-1.100417e-001	9.949480e-001	-1.095242e-001	2.699965e-003	-7.242416e-003
6316452.464	3.388090e-003	-7.675316e-003	9.951786e-001	-1.110011e-001	9.947244e-001	-1.107882e-001	2.738712e-003	-7.552530e-003
6378991.548	3.341109e-003	-7.908773e-003	9.950174e-001	-1.124430e-001	9.947607e-001	-1.117288e-001	2.793422e-003	-7.748180e-003
6441530.632	3.273366e-003	-8.071811e-003	9.948300e-001	-1.132350e-001	9.945932e-001	-1.129872e-001	2.820544e-003	-7.718183e-003
6504069.715	3.256720e-003	-8.181661e-003	9.947099e-001	-1.145686e-001	9.946167e-001	-1.139931e-001	2.823456e-003	-7.809516e-003
6566608.799	3.394294e-003	-8.322921e-003	9.947532e-001	-1.157080e-001	9.943428e-001	-1.150958e-001	2.705783e-003	-7.699880e-003
6629147.883	3.317122e-003	-8.260922e-003	9.944946e-001	-1.164768e-001	9.942239e-001	-1.162148e-001	2.776158e-003	-7.933062e-003
6691686.967	3.186305e-003	-8.337935e-003	9.942723e-001	-1.176975e-001	9.940420e-001	-1.172639e-001	2.796475e-003	-7.927605e-003
6754226.051	3.105496e-003	-8.441247e-003	9.941333e-001	-1.188947e-001	9.938035e-001	-1.185614e-001	2.576558e-003	-8.219721e-003
6816765.134	3.198597e-003	-8.526815e-003	9.941232e-001	-1.199124e-001	9.938153e-001	-1.194796e-001	2.614239e-003	-8.107207e-003
6879304.218	3.081727e-003	-8.785513e-003	9.939004e-001	-1.210466e-001	9.937093e-001	-1.205933e-001	2.597371e-003	-8.261962e-003
6941843.302	3.134109e-003	-8.697587e-003	9.937773e-001	-1.221810e-001	9.935409e-001	-1.216320e-001	2.560433e-003	-8.258944e-003
7004382.386	2.942600e-003	-8.718740e-003	9.937471e-001	-1.232003e-001	9.933864e-001	-1.227226e-001	2.465746e-003	-8.306320e-003
7066921.470	3.014673e-003	-8.860631e-003	9.934759e-001	-1.244448e-001	9.933302e-001	-1.237032e-001	2.618311e-003	-8.542839e-003
7129460.553	2.882494e-003	-9.035292e-003	9.934134e-001	-1.253271e-001	9.931503e-001	-1.248835e-001	2.593539e-003	-8.569729e-003
7191999.637	2.856835e-003	-8.893265e-003	9.930968e-001	-1.265512e-001	9.928749e-001	-1.259632e-001	2.448422e-003	-8.643570e-003
7254538.721	2.897824e-003	-9.079799e-003	9.932418e-001	-1.276985e-001	9.928925e-001	-1.271264e-001	2.463692e-003	-8.717069e-003
7317077.805	3.051009e-003	-9.196249e-003	9.930465e-001	-1.286363e-001	9.927705e-001	-1.281845e-001	2.443813e-003	-8.899805e-003
7379616.889	2.898937e-003	-9.271046e-003	9.930552e-001	-1.299379e-001	9.925983e-001	-1.293086e-001	2.359244e-003	-8.963183e-003
7442155.972	2.731075e-003	-9.355411e-003	9.927212e-001	-1.308665e-001	9.924614e-001	-1.303210e-001	2.437938e-003	-8.823468e-003
7504695.056	2.751336e-003	-9.535476e-003	9.924865e-001	-1.318706e-001	9.921890e-001	-1.315565e-001	2.442743e-003	-8.842465e-003
7567234.140	2.908878e-003	-9.682490e-003	9.924683e-001	-1.329830e-001	9.920399e-001	-1.325911e-001	2.350482e-003	-9.028764e-003
7629773.224	2.782764e-003	-9.469387e-003	9.923532e-001	-1.342264e-001	9.920473e-001	-1.336273e-001	2.248293e-003	-9.163430e-003
7692312.308	2.634308e-003	-9.616528e-003	9.921924e-001	-1.353084e-001	9.918072e-001	-1.348094e-001	2.298417e-003	-9.322157e-003
7754851.391	2.599969e-003	-9.851292e-003	9.920341e-001	-1.364146e-001	9.915398e-001	-1.357069e-001	2.220314e-003	-9.269102e-003
7817390.475	2.652278e-003	-9.732251e-003	9.919019e-001	-1.376433e-001	9.914738e-001	-1.370663e-001	2.122615e-003	-9.241372e-003
7879929.559	2.544011e-003	-9.987081e-003	9.916321e-001	-1.387015e-001	9.913036e-001	-1.383168e-001	2.223817e-003	-9.328224e-003
7942468.643	2.469170e-003	-1.012234e-002	9.915970e-001	-1.396701e-001	9.912594e-001	-1.393168e-001	2.173840e-003	-9.577065e-003
8005007.727	2.550926e-003	-1.017567e-002	9.913403e-001	-1.408670e-001	9.911211e-001	-1.404111e-001	2.063716e-003	-9.442729e-003
8067546.811	2.381215e-003	-1.021505e-002	9.912025e-001	-1.419113e-001	9.908018e-001	-1.414086e-001	1.954248e-003	-9.728140e-003
8130085.894	2.416529e-003	-1.036188e-002	9.910258e-001	-1.429218e-001	9.907302e-001	-1.425390e-001	2.152535e-003	-9.851749e-003
8192624.978	2.231782e-003	-1.049838e-002	9.907415e-001	-1.441451e-001	9.905716e-001	-1.436116e-001	2.176997e-003	-9.940917e-003
8255164.062	2.339683e-003	-1.055788e-002	9.906855e-001	-1.452331e-001	9.903857e-001	-1.447061e-001	2.115169e-003	-1.006319e-002
8317703.146	2.188015e-003	-1.051391e-002	9.906027e-001	-1.462964e-001	9.903284e-001	-1.458027e-001	1.919337e-003	-1.008724e-002
8380242.230	2.277963e-003	-1.083861e-002	9.902415e-001	-1.475247e-001	9.900120e-001	-1.468590e-001	1.847989e-003	-1.022957e-002
8442781.313	2.221513e-003	-1.087822e-002	9.903471e-001	-1.484699e-001	9.899379e-001	-1.479120e-001	1.805375e-003	-1.039662e-002
8505320.397	2.188805e-003	-1.082201e-002	9.901122e-001	-1.496259e-001	9.897202e-001	-1.490312e-001	1.722086e-003	-1.041770e-002
8567859.481	2.111598e-003	-1.074646e-002	9.898821e-001	-1.505536e-001	9.896647e-001	-1.501269e-001	1.734033e-003	-1.032220e-002
8630398.565	2.166952e-003	-1.088115e-002	9.895527e-001	-1.516431e-001	9.894580e-001	-1.511652e-001	1.583697e-003	-1.065513e-002
8692937.649	2.083841e-003	-1.116737e-002	9.894579e-001	-1.527587e-001	9.891537e-001	-1.522783e-001	1.492385e-003	-1.063617e-002
8755476.732	2.065348e-003	-1.118597e-002	9.893268e-001	-1.539290e-001	9.889951e-001	-1.532668e-001	1.531403e-003	-1.069620e-002
8818015.816	1.906601e-003	-1.129580e-002	9.890908e-001	-1.549596e-001	9.886569e-001	-1.544114e-001	1.609392e-003	-1.086691e-002
8880554.900	2.097112e-003	-1.134179e-002	9.890708e-001	-1.561408e-001	9.887704e-001	-1.553742e-001	1.439182e-003	-1.111458e-002
8943093.984	1.892357e-003	-1.131695e-002	9.888702e-001	-1.571065e-001	9.885984e-001	-1.565374e-001	1.428579e-003	-1.113419e-002
9005633.068	1.922817e-003	-1.148309e-002	9.886052e-001	-1.582916e-001	9.884679e-001	-1.577217e-001	1.313265e-003	-1.134388e-002
9068172.151	1.729593e-003	-1.157079e-002	9.885331e-001	-1.593172e-001	9.881788e-001	-1.586782e-001	1.328528e-003	-1.136516e-002
9130711.235	1.912556e-003	-1.172542e-002	9.883007e-001	-1.604614e-001	9.880752e-001	-1.597537e-001	1.330419e-003	-1.164414e-002
9193250.319	1.875562e-003	-1.181932e-002	9.881763e-001	-1.614001e-001	9.878326e-001	-1.609340e-001	1.227498e-003	-1.164037e-002
9255789.403	1.728279e-003	-1.205202e-002	9.880538e-001	-1.623826e-001	9.876607e-001	-1.619611e-001	1.055321e-003	-1.167862e-002
9318328.487	1.657035e-003	-1.203214e-002	9.878509e-001	-1.637525e-001	9.875997e-001	-1.630153e-001	1.121515e-003	-1.175654e-002
9380867.570	1.627366e-003	-1.200548e-002	9.877041e-001	-1.647612e-001	9.872748e-001	-1.642153e-001	1.095925e-003	-1.184561e-002
9443406.654	1.656087e-003	-1.207765e-002	9.875628e-001	-1.657961e-001	9.872591e-001	-1.653292e-001	1.101842e-003	-1.200232e-002
9505945.738	1.583147e-003	-1.214134e-002	9.871577e-001	-1.670644e-001	9.871289e-001	-1.664426e-001	1.013277e-003	-1.209414e-002
9568484.822	1.591708e-003	-1.226584e-002	9.871314e-001	-1.680843e-001	9.866882e-001	-1.675093e-001	7.838360e-004	-1.193407e-002
