!Agilent Technologies,E5061B,MY49102235,A.02.00
!Date: Tue Jul 11 16:22:19 2023
!Data & Calibration Information:
!Freq	S11:SOLT2(ON)	S21:SOLT2(ON)	S12:SOLT2(ON)	S22:SOLT2(ON)
# Hz S RI R 50
5.000	-5.134347e-003	-5.649352e-003	1.001504e+000	8.061611e-003	1.000231e+000	1.022828e-002	-1.509277e-003	-7.539953e-003
62544.084	5.821771e-003	-5.150877e-004	1.001369e+000	5.817688e-004	1.000831e+000	1.361252e-003	7.704550e-003	-2.874500e-003
125083.168	5.676000e-003	-4.996893e-004	1.000914e+000	-8.362132e-004	1.000844e+000	-8.348387e-004	7.498483e-003	-2.270467e-003
187622.251	5.463079e-003	-3.262798e-004	1.000334e+000	-2.132631e-003	1.001117e+000	-9.324902e-004	7.379653e-003	-2.392379e-003
250161.335	5.288905e-003	-1.729545e-004	1.000496e+000	-3.211275e-003	1.000765e+000	-3.073318e-003	7.276028e-003	-2.044080e-003
312700.419	5.401781e-003	5.408549e-004	1.000913e+000	-3.866179e-003	1.000621e+000	-3.500769e-003	7.792405e-003	-2.353727e-003
375239.503	5.326838e-003	-9.883055e-004	1.000907e+000	-5.077180e-003	1.000648e+000	-4.871030e-003	7.254906e-003	-2.535886e-003
437778.587	5.129706e-003	-5.931213e-004	1.001368e+000	-5.268669e-003	1.001100e+000	-6.009413e-003	6.632226e-003	-2.237214e-003
500317.670	4.598523e-003	-4.647991e-004	1.001154e+000	-7.678913e-003	1.001742e+000	-7.554680e-003	4.821573e-003	-2.067951e-003
562856.754	5.879799e-003	-7.712036e-004	1.001380e+000	-9.205796e-003	1.001245e+000	-9.063202e-003	6.016709e-003	-1.597949e-003
625395.838	5.107393e-003	-6.196533e-004	1.002088e+000	-1.039268e-002	1.002229e+000	-1.005603e-002	6.100222e-003	-1.003065e-003
687934.922	5.125076e-003	-9.662624e-004	1.001296e+000	-1.139878e-002	1.001377e+000	-1.148091e-002	5.740136e-003	-1.491383e-003
750474.006	4.338657e-003	-6.428010e-004	1.000718e+000	-1.089890e-002	1.000986e+000	-1.072067e-002	5.533770e-003	-1.306407e-003
813013.089	4.517041e-003	-6.296091e-004	1.001104e+000	-1.266356e-002	1.000857e+000	-1.233676e-002	4.888723e-003	-1.130017e-003
875552.173	4.250260e-003	-4.590862e-004	1.001065e+000	-1.348050e-002	1.001207e+000	-1.355103e-002	5.677734e-003	-1.526673e-003
938091.257	4.323136e-003	-3.991524e-004	1.001128e+000	-1.496454e-002	1.001275e+000	-1.462851e-002	5.901365e-003	-9.708172e-004
1000630.341	3.776355e-003	-7.755734e-004	1.000605e+000	-1.634714e-002	1.001119e+000	-1.601450e-002	5.157341e-003	-1.683443e-003
1063169.425	4.140095e-003	-9.196105e-004	1.001119e+000	-1.776004e-002	1.000914e+000	-1.689031e-002	4.328807e-003	-1.996944e-003
1125708.508	4.009814e-003	-8.869287e-004	1.000740e+000	-1.889165e-002	1.000895e+000	-1.829880e-002	3.838436e-003	-1.725570e-003
1188247.592	4.543805e-003	-1.338949e-003	1.000910e+000	-1.989539e-002	1.001201e+000	-1.950365e-002	2.747720e-003	-2.301588e-003
1250786.676	4.389185e-003	-2.103410e-003	1.000561e+000	-1.995886e-002	1.000803e+000	-1.998300e-002	1.996847e-003	-3.971165e-003
1313325.760	4.506600e-003	-2.182968e-003	1.000915e+000	-2.131999e-002	1.001185e+000	-2.166910e-002	2.730227e-003	-3.784142e-003
1375864.844	4.229915e-003	-2.377638e-003	1.000654e+000	-2.326849e-002	1.000687e+000	-2.339849e-002	2.585140e-003	-3.497249e-003
1438403.927	4.126238e-003	-2.556832e-003	1.000645e+000	-2.396595e-002	1.001097e+000	-2.328725e-002	2.671699e-003	-3.235938e-003
1500943.011	4.354832e-003	-2.496195e-003	1.001299e+000	-2.487947e-002	1.001617e+000	-2.480411e-002	3.023175e-003	-3.663837e-003
1563482.095	4.354317e-003	-2.887163e-003	1.000806e+000	-2.620531e-002	1.000762e+000	-2.542286e-002	3.154959e-003	-3.457922e-003
1626021.179	4.169152e-003	-2.752659e-003	1.000771e+000	-2.748026e-002	1.001168e+000	-2.804690e-002	3.425611e-003	-3.512912e-003
1688560.263	3.856843e-003	-2.693768e-003	1.000347e+000	-2.917515e-002	1.001388e+000	-2.929122e-002	3.610066e-003	-3.540551e-003
1751099.346	3.991333e-003	-2.617330e-003	1.000911e+000	-3.032257e-002	1.000780e+000	-2.983148e-002	3.409535e-003	-2.700080e-003
1813638.430	3.640273e-003	-2.666926e-003	1.001342e+000	-3.180089e-002	1.001075e+000	-3.168619e-002	3.583099e-003	-3.096424e-003
1876177.514	3.671118e-003	-2.376139e-003	1.001593e+000	-3.266053e-002	1.001393e+000	-3.331501e-002	3.247073e-003	-2.427775e-003
1938716.598	3.137300e-003	-2.316980e-003	1.001757e+000	-3.360140e-002	1.001531e+000	-3.310246e-002	3.432747e-003	-2.044378e-003
2001255.682	3.027240e-003	-2.795499e-003	1.001653e+000	-3.491671e-002	1.001488e+000	-3.469346e-002	3.185487e-003	-2.512845e-003
2063794.765	3.122161e-003	-2.424374e-003	1.001328e+000	-3.605483e-002	1.001011e+000	-3.642159e-002	3.568910e-003	-2.607782e-003
2126333.849	2.655737e-003	-2.955646e-003	1.000714e+000	-3.706570e-002	1.000257e+000	-3.671729e-002	3.808919e-003	-2.380861e-003
2188872.933	3.149828e-003	-2.961552e-003	1.000630e+000	-3.829284e-002	1.000246e+000	-3.776639e-002	3.705606e-003	-2.426777e-003
2251412.017	3.246911e-003	-3.340678e-003	1.000364e+000	-3.977144e-002	1.000442e+000	-3.872061e-002	3.678418e-003	-2.543932e-003
2313951.101	3.578950e-003	-2.918420e-003	9.997917e-001	-4.090086e-002	1.000468e+000	-3.970123e-002	3.987351e-003	-2.631124e-003
2376490.184	3.307925e-003	-2.973756e-003	9.997416e-001	-4.116139e-002	1.000277e+000	-4.160348e-002	3.945169e-003	-2.627709e-003
2439029.268	3.747753e-003	-3.011155e-003	9.996808e-001	-4.297618e-002	9.995372e-001	-4.251263e-002	3.610601e-003	-2.543332e-003
2501568.352	3.725650e-003	-3.018979e-003	9.994592e-001	-4.310863e-002	1.000293e+000	-4.326803e-002	3.905752e-003	-2.581569e-003
2564107.436	3.643801e-003	-3.184121e-003	9.997673e-001	-4.483819e-002	1.000062e+000	-4.484109e-002	3.201110e-003	-2.975346e-003
2626646.520	4.127400e-003	-3.382383e-003	9.995720e-001	-4.591209e-002	9.988610e-001	-4.596582e-002	3.451498e-003	-3.052300e-003
2689185.604	4.082723e-003	-3.217791e-003	9.999973e-001	-4.676323e-002	9.998025e-001	-4.667889e-002	3.579222e-003	-2.995421e-003
2751724.687	4.191733e-003	-3.338491e-003	9.998986e-001	-4.747689e-002	9.996685e-001	-4.747805e-002	3.182493e-003	-3.056757e-003
2814263.771	4.132924e-003	-3.429383e-003	9.989344e-001	-4.931663e-002	9.994282e-001	-4.861787e-002	3.167272e-003	-3.198307e-003
2876802.855	4.076510e-003	-3.641354e-003	9.990086e-001	-5.072395e-002	9.994555e-001	-4.996406e-002	3.230862e-003	-3.091558e-003
2939341.939	4.197680e-003	-3.575022e-003	9.995876e-001	-5.121903e-002	9.993055e-001	-5.136853e-002	3.128286e-003	-3.210180e-003
3001881.023	4.115539e-003	-3.593618e-003	9.991963e-001	-5.228204e-002	9.992131e-001	-5.240510e-002	3.207434e-003	-3.365316e-003
3064420.106	4.169715e-003	-3.665249e-003	9.997276e-001	-5.340673e-002	9.991637e-001	-5.338609e-002	3.068235e-003	-3.512706e-003
3126959.190	4.348643e-003	-3.771517e-003	9.993173e-001	-5.455417e-002	9.993227e-001	-5.454186e-002	3.221021e-003	-3.592949e-003
3189498.274	4.330627e-003	-3.764552e-003	9.992451e-001	-5.555388e-002	9.992275e-001	-5.563699e-002	3.213654e-003	-3.681742e-003
3252037.358	4.249252e-003	-4.150016e-003	9.993188e-001	-5.669045e-002	9.992610e-001	-5.659979e-002	3.144618e-003	-3.650805e-003
3314576.442	4.253232e-003	-4.014389e-003	9.991913e-001	-5.774289e-002	9.991602e-001	-5.779118e-002	3.205460e-003	-3.774565e-003
3377115.525	4.224682e-003	-4.035358e-003	9.990027e-001	-5.875921e-002	9.988907e-001	-5.900909e-002	3.045335e-003	-3.945515e-003
3439654.609	4.223991e-003	-4.127894e-003	9.988122e-001	-5.984161e-002	9.991446e-001	-6.000724e-002	3.054405e-003	-3.780241e-003
3502193.693	4.187213e-003	-4.466720e-003	9.988275e-001	-6.108456e-002	9.988445e-001	-6.098582e-002	3.224438e-003	-3.858492e-003
3564732.777	4.232843e-003	-4.361826e-003	9.988794e-001	-6.208892e-002	9.988513e-001	-6.216904e-002	3.301417e-003	-3.875782e-003
3627271.861	4.078354e-003	-4.539669e-003	9.988866e-001	-6.326334e-002	9.988799e-001	-6.312545e-002	3.082154e-003	-4.131500e-003
3689810.944	3.973905e-003	-4.701573e-003	9.987189e-001	-6.434587e-002	9.987779e-001	-6.420496e-002	3.229728e-003	-4.155455e-003
3752350.028	4.090603e-003	-4.720344e-003	9.986159e-001	-6.521866e-002	9.985723e-001	-6.526416e-002	3.155490e-003	-4.255637e-003
3814889.112	4.192003e-003	-4.641933e-003	9.984551e-001	-6.636147e-002	9.987309e-001	-6.660182e-002	3.065389e-003	-4.432212e-003
3877428.196	4.128148e-003	-4.670824e-003	9.986051e-001	-6.750817e-002	9.986394e-001	-6.748906e-002	3.385192e-003	-4.463379e-003
3939967.280	4.092035e-003	-5.013669e-003	9.984839e-001	-6.869076e-002	9.986614e-001	-6.855828e-002	3.355604e-003	-4.413143e-003
4002506.363	4.151508e-003	-4.925836e-003	9.984696e-001	-6.974285e-002	9.984960e-001	-6.954883e-002	3.301917e-003	-4.562233e-003
4065045.447	3.972516e-003	-5.072432e-003	9.982312e-001	-7.088593e-002	9.983066e-001	-7.078492e-002	3.381657e-003	-4.713280e-003
4127584.531	3.942062e-003	-5.168676e-003	9.981522e-001	-7.192563e-002	9.982762e-001	-7.180394e-002	3.392699e-003	-4.672470e-003
4190123.615	3.979965e-003	-5.185814e-003	9.981360e-001	-7.319281e-002	9.980737e-001	-7.301601e-002	3.294484e-003	-4.957231e-003
4252662.699	3.935718e-003	-5.327172e-003	9.981799e-001	-7.428082e-002	9.979375e-001	-7.420315e-002	3.395643e-003	-4.987329e-003
4315201.782	4.058242e-003	-5.436220e-003	9.980540e-001	-7.516638e-002	9.982172e-001	-7.527136e-002	3.218721e-003	-5.243977e-003
4377740.866	3.960352e-003	-5.524932e-003	9.980804e-001	-7.644161e-002	9.978830e-001	-7.640496e-002	3.377859e-003	-5.009781e-003
4440279.950	3.854283e-003	-5.719665e-003	9.979986e-001	-7.734106e-002	9.977073e-001	-7.733321e-002	3.264493e-003	-5.249530e-003
4502819.034	3.828038e-003	-5.662279e-003	9.976251e-001	-7.853455e-002	9.977757e-001	-7.844553e-002	3.326040e-003	-5.168965e-003
4565358.118	3.751148e-003	-5.782238e-003	9.975853e-001	-7.956594e-002	9.975121e-001	-7.935731e-002	3.326217e-003	-5.341403e-003
4627897.201	3.912218e-003	-5.720611e-003	9.977018e-001	-8.065683e-002	9.974728e-001	-8.046299e-002	3.430832e-003	-5.304216e-003
4690436.285	3.740067e-003	-5.921064e-003	9.976278e-001	-8.184324e-002	9.974970e-001	-8.188611e-002	3.423257e-003	-5.577350e-003
4752975.369	3.742649e-003	-5.993303e-003	9.972778e-001	-8.301430e-002	9.974549e-001	-8.293017e-002	3.232371e-003	-5.695445e-003
4815514.453	3.850663e-003	-6.060663e-003	9.974223e-001	-8.398458e-002	9.973632e-001	-8.406290e-002	3.443105e-003	-5.668983e-003
4878053.537	3.943856e-003	-6.227224e-003	9.973311e-001	-8.504335e-002	9.972382e-001	-8.498546e-002	3.411260e-003	-5.829609e-003
4940592.620	3.687178e-003	-6.264788e-003	9.971483e-001	-8.621042e-002	9.972051e-001	-8.620537e-002	3.165359e-003	-5.941380e-003
5003131.704	3.730122e-003	-6.485605e-003	9.970394e-001	-8.725598e-002	9.971922e-001	-8.705252e-002	3.290560e-003	-6.061749e-003
5065670.788	3.652949e-003	-6.359434e-003	9.969560e-001	-8.839432e-002	9.969938e-001	-8.821206e-002	3.240481e-003	-6.099216e-003
5128209.872	3.772737e-003	-6.562606e-003	9.970569e-001	-8.944991e-002	9.968919e-001	-8.930230e-002	3.213793e-003	-6.372479e-003
5190748.956	3.674802e-003	-6.656322e-003	9.968016e-001	-9.058252e-002	9.968796e-001	-9.053170e-002	3.160939e-003	-6.324544e-003
5253288.039	3.715586e-003	-6.780637e-003	9.968259e-001	-9.164948e-002	9.968035e-001	-9.157908e-002	3.099919e-003	-6.336989e-003
5315827.123	3.673601e-003	-6.911636e-003	9.965151e-001	-9.275370e-002	9.966698e-001	-9.271507e-002	3.068891e-003	-6.504109e-003
5378366.207	3.758763e-003	-6.940331e-003	9.966210e-001	-9.390562e-002	9.966017e-001	-9.396543e-002	3.044607e-003	-6.682970e-003
5440905.291	3.563329e-003	-6.945737e-003	9.965761e-001	-9.495118e-002	9.965270e-001	-9.493433e-002	2.934874e-003	-6.709302e-003
5503444.375	3.762513e-003	-7.182966e-003	9.964086e-001	-9.611639e-002	9.964939e-001	-9.589421e-002	3.125358e-003	-6.875236e-003
5565983.458	3.404868e-003	-7.147490e-003	9.963380e-001	-9.711481e-002	9.963897e-001	-9.691258e-002	3.036169e-003	-6.794240e-003
5628522.542	3.646508e-003	-7.295373e-003	9.962730e-001	-9.811676e-002	9.962669e-001	-9.816704e-002	3.064844e-003	-7.010070e-003
5691061.626	3.712621e-003	-7.550686e-003	9.961018e-001	-9.941617e-002	9.960946e-001	-9.930327e-002	2.966764e-003	-7.047912e-003
5753600.710	3.550580e-003	-7.565581e-003	9.958998e-001	-1.003625e-001	9.960313e-001	-1.003187e-001	3.010140e-003	-7.255199e-003
5816139.794	3.627005e-003	-7.459128e-003	9.959203e-001	-1.015318e-001	9.957632e-001	-1.016354e-001	2.859390e-003	-7.291793e-003
5878678.877	3.520420e-003	-7.768303e-003	9.957526e-001	-1.026233e-001	9.957533e-001	-1.025804e-001	2.953819e-003	-7.511730e-003
5941217.961	3.514568e-003	-7.930252e-003	9.956163e-001	-1.038230e-001	9.956668e-001	-1.035186e-001	2.746583e-003	-7.504282e-003
6003757.045	3.345928e-003	-7.796239e-003	9.953672e-001	-1.047356e-001	9.955068e-001	-1.045745e-001	2.857882e-003	-7.606340e-003
6066296.129	3.465454e-003	-8.071890e-003	9.955089e-001	-1.058470e-001	9.954224e-001	-1.056871e-001	2.831243e-003	-7.720516e-003
6128835.213	3.551893e-003	-8.137790e-003	9.953606e-001	-1.066282e-001	9.954729e-001	-1.069001e-001	2.903737e-003	-7.805017e-003
6191374.296	3.483032e-003	-8.240966e-003	9.952195e-001	-1.079984e-001	9.951655e-001	-1.080803e-001	2.739771e-003	-7.809007e-003
6253913.380	3.380430e-003	-8.223310e-003	9.951148e-001	-1.091582e-001	9.950881e-001	-1.090179e-001	2.606274e-003	-7.793687e-003
6316452.464	3.338914e-003	-8.217104e-003	9.950001e-001	-1.101297e-001	9.948600e-001	-1.103593e-001	2.636934e-003	-8.098530e-003
6378991.548	3.279507e-003	-8.467140e-003	9.948831e-001	-1.115273e-001	9.949371e-001	-1.112817e-001	2.687124e-003	-8.299166e-003
6441530.632	3.224580e-003	-8.635957e-003	9.946675e-001	-1.123177e-001	9.947693e-001	-1.124813e-001	2.714127e-003	-8.270581e-003
6504069.715	3.190764e-003	-8.743202e-003	9.945461e-001	-1.136996e-001	9.948001e-001	-1.135041e-001	2.706776e-003	-8.374609e-003
6566608.799	3.326922e-003	-8.888674e-003	9.945653e-001	-1.148277e-001	9.945223e-001	-1.146217e-001	2.595597e-003	-8.274395e-003
6629147.883	3.267364e-003	-8.853337e-003	9.943352e-001	-1.155634e-001	9.943606e-001	-1.157057e-001	2.672607e-003	-8.501467e-003
6691686.967	3.138193e-003	-8.917839e-003	9.941734e-001	-1.168189e-001	9.942040e-001	-1.167619e-001	2.678314e-003	-8.496533e-003
6754226.051	3.068029e-003	-9.030180e-003	9.940363e-001	-1.180010e-001	9.939821e-001	-1.180416e-001	2.466612e-003	-8.811675e-003
6816765.134	3.150389e-003	-9.128877e-003	9.939650e-001	-1.189966e-001	9.939862e-001	-1.189899e-001	2.515355e-003	-8.702905e-003
6879304.218	3.019760e-003	-9.380718e-003	9.937580e-001	-1.201201e-001	9.939018e-001	-1.200748e-001	2.484990e-003	-8.858088e-003
6941843.302	3.081326e-003	-9.307358e-003	9.936261e-001	-1.212579e-001	9.937402e-001	-1.211302e-001	2.453638e-003	-8.857555e-003
7004382.386	2.880640e-003	-9.327945e-003	9.935907e-001	-1.222089e-001	9.935933e-001	-1.222097e-001	2.360337e-003	-8.915716e-003
7066921.470	2.949889e-003	-9.473469e-003	9.933497e-001	-1.233975e-001	9.935293e-001	-1.231328e-001	2.506511e-003	-9.147173e-003
7129460.553	2.826364e-003	-9.671460e-003	9.933078e-001	-1.243650e-001	9.933195e-001	-1.243647e-001	2.487556e-003	-9.183135e-003
7191999.637	2.792341e-003	-9.520290e-003	9.929306e-001	-1.255621e-001	9.930064e-001	-1.254436e-001	2.323297e-003	-9.256810e-003
7254538.721	2.851470e-003	-9.712265e-003	9.931306e-001	-1.266403e-001	9.931298e-001	-1.265802e-001	2.342524e-003	-9.338706e-003
7317077.805	2.988259e-003	-9.832983e-003	9.929003e-001	-1.276309e-001	9.929949e-001	-1.275978e-001	2.327727e-003	-9.528412e-003
7379616.889	2.837811e-003	-9.909976e-003	9.928994e-001	-1.289341e-001	9.927575e-001	-1.287264e-001	2.256560e-003	-9.595390e-003
7442155.972	2.664569e-003	-1.000141e-002	9.925695e-001	-1.298226e-001	9.926801e-001	-1.297492e-001	2.318310e-003	-9.464432e-003
7504695.056	2.689773e-003	-1.018159e-002	9.923478e-001	-1.307903e-001	9.923546e-001	-1.310183e-001	2.320723e-003	-9.480347e-003
7567234.140	2.843353e-003	-1.034947e-002	9.923625e-001	-1.319131e-001	9.922186e-001	-1.320293e-001	2.229903e-003	-9.663171e-003
7629773.224	2.719655e-003	-1.012958e-002	9.922366e-001	-1.331745e-001	9.922361e-001	-1.330507e-001	2.134296e-003	-9.815229e-003
7692312.308	2.573885e-003	-1.027700e-002	9.921072e-001	-1.342343e-001	9.919822e-001	-1.342322e-001	2.169273e-003	-9.982858e-003
7754851.391	2.534721e-003	-1.051875e-002	9.919162e-001	-1.353647e-001	9.917478e-001	-1.351585e-001	2.090502e-003	-9.938432e-003
7817390.475	2.598341e-003	-1.039711e-002	9.917762e-001	-1.365651e-001	9.916325e-001	-1.364358e-001	1.989943e-003	-9.899552e-003
7879929.559	2.479839e-003	-1.065969e-002	9.915232e-001	-1.376648e-001	9.914994e-001	-1.377230e-001	2.089188e-003	-9.994976e-003
7942468.643	2.417758e-003	-1.080389e-002	9.914836e-001	-1.386553e-001	9.914501e-001	-1.386961e-001	2.058800e-003	-1.025721e-002
8005007.727	2.497409e-003	-1.086342e-002	9.912462e-001	-1.398427e-001	9.912902e-001	-1.397610e-001	1.943737e-003	-1.011214e-002
8067546.811	2.313961e-003	-1.090439e-002	9.911386e-001	-1.408492e-001	9.909967e-001	-1.407743e-001	1.823545e-003	-1.041912e-002
8130085.894	2.363945e-003	-1.105263e-002	9.909469e-001	-1.419016e-001	9.909435e-001	-1.419510e-001	2.010825e-003	-1.054164e-002
8192624.978	2.185138e-003	-1.120444e-002	9.906257e-001	-1.431090e-001	9.907514e-001	-1.429413e-001	2.046513e-003	-1.063579e-002
8255164.062	2.268957e-003	-1.126292e-002	9.906060e-001	-1.441236e-001	9.905571e-001	-1.440597e-001	1.973315e-003	-1.076810e-002
8317703.146	2.115089e-003	-1.123778e-002	9.904739e-001	-1.452400e-001	9.905237e-001	-1.451457e-001	1.775027e-003	-1.078732e-002
8380242.230	2.221320e-003	-1.155064e-002	9.901506e-001	-1.464373e-001	9.902317e-001	-1.461789e-001	1.722275e-003	-1.093771e-002
8442781.313	2.162964e-003	-1.159081e-002	9.902472e-001	-1.473979e-001	9.901571e-001	-1.472660e-001	1.672215e-003	-1.110499e-002
8505320.397	2.122996e-003	-1.156070e-002	9.900028e-001	-1.485605e-001	9.899481e-001	-1.484034e-001	1.586027e-003	-1.113295e-002
8567859.481	2.046889e-003	-1.147642e-002	9.898050e-001	-1.494493e-001	9.898407e-001	-1.494444e-001	1.594611e-003	-1.104393e-002
8630398.565	2.099703e-003	-1.162156e-002	9.894895e-001	-1.505029e-001	9.896728e-001	-1.504825e-001	1.438680e-003	-1.139052e-002
8692937.649	2.014284e-003	-1.191329e-002	9.894137e-001	-1.515888e-001	9.893615e-001	-1.516424e-001	1.353459e-003	-1.136497e-002
8755476.732	1.991013e-003	-1.192279e-002	9.893145e-001	-1.527605e-001	9.891935e-001	-1.526262e-001	1.391573e-003	-1.143975e-002
8818015.816	1.846654e-003	-1.205163e-002	9.890306e-001	-1.538439e-001	9.888749e-001	-1.537628e-001	1.475359e-003	-1.161468e-002
8880554.900	2.032905e-003	-1.209788e-002	9.890363e-001	-1.549894e-001	9.889947e-001	-1.546546e-001	1.292877e-003	-1.186466e-002
8943093.984	1.822946e-003	-1.207751e-002	9.887703e-001	-1.559568e-001	9.888411e-001	-1.558177e-001	1.274796e-003	-1.188668e-002
9005633.068	1.860828e-003	-1.225178e-002	9.884678e-001	-1.571059e-001	9.887064e-001	-1.570212e-001	1.143451e-003	-1.209875e-002
9068172.151	1.669922e-003	-1.233161e-002	9.884642e-001	-1.582048e-001	9.883754e-001	-1.579992e-001	1.162814e-003	-1.212686e-002
9130711.235	1.845571e-003	-1.249776e-002	9.882115e-001	-1.592791e-001	9.882718e-001	-1.590597e-001	1.177160e-003	-1.241349e-002
9193250.319	1.816852e-003	-1.259405e-002	9.881842e-001	-1.601946e-001	9.880203e-001	-1.602041e-001	1.071130e-003	-1.242477e-002
9255789.403	1.665755e-003	-1.284635e-002	9.879916e-001	-1.612075e-001	9.878786e-001	-1.612046e-001	8.948375e-004	-1.245750e-002
9318328.487	1.586540e-003	-1.281942e-002	9.877637e-001	-1.625311e-001	9.878380e-001	-1.622579e-001	9.714019e-004	-1.252569e-002
9380867.570	1.554485e-003	-1.279192e-002	9.876592e-001	-1.636092e-001	9.875103e-001	-1.635161e-001	9.320720e-004	-1.263357e-002
9443406.654	1.585408e-003	-1.288121e-002	9.874605e-001	-1.646168e-001	9.874486e-001	-1.646098e-001	9.297785e-004	-1.279699e-002
9505945.738	1.525168e-003	-1.294853e-002	9.871253e-001	-1.658859e-001	9.873111e-001	-1.656866e-001	8.466112e-004	-1.288446e-002
9568484.822	1.524521e-003	-1.307279e-002	9.871008e-001	-1.669210e-001	9.869019e-001	-1.667297e-001	6.040341e-004	-1.273209e-002
