!Agilent Technologies,E5061B,MY49102235,A.02.00
!Date: Tue Jul 11 16:10:02 2023
!Data & Calibration Information:
!Freq	S11:SOLT2(ON)	S21:SOLT2(ON)	S12:SOLT2(ON)	S22:SOLT2(ON)
# Hz S RI R 50
5.000	-5.197392e-003	-5.652611e-003	1.001772e+000	8.105809e-003	1.000480e+000	1.021777e-002	-1.497511e-003	-7.572264e-003
62544.084	5.819379e-003	-6.741667e-005	1.001377e+000	1.644837e-004	1.000867e+000	7.296430e-004	7.695239e-003	-2.444509e-003
125083.168	5.719970e-003	3.638652e-004	1.000903e+000	-1.482449e-003	1.000797e+000	-1.741530e-003	7.503213e-003	-1.433901e-003
187622.251	5.495225e-003	9.644947e-004	1.000371e+000	-3.367778e-003	1.000921e+000	-2.348286e-003	7.406163e-003	-1.079738e-003
250161.335	5.325147e-003	1.497541e-003	1.000524e+000	-4.765429e-003	1.000693e+000	-4.865729e-003	7.301112e-003	-3.460735e-004
312700.419	5.485824e-003	2.657746e-003	1.000780e+000	-5.845901e-003	1.000686e+000	-5.754114e-003	7.808284e-003	-2.466031e-004
375239.503	5.360227e-003	1.544011e-003	1.001085e+000	-7.562829e-003	1.000543e+000	-7.505698e-003	7.317844e-003	1.625791e-005
437778.587	5.238467e-003	2.373633e-003	1.001300e+000	-8.240291e-003	1.000792e+000	-9.099626e-003	6.717516e-003	7.278911e-004
500317.670	4.725288e-003	2.905686e-003	1.001042e+000	-1.094755e-002	1.001555e+000	-1.108229e-002	4.910591e-003	1.326644e-003
562856.754	6.042650e-003	3.026819e-003	1.001209e+000	-1.301465e-002	1.001083e+000	-1.306992e-002	6.139357e-003	2.235715e-003
625395.838	5.253763e-003	3.576145e-003	1.002033e+000	-1.453810e-002	1.002052e+000	-1.427526e-002	6.257073e-003	3.198226e-003
687934.922	5.341561e-003	3.659115e-003	1.001129e+000	-1.596955e-002	1.001100e+000	-1.616911e-002	5.923671e-003	3.136753e-003
750474.006	4.503238e-003	4.377835e-003	1.000649e+000	-1.579749e-002	1.000598e+000	-1.567106e-002	5.684578e-003	3.704917e-003
813013.089	4.710411e-003	4.816844e-003	1.000874e+000	-1.807526e-002	1.000470e+000	-1.769346e-002	5.076075e-003	4.303190e-003
875552.173	4.487707e-003	5.388119e-003	1.000859e+000	-1.940868e-002	1.000845e+000	-1.914653e-002	5.884046e-003	4.320502e-003
938091.257	4.591698e-003	5.876409e-003	1.000914e+000	-2.133250e-002	1.000856e+000	-2.088541e-002	6.147393e-003	5.292954e-003
1000630.341	4.051966e-003	5.953853e-003	1.000450e+000	-2.301382e-002	1.000812e+000	-2.279146e-002	5.414801e-003	5.012486e-003
1063169.425	4.442817e-003	6.199884e-003	1.000883e+000	-2.477003e-002	1.000482e+000	-2.404269e-002	4.631338e-003	5.124353e-003
1125708.508	4.354478e-003	6.661405e-003	1.000492e+000	-2.633642e-002	1.000516e+000	-2.580701e-002	4.173590e-003	5.817200e-003
1188247.592	4.932318e-003	6.622493e-003	1.000764e+000	-2.799486e-002	1.000723e+000	-2.739187e-002	3.106565e-003	5.683340e-003
1250786.676	4.804441e-003	6.298162e-003	1.000236e+000	-2.834208e-002	1.000380e+000	-2.840362e-002	2.381762e-003	4.458827e-003
1313325.760	4.949528e-003	6.614803e-003	1.000626e+000	-3.033085e-002	1.000747e+000	-3.041315e-002	3.140262e-003	5.077179e-003
1375864.844	4.712987e-003	6.839278e-003	1.000236e+000	-3.262117e-002	1.000132e+000	-3.270903e-002	3.041843e-003	5.769261e-003
1438403.927	4.626759e-003	7.110547e-003	1.000079e+000	-3.356427e-002	1.000384e+000	-3.295010e-002	3.155534e-003	6.456124e-003
1500943.011	4.903696e-003	7.592719e-003	1.000786e+000	-3.498951e-002	1.001024e+000	-3.479512e-002	3.555898e-003	6.469515e-003
1563482.095	4.943364e-003	7.635190e-003	1.000314e+000	-3.685555e-002	1.000002e+000	-3.595133e-002	3.723220e-003	7.090257e-003
1626021.179	4.793374e-003	8.202797e-003	1.000070e+000	-3.838894e-002	1.000383e+000	-3.897197e-002	4.048259e-003	7.453093e-003
1688560.263	4.545416e-003	8.699708e-003	9.998364e-001	-4.044573e-002	1.000697e+000	-4.077994e-002	4.272451e-003	7.862757e-003
1751099.346	4.719294e-003	9.227759e-003	1.000402e+000	-4.213123e-002	1.000095e+000	-4.159431e-002	4.152793e-003	9.140100e-003
1813638.430	4.407723e-003	9.613243e-003	1.000431e+000	-4.410392e-002	1.000335e+000	-4.402067e-002	4.364250e-003	9.186574e-003
1876177.514	4.511798e-003	1.033883e-002	1.000786e+000	-4.543624e-002	1.000660e+000	-4.593535e-002	4.109323e-003	1.030074e-002
1938716.598	4.029828e-003	1.086542e-002	1.000897e+000	-4.672101e-002	1.000556e+000	-4.635233e-002	4.344673e-003	1.111185e-002
2001255.682	3.980259e-003	1.083871e-002	1.000718e+000	-4.862135e-002	1.000451e+000	-4.833506e-002	4.138223e-003	1.110227e-002
2063794.765	4.152701e-003	1.164407e-002	1.000274e+000	-4.999909e-002	9.997033e-001	-5.055416e-002	4.588091e-003	1.143172e-002
2126333.849	3.740996e-003	1.158328e-002	9.998911e-001	-5.180833e-002	9.990563e-001	-5.116589e-002	4.914755e-003	1.213305e-002
2188872.933	4.289713e-003	1.201460e-002	9.993789e-001	-5.329070e-002	9.990289e-001	-5.267233e-002	4.867308e-003	1.253486e-002
2251412.017	4.448147e-003	1.209117e-002	9.991098e-001	-5.523735e-002	9.991026e-001	-5.419780e-002	4.914717e-003	1.285524e-002
2313951.101	4.860989e-003	1.294312e-002	9.985371e-001	-5.663628e-002	9.990248e-001	-5.552258e-002	5.293534e-003	1.323693e-002
2376490.184	4.691540e-003	1.337416e-002	9.983561e-001	-5.761951e-002	9.990011e-001	-5.798708e-002	5.349410e-003	1.369033e-002
2439029.268	5.225391e-003	1.378239e-002	9.981904e-001	-5.982462e-002	9.979585e-001	-5.946100e-002	5.104277e-003	1.425070e-002
2501568.352	5.287076e-003	1.423999e-002	9.978841e-001	-6.043514e-002	9.986468e-001	-6.050939e-002	5.482985e-003	1.466177e-002
2564107.436	5.294708e-003	1.455498e-002	9.981691e-001	-6.263595e-002	9.984311e-001	-6.256738e-002	4.864616e-003	1.477401e-002
2626646.520	5.863480e-003	1.480365e-002	9.978468e-001	-6.422861e-002	9.971023e-001	-6.400982e-002	5.227687e-003	1.515039e-002
2689185.604	5.920057e-003	1.544087e-002	9.981833e-001	-6.548006e-002	9.978570e-001	-6.534907e-002	5.455972e-003	1.567058e-002
2751724.687	6.133985e-003	1.579708e-002	9.978395e-001	-6.668793e-002	9.976334e-001	-6.666823e-002	5.155930e-003	1.610957e-002
2814263.771	6.209077e-003	1.618828e-002	9.968253e-001	-6.903417e-002	9.972476e-001	-6.841585e-002	5.250853e-003	1.644425e-002
2876802.855	6.263069e-003	1.645208e-002	9.967866e-001	-7.080880e-002	9.971415e-001	-7.002253e-002	5.465928e-003	1.702884e-002
2939341.939	6.505257e-003	1.699848e-002	9.972240e-001	-7.182746e-002	9.968793e-001	-7.204697e-002	5.477048e-003	1.739942e-002
3001881.023	6.576746e-003	1.748077e-002	9.968679e-001	-7.355430e-002	9.967515e-001	-7.354139e-002	5.698714e-003	1.771902e-002
3064420.106	6.745786e-003	1.789484e-002	9.973528e-001	-7.497656e-002	9.964254e-001	-7.499842e-002	5.645986e-003	1.807951e-002
3126959.190	7.085724e-003	1.824565e-002	9.966606e-001	-7.673182e-002	9.965393e-001	-7.666865e-002	5.974837e-003	1.846335e-002
3189498.274	7.209393e-003	1.875052e-002	9.964171e-001	-7.815134e-002	9.962764e-001	-7.824439e-002	6.115155e-003	1.887929e-002
3252037.358	7.255693e-003	1.886239e-002	9.963476e-001	-7.986249e-002	9.962110e-001	-7.970968e-002	6.205868e-003	1.939253e-002
3314576.442	7.443522e-003	1.950321e-002	9.961006e-001	-8.130493e-002	9.958943e-001	-8.134892e-002	6.421823e-003	1.976812e-002
3377115.525	7.575771e-003	1.996838e-002	9.956984e-001	-8.283653e-002	9.954637e-001	-8.312660e-002	6.428280e-003	2.010563e-002
3439654.609	7.766968e-003	2.037300e-002	9.953224e-001	-8.448207e-002	9.955655e-001	-8.462838e-002	6.622238e-003	2.076297e-002
3502193.693	7.884720e-003	2.053381e-002	9.951662e-001	-8.620322e-002	9.950718e-001	-8.608340e-002	6.978937e-003	2.117530e-002
3564732.777	8.137495e-003	2.113724e-002	9.950074e-001	-8.771569e-002	9.948361e-001	-8.778958e-002	7.259849e-003	2.164535e-002
3627271.861	8.177202e-003	2.147711e-002	9.948085e-001	-8.942717e-002	9.947040e-001	-8.927972e-002	7.223405e-003	2.191160e-002
3689810.944	8.282875e-003	2.181673e-002	9.944382e-001	-9.099461e-002	9.944094e-001	-9.087279e-002	7.599284e-003	2.238757e-002
3752350.028	8.611392e-003	2.230454e-002	9.941619e-001	-9.235668e-002	9.939337e-001	-9.241711e-002	7.745597e-003	2.280786e-002
3814889.112	8.968503e-003	2.287006e-002	9.937404e-001	-9.404554e-002	9.938842e-001	-9.427717e-002	7.883208e-003	2.312583e-002
3877428.196	9.133364e-003	2.335971e-002	9.936469e-001	-9.567512e-002	9.935440e-001	-9.564406e-002	8.430717e-003	2.357490e-002
3939967.280	9.327359e-003	2.350752e-002	9.932836e-001	-9.733806e-002	9.932975e-001	-9.728115e-002	8.658920e-003	2.412444e-002
4002506.363	9.658782e-003	2.409502e-002	9.929984e-001	-9.890747e-002	9.929129e-001	-9.874390e-002	8.849413e-003	2.450915e-002
4065045.447	9.742797e-003	2.446571e-002	9.925156e-001	-1.005550e-001	9.924588e-001	-1.004244e-001	9.200234e-003	2.483434e-002
4127584.531	9.973508e-003	2.488193e-002	9.921407e-001	-1.020884e-001	9.921675e-001	-1.019652e-001	9.492611e-003	2.537345e-002
4190123.615	1.029849e-002	2.534604e-002	9.918469e-001	-1.038875e-001	9.916835e-001	-1.036892e-001	9.666609e-003	2.561102e-002
4252662.699	1.055201e-002	2.569557e-002	9.915915e-001	-1.055181e-001	9.912787e-001	-1.053981e-001	1.006849e-002	2.605320e-002
4315201.782	1.097825e-002	2.607723e-002	9.911624e-001	-1.068406e-001	9.911972e-001	-1.069939e-001	1.016818e-002	2.630540e-002
4377740.866	1.118472e-002	2.647637e-002	9.908354e-001	-1.085992e-001	9.905405e-001	-1.085474e-001	1.067120e-002	2.700920e-002
4440279.950	1.141158e-002	2.676675e-002	9.904444e-001	-1.100099e-001	9.900937e-001	-1.100087e-001	1.087530e-002	2.725960e-002
4502819.034	1.173604e-002	2.730008e-002	9.897811e-001	-1.116751e-001	9.897900e-001	-1.115926e-001	1.129463e-002	2.781615e-002
4565358.118	1.198927e-002	2.765884e-002	9.893815e-001	-1.131962e-001	9.892108e-001	-1.129749e-001	1.162613e-002	2.811104e-002
4627897.201	1.250699e-002	2.818737e-002	9.891722e-001	-1.147537e-001	9.889024e-001	-1.145275e-001	1.210028e-002	2.861065e-002
4690436.285	1.269645e-002	2.846370e-002	9.886930e-001	-1.164066e-001	9.884421e-001	-1.164513e-001	1.241833e-002	2.880301e-002
4752975.369	1.305659e-002	2.884197e-002	9.879782e-001	-1.180596e-001	9.880543e-001	-1.179028e-001	1.260315e-002	2.915458e-002
4815514.453	1.353548e-002	2.922404e-002	9.876892e-001	-1.194895e-001	9.876030e-001	-1.195223e-001	1.319970e-002	2.961388e-002
4878053.537	1.401819e-002	2.948621e-002	9.872792e-001	-1.209891e-001	9.870894e-001	-1.209175e-001	1.355859e-002	2.991102e-002
4940592.620	1.414813e-002	2.991576e-002	9.866741e-001	-1.225346e-001	9.866467e-001	-1.225472e-001	1.369922e-002	3.026005e-002
5003131.704	1.459767e-002	3.013455e-002	9.861603e-001	-1.240462e-001	9.862499e-001	-1.238735e-001	1.421871e-002	3.056503e-002
5065670.788	1.495728e-002	3.068388e-002	9.856915e-001	-1.256514e-001	9.856326e-001	-1.254648e-001	1.461243e-002	3.095990e-002
5128209.872	1.547888e-002	3.087908e-002	9.853269e-001	-1.270995e-001	9.850910e-001	-1.270019e-001	1.499029e-002	3.109568e-002
5190748.956	1.581053e-002	3.121602e-002	9.846956e-001	-1.286765e-001	9.846587e-001	-1.285964e-001	1.538348e-002	3.155273e-002
5253288.039	1.629203e-002	3.149660e-002	9.842478e-001	-1.301606e-001	9.841394e-001	-1.300788e-001	1.574508e-002	3.197015e-002
5315827.123	1.667593e-002	3.174949e-002	9.834982e-001	-1.316545e-001	9.835230e-001	-1.315519e-001	1.616565e-002	3.219018e-002
5378366.207	1.721764e-002	3.209485e-002	9.830838e-001	-1.331557e-001	9.830065e-001	-1.332180e-001	1.658618e-002	3.239377e-002
5440905.291	1.750341e-002	3.249599e-002	9.825873e-001	-1.346451e-001	9.824721e-001	-1.345999e-001	1.693878e-002	3.275037e-002
5503444.375	1.814467e-002	3.260150e-002	9.820301e-001	-1.361624e-001	9.819677e-001	-1.359241e-001	1.757271e-002	3.294810e-002
5565983.458	1.827216e-002	3.302320e-002	9.814633e-001	-1.375310e-001	9.814102e-001	-1.373198e-001	1.799309e-002	3.339559e-002
5628522.542	1.899200e-002	3.319893e-002	9.808982e-001	-1.388598e-001	9.807890e-001	-1.388930e-001	1.848586e-002	3.352333e-002
5691061.626	1.951253e-002	3.327404e-002	9.802602e-001	-1.405247e-001	9.801736e-001	-1.404003e-001	1.887207e-002	3.383296e-002
5753600.710	1.985049e-002	3.362290e-002	9.795781e-001	-1.418564e-001	9.795927e-001	-1.417647e-001	1.939908e-002	3.394452e-002
5816139.794	2.045186e-002	3.402251e-002	9.790501e-001	-1.432813e-001	9.788215e-001	-1.433785e-001	1.974417e-002	3.422606e-002
5878678.877	2.082962e-002	3.402334e-002	9.784080e-001	-1.446934e-001	9.782860e-001	-1.446229e-001	2.034994e-002	3.431736e-002
5941217.961	2.130172e-002	3.416796e-002	9.777628e-001	-1.461719e-001	9.776755e-001	-1.458833e-001	2.065038e-002	3.464585e-002
6003757.045	2.166612e-002	3.459773e-002	9.770394e-001	-1.473442e-001	9.770746e-001	-1.472870e-001	2.126365e-002	3.480646e-002
6066296.129	2.227169e-002	3.458252e-002	9.766083e-001	-1.487757e-001	9.764739e-001	-1.485894e-001	2.172703e-002	3.497493e-002
6128835.213	2.286030e-002	3.477893e-002	9.759982e-001	-1.498635e-001	9.759769e-001	-1.500617e-001	2.232570e-002	3.512322e-002
6191374.296	2.330076e-002	3.493265e-002	9.752877e-001	-1.514296e-001	9.751678e-001	-1.515666e-001	2.268488e-002	3.541097e-002
6253913.380	2.374194e-002	3.521380e-002	9.746474e-001	-1.528465e-001	9.745865e-001	-1.527245e-001	2.309502e-002	3.567109e-002
6316452.464	2.421197e-002	3.543217e-002	9.740529e-001	-1.540534e-001	9.738122e-001	-1.542331e-001	2.360068e-002	3.559698e-002
6378991.548	2.466271e-002	3.541671e-002	9.733841e-001	-1.556822e-001	9.734410e-001	-1.554253e-001	2.415437e-002	3.560070e-002
6441530.632	2.510007e-002	3.545839e-002	9.726995e-001	-1.567209e-001	9.726893e-001	-1.568426e-001	2.471087e-002	3.582763e-002
6504069.715	2.561109e-002	3.554920e-002	9.720448e-001	-1.582136e-001	9.721656e-001	-1.580701e-001	2.522442e-002	3.593749e-002
6566608.799	2.623197e-002	3.557267e-002	9.715437e-001	-1.595369e-001	9.713760e-001	-1.593910e-001	2.565315e-002	3.622447e-002
6629147.883	2.669972e-002	3.580421e-002	9.708213e-001	-1.605280e-001	9.707151e-001	-1.606359e-001	2.622797e-002	3.616145e-002
6691686.967	2.707614e-002	3.590274e-002	9.700649e-001	-1.618735e-001	9.700477e-001	-1.618825e-001	2.675266e-002	3.632744e-002
6754226.051	2.751475e-002	3.596356e-002	9.694740e-001	-1.632427e-001	9.693208e-001	-1.633174e-001	2.703614e-002	3.621774e-002
6816765.134	2.809259e-002	3.600251e-002	9.688773e-001	-1.643765e-001	9.688041e-001	-1.644196e-001	2.759820e-002	3.645374e-002
6879304.218	2.847439e-002	3.590387e-002	9.681789e-001	-1.656718e-001	9.681784e-001	-1.655997e-001	2.807278e-002	3.644451e-002
6941843.302	2.905400e-002	3.610125e-002	9.675385e-001	-1.669175e-001	9.675205e-001	-1.668131e-001	2.855789e-002	3.656112e-002
7004382.386	2.936997e-002	3.622546e-002	9.670025e-001	-1.680344e-001	9.668310e-001	-1.680518e-001	2.897058e-002	3.665022e-002
7066921.470	2.991610e-002	3.617796e-002	9.662446e-001	-1.693671e-001	9.662634e-001	-1.690495e-001	2.959378e-002	3.650570e-002
7129460.553	3.028333e-002	3.610173e-002	9.656990e-001	-1.704093e-001	9.656120e-001	-1.704221e-001	3.008240e-002	3.658613e-002
7191999.637	3.077107e-002	3.634925e-002	9.648269e-001	-1.716154e-001	9.648487e-001	-1.715495e-001	3.042184e-002	3.660195e-002
7254538.721	3.128599e-002	3.623441e-002	9.645049e-001	-1.729120e-001	9.643764e-001	-1.728083e-001	3.091892e-002	3.661339e-002
7317077.805	3.190417e-002	3.617966e-002	9.638337e-001	-1.739381e-001	9.637630e-001	-1.739367e-001	3.137505e-002	3.650373e-002
7379616.889	3.222860e-002	3.619609e-002	9.633671e-001	-1.752965e-001	9.631305e-001	-1.751460e-001	3.178790e-002	3.652977e-002
7442155.972	3.255128e-002	3.619672e-002	9.625498e-001	-1.762879e-001	9.625048e-001	-1.762013e-001	3.235168e-002	3.671449e-002
7504695.056	3.303213e-002	3.608159e-002	9.618739e-001	-1.773608e-001	9.617297e-001	-1.775155e-001	3.282654e-002	3.674150e-002
7567234.140	3.364048e-002	3.597096e-002	9.613846e-001	-1.784760e-001	9.611353e-001	-1.785756e-001	3.320235e-002	3.663680e-002
7629773.224	3.402033e-002	3.622256e-002	9.608098e-001	-1.797855e-001	9.606605e-001	-1.796943e-001	3.357781e-002	3.654568e-002
7692312.308	3.432375e-002	3.611559e-002	9.601584e-001	-1.809299e-001	9.599701e-001	-1.808889e-001	3.405987e-002	3.640701e-002
7754851.391	3.473004e-002	3.593025e-002	9.594979e-001	-1.820877e-001	9.592496e-001	-1.818478e-001	3.445179e-002	3.649725e-002
7817390.475	3.525922e-002	3.607091e-002	9.589516e-001	-1.833211e-001	9.586852e-001	-1.832014e-001	3.483002e-002	3.656501e-002
7879929.559	3.556732e-002	3.585488e-002	9.582418e-001	-1.844494e-001	9.580461e-001	-1.844356e-001	3.536334e-002	3.649397e-002
7942468.643	3.595079e-002	3.575325e-002	9.577922e-001	-1.854851e-001	9.575778e-001	-1.855228e-001	3.575108e-002	3.625881e-002
8005007.727	3.645966e-002	3.569930e-002	9.570790e-001	-1.866514e-001	9.569958e-001	-1.865859e-001	3.609835e-002	3.643393e-002
8067546.811	3.673146e-002	3.568228e-002	9.565340e-001	-1.877244e-001	9.562867e-001	-1.876199e-001	3.641469e-002	3.616919e-002
8130085.894	3.719680e-002	3.555279e-002	9.559275e-001	-1.887371e-001	9.557600e-001	-1.887810e-001	3.701893e-002	3.601835e-002
8192624.978	3.745161e-002	3.542908e-002	9.551615e-001	-1.899835e-001	9.551964e-001	-1.898219e-001	3.746319e-002	3.593607e-002
8255164.062	3.795600e-002	3.535817e-002	9.546932e-001	-1.909877e-001	9.545907e-001	-1.909184e-001	3.782864e-002	3.582081e-002
8317703.146	3.825039e-002	3.538501e-002	9.541487e-001	-1.921253e-001	9.540365e-001	-1.920068e-001	3.807661e-002	3.579770e-002
8380242.230	3.873741e-002	3.506825e-002	9.534207e-001	-1.932809e-001	9.533743e-001	-1.930444e-001	3.841068e-002	3.565479e-002
8442781.313	3.908227e-002	3.501534e-002	9.531110e-001	-1.942526e-001	9.528355e-001	-1.941254e-001	3.877097e-002	3.549328e-002
8505320.397	3.947157e-002	3.504658e-002	9.524186e-001	-1.953535e-001	9.522361e-001	-1.952046e-001	3.910927e-002	3.544942e-002
8567859.481	3.983229e-002	3.509858e-002	9.517959e-001	-1.962480e-001	9.517520e-001	-1.962835e-001	3.955579e-002	3.550328e-002
8630398.565	4.026804e-002	3.493339e-002	9.511046e-001	-1.973181e-001	9.511593e-001	-1.972821e-001	3.978111e-002	3.515940e-002
8692937.649	4.056675e-002	3.463110e-002	9.506774e-001	-1.983593e-001	9.504394e-001	-1.983852e-001	4.010448e-002	3.516448e-002
8755476.732	4.094977e-002	3.459823e-002	9.501268e-001	-1.995566e-001	9.499258e-001	-1.993667e-001	4.054147e-002	3.506492e-002
8818015.816	4.117504e-002	3.444940e-002	9.494840e-001	-2.005386e-001	9.491904e-001	-2.004733e-001	4.098134e-002	3.485349e-002
8880554.900	4.174806e-002	3.435454e-002	9.490164e-001	-2.016692e-001	9.489342e-001	-2.013662e-001	4.119949e-002	3.461120e-002
8943093.984	4.194801e-002	3.436212e-002	9.484515e-001	-2.026014e-001	9.483621e-001	-2.024666e-001	4.157188e-002	3.454310e-002
9005633.068	4.234487e-002	3.413451e-002	9.478274e-001	-2.036991e-001	9.479241e-001	-2.036634e-001	4.180738e-002	3.430437e-002
9068172.151	4.254589e-002	3.403187e-002	9.473946e-001	-2.047765e-001	9.471742e-001	-2.045688e-001	4.220360e-002	3.422479e-002
9130711.235	4.308646e-002	3.381545e-002	9.467524e-001	-2.057917e-001	9.466993e-001	-2.056247e-001	4.256012e-002	3.392079e-002
9193250.319	4.340027e-002	3.366509e-002	9.463488e-001	-2.067186e-001	9.461088e-001	-2.067318e-001	4.284170e-002	3.386405e-002
9255789.403	4.361326e-002	3.340452e-002	9.458386e-001	-2.076891e-001	9.455711e-001	-2.076837e-001	4.305127e-002	3.379198e-002
9318328.487	4.391528e-002	3.336162e-002	9.452008e-001	-2.089332e-001	9.451656e-001	-2.086949e-001	4.348342e-002	3.365582e-002
9380867.570	4.425217e-002	3.334337e-002	9.447133e-001	-2.099645e-001	9.444693e-001	-2.098175e-001	4.379948e-002	3.349938e-002
9443406.654	4.462012e-002	3.319116e-002	9.441626e-001	-2.109074e-001	9.440565e-001	-2.109058e-001	4.415365e-002	3.328256e-002
9505945.738	4.492079e-002	3.307670e-002	9.434474e-001	-2.120922e-001	9.435659e-001	-2.119436e-001	4.442296e-002	3.314678e-002
9568484.822	4.524594e-002	3.287970e-002	9.430667e-001	-2.130541e-001	9.427832e-001	-2.129438e-001	4.456540e-002	3.324255e-002
9631023.906	4.556255e-002	3.275676e-002	9.425542e-001	-2.140535e-001	9.422726e-001	-2.139817e-001	4.502513e-002	3.278600e-002
9693562.989	4.587352e-002	3.259620e-002	9.419422e-001	-2.150968e-001	9.418471e-001	-2.149336e-001	4.509741e-002	3.278143e-002
9756102.073	4.615869e-002	3.240189e-002	9.416216e-001	-2.161263e-001	9.413495e-001	-2.158969e-001	4.543388e-002	3.249208e-002
