!Agilent Technologies,E5061B,MY49102235,A.02.00
!Date: Tue Jul 11 16:12:08 2023
!Data & Calibration Information:
!Freq	S11:SOLT2(ON)	S21:SOLT2(ON)	S12:SOLT2(ON)	S22:SOLT2(ON)
# Hz S RI R 50
5.000	-5.172688e-003	-5.633429e-003	1.001701e+000	8.033456e-003	1.000461e+000	1.023342e-002	-1.520532e-003	-7.552289e-003
62544.084	5.829177e-003	-5.088082e-004	1.001268e+000	6.870576e-004	1.000934e+000	1.172200e-003	7.696494e-003	-2.877089e-003
125083.168	5.695172e-003	-5.085491e-004	1.000987e+000	-7.352453e-004	1.000828e+000	-8.012152e-004	7.483861e-003	-2.289184e-003
187622.251	5.459329e-003	-3.320936e-004	1.000480e+000	-2.068807e-003	1.000930e+000	-9.396177e-004	7.392069e-003	-2.371211e-003
250161.335	5.298548e-003	-1.925106e-004	1.000420e+000	-3.139070e-003	1.000824e+000	-3.057044e-003	7.271735e-003	-2.058771e-003
312700.419	5.427334e-003	5.258845e-004	1.000849e+000	-3.747610e-003	1.000698e+000	-3.486946e-003	7.782475e-003	-2.373983e-003
375239.503	5.325323e-003	-9.990505e-004	1.000966e+000	-5.126151e-003	1.000546e+000	-4.927021e-003	7.268179e-003	-2.534868e-003
437778.587	5.150580e-003	-6.132190e-004	1.001271e+000	-5.317940e-003	1.001048e+000	-5.928119e-003	6.645468e-003	-2.255049e-003
500317.670	4.599958e-003	-5.009133e-004	1.001210e+000	-7.610018e-003	1.001681e+000	-7.500822e-003	4.826134e-003	-2.092747e-003
562856.754	5.904957e-003	-8.051990e-004	1.001387e+000	-9.266398e-003	1.001203e+000	-8.943753e-003	6.023547e-003	-1.604120e-003
625395.838	5.094270e-003	-6.659055e-004	1.002233e+000	-1.036515e-002	1.002137e+000	-9.955412e-003	6.115762e-003	-1.037203e-003
687934.922	5.146380e-003	-1.005075e-003	1.001251e+000	-1.140390e-002	1.001294e+000	-1.142379e-002	5.762470e-003	-1.523604e-003
750474.006	4.297312e-003	-7.212773e-004	1.000668e+000	-1.078084e-002	1.000929e+000	-1.044200e-002	5.493374e-003	-1.356139e-003
813013.089	4.472291e-003	-6.879615e-004	1.001109e+000	-1.245918e-002	1.000703e+000	-1.213769e-002	4.850952e-003	-1.204975e-003
875552.173	4.213788e-003	-5.356248e-004	1.001023e+000	-1.359724e-002	1.001055e+000	-1.339941e-002	5.635884e-003	-1.606194e-003
938091.257	4.287096e-003	-4.839698e-004	1.001112e+000	-1.489398e-002	1.001173e+000	-1.461350e-002	5.866296e-003	-1.057793e-003
1000630.341	3.735260e-003	-8.519379e-004	1.000638e+000	-1.627061e-002	1.001129e+000	-1.589165e-002	5.118297e-003	-1.755622e-003
1063169.425	4.091454e-003	-1.003655e-003	1.001003e+000	-1.762129e-002	1.000822e+000	-1.691259e-002	4.297498e-003	-2.104246e-003
1125708.508	3.975144e-003	-9.690614e-004	1.000874e+000	-1.862071e-002	1.000864e+000	-1.817469e-002	3.802484e-003	-1.807701e-003
1188247.592	4.513685e-003	-1.441315e-003	1.001004e+000	-1.989809e-002	1.001158e+000	-1.917515e-002	2.712737e-003	-2.378530e-003
1250786.676	4.353291e-003	-2.185512e-003	1.000562e+000	-1.971979e-002	1.000743e+000	-1.978793e-002	1.972188e-003	-4.064420e-003
1313325.760	4.478529e-003	-2.296668e-003	1.000945e+000	-2.133852e-002	1.001148e+000	-2.152261e-002	2.702652e-003	-3.879431e-003
1375864.844	4.201507e-003	-2.493446e-003	1.000721e+000	-2.323637e-002	1.000569e+000	-2.316460e-002	2.545010e-003	-3.591174e-003
1438403.927	4.094745e-003	-2.658486e-003	1.000664e+000	-2.378846e-002	1.000994e+000	-2.311636e-002	2.634952e-003	-3.351494e-003
1500943.011	4.333244e-003	-2.601769e-003	1.001312e+000	-2.471920e-002	1.001400e+000	-2.469658e-002	2.995512e-003	-3.770272e-003
1563482.095	4.307210e-003	-2.995629e-003	1.000890e+000	-2.617214e-002	1.000770e+000	-2.524365e-002	3.131419e-003	-3.573827e-003
1626021.179	4.113113e-003	-2.877783e-003	1.000627e+000	-2.729299e-002	1.001171e+000	-2.779026e-002	3.400549e-003	-3.639421e-003
1688560.263	3.824595e-003	-2.832256e-003	1.000441e+000	-2.898260e-002	1.001353e+000	-2.905859e-002	3.561728e-003	-3.668349e-003
1751099.346	3.941982e-003	-2.745583e-003	1.000960e+000	-3.016365e-002	1.000823e+000	-2.962387e-002	3.384565e-003	-2.828507e-003
1813638.430	3.602009e-003	-2.802236e-003	1.001229e+000	-3.170520e-002	1.001101e+000	-3.142231e-002	3.566671e-003	-3.230763e-003
1876177.514	3.630488e-003	-2.524770e-003	1.001654e+000	-3.258646e-002	1.001432e+000	-3.300248e-002	3.222664e-003	-2.574418e-003
1938716.598	3.090408e-003	-2.462093e-003	1.001801e+000	-3.337589e-002	1.001449e+000	-3.294200e-002	3.393032e-003	-2.199456e-003
2001255.682	2.990544e-003	-2.955023e-003	1.001768e+000	-3.470503e-002	1.001494e+000	-3.444487e-002	3.145894e-003	-2.668142e-003
2063794.765	3.086536e-003	-2.570427e-003	1.001322e+000	-3.567280e-002	1.000767e+000	-3.613443e-002	3.526571e-003	-2.771867e-003
2126333.849	2.625156e-003	-3.117877e-003	1.000798e+000	-3.708314e-002	1.000191e+000	-3.644238e-002	3.780362e-003	-2.528776e-003
2188872.933	3.106629e-003	-3.132784e-003	1.000582e+000	-3.809075e-002	1.000232e+000	-3.728223e-002	3.660974e-003	-2.580108e-003
2251412.017	3.212857e-003	-3.506935e-003	1.000448e+000	-3.967001e-002	1.000263e+000	-3.855458e-002	3.650635e-003	-2.722597e-003
2313951.101	3.521679e-003	-3.099078e-003	9.998261e-001	-4.064381e-002	1.000277e+000	-3.943111e-002	3.956754e-003	-2.797995e-003
2376490.184	3.267992e-003	-3.144249e-003	9.996056e-001	-4.098575e-002	1.000459e+000	-4.142118e-002	3.934893e-003	-2.804227e-003
2439029.268	3.719487e-003	-3.190906e-003	9.996275e-001	-4.279274e-002	9.995041e-001	-4.233572e-002	3.582685e-003	-2.721974e-003
2501568.352	3.695951e-003	-3.206419e-003	9.995451e-001	-4.284973e-002	1.000302e+000	-4.295876e-002	3.869498e-003	-2.766248e-003
2564107.436	3.610088e-003	-3.383064e-003	9.997477e-001	-4.472070e-002	1.000125e+000	-4.450262e-002	3.179205e-003	-3.162233e-003
2626646.520	4.085902e-003	-3.577884e-003	9.995884e-001	-4.573215e-002	9.988613e-001	-4.565962e-002	3.430870e-003	-3.246926e-003
2689185.604	4.025972e-003	-3.433190e-003	9.998751e-001	-4.649630e-002	9.995963e-001	-4.636781e-002	3.550702e-003	-3.206315e-003
2751724.687	4.150644e-003	-3.539967e-003	9.997636e-001	-4.726741e-002	9.996592e-001	-4.724028e-002	3.161085e-003	-3.277616e-003
2814263.771	4.096669e-003	-3.627706e-003	9.989617e-001	-4.912019e-002	9.993633e-001	-4.846107e-002	3.122130e-003	-3.419162e-003
2876802.855	4.041987e-003	-3.851843e-003	9.990029e-001	-5.055887e-002	9.994093e-001	-4.951051e-002	3.204886e-003	-3.306555e-003
2939341.939	4.145168e-003	-3.797698e-003	9.996063e-001	-5.089627e-002	9.992269e-001	-5.100700e-002	3.096235e-003	-3.433275e-003
3001881.023	4.085750e-003	-3.814794e-003	9.992636e-001	-5.217964e-002	9.992293e-001	-5.213786e-002	3.188369e-003	-3.593473e-003
3064420.106	4.121933e-003	-3.881794e-003	9.998085e-001	-5.303872e-002	9.991026e-001	-5.306446e-002	3.015909e-003	-3.739258e-003
3126959.190	4.321560e-003	-4.001458e-003	9.993914e-001	-5.436102e-002	9.992986e-001	-5.424574e-002	3.193550e-003	-3.832598e-003
3189498.274	4.294454e-003	-4.002637e-003	9.992486e-001	-5.529577e-002	9.992153e-001	-5.531144e-002	3.184513e-003	-3.908851e-003
3252037.358	4.191332e-003	-4.394898e-003	9.993522e-001	-5.642806e-002	9.992408e-001	-5.634063e-002	3.121076e-003	-3.893509e-003
3314576.442	4.210537e-003	-4.260685e-003	9.992392e-001	-5.745972e-002	9.991099e-001	-5.749431e-002	3.181939e-003	-4.035575e-003
3377115.525	4.172952e-003	-4.290023e-003	9.990405e-001	-5.846693e-002	9.988903e-001	-5.872325e-002	3.017264e-003	-4.205091e-003
3439654.609	4.181294e-003	-4.385922e-003	9.988344e-001	-5.964034e-002	9.991846e-001	-5.969946e-002	3.026149e-003	-4.045981e-003
3502193.693	4.141197e-003	-4.742934e-003	9.988411e-001	-6.085718e-002	9.988272e-001	-6.064755e-002	3.194494e-003	-4.122354e-003
3564732.777	4.186967e-003	-4.627172e-003	9.988726e-001	-6.185130e-002	9.988230e-001	-6.185384e-002	3.285944e-003	-4.149634e-003
3627271.861	4.020089e-003	-4.812102e-003	9.988965e-001	-6.300154e-002	9.988694e-001	-6.279941e-002	3.054749e-003	-4.408411e-003
3689810.944	3.927639e-003	-4.982415e-003	9.987091e-001	-6.408380e-002	9.987714e-001	-6.387728e-002	3.204787e-003	-4.435485e-003
3752350.028	4.044890e-003	-4.991192e-003	9.986339e-001	-6.492767e-002	9.985648e-001	-6.491136e-002	3.125579e-003	-4.541519e-003
3814889.112	4.143489e-003	-4.927319e-003	9.984922e-001	-6.610395e-002	9.987252e-001	-6.627829e-002	3.038384e-003	-4.722932e-003
3877428.196	4.076738e-003	-4.966314e-003	9.986459e-001	-6.724947e-002	9.986003e-001	-6.715732e-002	3.358453e-003	-4.758547e-003
3939967.280	4.047442e-003	-5.315213e-003	9.984997e-001	-6.839302e-002	9.986137e-001	-6.826113e-002	3.341760e-003	-4.735389e-003
4002506.363	4.102487e-003	-5.225131e-003	9.985110e-001	-6.941290e-002	9.984697e-001	-6.921722e-002	3.274085e-003	-4.860533e-003
4065045.447	3.922745e-003	-5.381319e-003	9.982252e-001	-7.057600e-002	9.982983e-001	-7.040371e-002	3.357079e-003	-5.030058e-003
4127584.531	3.892037e-003	-5.455572e-003	9.981208e-001	-7.159142e-002	9.982669e-001	-7.142929e-002	3.360263e-003	-4.980212e-003
4190123.615	3.931767e-003	-5.497526e-003	9.981771e-001	-7.288975e-002	9.980911e-001	-7.265341e-002	3.269267e-003	-5.264904e-003
4252662.699	3.869966e-003	-5.646132e-003	9.981761e-001	-7.398516e-002	9.979758e-001	-7.383133e-002	3.368037e-003	-5.308242e-003
4315201.782	4.001569e-003	-5.753889e-003	9.981127e-001	-7.484876e-002	9.981962e-001	-7.489125e-002	3.193780e-003	-5.574700e-003
4377740.866	3.906974e-003	-5.843969e-003	9.981192e-001	-7.608107e-002	9.978444e-001	-7.600973e-002	3.353218e-003	-5.343695e-003
4440279.950	3.791633e-003	-6.050841e-003	9.980015e-001	-7.700370e-002	9.976799e-001	-7.696852e-002	3.237511e-003	-5.586653e-003
4502819.034	3.777461e-003	-5.996171e-003	9.976313e-001	-7.820381e-002	9.977773e-001	-7.807140e-002	3.300067e-003	-5.510717e-003
4565358.118	3.698756e-003	-6.113222e-003	9.975990e-001	-7.923522e-002	9.975165e-001	-7.895000e-002	3.307777e-003	-5.684563e-003
4627897.201	3.868591e-003	-6.064011e-003	9.977399e-001	-8.034732e-002	9.975315e-001	-8.004884e-002	3.407755e-003	-5.655641e-003
4690436.285	3.696817e-003	-6.251623e-003	9.976301e-001	-8.148937e-002	9.975204e-001	-8.154084e-002	3.400986e-003	-5.929254e-003
4752975.369	3.683074e-003	-6.348028e-003	9.973077e-001	-8.268397e-002	9.974744e-001	-8.248008e-002	3.212049e-003	-6.063106e-003
4815514.453	3.788019e-003	-6.424801e-003	9.974336e-001	-8.365134e-002	9.973839e-001	-8.365897e-002	3.421482e-003	-6.035183e-003
4878053.537	3.888928e-003	-6.594083e-003	9.974058e-001	-8.469180e-002	9.972375e-001	-8.458674e-002	3.375475e-003	-6.196131e-003
4940592.620	3.623754e-003	-6.630817e-003	9.971524e-001	-8.583259e-002	9.972213e-001	-8.579054e-002	3.134596e-003	-6.305004e-003
5003131.704	3.677720e-003	-6.847290e-003	9.970702e-001	-8.686206e-002	9.971767e-001	-8.663484e-002	3.260997e-003	-6.444518e-003
5065670.788	3.589857e-003	-6.731191e-003	9.969979e-001	-8.801086e-002	9.970157e-001	-8.782585e-002	3.222086e-003	-6.480497e-003
5128209.872	3.704279e-003	-6.951486e-003	9.970616e-001	-8.909727e-002	9.969156e-001	-8.888575e-002	3.185778e-003	-6.766937e-003
5190748.956	3.608348e-003	-7.050028e-003	9.968631e-001	-9.020766e-002	9.968988e-001	-9.008875e-002	3.143982e-003	-6.736329e-003
5253288.039	3.654730e-003	-7.163969e-003	9.968338e-001	-9.127074e-002	9.968036e-001	-9.112396e-002	3.066213e-003	-6.736398e-003
5315827.123	3.619615e-003	-7.325907e-003	9.965849e-001	-9.237803e-002	9.966800e-001	-9.222855e-002	3.040938e-003	-6.917236e-003
5378366.207	3.689121e-003	-7.347378e-003	9.966038e-001	-9.347825e-002	9.966278e-001	-9.349175e-002	3.029862e-003	-7.097213e-003
5440905.291	3.490403e-003	-7.349238e-003	9.965562e-001	-9.454082e-002	9.965241e-001	-9.447289e-002	2.900488e-003	-7.139935e-003
5503444.375	3.690872e-003	-7.598791e-003	9.964222e-001	-9.569456e-002	9.965089e-001	-9.544357e-002	3.096043e-003	-7.301714e-003
5565983.458	3.346050e-003	-7.560306e-003	9.964077e-001	-9.668843e-002	9.963933e-001	-9.647149e-002	2.995070e-003	-7.220560e-003
5628522.542	3.579671e-003	-7.713317e-003	9.963178e-001	-9.768257e-002	9.962943e-001	-9.769652e-002	3.038522e-003	-7.443224e-003
5691061.626	3.631955e-003	-7.988265e-003	9.960785e-001	-9.899329e-002	9.961217e-001	-9.880350e-002	2.926099e-003	-7.471630e-003
5753600.710	3.484220e-003	-8.001644e-003	9.959481e-001	-1.000137e-001	9.960755e-001	-9.982879e-002	2.976782e-003	-7.695138e-003
5816139.794	3.566143e-003	-7.886885e-003	9.959200e-001	-1.011223e-001	9.957568e-001	-1.011431e-001	2.824942e-003	-7.753838e-003
5878678.877	3.459197e-003	-8.208541e-003	9.958175e-001	-1.021979e-001	9.957539e-001	-1.020919e-001	2.919638e-003	-7.961759e-003
5941217.961	3.442621e-003	-8.373658e-003	9.956703e-001	-1.033632e-001	9.956557e-001	-1.030490e-001	2.717366e-003	-7.959724e-003
6003757.045	3.269033e-003	-8.237969e-003	9.954098e-001	-1.042783e-001	9.955571e-001	-1.040807e-001	2.838629e-003	-8.068787e-003
6066296.129	3.387406e-003	-8.529402e-003	9.955123e-001	-1.054000e-001	9.954605e-001	-1.051760e-001	2.785141e-003	-8.193922e-003
6128835.213	3.479720e-003	-8.592003e-003	9.953630e-001	-1.062211e-001	9.955436e-001	-1.064050e-001	2.880650e-003	-8.299811e-003
6191374.296	3.393284e-003	-8.710707e-003	9.952442e-001	-1.075238e-001	9.951588e-001	-1.076166e-001	2.709103e-003	-8.287388e-003
6253913.380	3.298007e-003	-8.678083e-003	9.951444e-001	-1.086880e-001	9.951269e-001	-1.085355e-001	2.573563e-003	-8.281234e-003
6316452.464	3.253697e-003	-8.698711e-003	9.950442e-001	-1.096563e-001	9.948424e-001	-1.098121e-001	2.611714e-003	-8.585608e-003
6378991.548	3.205905e-003	-8.933491e-003	9.949014e-001	-1.110886e-001	9.950008e-001	-1.107835e-001	2.656504e-003	-8.802554e-003
6441530.632	3.138683e-003	-9.111220e-003	9.947124e-001	-1.118775e-001	9.947923e-001	-1.119851e-001	2.681990e-003	-8.788550e-003
6504069.715	3.119904e-003	-9.217560e-003	9.945644e-001	-1.132043e-001	9.948322e-001	-1.129878e-001	2.680643e-003	-8.883797e-003
6566608.799	3.249852e-003	-9.380247e-003	9.945865e-001	-1.143550e-001	9.945375e-001	-1.141200e-001	2.561812e-003	-8.779638e-003
6629147.883	3.178099e-003	-9.335798e-003	9.944016e-001	-1.150701e-001	9.943637e-001	-1.151902e-001	2.633822e-003	-9.008807e-003
6691686.967	3.052310e-003	-9.428619e-003	9.941943e-001	-1.163088e-001	9.942313e-001	-1.162432e-001	2.648873e-003	-9.031639e-003
6754226.051	2.974921e-003	-9.534012e-003	9.940570e-001	-1.174900e-001	9.939944e-001	-1.174823e-001	2.438154e-003	-9.333400e-003
6816765.134	3.070706e-003	-9.626671e-003	9.940115e-001	-1.184769e-001	9.940338e-001	-1.184352e-001	2.470432e-003	-9.243769e-003
6879304.218	2.943194e-003	-9.891086e-003	9.938261e-001	-1.196200e-001	9.939297e-001	-1.194971e-001	2.443919e-003	-9.378941e-003
6941843.302	2.997721e-003	-9.818291e-003	9.936781e-001	-1.207578e-001	9.937640e-001	-1.205473e-001	2.421945e-003	-9.393938e-003
7004382.386	2.789245e-003	-9.840130e-003	9.936284e-001	-1.216967e-001	9.935611e-001	-1.216552e-001	2.314902e-003	-9.451091e-003
7066921.470	2.861295e-003	-9.990186e-003	9.934002e-001	-1.229330e-001	9.935432e-001	-1.226007e-001	2.453299e-003	-9.707063e-003
7129460.553	2.743953e-003	-1.020370e-002	9.933352e-001	-1.238333e-001	9.933561e-001	-1.237673e-001	2.448090e-003	-9.732559e-003
7191999.637	2.706069e-003	-1.004987e-002	9.929755e-001	-1.250101e-001	9.930617e-001	-1.248368e-001	2.285501e-003	-9.825961e-003
7254538.721	2.739687e-003	-1.025934e-002	9.931647e-001	-1.261230e-001	9.931405e-001	-1.259790e-001	2.298191e-003	-9.909338e-003
7317077.805	2.898759e-003	-1.037663e-002	9.929691e-001	-1.271140e-001	9.930083e-001	-1.270461e-001	2.278728e-003	-1.010606e-002
7379616.889	2.745716e-003	-1.045982e-002	9.929808e-001	-1.283750e-001	9.927955e-001	-1.281345e-001	2.213411e-003	-1.017127e-002
7442155.972	2.568966e-003	-1.055850e-002	9.926627e-001	-1.292699e-001	9.926563e-001	-1.291627e-001	2.264458e-003	-1.004688e-002
7504695.056	2.598840e-003	-1.074739e-002	9.923907e-001	-1.302914e-001	9.924073e-001	-1.303920e-001	2.277973e-003	-1.006684e-002
7567234.140	2.747299e-003	-1.090240e-002	9.924225e-001	-1.313645e-001	9.922931e-001	-1.314079e-001	2.183569e-003	-1.026676e-002
7629773.224	2.627890e-003	-1.070282e-002	9.923004e-001	-1.326289e-001	9.922999e-001	-1.324594e-001	2.091336e-003	-1.041206e-002
7692312.308	2.472588e-003	-1.086125e-002	9.921316e-001	-1.336929e-001	9.920239e-001	-1.336288e-001	2.130060e-003	-1.059094e-002
7754851.391	2.426676e-003	-1.109305e-002	9.919495e-001	-1.347894e-001	9.917830e-001	-1.345232e-001	2.045538e-003	-1.054083e-002
7817390.475	2.496998e-003	-1.098334e-002	9.918361e-001	-1.360041e-001	9.917325e-001	-1.358274e-001	1.944046e-003	-1.052391e-002
7879929.559	2.382704e-003	-1.125121e-002	9.915975e-001	-1.370796e-001	9.915404e-001	-1.370717e-001	2.041888e-003	-1.061467e-002
7942468.643	2.313074e-003	-1.139278e-002	9.915569e-001	-1.380932e-001	9.914702e-001	-1.381070e-001	1.994571e-003	-1.087379e-002
8005007.727	2.385521e-003	-1.145052e-002	9.912963e-001	-1.392175e-001	9.913621e-001	-1.391418e-001	1.880128e-003	-1.074811e-002
8067546.811	2.208050e-003	-1.150079e-002	9.911622e-001	-1.402533e-001	9.910544e-001	-1.401315e-001	1.778676e-003	-1.104162e-002
8130085.894	2.251509e-003	-1.166297e-002	9.909770e-001	-1.412828e-001	9.909637e-001	-1.412618e-001	1.959684e-003	-1.118070e-002
8192624.978	2.075977e-003	-1.180267e-002	9.906897e-001	-1.424667e-001	9.907930e-001	-1.423297e-001	1.994467e-003	-1.128129e-002
8255164.062	2.155462e-003	-1.187705e-002	9.906288e-001	-1.435127e-001	9.906190e-001	-1.434694e-001	1.928579e-003	-1.141253e-002
8317703.146	2.004051e-003	-1.185177e-002	9.905427e-001	-1.446232e-001	9.905971e-001	-1.444880e-001	1.733547e-003	-1.144969e-002
8380242.230	2.110282e-003	-1.217646e-002	9.902638e-001	-1.458390e-001	9.903039e-001	-1.455376e-001	1.662497e-003	-1.159545e-002
8442781.313	2.055216e-003	-1.222647e-002	9.903366e-001	-1.467835e-001	9.902172e-001	-1.465768e-001	1.611465e-003	-1.176808e-002
8505320.397	2.005513e-003	-1.217385e-002	9.900771e-001	-1.478991e-001	9.899930e-001	-1.476873e-001	1.534670e-003	-1.180420e-002
8567859.481	1.915693e-003	-1.211184e-002	9.898628e-001	-1.488239e-001	9.898961e-001	-1.487870e-001	1.530679e-003	-1.171773e-002
8630398.565	1.974120e-003	-1.225630e-002	9.895186e-001	-1.498692e-001	9.897258e-001	-1.497970e-001	1.387834e-003	-1.207783e-002
8692937.649	1.893024e-003	-1.255133e-002	9.894560e-001	-1.509649e-001	9.893970e-001	-1.509200e-001	1.287841e-003	-1.205800e-002
8755476.732	1.873946e-003	-1.258472e-002	9.893499e-001	-1.521433e-001	9.892805e-001	-1.519045e-001	1.318836e-003	-1.212893e-002
8818015.816	1.725133e-003	-1.271079e-002	9.890760e-001	-1.532067e-001	9.889819e-001	-1.530279e-001	1.402285e-003	-1.231064e-002
8880554.900	1.915510e-003	-1.274065e-002	9.890842e-001	-1.543236e-001	9.890672e-001	-1.539749e-001	1.235007e-003	-1.255975e-002
8943093.984	1.702777e-003	-1.273813e-002	9.888694e-001	-1.553097e-001	9.888742e-001	-1.551052e-001	1.224627e-003	-1.258904e-002
9005633.068	1.734817e-003	-1.291692e-002	9.885561e-001	-1.564504e-001	9.887483e-001	-1.562800e-001	1.089513e-003	-1.281381e-002
9068172.151	1.536285e-003	-1.301250e-002	9.885586e-001	-1.575425e-001	9.884110e-001	-1.572487e-001	1.105348e-003	-1.285536e-002
9130711.235	1.728839e-003	-1.316916e-002	9.882708e-001	-1.585974e-001	9.883263e-001	-1.583112e-001	1.107616e-003	-1.313429e-002
9193250.319	1.676004e-003	-1.328129e-002	9.882598e-001	-1.595188e-001	9.880799e-001	-1.594929e-001	1.000536e-003	-1.314268e-002
9255789.403	1.534104e-003	-1.353400e-002	9.880798e-001	-1.605110e-001	9.879468e-001	-1.604787e-001	8.273615e-004	-1.318492e-002
9318328.487	1.462913e-003	-1.352167e-002	9.878487e-001	-1.618354e-001	9.879102e-001	-1.615583e-001	9.022053e-004	-1.327006e-002
9380867.570	1.422660e-003	-1.348975e-002	9.877274e-001	-1.629302e-001	9.875927e-001	-1.627398e-001	8.636436e-004	-1.338107e-002
9443406.654	1.444656e-003	-1.358894e-002	9.875464e-001	-1.639064e-001	9.875591e-001	-1.638869e-001	8.644258e-004	-1.354264e-002
9505945.738	1.375218e-003	-1.364908e-002	9.871969e-001	-1.651659e-001	9.873928e-001	-1.649572e-001	7.847305e-004	-1.364505e-002
9568484.822	1.377942e-003	-1.376710e-002	9.871806e-001	-1.662038e-001	9.869922e-001	-1.660165e-001	5.272512e-004	-1.349215e-002
