!Agilent Technologies,E5061B,MY49102235,A.02.00
!Date: Tue Jul 11 16:10:36 2023
!Data & Calibration Information:
!Freq	S11:SOLT2(ON)	S21:SOLT2(ON)	S12:SOLT2(ON)	S22:SOLT2(ON)
# Hz S RI R 50
5.000	-5.147218e-003	-5.641904e-003	1.001735e+000	8.070768e-003	1.000426e+000	1.018577e-002	-1.479545e-003	-7.547808e-003
62544.084	5.820087e-003	-4.300598e-004	1.001304e+000	6.778756e-004	1.000886e+000	1.173672e-003	7.699417e-003	-2.823209e-003
125083.168	5.691452e-003	-3.568634e-004	1.000863e+000	-8.887267e-004	1.000745e+000	-9.404128e-004	7.495976e-003	-2.151305e-003
187622.251	5.469203e-003	-1.343553e-004	1.000375e+000	-2.261290e-003	1.000920e+000	-1.183281e-003	7.388780e-003	-2.168853e-003
250161.335	5.291030e-003	6.763764e-005	1.000551e+000	-3.343978e-003	1.000707e+000	-3.360618e-003	7.272698e-003	-1.788610e-003
312700.419	5.438431e-003	8.479183e-004	1.000858e+000	-4.038745e-003	1.000745e+000	-3.871337e-003	7.769620e-003	-2.031779e-003
375239.503	5.326337e-003	-5.920145e-004	1.000954e+000	-5.531974e-003	1.000523e+000	-5.344587e-003	7.273375e-003	-2.131599e-003
437778.587	5.158279e-003	-1.515986e-004	1.001265e+000	-5.653276e-003	1.001128e+000	-6.481412e-003	6.623429e-003	-1.792680e-003
500317.670	4.622416e-003	4.016093e-005	1.001116e+000	-8.118773e-003	1.001579e+000	-8.152734e-003	4.832459e-003	-1.546557e-003
562856.754	5.933478e-003	-2.107114e-004	1.001260e+000	-9.688142e-003	1.001340e+000	-9.631804e-003	6.016610e-003	-1.013933e-003
625395.838	5.104956e-003	1.511658e-006	1.002169e+000	-1.098797e-002	1.002149e+000	-1.051408e-002	6.129345e-003	-3.864584e-004
687934.922	5.159065e-003	-2.777208e-004	1.001290e+000	-1.206206e-002	1.001247e+000	-1.217325e-002	5.767803e-003	-7.823750e-004
750474.006	4.326427e-003	1.001097e-004	1.000849e+000	-1.159517e-002	1.000847e+000	-1.132333e-002	5.492277e-003	-5.668343e-004
813013.089	4.504218e-003	1.810970e-004	1.001156e+000	-1.342295e-002	1.000604e+000	-1.311856e-002	4.856353e-003	-3.435035e-004
875552.173	4.225088e-003	4.045464e-004	1.001146e+000	-1.433921e-002	1.001040e+000	-1.426747e-002	5.640181e-003	-6.660824e-004
938091.257	4.307847e-003	5.140574e-004	1.001132e+000	-1.598381e-002	1.001048e+000	-1.553167e-002	5.890044e-003	-4.484954e-005
1000630.341	3.761783e-003	2.303863e-004	1.000823e+000	-1.742464e-002	1.000936e+000	-1.696201e-002	5.118975e-003	-6.914585e-004
1063169.425	4.128360e-003	1.347401e-004	1.001142e+000	-1.876575e-002	1.000803e+000	-1.781083e-002	4.312677e-003	-9.563715e-004
1125708.508	3.990127e-003	2.408552e-004	1.000809e+000	-1.989057e-002	1.000754e+000	-1.934261e-002	3.827095e-003	-6.097049e-004
1188247.592	4.544500e-003	-1.519007e-004	1.001030e+000	-2.120525e-002	1.001073e+000	-2.061346e-002	2.730238e-003	-1.127521e-003
1250786.676	4.396967e-003	-8.387919e-004	1.000716e+000	-2.103037e-002	1.000681e+000	-2.121296e-002	1.985722e-003	-2.719751e-003
1313325.760	4.504084e-003	-8.845578e-004	1.000885e+000	-2.272980e-002	1.001106e+000	-2.288779e-002	2.727051e-003	-2.456171e-003
1375864.844	4.235892e-003	-1.022544e-003	1.000640e+000	-2.463243e-002	1.000524e+000	-2.471619e-002	2.579106e-003	-2.122861e-003
1438403.927	4.130503e-003	-1.116942e-003	1.000702e+000	-2.533299e-002	1.000980e+000	-2.483227e-002	2.670471e-003	-1.804279e-003
1500943.011	4.359685e-003	-1.000385e-003	1.001305e+000	-2.637192e-002	1.001391e+000	-2.635492e-002	3.028622e-003	-2.159437e-003
1563482.095	4.361059e-003	-1.323805e-003	1.000870e+000	-2.775238e-002	1.000671e+000	-2.705623e-002	3.160242e-003	-1.906069e-003
1626021.179	4.164830e-003	-1.127665e-003	1.000806e+000	-2.905251e-002	1.001072e+000	-2.961893e-002	3.442565e-003	-1.881747e-003
1688560.263	3.875640e-003	-1.011221e-003	1.000423e+000	-3.082862e-002	1.001407e+000	-3.097267e-002	3.614405e-003	-1.858023e-003
1751099.346	4.004884e-003	-8.654874e-004	1.000919e+000	-3.194246e-002	1.000702e+000	-3.147771e-002	3.426438e-003	-9.603521e-004
1813638.430	3.658346e-003	-8.558947e-004	1.001278e+000	-3.361408e-002	1.001098e+000	-3.342262e-002	3.621879e-003	-1.298959e-003
1876177.514	3.695805e-003	-5.118194e-004	1.001579e+000	-3.466548e-002	1.001387e+000	-3.510152e-002	3.289636e-003	-5.579941e-004
1938716.598	3.155673e-003	-3.717768e-004	1.001640e+000	-3.535735e-002	1.001354e+000	-3.494827e-002	3.456651e-003	-1.198766e-004
2001255.682	3.067127e-003	-8.131653e-004	1.001741e+000	-3.700430e-002	1.001304e+000	-3.663197e-002	3.214779e-003	-5.151139e-004
2063794.765	3.164360e-003	-3.577007e-004	1.001264e+000	-3.801750e-002	1.000759e+000	-3.845440e-002	3.622705e-003	-5.599491e-004
2126333.849	2.710338e-003	-8.245623e-004	1.000840e+000	-3.928464e-002	1.000209e+000	-3.878964e-002	3.880494e-003	-2.444062e-004
2188872.933	3.204456e-003	-7.697643e-004	1.000572e+000	-4.043191e-002	1.000233e+000	-3.989518e-002	3.765538e-003	-2.474585e-004
2251412.017	3.305881e-003	-1.086216e-003	1.000294e+000	-4.203441e-002	1.000176e+000	-4.092963e-002	3.742549e-003	-3.110933e-004
2313951.101	3.631494e-003	-6.080834e-004	9.998066e-001	-4.312588e-002	1.000177e+000	-4.190244e-002	4.061656e-003	-3.302498e-004
2376490.184	3.385222e-003	-5.988707e-004	9.996491e-001	-4.360831e-002	1.000173e+000	-4.391699e-002	4.031817e-003	-2.566811e-004
2439029.268	3.845370e-003	-5.828621e-004	9.995559e-001	-4.539014e-002	9.993028e-001	-4.499803e-002	3.694438e-003	-1.106993e-004
2501568.352	3.808016e-003	-5.348513e-004	9.992805e-001	-4.565860e-002	1.000195e+000	-4.567682e-002	4.004433e-003	-9.111771e-005
2564107.436	3.720100e-003	-6.299271e-004	9.996671e-001	-4.744468e-002	9.999619e-001	-4.732478e-002	3.300584e-003	-4.045371e-004
2626646.520	4.211499e-003	-7.609214e-004	9.994255e-001	-4.860644e-002	9.987457e-001	-4.841512e-002	3.562553e-003	-4.246071e-004
2689185.604	4.174571e-003	-5.469439e-004	9.998649e-001	-4.938855e-002	9.995820e-001	-4.935653e-002	3.690289e-003	-3.335201e-004
2751724.687	4.280599e-003	-5.970954e-004	9.997058e-001	-5.014856e-002	9.994684e-001	-5.014140e-002	3.292228e-003	-3.210936e-004
2814263.771	4.251332e-003	-6.074448e-004	9.988200e-001	-5.220722e-002	9.992137e-001	-5.153764e-002	3.280761e-003	-4.011089e-004
2876802.855	4.200701e-003	-7.766907e-004	9.988360e-001	-5.356392e-002	9.992309e-001	-5.274526e-002	3.370206e-003	-2.361583e-004
2939341.939	4.320506e-003	-6.476385e-004	9.993783e-001	-5.409175e-002	9.989278e-001	-5.422038e-002	3.262490e-003	-2.861965e-004
3001881.023	4.251241e-003	-5.930280e-004	9.991501e-001	-5.534712e-002	9.988987e-001	-5.534000e-002	3.360097e-003	-3.718801e-004
3064420.106	4.300978e-003	-6.024321e-004	9.995827e-001	-5.640282e-002	9.990204e-001	-5.633807e-002	3.205815e-003	-4.521021e-004
3126959.190	4.513760e-003	-6.660677e-004	9.992202e-001	-5.768935e-002	9.990784e-001	-5.764047e-002	3.384165e-003	-4.771531e-004
3189498.274	4.490468e-003	-5.907912e-004	9.990915e-001	-5.871059e-002	9.990152e-001	-5.874759e-002	3.375149e-003	-4.989357e-004
3252037.358	4.402828e-003	-9.075035e-004	9.991717e-001	-5.994019e-002	9.990437e-001	-5.984965e-002	3.327115e-003	-4.073122e-004
3314576.442	4.426404e-003	-7.107535e-004	9.990393e-001	-6.102001e-002	9.988892e-001	-6.106202e-002	3.398455e-003	-4.836906e-004
3377115.525	4.397312e-003	-6.825225e-004	9.988523e-001	-6.209968e-002	9.986680e-001	-6.235270e-002	3.241258e-003	-5.827768e-004
3439654.609	4.393456e-003	-7.043735e-004	9.986561e-001	-6.326016e-002	9.989153e-001	-6.340143e-002	3.254278e-003	-3.703496e-004
3502193.693	4.371749e-003	-9.844554e-004	9.986332e-001	-6.457978e-002	9.985850e-001	-6.441543e-002	3.429162e-003	-3.749752e-004
3564732.777	4.435899e-003	-8.221802e-004	9.986726e-001	-6.564667e-002	9.985750e-001	-6.570133e-002	3.522181e-003	-3.409459e-004
3627271.861	4.270489e-003	-9.436655e-004	9.986971e-001	-6.691101e-002	9.985861e-001	-6.669301e-002	3.298374e-003	-5.251965e-004
3689810.944	4.179530e-003	-1.031939e-003	9.985152e-001	-6.801892e-002	9.985449e-001	-6.785401e-002	3.465884e-003	-4.937780e-004
3752350.028	4.302277e-003	-9.929714e-004	9.983663e-001	-6.894897e-002	9.982819e-001	-6.896225e-002	3.407740e-003	-5.228887e-004
3814889.112	4.421510e-003	-8.435169e-004	9.982497e-001	-7.015457e-002	9.984461e-001	-7.041508e-002	3.319062e-003	-6.389800e-004
3877428.196	4.360139e-003	-8.090498e-004	9.983548e-001	-7.135697e-002	9.983240e-001	-7.134122e-002	3.644046e-003	-6.131953e-004
3939967.280	4.337677e-003	-1.102585e-003	9.982509e-001	-7.259759e-002	9.983268e-001	-7.252202e-002	3.641140e-003	-5.091548e-004
4002506.363	4.403041e-003	-9.455734e-004	9.982290e-001	-7.371572e-002	9.981605e-001	-7.352387e-002	3.587011e-003	-5.878884e-004
4065045.447	4.248455e-003	-1.029499e-003	9.979300e-001	-7.492289e-002	9.979559e-001	-7.482362e-002	3.671019e-003	-6.935006e-004
4127584.531	4.213905e-003	-1.049128e-003	9.978434e-001	-7.605341e-002	9.979100e-001	-7.584013e-002	3.693391e-003	-5.768023e-004
4190123.615	4.265920e-003	-1.018662e-003	9.978719e-001	-7.739015e-002	9.977644e-001	-7.720445e-002	3.600034e-003	-8.000613e-004
4252662.699	4.217482e-003	-1.105834e-003	9.978840e-001	-7.856173e-002	9.976074e-001	-7.842846e-002	3.721167e-003	-7.673944e-004
4315201.782	4.360006e-003	-1.141722e-003	9.977767e-001	-7.948294e-002	9.978414e-001	-7.956037e-002	3.542649e-003	-9.626070e-004
4377740.866	4.264444e-003	-1.173242e-003	9.977744e-001	-8.076882e-002	9.974925e-001	-8.070699e-002	3.729751e-003	-6.741109e-004
4440279.950	4.166857e-003	-1.316228e-003	9.976151e-001	-8.176862e-002	9.973119e-001	-8.174102e-002	3.604360e-003	-8.388141e-004
4502819.034	4.174961e-003	-1.182952e-003	9.973160e-001	-8.298674e-002	9.973893e-001	-8.295401e-002	3.692400e-003	-6.925092e-004
4565358.118	4.088583e-003	-1.241231e-003	9.972699e-001	-8.414111e-002	9.971048e-001	-8.385296e-002	3.714435e-003	-8.188476e-004
4627897.201	4.276525e-003	-1.127612e-003	9.973590e-001	-8.528405e-002	9.970984e-001	-8.502233e-002	3.815217e-003	-7.162993e-004
4690436.285	4.111090e-003	-1.245218e-003	9.972693e-001	-8.654525e-002	9.970570e-001	-8.656560e-002	3.826467e-003	-9.267746e-004
4752975.369	4.118156e-003	-1.273105e-003	9.969049e-001	-8.776733e-002	9.970208e-001	-8.761186e-002	3.640860e-003	-9.913761e-004
4815514.453	4.236494e-003	-1.283367e-003	9.970411e-001	-8.879463e-002	9.969053e-001	-8.887006e-002	3.866455e-003	-8.965559e-004
4878053.537	4.342225e-003	-1.386167e-003	9.969686e-001	-8.993955e-002	9.968344e-001	-8.984518e-002	3.844090e-003	-9.929024e-004
4940592.620	4.078674e-003	-1.360703e-003	9.967444e-001	-9.113473e-002	9.967163e-001	-9.110330e-002	3.599511e-003	-1.041057e-003
5003131.704	4.147306e-003	-1.508207e-003	9.966102e-001	-9.222199e-002	9.966554e-001	-9.200036e-002	3.745832e-003	-1.105352e-003
5065670.788	4.074978e-003	-1.326741e-003	9.965125e-001	-9.342247e-002	9.965493e-001	-9.326089e-002	3.715126e-003	-1.077281e-003
5128209.872	4.212149e-003	-1.469340e-003	9.965878e-001	-9.456769e-002	9.963742e-001	-9.438782e-002	3.682593e-003	-1.297637e-003
5190748.956	4.120643e-003	-1.511374e-003	9.963619e-001	-9.573249e-002	9.963839e-001	-9.568891e-002	3.657640e-003	-1.194563e-003
5253288.039	4.173977e-003	-1.565795e-003	9.963694e-001	-9.692687e-002	9.962653e-001	-9.677128e-002	3.578771e-003	-1.136630e-003
5315827.123	4.139469e-003	-1.637123e-003	9.960561e-001	-9.806988e-002	9.961095e-001	-9.799214e-002	3.574710e-003	-1.246527e-003
5378366.207	4.229645e-003	-1.603710e-003	9.961026e-001	-9.921902e-002	9.960963e-001	-9.930715e-002	3.570601e-003	-1.348211e-003
5440905.291	4.059598e-003	-1.549905e-003	9.960408e-001	-1.003945e-001	9.959678e-001	-1.003297e-001	3.470441e-003	-1.322014e-003
5503444.375	4.270101e-003	-1.724402e-003	9.959113e-001	-1.016296e-001	9.959353e-001	-1.013034e-001	3.667174e-003	-1.426054e-003
5565983.458	3.919719e-003	-1.623524e-003	9.957994e-001	-1.026429e-001	9.957924e-001	-1.024492e-001	3.606652e-003	-1.290201e-003
5628522.542	4.177111e-003	-1.721501e-003	9.957271e-001	-1.036986e-001	9.957095e-001	-1.037587e-001	3.637353e-003	-1.429123e-003
5691061.626	4.239999e-003	-1.912630e-003	9.955354e-001	-1.051172e-001	9.955253e-001	-1.049013e-001	3.545222e-003	-1.405710e-003
5753600.710	4.099506e-003	-1.853689e-003	9.953396e-001	-1.061364e-001	9.953882e-001	-1.060045e-001	3.604872e-003	-1.577127e-003
5816139.794	4.193958e-003	-1.694888e-003	9.952974e-001	-1.073235e-001	9.951126e-001	-1.073728e-001	3.459000e-003	-1.540365e-003
5878678.877	4.107409e-003	-1.954906e-003	9.952087e-001	-1.084826e-001	9.951227e-001	-1.084175e-001	3.572395e-003	-1.705580e-003
5941217.961	4.092110e-003	-2.043079e-003	9.950318e-001	-1.097444e-001	9.950130e-001	-1.094019e-001	3.383621e-003	-1.632478e-003
6003757.045	3.943452e-003	-1.838176e-003	9.947795e-001	-1.107037e-001	9.948333e-001	-1.105506e-001	3.512745e-003	-1.672651e-003
6066296.129	4.081640e-003	-2.054376e-003	9.948350e-001	-1.118729e-001	9.947299e-001	-1.116928e-001	3.485864e-003	-1.722466e-003
6128835.213	4.175681e-003	-2.055658e-003	9.947021e-001	-1.127342e-001	9.947929e-001	-1.129665e-001	3.586837e-003	-1.750980e-003
6191374.296	4.121069e-003	-2.109178e-003	9.945688e-001	-1.141747e-001	9.944280e-001	-1.142329e-001	3.433323e-003	-1.684182e-003
6253913.380	4.038975e-003	-2.015557e-003	9.944299e-001	-1.153527e-001	9.943595e-001	-1.152526e-001	3.312598e-003	-1.606093e-003
6316452.464	4.009338e-003	-1.969104e-003	9.943418e-001	-1.163627e-001	9.941312e-001	-1.166000e-001	3.363017e-003	-1.849391e-003
6378991.548	3.964803e-003	-2.145052e-003	9.941728e-001	-1.179062e-001	9.941892e-001	-1.175851e-001	3.425009e-003	-1.998160e-003
6441530.632	3.919297e-003	-2.246392e-003	9.939685e-001	-1.187711e-001	9.939850e-001	-1.188945e-001	3.456517e-003	-1.925501e-003
6504069.715	3.902425e-003	-2.297303e-003	9.938020e-001	-1.201377e-001	9.939750e-001	-1.199529e-001	3.471686e-003	-1.957583e-003
6566608.799	4.053794e-003	-2.393339e-003	9.937903e-001	-1.213538e-001	9.937225e-001	-1.211259e-001	3.373476e-003	-1.789417e-003
6629147.883	4.009602e-003	-2.283971e-003	9.936031e-001	-1.221640e-001	9.935527e-001	-1.222962e-001	3.465688e-003	-1.959139e-003
6691686.967	3.877094e-003	-2.296673e-003	9.933723e-001	-1.234282e-001	9.934012e-001	-1.234550e-001	3.485101e-003	-1.905289e-003
6754226.051	3.829360e-003	-2.341878e-003	9.932300e-001	-1.247068e-001	9.931237e-001	-1.247565e-001	3.299085e-003	-2.141115e-003
6816765.134	3.929273e-003	-2.383628e-003	9.931562e-001	-1.257381e-001	9.931398e-001	-1.257781e-001	3.353641e-003	-1.975806e-003
6879304.218	3.817132e-003	-2.561248e-003	9.929702e-001	-1.269467e-001	9.930112e-001	-1.268858e-001	3.331391e-003	-2.055902e-003
6941843.302	3.888981e-003	-2.426850e-003	9.927707e-001	-1.281456e-001	9.928253e-001	-1.280165e-001	3.321236e-003	-2.012563e-003
7004382.386	3.703886e-003	-2.391107e-003	9.927602e-001	-1.291560e-001	9.926433e-001	-1.291735e-001	3.237832e-003	-2.001043e-003
7066921.470	3.792143e-003	-2.468005e-003	9.924790e-001	-1.304491e-001	9.925546e-001	-1.301363e-001	3.391592e-003	-2.173590e-003
7129460.553	3.683551e-003	-2.608851e-003	9.923973e-001	-1.314244e-001	9.924121e-001	-1.314562e-001	3.395515e-003	-2.147030e-003
7191999.637	3.675186e-003	-2.398507e-003	9.920451e-001	-1.326870e-001	9.920758e-001	-1.325694e-001	3.255560e-003	-2.176607e-003
7254538.721	3.722278e-003	-2.534205e-003	9.922235e-001	-1.339029e-001	9.921165e-001	-1.337691e-001	3.288306e-003	-2.194392e-003
7317077.805	3.895650e-003	-2.590099e-003	9.919890e-001	-1.349096e-001	9.919545e-001	-1.348574e-001	3.288890e-003	-2.320557e-003
7379616.889	3.758875e-003	-2.604112e-003	9.919814e-001	-1.362298e-001	9.917616e-001	-1.360304e-001	3.233090e-003	-2.318281e-003
7442155.972	3.607130e-003	-2.629362e-003	9.916486e-001	-1.372570e-001	9.916080e-001	-1.371248e-001	3.304087e-003	-2.128369e-003
7504695.056	3.636863e-003	-2.752504e-003	9.913945e-001	-1.383136e-001	9.913314e-001	-1.384524e-001	3.342674e-003	-2.085966e-003
7567234.140	3.811280e-003	-2.856705e-003	9.913170e-001	-1.394259e-001	9.911769e-001	-1.395239e-001	3.256470e-003	-2.225314e-003
7629773.224	3.714366e-003	-2.581376e-003	9.912420e-001	-1.407525e-001	9.911280e-001	-1.406276e-001	3.174753e-003	-2.303031e-003
7692312.308	3.573205e-003	-2.678034e-003	9.910703e-001	-1.418667e-001	9.908858e-001	-1.418864e-001	3.226899e-003	-2.410698e-003
7754851.391	3.544907e-003	-2.853053e-003	9.908317e-001	-1.430758e-001	9.906371e-001	-1.428220e-001	3.165683e-003	-2.296901e-003
7817390.475	3.640591e-003	-2.666015e-003	9.907185e-001	-1.443738e-001	9.905200e-001	-1.442132e-001	3.092104e-003	-2.218722e-003
7879929.559	3.539389e-003	-2.879423e-003	9.904416e-001	-1.455018e-001	9.903672e-001	-1.455213e-001	3.205045e-003	-2.242005e-003
7942468.643	3.476121e-003	-2.949046e-003	9.904404e-001	-1.465339e-001	9.902966e-001	-1.465924e-001	3.186191e-003	-2.443148e-003
8005007.727	3.578139e-003	-2.947993e-003	9.901350e-001	-1.477426e-001	9.901313e-001	-1.477139e-001	3.094439e-003	-2.236064e-003
8067546.811	3.416327e-003	-2.917773e-003	9.900073e-001	-1.488772e-001	9.897814e-001	-1.487444e-001	2.987042e-003	-2.480647e-003
8130085.894	3.478256e-003	-3.023778e-003	9.897596e-001	-1.499619e-001	9.897187e-001	-1.499631e-001	3.195987e-003	-2.541992e-003
8192624.978	3.321219e-003	-3.101190e-003	9.894203e-001	-1.512471e-001	9.895594e-001	-1.510782e-001	3.239262e-003	-2.581925e-003
8255164.062	3.431799e-003	-3.111312e-003	9.893738e-001	-1.523206e-001	9.893370e-001	-1.522556e-001	3.188342e-003	-2.641238e-003
8317703.146	3.284502e-003	-3.012161e-003	9.892904e-001	-1.535020e-001	9.892489e-001	-1.534060e-001	3.014910e-003	-2.610294e-003
8380242.230	3.412877e-003	-3.269283e-003	9.889586e-001	-1.547567e-001	9.889685e-001	-1.544679e-001	2.967298e-003	-2.700251e-003
8442781.313	3.371139e-003	-3.257613e-003	9.890034e-001	-1.557596e-001	9.888528e-001	-1.556274e-001	2.935867e-003	-2.801567e-003
8505320.397	3.346236e-003	-3.147881e-003	9.887559e-001	-1.569847e-001	9.886085e-001	-1.568186e-001	2.868402e-003	-2.773681e-003
8567859.481	3.289905e-003	-3.023209e-003	9.885285e-001	-1.579175e-001	9.885162e-001	-1.579479e-001	2.901695e-003	-2.619907e-003
8630398.565	3.366848e-003	-3.085243e-003	9.881996e-001	-1.590402e-001	9.883336e-001	-1.590437e-001	2.767629e-003	-2.908808e-003
8692937.649	3.295776e-003	-3.325489e-003	9.881168e-001	-1.602389e-001	9.879902e-001	-1.602309e-001	2.692674e-003	-2.828010e-003
8755476.732	3.300731e-003	-3.293051e-003	9.879319e-001	-1.614575e-001	9.878132e-001	-1.612624e-001	2.761804e-003	-2.834495e-003
8818015.816	3.171286e-003	-3.337570e-003	9.876837e-001	-1.625902e-001	9.874672e-001	-1.624605e-001	2.849705e-003	-2.945345e-003
8880554.900	3.381100e-003	-3.332828e-003	9.876094e-001	-1.637831e-001	9.875575e-001	-1.634662e-001	2.699512e-003	-3.134743e-003
8943093.984	3.185538e-003	-3.244328e-003	9.873865e-001	-1.648267e-001	9.873605e-001	-1.646620e-001	2.709075e-003	-3.098843e-003
9005633.068	3.229600e-003	-3.358172e-003	9.870912e-001	-1.660387e-001	9.872124e-001	-1.659258e-001	2.590942e-003	-3.254629e-003
9068172.151	3.075436e-003	-3.383303e-003	9.870298e-001	-1.672059e-001	9.868788e-001	-1.669310e-001	2.626979e-003	-3.232458e-003
9130711.235	3.278096e-003	-3.483220e-003	9.867697e-001	-1.682981e-001	9.867479e-001	-1.681020e-001	2.662007e-003	-3.449084e-003
9193250.319	3.250313e-003	-3.535681e-003	9.866926e-001	-1.693142e-001	9.865052e-001	-1.692926e-001	2.572428e-003	-3.399035e-003
9255789.403	3.112128e-003	-3.716219e-003	9.865234e-001	-1.703688e-001	9.863129e-001	-1.704082e-001	2.412497e-003	-3.354658e-003
9318328.487	3.066806e-003	-3.635135e-003	9.862371e-001	-1.717679e-001	9.862892e-001	-1.714945e-001	2.510834e-003	-3.387769e-003
9380867.570	3.060664e-003	-3.532674e-003	9.861212e-001	-1.729269e-001	9.859287e-001	-1.727884e-001	2.492467e-003	-3.423692e-003
9443406.654	3.103118e-003	-3.576192e-003	9.858984e-001	-1.739410e-001	9.858564e-001	-1.739637e-001	2.511550e-003	-3.537440e-003
9505945.738	3.060182e-003	-3.571458e-003	9.855250e-001	-1.753001e-001	9.857096e-001	-1.750813e-001	2.446338e-003	-3.558339e-003
9568484.822	3.080148e-003	-3.635597e-003	9.854645e-001	-1.763501e-001	9.852533e-001	-1.761880e-001	2.234566e-003	-3.339481e-003
9631023.906	3.054476e-003	-3.642175e-003	9.852852e-001	-1.774944e-001	9.850592e-001	-1.773571e-001	2.404021e-003	-3.685048e-003
