!Agilent Technologies,E5061B,MY49102235,A.02.00
!Date: Tue Jul 11 16:14:35 2023
!Data & Calibration Information:
!Freq	S11:SOLT2(ON)	S21:SOLT2(ON)	S12:SOLT2(ON)	S22:SOLT2(ON)
# Hz S RI R 50
5.000	-5.174054e-003	-5.656051e-003	1.001729e+000	8.105233e-003	1.000389e+000	1.019862e-002	-1.505613e-003	-7.540299e-003
62544.084	5.824889e-003	-9.977059e-005	1.001273e+000	3.310782e-004	1.000909e+000	6.660403e-004	7.697652e-003	-2.490397e-003
125083.168	5.702866e-003	2.889784e-004	1.000836e+000	-1.474058e-003	1.000794e+000	-1.689977e-003	7.504374e-003	-1.492952e-003
187622.251	5.496256e-003	8.418337e-004	1.000338e+000	-3.196526e-003	1.001045e+000	-2.195698e-003	7.397832e-003	-1.197021e-003
250161.335	5.330545e-003	1.371577e-003	1.000459e+000	-4.620761e-003	1.000685e+000	-4.829027e-003	7.294191e-003	-4.605293e-004
312700.419	5.476665e-003	2.498342e-003	1.000758e+000	-5.658875e-003	1.000584e+000	-5.516023e-003	7.833949e-003	-4.105159e-004
375239.503	5.367817e-003	1.361925e-003	1.000916e+000	-7.405969e-003	1.000604e+000	-7.302967e-003	7.312265e-003	-1.951582e-004
437778.587	5.245970e-003	2.145378e-003	1.001114e+000	-7.976354e-003	1.001016e+000	-8.795236e-003	6.697952e-003	4.785566e-004
500317.670	4.694849e-003	2.640701e-003	1.001138e+000	-1.066710e-002	1.001626e+000	-1.070749e-002	4.913934e-003	1.042493e-003
562856.754	6.012284e-003	2.728152e-003	1.001210e+000	-1.273645e-002	1.001238e+000	-1.272807e-002	6.105355e-003	1.930830e-003
625395.838	5.230151e-003	3.274970e-003	1.002054e+000	-1.435274e-002	1.002168e+000	-1.397713e-002	6.236269e-003	2.873860e-003
687934.922	5.304215e-003	3.297428e-003	1.001196e+000	-1.553731e-002	1.001098e+000	-1.583986e-002	5.929181e-003	2.789736e-003
750474.006	4.511473e-003	4.003878e-003	1.000491e+000	-1.541301e-002	1.000795e+000	-1.526861e-002	5.694526e-003	3.345544e-003
813013.089	4.704831e-003	4.412348e-003	1.000846e+000	-1.754303e-002	1.000474e+000	-1.736527e-002	5.083034e-003	3.900083e-003
875552.173	4.467510e-003	4.959520e-003	1.000723e+000	-1.896392e-002	1.000884e+000	-1.896293e-002	5.885350e-003	3.871015e-003
938091.257	4.584101e-003	5.411560e-003	1.000885e+000	-2.067051e-002	1.001023e+000	-2.045559e-002	6.140743e-003	4.823995e-003
1000630.341	4.043691e-003	5.439504e-003	1.000235e+000	-2.257901e-002	1.000858e+000	-2.229487e-002	5.417500e-003	4.510476e-003
1063169.425	4.434521e-003	5.653080e-003	1.000700e+000	-2.431045e-002	1.000675e+000	-2.347733e-002	4.621150e-003	4.594941e-003
1125708.508	4.348259e-003	6.111887e-003	1.000477e+000	-2.574443e-002	1.000501e+000	-2.536790e-002	4.165341e-003	5.262216e-003
1188247.592	4.920250e-003	6.036588e-003	1.000683e+000	-2.726229e-002	1.000724e+000	-2.683473e-002	3.074926e-003	5.095086e-003
1250786.676	4.774716e-003	5.677865e-003	1.000085e+000	-2.763861e-002	1.000501e+000	-2.792128e-002	2.367435e-003	3.833963e-003
1313325.760	4.934506e-003	5.960275e-003	1.000614e+000	-2.956485e-002	1.000704e+000	-2.983828e-002	3.130710e-003	4.417932e-003
1375864.844	4.684206e-003	6.157905e-003	1.000129e+000	-3.181097e-002	1.000295e+000	-3.205557e-002	3.024093e-003	5.089640e-003
1438403.927	4.619801e-003	6.400725e-003	1.000201e+000	-3.293421e-002	1.000583e+000	-3.234378e-002	3.153266e-003	5.744463e-003
1500943.011	4.881730e-003	6.849873e-003	1.000679e+000	-3.415695e-002	1.001028e+000	-3.415765e-002	3.546407e-003	5.722677e-003
1563482.095	4.899773e-003	6.866592e-003	1.000112e+000	-3.596074e-002	1.000150e+000	-3.526445e-002	3.699494e-003	6.324657e-003
1626021.179	4.760544e-003	7.407736e-003	9.999999e-001	-3.760369e-002	1.000466e+000	-3.826850e-002	4.015870e-003	6.662586e-003
1688560.263	4.517385e-003	7.865821e-003	9.996480e-001	-3.970152e-002	1.000802e+000	-3.993945e-002	4.236462e-003	7.042733e-003
1751099.346	4.667599e-003	8.373505e-003	1.000285e+000	-4.114314e-002	1.000179e+000	-4.089596e-002	4.107353e-003	8.292243e-003
1813638.430	4.372662e-003	8.733365e-003	1.000558e+000	-4.309467e-002	1.000257e+000	-4.318242e-002	4.329746e-003	8.295612e-003
1876177.514	4.469841e-003	9.429856e-003	1.000701e+000	-4.453840e-002	1.000696e+000	-4.513814e-002	4.062437e-003	9.407660e-003
1938716.598	3.979817e-003	9.938982e-003	1.000900e+000	-4.575035e-002	1.000611e+000	-4.542259e-002	4.284379e-003	1.018994e-002
2001255.682	3.922556e-003	9.860870e-003	1.000805e+000	-4.757673e-002	1.000469e+000	-4.752590e-002	4.100995e-003	1.014509e-002
2063794.765	4.089305e-003	1.066149e-002	1.000251e+000	-4.891684e-002	9.999819e-001	-4.950527e-002	4.534501e-003	1.046764e-002
2126333.849	3.704510e-003	1.058001e-002	9.997630e-001	-5.061950e-002	9.993134e-001	-5.031441e-002	4.870117e-003	1.111311e-002
2188872.933	4.244351e-003	1.098205e-002	9.994196e-001	-5.214435e-002	9.991474e-001	-5.173484e-002	4.810539e-003	1.150726e-002
2251412.017	4.402339e-003	1.103691e-002	9.991855e-001	-5.420297e-002	9.991482e-001	-5.319994e-002	4.879746e-003	1.180977e-002
2313951.101	4.824189e-003	1.186636e-002	9.985731e-001	-5.554566e-002	9.991118e-001	-5.453019e-002	5.256143e-003	1.215570e-002
2376490.184	4.639024e-003	1.226720e-002	9.982859e-001	-5.633439e-002	9.989566e-001	-5.686565e-002	5.302982e-003	1.258042e-002
2439029.268	5.194971e-003	1.266412e-002	9.982639e-001	-5.870476e-002	9.980638e-001	-5.840819e-002	5.074853e-003	1.312212e-002
2501568.352	5.260617e-003	1.309137e-002	9.978676e-001	-5.912568e-002	9.988711e-001	-5.938989e-002	5.459095e-003	1.352162e-002
2564107.436	5.252999e-003	1.338070e-002	9.980879e-001	-6.134516e-002	9.986814e-001	-6.142891e-002	4.852790e-003	1.361083e-002
2626646.520	5.833308e-003	1.360582e-002	9.978231e-001	-6.293127e-002	9.971595e-001	-6.295564e-002	5.201077e-003	1.393670e-002
2689185.604	5.913654e-003	1.419450e-002	9.980275e-001	-6.410735e-002	9.979157e-001	-6.418571e-002	5.441799e-003	1.443064e-002
2751724.687	6.134032e-003	1.453269e-002	9.978233e-001	-6.537395e-002	9.976912e-001	-6.540224e-002	5.155546e-003	1.484071e-002
2814263.771	6.198944e-003	1.490573e-002	9.967630e-001	-6.770340e-002	9.973804e-001	-6.714902e-002	5.255123e-003	1.515433e-002
2876802.855	6.271899e-003	1.513366e-002	9.967198e-001	-6.948119e-002	9.972630e-001	-6.879074e-002	5.473628e-003	1.571326e-002
2939341.939	6.534595e-003	1.565942e-002	9.972475e-001	-7.047896e-002	9.969032e-001	-7.081001e-002	5.496213e-003	1.605839e-002
3001881.023	6.590871e-003	1.609958e-002	9.966901e-001	-7.196690e-002	9.967888e-001	-7.222521e-002	5.726732e-003	1.634040e-002
3064420.106	6.802781e-003	1.648215e-002	9.971034e-001	-7.349614e-002	9.965011e-001	-7.359974e-002	5.696955e-003	1.666802e-002
3126959.190	7.139811e-003	1.681552e-002	9.965235e-001	-7.519272e-002	9.965433e-001	-7.524242e-002	6.025079e-003	1.702322e-002
3189498.274	7.284205e-003	1.727681e-002	9.962832e-001	-7.658681e-002	9.962637e-001	-7.681693e-002	6.183431e-003	1.740578e-002
3252037.358	7.347342e-003	1.735138e-002	9.962139e-001	-7.827047e-002	9.961299e-001	-7.828372e-002	6.293651e-003	1.788794e-002
3314576.442	7.544896e-003	1.794685e-002	9.959091e-001	-7.972059e-002	9.958545e-001	-7.991686e-002	6.514517e-003	1.821232e-002
3377115.525	7.685752e-003	1.838068e-002	9.954965e-001	-8.123986e-002	9.954190e-001	-8.158539e-002	6.546579e-003	1.852470e-002
3439654.609	7.897130e-003	1.874789e-002	9.951050e-001	-8.279503e-002	9.954376e-001	-8.302659e-002	6.763305e-003	1.913872e-002
3502193.693	8.036203e-003	1.887097e-002	9.949415e-001	-8.444824e-002	9.949618e-001	-8.448147e-002	7.132550e-003	1.950790e-002
3564732.777	8.299409e-003	1.944972e-002	9.947629e-001	-8.595410e-002	9.947228e-001	-8.611335e-002	7.429724e-003	1.994977e-002
3627271.861	8.351277e-003	1.972112e-002	9.945913e-001	-8.759625e-002	9.945971e-001	-8.757380e-002	7.398908e-003	2.016734e-002
3689810.944	8.484974e-003	2.001711e-002	9.941584e-001	-8.913535e-002	9.942727e-001	-8.908269e-002	7.804180e-003	2.060164e-002
3752350.028	8.827059e-003	2.047388e-002	9.938420e-001	-9.043332e-002	9.938209e-001	-9.061615e-002	7.959265e-003	2.096730e-002
3814889.112	9.188810e-003	2.099562e-002	9.934326e-001	-9.201755e-002	9.937296e-001	-9.243807e-002	8.097627e-003	2.123855e-002
3877428.196	9.378450e-003	2.142132e-002	9.933372e-001	-9.365496e-002	9.933472e-001	-9.376260e-002	8.679310e-003	2.164955e-002
3939967.280	9.594055e-003	2.152899e-002	9.929559e-001	-9.524553e-002	9.931365e-001	-9.532056e-002	8.918201e-003	2.213401e-002
4002506.363	9.927740e-003	2.204560e-002	9.926530e-001	-9.678941e-002	9.927055e-001	-9.672840e-002	9.124727e-003	2.244944e-002
4065045.447	1.003299e-002	2.235698e-002	9.921483e-001	-9.835040e-002	9.922598e-001	-9.840381e-002	9.489170e-003	2.274562e-002
4127584.531	1.028313e-002	2.271981e-002	9.917681e-001	-9.988291e-002	9.918994e-001	-9.981343e-002	9.804054e-003	2.322777e-002
4190123.615	1.061245e-002	2.312101e-002	9.914811e-001	-1.015995e-001	9.914441e-001	-1.015054e-001	9.994404e-003	2.338389e-002
4252662.699	1.086172e-002	2.340661e-002	9.911725e-001	-1.031308e-001	9.909967e-001	-1.031367e-001	1.038753e-002	2.376998e-002
4315201.782	1.132192e-002	2.372866e-002	9.907582e-001	-1.044082e-001	9.909177e-001	-1.046925e-001	1.051151e-002	2.394472e-002
4377740.866	1.154088e-002	2.406830e-002	9.904625e-001	-1.061332e-001	9.902515e-001	-1.061670e-001	1.102319e-002	2.459474e-002
4440279.950	1.177235e-002	2.429378e-002	9.900089e-001	-1.074192e-001	9.897768e-001	-1.075566e-001	1.122833e-002	2.478939e-002
4502819.034	1.210025e-002	2.476190e-002	9.893485e-001	-1.090250e-001	9.895042e-001	-1.090757e-001	1.165468e-002	2.527596e-002
4565358.118	1.234652e-002	2.504054e-002	9.889514e-001	-1.104837e-001	9.888845e-001	-1.104348e-001	1.197992e-002	2.550400e-002
4627897.201	1.288390e-002	2.549948e-002	9.887105e-001	-1.119806e-001	9.885743e-001	-1.118802e-001	1.245899e-002	2.591654e-002
4690436.285	1.306366e-002	2.572377e-002	9.882333e-001	-1.135883e-001	9.881714e-001	-1.137655e-001	1.279616e-002	2.606264e-002
4752975.369	1.341913e-002	2.601084e-002	9.875351e-001	-1.151089e-001	9.877629e-001	-1.151460e-001	1.297094e-002	2.632131e-002
4815514.453	1.389285e-002	2.631509e-002	9.873025e-001	-1.165118e-001	9.872520e-001	-1.166738e-001	1.356534e-002	2.671685e-002
4878053.537	1.437896e-002	2.651721e-002	9.868925e-001	-1.178926e-001	9.867729e-001	-1.179587e-001	1.389996e-002	2.694757e-002
4940592.620	1.451265e-002	2.686460e-002	9.862766e-001	-1.194065e-001	9.863408e-001	-1.195555e-001	1.405563e-002	2.720892e-002
5003131.704	1.495699e-002	2.700216e-002	9.857537e-001	-1.208283e-001	9.859137e-001	-1.207987e-001	1.456817e-002	2.741928e-002
5065670.788	1.527500e-002	2.746965e-002	9.852698e-001	-1.222992e-001	9.853072e-001	-1.222733e-001	1.494634e-002	2.773915e-002
5128209.872	1.580108e-002	2.758976e-002	9.849685e-001	-1.237498e-001	9.848128e-001	-1.237287e-001	1.529433e-002	2.781028e-002
5190748.956	1.611875e-002	2.783441e-002	9.842882e-001	-1.251799e-001	9.844015e-001	-1.252551e-001	1.568474e-002	2.819306e-002
5253288.039	1.657104e-002	2.804498e-002	9.838878e-001	-1.266259e-001	9.838419e-001	-1.266775e-001	1.603684e-002	2.852059e-002
5315827.123	1.693476e-002	2.822266e-002	9.831798e-001	-1.280073e-001	9.833176e-001	-1.280790e-001	1.641130e-002	2.864754e-002
5378366.207	1.745134e-002	2.848288e-002	9.828208e-001	-1.294073e-001	9.827943e-001	-1.296280e-001	1.682465e-002	2.878644e-002
5440905.291	1.770828e-002	2.880845e-002	9.823434e-001	-1.308405e-001	9.822936e-001	-1.309412e-001	1.714738e-002	2.905474e-002
5503444.375	1.832279e-002	2.882568e-002	9.817439e-001	-1.322842e-001	9.818419e-001	-1.321653e-001	1.775497e-002	2.916889e-002
5565983.458	1.841087e-002	2.917756e-002	9.812309e-001	-1.335687e-001	9.812510e-001	-1.335055e-001	1.813251e-002	2.953196e-002
5628522.542	1.909968e-002	2.927710e-002	9.807157e-001	-1.348456e-001	9.807668e-001	-1.349980e-001	1.860363e-002	2.958572e-002
5691061.626	1.958234e-002	2.926308e-002	9.800873e-001	-1.364172e-001	9.801523e-001	-1.364226e-001	1.894344e-002	2.981483e-002
5753600.710	1.988612e-002	2.952077e-002	9.794790e-001	-1.376622e-001	9.796184e-001	-1.376239e-001	1.941485e-002	2.985478e-002
5816139.794	2.042806e-002	2.985277e-002	9.790013e-001	-1.389720e-001	9.788837e-001	-1.392153e-001	1.971441e-002	3.005939e-002
5878678.877	2.076557e-002	2.978376e-002	9.784151e-001	-1.403625e-001	9.784072e-001	-1.404489e-001	2.026098e-002	3.006968e-002
5941217.961	2.118427e-002	2.983247e-002	9.778053e-001	-1.417403e-001	9.778146e-001	-1.415561e-001	2.054101e-002	3.031616e-002
6003757.045	2.150719e-002	3.019035e-002	9.771425e-001	-1.428550e-001	9.772521e-001	-1.428802e-001	2.109411e-002	3.041602e-002
6066296.129	2.205884e-002	3.012852e-002	9.767894e-001	-1.442176e-001	9.767989e-001	-1.441381e-001	2.150920e-002	3.049540e-002
6128835.213	2.258442e-002	3.024755e-002	9.762317e-001	-1.452213e-001	9.763736e-001	-1.455467e-001	2.204795e-002	3.058145e-002
6191374.296	2.297845e-002	3.033327e-002	9.755601e-001	-1.466891e-001	9.754618e-001	-1.469976e-001	2.233811e-002	3.079722e-002
6253913.380	2.333445e-002	3.052799e-002	9.749734e-001	-1.480350e-001	9.749794e-001	-1.480653e-001	2.267720e-002	3.099895e-002
6316452.464	2.374514e-002	3.068807e-002	9.744818e-001	-1.491780e-001	9.742980e-001	-1.494841e-001	2.314491e-002	3.085401e-002
6378991.548	2.414631e-002	3.061683e-002	9.738305e-001	-1.507791e-001	9.739705e-001	-1.506283e-001	2.362899e-002	3.079158e-002
6441530.632	2.451426e-002	3.060852e-002	9.732453e-001	-1.517157e-001	9.733094e-001	-1.519835e-001	2.411175e-002	3.096118e-002
6504069.715	2.495066e-002	3.062345e-002	9.726424e-001	-1.532123e-001	9.729064e-001	-1.531891e-001	2.456635e-002	3.099859e-002
6566608.799	2.550815e-002	3.059520e-002	9.722081e-001	-1.544941e-001	9.721512e-001	-1.544059e-001	2.490712e-002	3.123557e-002
6629147.883	2.589759e-002	3.077085e-002	9.715408e-001	-1.553503e-001	9.715274e-001	-1.556046e-001	2.541106e-002	3.113709e-002
6691686.967	2.620642e-002	3.082323e-002	9.708760e-001	-1.566719e-001	9.709778e-001	-1.567591e-001	2.587626e-002	3.125094e-002
6754226.051	2.657488e-002	3.083073e-002	9.703405e-001	-1.579725e-001	9.702882e-001	-1.581693e-001	2.609005e-002	3.107335e-002
6816765.134	2.708633e-002	3.082655e-002	9.698397e-001	-1.591186e-001	9.698563e-001	-1.592009e-001	2.657620e-002	3.126554e-002
6879304.218	2.739142e-002	3.068741e-002	9.692336e-001	-1.603120e-001	9.693175e-001	-1.603664e-001	2.697904e-002	3.121327e-002
6941843.302	2.789053e-002	3.083036e-002	9.686354e-001	-1.615358e-001	9.687224e-001	-1.615611e-001	2.739037e-002	3.129180e-002
7004382.386	2.812791e-002	3.091339e-002	9.681475e-001	-1.626227e-001	9.681332e-001	-1.627077e-001	2.771978e-002	3.132564e-002
7066921.470	2.861111e-002	3.083371e-002	9.674864e-001	-1.639023e-001	9.676169e-001	-1.637782e-001	2.827453e-002	3.115529e-002
7129460.553	2.889854e-002	3.071913e-002	9.670141e-001	-1.648823e-001	9.670642e-001	-1.650054e-001	2.867873e-002	3.119405e-002
7191999.637	2.931548e-002	3.094005e-002	9.662781e-001	-1.661090e-001	9.663669e-001	-1.661531e-001	2.894059e-002	3.117317e-002
7254538.721	2.974964e-002	3.079560e-002	9.660394e-001	-1.673192e-001	9.660014e-001	-1.673564e-001	2.936795e-002	3.116860e-002
7317077.805	3.030623e-002	3.070874e-002	9.654055e-001	-1.683494e-001	9.654479e-001	-1.684253e-001	2.975615e-002	3.103019e-002
7379616.889	3.056505e-002	3.069097e-002	9.649996e-001	-1.696848e-001	9.648177e-001	-1.696154e-001	3.009637e-002	3.102407e-002
7442155.972	3.078279e-002	3.066067e-002	9.642749e-001	-1.706365e-001	9.642832e-001	-1.706715e-001	3.055922e-002	3.118167e-002
7504695.056	3.119773e-002	3.051984e-002	9.636658e-001	-1.716970e-001	9.636407e-001	-1.719285e-001	3.098235e-002	3.118456e-002
7567234.140	3.172788e-002	3.038911e-002	9.632627e-001	-1.727990e-001	9.630799e-001	-1.730131e-001	3.127580e-002	3.104482e-002
7629773.224	3.203963e-002	3.062678e-002	9.627516e-001	-1.740926e-001	9.626918e-001	-1.741089e-001	3.157524e-002	3.094756e-002
7692312.308	3.226242e-002	3.050825e-002	9.621629e-001	-1.751991e-001	9.620885e-001	-1.752953e-001	3.197649e-002	3.080347e-002
7754851.391	3.259898e-002	3.031134e-002	9.616106e-001	-1.763245e-001	9.614296e-001	-1.761881e-001	3.229815e-002	3.086801e-002
7817390.475	3.305963e-002	3.043318e-002	9.611036e-001	-1.775751e-001	9.609761e-001	-1.775539e-001	3.260140e-002	3.091161e-002
7879929.559	3.331137e-002	3.018713e-002	9.604830e-001	-1.786570e-001	9.604083e-001	-1.788054e-001	3.307675e-002	3.082349e-002
7942468.643	3.361286e-002	3.007807e-002	9.600590e-001	-1.796799e-001	9.599723e-001	-1.798546e-001	3.338369e-002	3.058874e-002
8005007.727	3.405907e-002	3.002499e-002	9.594316e-001	-1.808477e-001	9.594781e-001	-1.809062e-001	3.366723e-002	3.073914e-002
8067546.811	3.424854e-002	2.998996e-002	9.589748e-001	-1.818880e-001	9.588287e-001	-1.819436e-001	3.391488e-002	3.047384e-002
8130085.894	3.465896e-002	2.983834e-002	9.583719e-001	-1.829351e-001	9.583630e-001	-1.830643e-001	3.445098e-002	3.031417e-002
8192624.978	3.482543e-002	2.971588e-002	9.577341e-001	-1.841173e-001	9.578695e-001	-1.840930e-001	3.482049e-002	3.022576e-002
8255164.062	3.527603e-002	2.963576e-002	9.573599e-001	-1.851853e-001	9.573171e-001	-1.852490e-001	3.511704e-002	3.008799e-002
8317703.146	3.549038e-002	2.966029e-002	9.568617e-001	-1.862736e-001	9.568912e-001	-1.862657e-001	3.527787e-002	3.007558e-002
8380242.230	3.590576e-002	2.933133e-002	9.562151e-001	-1.874239e-001	9.562677e-001	-1.873243e-001	3.556544e-002	2.993013e-002
8442781.313	3.619855e-002	2.929137e-002	9.559609e-001	-1.883905e-001	9.558226e-001	-1.883856e-001	3.586546e-002	2.975671e-002
8505320.397	3.651910e-002	2.931919e-002	9.553819e-001	-1.895266e-001	9.552799e-001	-1.894741e-001	3.613306e-002	2.970614e-002
8567859.481	3.680323e-002	2.936249e-002	9.548015e-001	-1.904015e-001	9.548376e-001	-1.905182e-001	3.650017e-002	2.975951e-002
8630398.565	3.718076e-002	2.920324e-002	9.541423e-001	-1.914413e-001	9.543206e-001	-1.915413e-001	3.667492e-002	2.941590e-002
8692937.649	3.741585e-002	2.889178e-002	9.537402e-001	-1.924950e-001	9.536935e-001	-1.927045e-001	3.693161e-002	2.941839e-002
8755476.732	3.773475e-002	2.885324e-002	9.532634e-001	-1.936687e-001	9.531965e-001	-1.936365e-001	3.729641e-002	2.931868e-002
8818015.816	3.791076e-002	2.871582e-002	9.527100e-001	-1.947196e-001	9.525228e-001	-1.947301e-001	3.766949e-002	2.911697e-002
8880554.900	3.841363e-002	2.863000e-002	9.523456e-001	-1.958287e-001	9.523513e-001	-1.956513e-001	3.782865e-002	2.886882e-002
8943093.984	3.855725e-002	2.861832e-002	9.518094e-001	-1.967901e-001	9.518296e-001	-1.967752e-001	3.813940e-002	2.880209e-002
9005633.068	3.888290e-002	2.841935e-002	9.512681e-001	-1.978574e-001	9.514189e-001	-1.979592e-001	3.831370e-002	2.857645e-002
9068172.151	3.902439e-002	2.830568e-002	9.508698e-001	-1.989544e-001	9.507608e-001	-1.988678e-001	3.864567e-002	2.850682e-002
9130711.235	3.950315e-002	2.810951e-002	9.503012e-001	-1.999772e-001	9.503476e-001	-1.999053e-001	3.896296e-002	2.820671e-002
9193250.319	3.976047e-002	2.796164e-002	9.499711e-001	-2.009080e-001	9.497872e-001	-2.010593e-001	3.917758e-002	2.814845e-002
9255789.403	3.991284e-002	2.770182e-002	9.495074e-001	-2.018764e-001	9.492922e-001	-2.020134e-001	3.933002e-002	2.809239e-002
9318328.487	4.015082e-002	2.766775e-002	9.489281e-001	-2.031077e-001	9.489507e-001	-2.030249e-001	3.970076e-002	2.796497e-002
9380867.570	4.044421e-002	2.766273e-002	9.484937e-001	-2.041958e-001	9.483080e-001	-2.041371e-001	3.996958e-002	2.782006e-002
9443406.654	4.075093e-002	2.751985e-002	9.479809e-001	-2.051233e-001	9.479858e-001	-2.052537e-001	4.025546e-002	2.760627e-002
9505945.738	4.099186e-002	2.740441e-002	9.473608e-001	-2.063221e-001	9.475604e-001	-2.062942e-001	4.047176e-002	2.748178e-002
9568484.822	4.127623e-002	2.724526e-002	9.470431e-001	-2.073345e-001	9.468062e-001	-2.072952e-001	4.056166e-002	2.758125e-002
9631023.906	4.152643e-002	2.712086e-002	9.465773e-001	-2.083159e-001	9.463549e-001	-2.083492e-001	4.096883e-002	2.714498e-002
9693562.989	4.180691e-002	2.696286e-002	9.459485e-001	-2.093821e-001	9.459823e-001	-2.093107e-001	4.098787e-002	2.713766e-002
9756102.073	4.203225e-002	2.679220e-002	9.457185e-001	-2.104264e-001	9.455535e-001	-2.102873e-001	4.127136e-002	2.686805e-002
