!Agilent Technologies,E5061B,MY49102235,A.02.00
!Date: Tue Jul 11 16:13:39 2023
!Data & Calibration Information:
!Freq	S11:SOLT2(ON)	S21:SOLT2(ON)	S12:SOLT2(ON)	S22:SOLT2(ON)
# Hz S RI R 50
5.000	-5.180366e-003	-5.641034e-003	1.001713e+000	8.147057e-003	1.000436e+000	1.020456e-002	-1.530601e-003	-7.557552e-003
62544.084	5.828950e-003	-9.818128e-005	1.001231e+000	2.448302e-004	1.000831e+000	7.203790e-004	7.714332e-003	-2.475914e-003
125083.168	5.721553e-003	2.807139e-004	1.000862e+000	-1.387550e-003	1.000693e+000	-1.599126e-003	7.524908e-003	-1.482373e-003
187622.251	5.512558e-003	8.669197e-004	1.000221e+000	-3.151323e-003	1.001071e+000	-2.189671e-003	7.397827e-003	-1.199608e-003
250161.335	5.327159e-003	1.389227e-003	1.000518e+000	-4.617102e-003	1.000742e+000	-4.755018e-003	7.304983e-003	-4.679603e-004
312700.419	5.493833e-003	2.491737e-003	1.000733e+000	-5.627851e-003	1.000593e+000	-5.533814e-003	7.840534e-003	-3.806671e-004
375239.503	5.389461e-003	1.367908e-003	1.000928e+000	-7.416679e-003	1.000532e+000	-7.256438e-003	7.329243e-003	-1.770297e-004
437778.587	5.239452e-003	2.158346e-003	1.001192e+000	-7.901365e-003	1.001026e+000	-8.826970e-003	6.701798e-003	5.085060e-004
500317.670	4.690870e-003	2.682853e-003	1.001151e+000	-1.075377e-002	1.001673e+000	-1.073402e-002	4.909538e-003	1.079224e-003
562856.754	6.020035e-003	2.753096e-003	1.001183e+000	-1.272900e-002	1.001034e+000	-1.277102e-002	6.145091e-003	1.981812e-003
625395.838	5.253558e-003	3.300908e-003	1.001997e+000	-1.434139e-002	1.002054e+000	-1.398478e-002	6.269116e-003	2.898136e-003
687934.922	5.323860e-003	3.357300e-003	1.001013e+000	-1.578632e-002	1.001131e+000	-1.585775e-002	5.920267e-003	2.823864e-003
750474.006	4.522105e-003	4.044410e-003	1.000504e+000	-1.550075e-002	1.000721e+000	-1.548751e-002	5.698839e-003	3.369131e-003
813013.089	4.709922e-003	4.462637e-003	1.000861e+000	-1.764890e-002	1.000571e+000	-1.742215e-002	5.075742e-003	3.948803e-003
875552.173	4.472889e-003	5.013912e-003	1.000891e+000	-1.896134e-002	1.000992e+000	-1.923283e-002	5.905317e-003	3.914859e-003
938091.257	4.581312e-003	5.456023e-003	1.000861e+000	-2.076073e-002	1.000971e+000	-2.054196e-002	6.151337e-003	4.877293e-003
1000630.341	4.050078e-003	5.488828e-003	1.000327e+000	-2.271345e-002	1.000918e+000	-2.224765e-002	5.426356e-003	4.585920e-003
1063169.425	4.436061e-003	5.722602e-003	1.000726e+000	-2.429740e-002	1.000676e+000	-2.360988e-002	4.629269e-003	4.642519e-003
1125708.508	4.344455e-003	6.173981e-003	1.000452e+000	-2.573106e-002	1.000541e+000	-2.537062e-002	4.172280e-003	5.328791e-003
1188247.592	4.919574e-003	6.093591e-003	1.000588e+000	-2.738287e-002	1.000704e+000	-2.697776e-002	3.092596e-003	5.151837e-003
1250786.676	4.782392e-003	5.764749e-003	1.000252e+000	-2.758822e-002	1.000334e+000	-2.780734e-002	2.359257e-003	3.899235e-003
1313325.760	4.928319e-003	6.046612e-003	1.000540e+000	-2.957406e-002	1.000627e+000	-2.998508e-002	3.140798e-003	4.500756e-003
1375864.844	4.686059e-003	6.243906e-003	1.000083e+000	-3.198137e-002	1.000163e+000	-3.212600e-002	3.037157e-003	5.172038e-003
1438403.927	4.623110e-003	6.498031e-003	1.000082e+000	-3.297448e-002	1.000648e+000	-3.243241e-002	3.156631e-003	5.841559e-003
1500943.011	4.890017e-003	6.955396e-003	1.000620e+000	-3.435106e-002	1.000964e+000	-3.432981e-002	3.549353e-003	5.825550e-003
1563482.095	4.924977e-003	6.990471e-003	1.000149e+000	-3.604663e-002	1.000243e+000	-3.537136e-002	3.727408e-003	6.419163e-003
1626021.179	4.777732e-003	7.524243e-003	1.000061e+000	-3.776138e-002	1.000646e+000	-3.852415e-002	4.053369e-003	6.777128e-003
1688560.263	4.526527e-003	8.001414e-003	9.997266e-001	-3.994828e-002	1.000814e+000	-4.006150e-002	4.260921e-003	7.175512e-003
1751099.346	4.702554e-003	8.509010e-003	1.000172e+000	-4.137155e-002	1.000080e+000	-4.089588e-002	4.138790e-003	8.438090e-003
1813638.430	4.414701e-003	8.899823e-003	1.000613e+000	-4.333577e-002	1.000358e+000	-4.322589e-002	4.352260e-003	8.463063e-003
1876177.514	4.498894e-003	9.587370e-003	1.000589e+000	-4.467955e-002	1.000694e+000	-4.527913e-002	4.103926e-003	9.574723e-003
1938716.598	4.034004e-003	1.011672e-002	1.000786e+000	-4.595622e-002	1.000659e+000	-4.558955e-002	4.342307e-003	1.037256e-002
2001255.682	3.982659e-003	1.005963e-002	1.000661e+000	-4.785132e-002	1.000458e+000	-4.760654e-002	4.146846e-003	1.035850e-002
2063794.765	4.156656e-003	1.088163e-002	1.000242e+000	-4.920658e-002	9.999351e-001	-4.982753e-002	4.616562e-003	1.068132e-002
2126333.849	3.745205e-003	1.080978e-002	9.996527e-001	-5.087401e-002	9.992250e-001	-5.059363e-002	4.935441e-003	1.135499e-002
2188872.933	4.322913e-003	1.123123e-002	9.992192e-001	-5.254555e-002	9.989725e-001	-5.197561e-002	4.895581e-003	1.175208e-002
2251412.017	4.496400e-003	1.130218e-002	9.991333e-001	-5.440224e-002	9.990892e-001	-5.348714e-002	4.965536e-003	1.207536e-002
2313951.101	4.935788e-003	1.215089e-002	9.983665e-001	-5.577852e-002	9.988458e-001	-5.486321e-002	5.358788e-003	1.243354e-002
2376490.184	4.776158e-003	1.257596e-002	9.982305e-001	-5.670312e-002	9.988794e-001	-5.722931e-002	5.421585e-003	1.289746e-002
2439029.268	5.338485e-003	1.298336e-002	9.980395e-001	-5.890649e-002	9.978785e-001	-5.873563e-002	5.211971e-003	1.344185e-002
2501568.352	5.413565e-003	1.342475e-002	9.977254e-001	-5.946675e-002	9.985904e-001	-5.966498e-002	5.598576e-003	1.386195e-002
2564107.436	5.442580e-003	1.373387e-002	9.978917e-001	-6.180919e-002	9.982377e-001	-6.185683e-002	5.029771e-003	1.396697e-002
2626646.520	6.050824e-003	1.397983e-002	9.975865e-001	-6.341088e-002	9.970764e-001	-6.341126e-002	5.405295e-003	1.432743e-002
2689185.604	6.151315e-003	1.459896e-002	9.979470e-001	-6.460376e-002	9.976103e-001	-6.459985e-002	5.669243e-003	1.483201e-002
2751724.687	6.398643e-003	1.494268e-002	9.975511e-001	-6.595468e-002	9.974132e-001	-6.591519e-002	5.419055e-003	1.526947e-002
2814263.771	6.497290e-003	1.534327e-002	9.965643e-001	-6.808689e-002	9.970190e-001	-6.762754e-002	5.549177e-003	1.558431e-002
2876802.855	6.593807e-003	1.557926e-002	9.962932e-001	-6.985209e-002	9.968169e-001	-6.917696e-002	5.785082e-003	1.615490e-002
2939341.939	6.883249e-003	1.612803e-002	9.968273e-001	-7.075143e-002	9.965135e-001	-7.126531e-002	5.862334e-003	1.650970e-002
3001881.023	6.993348e-003	1.657557e-002	9.963129e-001	-7.252943e-002	9.963019e-001	-7.266766e-002	6.115675e-003	1.682818e-002
3064420.106	7.238867e-003	1.696817e-002	9.966994e-001	-7.402394e-002	9.959830e-001	-7.414383e-002	6.119579e-003	1.716212e-002
3126959.190	7.610771e-003	1.731407e-002	9.960324e-001	-7.569406e-002	9.960128e-001	-7.577112e-002	6.508597e-003	1.753681e-002
3189498.274	7.793247e-003	1.777919e-002	9.957373e-001	-7.710466e-002	9.957309e-001	-7.731767e-002	6.695707e-003	1.792085e-002
3252037.358	7.904213e-003	1.788286e-002	9.956828e-001	-7.875482e-002	9.955394e-001	-7.882359e-002	6.855015e-003	1.841365e-002
3314576.442	8.147007e-003	1.848844e-002	9.953239e-001	-8.024174e-002	9.952372e-001	-8.043245e-002	7.129051e-003	1.874983e-002
3377115.525	8.348901e-003	1.892726e-002	9.948806e-001	-8.171580e-002	9.947578e-001	-8.211992e-002	7.205202e-003	1.906140e-002
3439654.609	8.604560e-003	1.929911e-002	9.944233e-001	-8.337766e-002	9.947682e-001	-8.361702e-002	7.477120e-003	1.968042e-002
3502193.693	8.800713e-003	1.943099e-002	9.941779e-001	-8.502715e-002	9.941681e-001	-8.502706e-002	7.890016e-003	2.006229e-002
3564732.777	9.108060e-003	1.998759e-002	9.939536e-001	-8.650802e-002	9.939267e-001	-8.669279e-002	8.243442e-003	2.050088e-002
3627271.861	9.223704e-003	2.027046e-002	9.937027e-001	-8.813765e-002	9.936725e-001	-8.814001e-002	8.289107e-003	2.072337e-002
3689810.944	9.407007e-003	2.058682e-002	9.932402e-001	-8.965311e-002	9.932889e-001	-8.964433e-002	8.736793e-003	2.114314e-002
3752350.028	9.820075e-003	2.100067e-002	9.928412e-001	-9.098861e-002	9.928055e-001	-9.112617e-002	8.954120e-003	2.149814e-002
3814889.112	1.023609e-002	2.153548e-002	9.923874e-001	-9.259954e-002	9.926694e-001	-9.298571e-002	9.171551e-003	2.177432e-002
3877428.196	1.048402e-002	2.193541e-002	9.922471e-001	-9.421971e-002	9.922339e-001	-9.431053e-002	9.792484e-003	2.217476e-002
3939967.280	1.077710e-002	2.203932e-002	9.917726e-001	-9.578617e-002	9.919171e-001	-9.582356e-002	1.010134e-002	2.263384e-002
4002506.363	1.116483e-002	2.253717e-002	9.914398e-001	-9.727288e-002	9.914375e-001	-9.717877e-002	1.035645e-002	2.293798e-002
4065045.447	1.133466e-002	2.282135e-002	9.908818e-001	-9.880023e-002	9.909016e-001	-9.885654e-002	1.079903e-002	2.319491e-002
4127584.531	1.165049e-002	2.316378e-002	9.903982e-001	-1.002745e-001	9.905230e-001	-1.002734e-001	1.117040e-002	2.366352e-002
4190123.615	1.205785e-002	2.352742e-002	9.900097e-001	-1.020245e-001	9.899665e-001	-1.018931e-001	1.142485e-002	2.379208e-002
4252662.699	1.236094e-002	2.379183e-002	9.896918e-001	-1.035085e-001	9.894843e-001	-1.035141e-001	1.189669e-002	2.414279e-002
4315201.782	1.288136e-002	2.406797e-002	9.891981e-001	-1.047392e-001	9.893590e-001	-1.050279e-001	1.207327e-002	2.429810e-002
4377740.866	1.316815e-002	2.436880e-002	9.888333e-001	-1.063914e-001	9.886211e-001	-1.064953e-001	1.265579e-002	2.487743e-002
4440279.950	1.344264e-002	2.454566e-002	9.882963e-001	-1.076827e-001	9.880599e-001	-1.078369e-001	1.292923e-002	2.504032e-002
4502819.034	1.384234e-002	2.496605e-002	9.875839e-001	-1.092337e-001	9.876880e-001	-1.092809e-001	1.340759e-002	2.548640e-002
4565358.118	1.415216e-002	2.520910e-002	9.871108e-001	-1.106592e-001	9.870729e-001	-1.105582e-001	1.381024e-002	2.564414e-002
4627897.201	1.475054e-002	2.561059e-002	9.868099e-001	-1.121063e-001	9.866511e-001	-1.120008e-001	1.433369e-002	2.602794e-002
4690436.285	1.499390e-002	2.577428e-002	9.862952e-001	-1.136488e-001	9.862106e-001	-1.137929e-001	1.472512e-002	2.611193e-002
4752975.369	1.540483e-002	2.601174e-002	9.855475e-001	-1.150812e-001	9.857657e-001	-1.151299e-001	1.496309e-002	2.631923e-002
4815514.453	1.594429e-002	2.623987e-002	9.852684e-001	-1.164581e-001	9.851852e-001	-1.166311e-001	1.559626e-002	2.663918e-002
4878053.537	1.646712e-002	2.638422e-002	9.847785e-001	-1.177837e-001	9.846230e-001	-1.178498e-001	1.600494e-002	2.680370e-002
4940592.620	1.664719e-002	2.667211e-002	9.841112e-001	-1.192593e-001	9.841944e-001	-1.193939e-001	1.620690e-002	2.699898e-002
5003131.704	1.713202e-002	2.674399e-002	9.835780e-001	-1.205715e-001	9.837265e-001	-1.205046e-001	1.675059e-002	2.717377e-002
5065670.788	1.751490e-002	2.713364e-002	9.830085e-001	-1.220034e-001	9.830459e-001	-1.219408e-001	1.716518e-002	2.741033e-002
5128209.872	1.808617e-002	2.717975e-002	9.826890e-001	-1.233414e-001	9.825242e-001	-1.233533e-001	1.756739e-002	2.738460e-002
5190748.956	1.841893e-002	2.737199e-002	9.820123e-001	-1.246946e-001	9.820402e-001	-1.248001e-001	1.799348e-002	2.770006e-002
5253288.039	1.892315e-002	2.748421e-002	9.815127e-001	-1.260811e-001	9.815047e-001	-1.260919e-001	1.838136e-002	2.794715e-002
5315827.123	1.932925e-002	2.758073e-002	9.807878e-001	-1.273811e-001	9.809526e-001	-1.274742e-001	1.881161e-002	2.800784e-002
5378366.207	1.986678e-002	2.776161e-002	9.803803e-001	-1.287860e-001	9.804178e-001	-1.289492e-001	1.924922e-002	2.806532e-002
5440905.291	2.015775e-002	2.799710e-002	9.798395e-001	-1.300240e-001	9.798391e-001	-1.301478e-001	1.959524e-002	2.824489e-002
5503444.375	2.079825e-002	2.795636e-002	9.792781e-001	-1.313819e-001	9.793233e-001	-1.313128e-001	2.022304e-002	2.828204e-002
5565983.458	2.090355e-002	2.822062e-002	9.787193e-001	-1.326272e-001	9.787615e-001	-1.325523e-001	2.062903e-002	2.855847e-002
5628522.542	2.161682e-002	2.822598e-002	9.782089e-001	-1.337801e-001	9.782258e-001	-1.339689e-001	2.111122e-002	2.853567e-002
5691061.626	2.210149e-002	2.812979e-002	9.775804e-001	-1.352777e-001	9.775855e-001	-1.352586e-001	2.147083e-002	2.867271e-002
5753600.710	2.241779e-002	2.830729e-002	9.769306e-001	-1.364245e-001	9.770349e-001	-1.364582e-001	2.195255e-002	2.863318e-002
5816139.794	2.297210e-002	2.855160e-002	9.764626e-001	-1.376481e-001	9.762688e-001	-1.379090e-001	2.227126e-002	2.874346e-002
5878678.877	2.332011e-002	2.838506e-002	9.758308e-001	-1.389276e-001	9.758310e-001	-1.390181e-001	2.282864e-002	2.867184e-002
5941217.961	2.374882e-002	2.837035e-002	9.752728e-001	-1.402459e-001	9.752621e-001	-1.400859e-001	2.308198e-002	2.882904e-002
6003757.045	2.405686e-002	2.863287e-002	9.745407e-001	-1.412916e-001	9.746392e-001	-1.413342e-001	2.364857e-002	2.883427e-002
6066296.129	2.460156e-002	2.847949e-002	9.742186e-001	-1.425576e-001	9.741248e-001	-1.425032e-001	2.407207e-002	2.884009e-002
6128835.213	2.512536e-002	2.851793e-002	9.736507e-001	-1.434893e-001	9.737103e-001	-1.438062e-001	2.459201e-002	2.883828e-002
6191374.296	2.550876e-002	2.851234e-002	9.730173e-001	-1.448459e-001	9.729600e-001	-1.451509e-001	2.487551e-002	2.896972e-002
6253913.380	2.586526e-002	2.863258e-002	9.725032e-001	-1.461763e-001	9.724272e-001	-1.461631e-001	2.520528e-002	2.908263e-002
6316452.464	2.626054e-002	2.870606e-002	9.719451e-001	-1.472081e-001	9.717874e-001	-1.475351e-001	2.564549e-002	2.886258e-002
6378991.548	2.663618e-002	2.855839e-002	9.713581e-001	-1.487398e-001	9.714403e-001	-1.485559e-001	2.611929e-002	2.872750e-002
6441530.632	2.697793e-002	2.846722e-002	9.707844e-001	-1.495902e-001	9.708361e-001	-1.498594e-001	2.658578e-002	2.881630e-002
6504069.715	2.740118e-002	2.842153e-002	9.701667e-001	-1.509712e-001	9.703868e-001	-1.509540e-001	2.701657e-002	2.878476e-002
6566608.799	2.794671e-002	2.831618e-002	9.697486e-001	-1.521626e-001	9.696879e-001	-1.521434e-001	2.735277e-002	2.893891e-002
6629147.883	2.830384e-002	2.841287e-002	9.691771e-001	-1.529675e-001	9.691166e-001	-1.532635e-001	2.780968e-002	2.876272e-002
6691686.967	2.857544e-002	2.837281e-002	9.685329e-001	-1.542401e-001	9.685435e-001	-1.543688e-001	2.824739e-002	2.879413e-002
6754226.051	2.893487e-002	2.831465e-002	9.679547e-001	-1.554594e-001	9.679157e-001	-1.556539e-001	2.843279e-002	2.855897e-002
6816765.134	2.939346e-002	2.824501e-002	9.675128e-001	-1.564839e-001	9.675068e-001	-1.566442e-001	2.889110e-002	2.866952e-002
6879304.218	2.968031e-002	2.803532e-002	9.669523e-001	-1.576690e-001	9.670269e-001	-1.577198e-001	2.925462e-002	2.854890e-002
6941843.302	3.012852e-002	2.812504e-002	9.663878e-001	-1.587777e-001	9.664545e-001	-1.587998e-001	2.962603e-002	2.856144e-002
7004382.386	3.034352e-002	2.813586e-002	9.659432e-001	-1.597819e-001	9.658672e-001	-1.599084e-001	2.992998e-002	2.853903e-002
7066921.470	3.079531e-002	2.798343e-002	9.653249e-001	-1.610279e-001	9.654136e-001	-1.608726e-001	3.044921e-002	2.830076e-002
7129460.553	3.103586e-002	2.780159e-002	9.648602e-001	-1.619459e-001	9.649099e-001	-1.621050e-001	3.080997e-002	2.826093e-002
7191999.637	3.140740e-002	2.794771e-002	9.641323e-001	-1.631630e-001	9.642402e-001	-1.632194e-001	3.103387e-002	2.817678e-002
7254538.721	3.180123e-002	2.774969e-002	9.639634e-001	-1.643012e-001	9.639072e-001	-1.643106e-001	3.142981e-002	2.812692e-002
7317077.805	3.231127e-002	2.761068e-002	9.633852e-001	-1.652182e-001	9.634406e-001	-1.653428e-001	3.176654e-002	2.793960e-002
7379616.889	3.252172e-002	2.754509e-002	9.630279e-001	-1.665002e-001	9.628565e-001	-1.664554e-001	3.204783e-002	2.786202e-002
7442155.972	3.271620e-002	2.746557e-002	9.623457e-001	-1.674462e-001	9.623432e-001	-1.674582e-001	3.248790e-002	2.796091e-002
7504695.056	3.307400e-002	2.727470e-002	9.617802e-001	-1.683923e-001	9.617216e-001	-1.686764e-001	3.286776e-002	2.791513e-002
7567234.140	3.355905e-002	2.709032e-002	9.613999e-001	-1.694709e-001	9.612264e-001	-1.696891e-001	3.311191e-002	2.772300e-002
7629773.224	3.383505e-002	2.726245e-002	9.609807e-001	-1.707287e-001	9.609013e-001	-1.707267e-001	3.334932e-002	2.756945e-002
7692312.308	3.401742e-002	2.710507e-002	9.604514e-001	-1.717685e-001	9.603138e-001	-1.718853e-001	3.372945e-002	2.738084e-002
7754851.391	3.430697e-002	2.684721e-002	9.598841e-001	-1.728569e-001	9.597170e-001	-1.727158e-001	3.399115e-002	2.739564e-002
7817390.475	3.471043e-002	2.693671e-002	9.594478e-001	-1.740530e-001	9.592716e-001	-1.740097e-001	3.426397e-002	2.739928e-002
7879929.559	3.491544e-002	2.664228e-002	9.588691e-001	-1.751193e-001	9.588225e-001	-1.752119e-001	3.467551e-002	2.725792e-002
7942468.643	3.516696e-002	2.648758e-002	9.585502e-001	-1.760901e-001	9.583982e-001	-1.762135e-001	3.494924e-002	2.698865e-002
8005007.727	3.556396e-002	2.638522e-002	9.579270e-001	-1.771690e-001	9.579449e-001	-1.772424e-001	3.517136e-002	2.709874e-002
8067546.811	3.571581e-002	2.632092e-002	9.574892e-001	-1.782111e-001	9.573460e-001	-1.782597e-001	3.535950e-002	2.678498e-002
8130085.894	3.605376e-002	2.613620e-002	9.569908e-001	-1.791877e-001	9.569179e-001	-1.793239e-001	3.586170e-002	2.659290e-002
8192624.978	3.619578e-002	2.596511e-002	9.563881e-001	-1.804023e-001	9.564789e-001	-1.803468e-001	3.616778e-002	2.646331e-002
8255164.062	3.658439e-002	2.586315e-002	9.560420e-001	-1.813786e-001	9.559954e-001	-1.814190e-001	3.643151e-002	2.629745e-002
8317703.146	3.675864e-002	2.584522e-002	9.556241e-001	-1.824526e-001	9.555704e-001	-1.824478e-001	3.654128e-002	2.624282e-002
8380242.230	3.713231e-002	2.548627e-002	9.549892e-001	-1.835653e-001	9.550273e-001	-1.834199e-001	3.678539e-002	2.605726e-002
8442781.313	3.737253e-002	2.539648e-002	9.547886e-001	-1.844972e-001	9.546175e-001	-1.844617e-001	3.703542e-002	2.587163e-002
8505320.397	3.763258e-002	2.540027e-002	9.542621e-001	-1.855745e-001	9.541447e-001	-1.855075e-001	3.725596e-002	2.578241e-002
8567859.481	3.788454e-002	2.540389e-002	9.537504e-001	-1.864135e-001	9.537731e-001	-1.865663e-001	3.756151e-002	2.579145e-002
8630398.565	3.820649e-002	2.523230e-002	9.531526e-001	-1.874471e-001	9.533126e-001	-1.875409e-001	3.767880e-002	2.543341e-002
8692937.649	3.838246e-002	2.489794e-002	9.527839e-001	-1.885116e-001	9.526737e-001	-1.886292e-001	3.789517e-002	2.540346e-002
8755476.732	3.865315e-002	2.482421e-002	9.523713e-001	-1.896689e-001	9.522618e-001	-1.895658e-001	3.820959e-002	2.527724e-002
8818015.816	3.878886e-002	2.467024e-002	9.518775e-001	-1.906006e-001	9.516507e-001	-1.906896e-001	3.855416e-002	2.504265e-002
8880554.900	3.923290e-002	2.455289e-002	9.515496e-001	-1.917396e-001	9.515126e-001	-1.915598e-001	3.865938e-002	2.477066e-002
8943093.984	3.934018e-002	2.452931e-002	9.509970e-001	-1.926751e-001	9.510704e-001	-1.926382e-001	3.892038e-002	2.469346e-002
9005633.068	3.960411e-002	2.429790e-002	9.505057e-001	-1.936743e-001	9.506411e-001	-1.937742e-001	3.904481e-002	2.444127e-002
9068172.151	3.970028e-002	2.415492e-002	9.501830e-001	-1.947712e-001	9.500818e-001	-1.947090e-001	3.933470e-002	2.433092e-002
9130711.235	4.013259e-002	2.392574e-002	9.496386e-001	-1.958184e-001	9.496930e-001	-1.957105e-001	3.959284e-002	2.401622e-002
9193250.319	4.035191e-002	2.378833e-002	9.493988e-001	-1.967090e-001	9.492179e-001	-1.968056e-001	3.976121e-002	2.394929e-002
9255789.403	4.046705e-002	2.350813e-002	9.489787e-001	-1.975927e-001	9.487410e-001	-1.977913e-001	3.986382e-002	2.386275e-002
9318328.487	4.065156e-002	2.344807e-002	9.484394e-001	-1.988880e-001	9.485035e-001	-1.987865e-001	4.018919e-002	2.372470e-002
9380867.570	4.088586e-002	2.342185e-002	9.480716e-001	-1.999234e-001	9.478499e-001	-1.998934e-001	4.040610e-002	2.355672e-002
9443406.654	4.115944e-002	2.325283e-002	9.476366e-001	-2.008500e-001	9.475847e-001	-2.009581e-001	4.065058e-002	2.334077e-002
9505945.738	4.134730e-002	2.313296e-002	9.469979e-001	-2.020643e-001	9.471754e-001	-2.019705e-001	4.081969e-002	2.318333e-002
9568484.822	4.158870e-002	2.294094e-002	9.467335e-001	-2.029880e-001	9.464929e-001	-2.029720e-001	4.086080e-002	2.328708e-002
9631023.906	4.178307e-002	2.282326e-002	9.463177e-001	-2.040021e-001	9.460954e-001	-2.040228e-001	4.121426e-002	2.283553e-002
9693562.989	4.200489e-002	2.264496e-002	9.457863e-001	-2.050290e-001	9.457507e-001	-2.049645e-001	4.119472e-002	2.280290e-002
9756102.073	4.218970e-002	2.246605e-002	9.455829e-001	-2.060467e-001	9.453700e-001	-2.059110e-001	4.142061e-002	2.253401e-002
