!Agilent Technologies,E5061B,MY49102235,A.02.00
!Date: Tue Jul 11 16:21:51 2023
!Data & Calibration Information:
!Freq	S11:SOLT2(ON)	S21:SOLT2(ON)	S12:SOLT2(ON)	S22:SOLT2(ON)
# Hz S RI R 50
5.000	-5.264822e-003	-5.644156e-003	1.001638e+000	8.017470e-003	1.000263e+000	1.022023e-002	-1.505864e-003	-7.546470e-003
62544.084	5.813690e-003	-4.867679e-004	1.001228e+000	5.808821e-004	1.000940e+000	1.263806e-003	7.716518e-003	-2.876590e-003
125083.168	5.684813e-003	-4.919299e-004	1.000853e+000	-7.592474e-004	1.000852e+000	-7.817227e-004	7.504887e-003	-2.288243e-003
187622.251	5.446513e-003	-3.256027e-004	1.000477e+000	-2.170891e-003	1.000892e+000	-8.872235e-004	7.388294e-003	-2.365244e-003
250161.335	5.268597e-003	-1.898037e-004	1.000650e+000	-3.149110e-003	1.000755e+000	-3.149309e-003	7.260399e-003	-2.031106e-003
312700.419	5.416790e-003	5.266931e-004	1.000838e+000	-3.769262e-003	1.000631e+000	-3.505615e-003	7.801972e-003	-2.345098e-003
375239.503	5.292801e-003	-9.792453e-004	1.001081e+000	-5.191124e-003	1.000637e+000	-4.879296e-003	7.261627e-003	-2.518047e-003
437778.587	5.146576e-003	-5.729967e-004	1.001326e+000	-5.383629e-003	1.000921e+000	-6.023928e-003	6.644360e-003	-2.215334e-003
500317.670	4.584471e-003	-4.574091e-004	1.001266e+000	-7.700171e-003	1.001590e+000	-7.589959e-003	4.831894e-003	-2.047488e-003
562856.754	5.891206e-003	-7.769734e-004	1.001376e+000	-9.180102e-003	1.001202e+000	-9.143730e-003	6.022744e-003	-1.541803e-003
625395.838	5.092968e-003	-6.253000e-004	1.002196e+000	-1.041184e-002	1.002245e+000	-9.977920e-003	6.109254e-003	-9.999419e-004
687934.922	5.140404e-003	-9.749814e-004	1.001241e+000	-1.131372e-002	1.001194e+000	-1.155454e-002	5.771678e-003	-1.467143e-003
750474.006	4.341517e-003	-6.328087e-004	1.000646e+000	-1.084316e-002	1.000973e+000	-1.081216e-002	5.531539e-003	-1.278612e-003
813013.089	4.524356e-003	-6.090778e-004	1.001109e+000	-1.264731e-002	1.000689e+000	-1.237634e-002	4.882504e-003	-1.122022e-003
875552.173	4.251041e-003	-4.538853e-004	1.000895e+000	-1.355664e-002	1.000971e+000	-1.356042e-002	5.673765e-003	-1.530347e-003
938091.257	4.315149e-003	-3.836452e-004	1.001099e+000	-1.499209e-002	1.001189e+000	-1.470705e-002	5.896676e-003	-9.512137e-004
1000630.341	3.771073e-003	-7.207481e-004	1.000730e+000	-1.627808e-002	1.001126e+000	-1.623657e-002	5.155537e-003	-1.661799e-003
1063169.425	4.137223e-003	-8.968658e-004	1.001067e+000	-1.788224e-002	1.000799e+000	-1.703648e-002	4.332039e-003	-1.984067e-003
1125708.508	4.019691e-003	-8.444943e-004	1.000856e+000	-1.880596e-002	1.000931e+000	-1.843258e-002	3.838376e-003	-1.696056e-003
1188247.592	4.557561e-003	-1.323840e-003	1.000995e+000	-1.992133e-002	1.001116e+000	-1.936292e-002	2.729083e-003	-2.274448e-003
1250786.676	4.393177e-003	-2.068799e-003	1.000581e+000	-1.984853e-002	1.000766e+000	-2.010941e-002	2.008610e-003	-3.941860e-003
1313325.760	4.500474e-003	-2.155555e-003	1.000915e+000	-2.135797e-002	1.001264e+000	-2.174659e-002	2.736954e-003	-3.739525e-003
1375864.844	4.228492e-003	-2.367942e-003	1.000513e+000	-2.335339e-002	1.000718e+000	-2.338769e-002	2.589685e-003	-3.467381e-003
1438403.927	4.133179e-003	-2.531218e-003	1.000572e+000	-2.399130e-002	1.001022e+000	-2.343478e-002	2.674787e-003	-3.216049e-003
1500943.011	4.352974e-003	-2.473282e-003	1.001317e+000	-2.491363e-002	1.001629e+000	-2.473637e-002	3.017320e-003	-3.615037e-003
1563482.095	4.358362e-003	-2.851016e-003	1.000748e+000	-2.633653e-002	1.000760e+000	-2.562222e-002	3.165039e-003	-3.431449e-003
1626021.179	4.169963e-003	-2.733290e-003	1.000632e+000	-2.756191e-002	1.001085e+000	-2.810558e-002	3.440522e-003	-3.476315e-003
1688560.263	3.857498e-003	-2.661305e-003	1.000288e+000	-2.919862e-002	1.001411e+000	-2.939772e-002	3.589434e-003	-3.493979e-003
1751099.346	3.992599e-003	-2.576263e-003	1.001018e+000	-3.034354e-002	1.000810e+000	-2.978904e-002	3.414165e-003	-2.653696e-003
1813638.430	3.624733e-003	-2.617939e-003	1.001268e+000	-3.179311e-002	1.001170e+000	-3.179379e-002	3.578476e-003	-3.048611e-003
1876177.514	3.668939e-003	-2.328740e-003	1.001578e+000	-3.272299e-002	1.001595e+000	-3.323361e-002	3.261340e-003	-2.381932e-003
1938716.598	3.130086e-003	-2.268690e-003	1.001736e+000	-3.364143e-002	1.001511e+000	-3.319386e-002	3.424558e-003	-1.997758e-003
2001255.682	3.043687e-003	-2.744396e-003	1.001743e+000	-3.497211e-002	1.001347e+000	-3.484240e-002	3.171595e-003	-2.467888e-003
2063794.765	3.119855e-003	-2.363748e-003	1.001306e+000	-3.592230e-002	1.000929e+000	-3.645321e-002	3.562822e-003	-2.562747e-003
2126333.849	2.660567e-003	-2.909055e-003	1.000759e+000	-3.723656e-002	1.000277e+000	-3.676869e-002	3.816509e-003	-2.312314e-003
2188872.933	3.142501e-003	-2.922119e-003	1.000540e+000	-3.833736e-002	1.000301e+000	-3.771577e-002	3.695273e-003	-2.380489e-003
2251412.017	3.242840e-003	-3.286688e-003	1.000374e+000	-3.983445e-002	1.000355e+000	-3.885754e-002	3.684334e-003	-2.509902e-003
2313951.101	3.567986e-003	-2.861150e-003	9.998446e-001	-4.094458e-002	1.000429e+000	-3.975486e-002	3.992730e-003	-2.565915e-003
2376490.184	3.316620e-003	-2.915114e-003	9.996902e-001	-4.130770e-002	1.000252e+000	-4.161637e-002	3.947647e-003	-2.566384e-003
2439029.268	3.768762e-003	-2.953496e-003	9.997052e-001	-4.301259e-002	9.994196e-001	-4.265284e-002	3.609514e-003	-2.486826e-003
2501568.352	3.732058e-003	-2.970498e-003	9.994621e-001	-4.318912e-002	1.000226e+000	-4.329376e-002	3.891846e-003	-2.518875e-003
2564107.436	3.643687e-003	-3.131344e-003	9.997925e-001	-4.492411e-002	1.000038e+000	-4.486455e-002	3.204791e-003	-2.912443e-003
2626646.520	4.117648e-003	-3.317508e-003	9.995145e-001	-4.599210e-002	9.989269e-001	-4.584860e-002	3.453370e-003	-2.990114e-003
2689185.604	4.071810e-003	-3.162537e-003	9.998779e-001	-4.682684e-002	9.997982e-001	-4.673521e-002	3.576577e-003	-2.934859e-003
2751724.687	4.191384e-003	-3.263175e-003	9.998244e-001	-4.758802e-002	9.996682e-001	-4.750148e-002	3.175791e-003	-2.994710e-003
2814263.771	4.132198e-003	-3.354024e-003	9.988938e-001	-4.940460e-002	9.994074e-001	-4.874334e-002	3.156447e-003	-3.128603e-003
2876802.855	4.079566e-003	-3.567329e-003	9.990718e-001	-5.070953e-002	9.993798e-001	-4.985961e-002	3.231677e-003	-3.012180e-003
2939341.939	4.205827e-003	-3.508176e-003	9.995647e-001	-5.119336e-002	9.993213e-001	-5.142301e-002	3.132336e-003	-3.132895e-003
3001881.023	4.109657e-003	-3.514698e-003	9.991352e-001	-5.238848e-002	9.992398e-001	-5.239185e-002	3.217636e-003	-3.288774e-003
3064420.106	4.168768e-003	-3.584939e-003	9.998414e-001	-5.348554e-002	9.990588e-001	-5.340867e-002	3.055200e-003	-3.438924e-003
3126959.190	4.356060e-003	-3.707261e-003	9.993685e-001	-5.466468e-002	9.992995e-001	-5.462038e-002	3.221860e-003	-3.520891e-003
3189498.274	4.333216e-003	-3.691956e-003	9.992699e-001	-5.560862e-002	9.992263e-001	-5.568677e-002	3.223474e-003	-3.597289e-003
3252037.358	4.248294e-003	-4.076587e-003	9.993561e-001	-5.678340e-002	9.992759e-001	-5.670500e-002	3.150369e-003	-3.568417e-003
3314576.442	4.264256e-003	-3.930846e-003	9.992210e-001	-5.778546e-002	9.991704e-001	-5.782515e-002	3.205615e-003	-3.703339e-003
3377115.525	4.232264e-003	-3.962335e-003	9.990164e-001	-5.881074e-002	9.988800e-001	-5.909341e-002	3.041074e-003	-3.870143e-003
3439654.609	4.229140e-003	-4.054249e-003	9.988276e-001	-5.992989e-002	9.991664e-001	-6.004990e-002	3.063738e-003	-3.705354e-003
3502193.693	4.182990e-003	-4.392436e-003	9.988475e-001	-6.117167e-002	9.988241e-001	-6.105222e-002	3.228391e-003	-3.784119e-003
3564732.777	4.233746e-003	-4.289400e-003	9.988516e-001	-6.217594e-002	9.988461e-001	-6.227631e-002	3.316617e-003	-3.794180e-003
3627271.861	4.083053e-003	-4.463378e-003	9.988712e-001	-6.336140e-002	9.988514e-001	-6.319340e-002	3.078074e-003	-4.046484e-003
3689810.944	3.963838e-003	-4.612161e-003	9.987009e-001	-6.446049e-002	9.988027e-001	-6.428758e-002	3.238475e-003	-4.067564e-003
3752350.028	4.084840e-003	-4.625325e-003	9.986109e-001	-6.527806e-002	9.985473e-001	-6.534540e-002	3.165598e-003	-4.166714e-003
3814889.112	4.199928e-003	-4.541328e-003	9.984441e-001	-6.644040e-002	9.987268e-001	-6.670485e-002	3.072542e-003	-4.345580e-003
3877428.196	4.129430e-003	-4.568592e-003	9.985967e-001	-6.759631e-002	9.986131e-001	-6.759697e-002	3.395573e-003	-4.374742e-003
3939967.280	4.109608e-003	-4.928102e-003	9.984746e-001	-6.878587e-002	9.986578e-001	-6.869322e-002	3.367632e-003	-4.342170e-003
4002506.363	4.152603e-003	-4.832491e-003	9.984624e-001	-6.982818e-002	9.985066e-001	-6.963412e-002	3.316662e-003	-4.467298e-003
4065045.447	3.983713e-003	-4.978366e-003	9.981969e-001	-7.097190e-002	9.983033e-001	-7.089699e-002	3.383926e-003	-4.628453e-003
4127584.531	3.938906e-003	-5.054517e-003	9.981638e-001	-7.203110e-002	9.982784e-001	-7.183903e-002	3.413128e-003	-4.568591e-003
4190123.615	3.982647e-003	-5.084148e-003	9.981634e-001	-7.330130e-002	9.980856e-001	-7.314546e-002	3.300682e-003	-4.864979e-003
4252662.699	3.931421e-003	-5.231999e-003	9.981640e-001	-7.440823e-002	9.979682e-001	-7.430829e-002	3.405057e-003	-4.884643e-003
4315201.782	4.060781e-003	-5.332236e-003	9.980484e-001	-7.525072e-002	9.981930e-001	-7.540022e-002	3.221328e-003	-5.151998e-003
4377740.866	3.970266e-003	-5.425291e-003	9.980636e-001	-7.648691e-002	9.978753e-001	-7.645626e-002	3.393552e-003	-4.909879e-003
4440279.950	3.867563e-003	-5.615203e-003	9.979547e-001	-7.743469e-002	9.977153e-001	-7.742890e-002	3.276819e-003	-5.148326e-003
4502819.034	3.852754e-003	-5.559581e-003	9.976285e-001	-7.861719e-002	9.977732e-001	-7.857595e-002	3.346862e-003	-5.057687e-003
4565358.118	3.743419e-003	-5.677237e-003	9.975848e-001	-7.966261e-002	9.974952e-001	-7.946448e-002	3.342561e-003	-5.237078e-003
4627897.201	3.933509e-003	-5.602880e-003	9.977097e-001	-8.075956e-002	9.975408e-001	-8.056174e-002	3.443935e-003	-5.193506e-003
4690436.285	3.746005e-003	-5.803201e-003	9.976397e-001	-8.197102e-002	9.974778e-001	-8.206150e-002	3.435772e-003	-5.455693e-003
4752975.369	3.753976e-003	-5.876273e-003	9.972758e-001	-8.315758e-002	9.974531e-001	-8.301487e-002	3.244168e-003	-5.583856e-003
4815514.453	3.857122e-003	-5.958206e-003	9.973870e-001	-8.412440e-002	9.973792e-001	-8.416482e-002	3.458880e-003	-5.555955e-003
4878053.537	3.961286e-003	-6.110427e-003	9.973804e-001	-8.515096e-002	9.972481e-001	-8.511656e-002	3.419301e-003	-5.704662e-003
4940592.620	3.680196e-003	-6.148660e-003	9.971320e-001	-8.629897e-002	9.971868e-001	-8.629592e-002	3.166018e-003	-5.811603e-003
5003131.704	3.749811e-003	-6.373981e-003	9.970167e-001	-8.736845e-002	9.971707e-001	-8.717064e-002	3.298779e-003	-5.948320e-003
5065670.788	3.659400e-003	-6.236734e-003	9.969606e-001	-8.855957e-002	9.970181e-001	-8.833337e-002	3.268999e-003	-5.979468e-003
5128209.872	3.786470e-003	-6.440840e-003	9.970484e-001	-8.960277e-002	9.968873e-001	-8.942589e-002	3.233082e-003	-6.249882e-003
5190748.956	3.675614e-003	-6.533304e-003	9.968281e-001	-9.071371e-002	9.968835e-001	-9.066640e-002	3.186107e-003	-6.207035e-003
5253288.039	3.735211e-003	-6.653780e-003	9.968082e-001	-9.183114e-002	9.967885e-001	-9.170011e-002	3.100967e-003	-6.212635e-003
5315827.123	3.679246e-003	-6.792059e-003	9.965342e-001	-9.289734e-002	9.966642e-001	-9.280926e-002	3.077973e-003	-6.384645e-003
5378366.207	3.766719e-003	-6.830862e-003	9.965777e-001	-9.398771e-002	9.966108e-001	-9.407040e-002	3.058108e-003	-6.548456e-003
5440905.291	3.573644e-003	-6.820785e-003	9.965444e-001	-9.507746e-002	9.965062e-001	-9.507613e-002	2.939224e-003	-6.586521e-003
5503444.375	3.778405e-003	-7.063993e-003	9.963853e-001	-9.625210e-002	9.964842e-001	-9.600605e-002	3.128131e-003	-6.744965e-003
5565983.458	3.409350e-003	-7.019129e-003	9.963319e-001	-9.722676e-002	9.963480e-001	-9.702830e-002	3.054221e-003	-6.667397e-003
5628522.542	3.656914e-003	-7.171489e-003	9.962521e-001	-9.825126e-002	9.962780e-001	-9.827129e-002	3.077705e-003	-6.871035e-003
5691061.626	3.717719e-003	-7.439294e-003	9.960683e-001	-9.957170e-002	9.960608e-001	-9.943514e-002	2.983283e-003	-6.908493e-003
5753600.710	3.552359e-003	-7.437385e-003	9.958859e-001	-1.005288e-001	9.960643e-001	-1.004603e-001	3.015066e-003	-7.116173e-003
5816139.794	3.640897e-003	-7.316016e-003	9.958821e-001	-1.016970e-001	9.957086e-001	-1.017444e-001	2.870830e-003	-7.160956e-003
5878678.877	3.545086e-003	-7.641480e-003	9.957431e-001	-1.027466e-001	9.957188e-001	-1.026949e-001	2.967843e-003	-7.373775e-003
5941217.961	3.523327e-003	-7.803301e-003	9.956036e-001	-1.039083e-001	9.956463e-001	-1.036432e-001	2.765106e-003	-7.375419e-003
6003757.045	3.347967e-003	-7.662944e-003	9.953704e-001	-1.048283e-001	9.955196e-001	-1.047669e-001	2.878925e-003	-7.465401e-003
6066296.129	3.471318e-003	-7.931345e-003	9.954853e-001	-1.059869e-001	9.954025e-001	-1.058017e-001	2.836635e-003	-7.585204e-003
6128835.213	3.559910e-003	-7.994304e-003	9.953494e-001	-1.068270e-001	9.954843e-001	-1.070227e-001	2.925415e-003	-7.673166e-003
6191374.296	3.496702e-003	-8.103122e-003	9.951225e-001	-1.081055e-001	9.951632e-001	-1.082487e-001	2.759792e-003	-7.667501e-003
6253913.380	3.390657e-003	-8.057823e-003	9.950991e-001	-1.093202e-001	9.950669e-001	-1.091583e-001	2.630526e-003	-7.648015e-003
6316452.464	3.351792e-003	-8.069993e-003	9.950056e-001	-1.102509e-001	9.948405e-001	-1.104474e-001	2.656989e-003	-7.948988e-003
6378991.548	3.287535e-003	-8.310061e-003	9.948813e-001	-1.116876e-001	9.949320e-001	-1.114081e-001	2.719066e-003	-8.157378e-003
6441530.632	3.233802e-003	-8.478245e-003	9.946553e-001	-1.124947e-001	9.947385e-001	-1.126173e-001	2.721682e-003	-8.140322e-003
6504069.715	3.209434e-003	-8.592549e-003	9.945284e-001	-1.138444e-001	9.947915e-001	-1.136551e-001	2.731951e-003	-8.228796e-003
6566608.799	3.350787e-003	-8.737188e-003	9.945579e-001	-1.149831e-001	9.945217e-001	-1.147694e-001	2.623098e-003	-8.118084e-003
6629147.883	3.275432e-003	-8.692272e-003	9.943628e-001	-1.157021e-001	9.943572e-001	-1.158705e-001	2.690863e-003	-8.342935e-003
6691686.967	3.142031e-003	-8.772028e-003	9.941183e-001	-1.169153e-001	9.941774e-001	-1.169491e-001	2.696189e-003	-8.351031e-003
6754226.051	3.072967e-003	-8.869984e-003	9.939705e-001	-1.181314e-001	9.939645e-001	-1.181618e-001	2.492483e-003	-8.647733e-003
6816765.134	3.165704e-003	-8.960478e-003	9.939264e-001	-1.191449e-001	9.939778e-001	-1.191341e-001	2.519330e-003	-8.535083e-003
6879304.218	3.043316e-003	-9.215761e-003	9.937498e-001	-1.202607e-001	9.938704e-001	-1.201650e-001	2.503513e-003	-8.691068e-003
6941843.302	3.104319e-003	-9.135147e-003	9.935831e-001	-1.214175e-001	9.937351e-001	-1.212923e-001	2.482736e-003	-8.703810e-003
7004382.386	2.887180e-003	-9.157076e-003	9.935463e-001	-1.223853e-001	9.935170e-001	-1.223406e-001	2.374515e-003	-8.744246e-003
7066921.470	2.961797e-003	-9.294652e-003	9.933068e-001	-1.236126e-001	9.934605e-001	-1.232940e-001	2.518009e-003	-8.987525e-003
7129460.553	2.857097e-003	-9.500653e-003	9.932638e-001	-1.245026e-001	9.933172e-001	-1.245130e-001	2.513667e-003	-9.015403e-003
7191999.637	2.818018e-003	-9.352533e-003	9.929138e-001	-1.257011e-001	9.930288e-001	-1.255627e-001	2.347556e-003	-9.106381e-003
7254538.721	2.854802e-003	-9.555333e-003	9.931013e-001	-1.268053e-001	9.930658e-001	-1.267593e-001	2.372692e-003	-9.168515e-003
7317077.805	3.007425e-003	-9.659284e-003	9.928701e-001	-1.277808e-001	9.929150e-001	-1.277359e-001	2.334742e-003	-9.366751e-003
7379616.889	2.857433e-003	-9.735144e-003	9.929144e-001	-1.290701e-001	9.927188e-001	-1.289082e-001	2.272142e-003	-9.420041e-003
7442155.972	2.685398e-003	-9.837104e-003	9.925872e-001	-1.299998e-001	9.925939e-001	-1.299312e-001	2.334792e-003	-9.293762e-003
7504695.056	2.709408e-003	-1.001255e-002	9.923565e-001	-1.310131e-001	9.923505e-001	-1.311570e-001	2.338226e-003	-9.308683e-003
7567234.140	2.863374e-003	-1.016972e-002	9.923409e-001	-1.321062e-001	9.922100e-001	-1.322024e-001	2.265438e-003	-9.503708e-003
7629773.224	2.748151e-003	-9.947398e-003	9.921992e-001	-1.333757e-001	9.922224e-001	-1.332275e-001	2.147881e-003	-9.628333e-003
7692312.308	2.588146e-003	-1.009544e-002	9.920772e-001	-1.344259e-001	9.919790e-001	-1.344142e-001	2.185479e-003	-9.804917e-003
7754851.391	2.550108e-003	-1.033511e-002	9.918749e-001	-1.355551e-001	9.917088e-001	-1.353159e-001	2.117130e-003	-9.753204e-003
7817390.475	2.619030e-003	-1.021225e-002	9.917914e-001	-1.367804e-001	9.916285e-001	-1.366290e-001	2.018625e-003	-9.725265e-003
7879929.559	2.501393e-003	-1.049189e-002	9.914724e-001	-1.378546e-001	9.914700e-001	-1.378701e-001	2.120316e-003	-9.809885e-003
7942468.643	2.434163e-003	-1.062144e-002	9.914836e-001	-1.388500e-001	9.914178e-001	-1.388972e-001	2.074684e-003	-1.006370e-002
8005007.727	2.516422e-003	-1.066697e-002	9.912296e-001	-1.400258e-001	9.912814e-001	-1.399656e-001	1.952799e-003	-9.933550e-003
8067546.811	2.345444e-003	-1.071057e-002	9.911002e-001	-1.410773e-001	9.909497e-001	-1.409632e-001	1.851701e-003	-1.022835e-002
8130085.894	2.387791e-003	-1.086230e-002	9.908805e-001	-1.420673e-001	9.908874e-001	-1.421279e-001	2.041600e-003	-1.035146e-002
8192624.978	2.208532e-003	-1.101534e-002	9.905982e-001	-1.433176e-001	9.907137e-001	-1.431683e-001	2.065147e-003	-1.045324e-002
8255164.062	2.295657e-003	-1.106920e-002	9.905730e-001	-1.443542e-001	9.905290e-001	-1.442704e-001	2.013707e-003	-1.057334e-002
8317703.146	2.142949e-003	-1.103911e-002	9.904335e-001	-1.454440e-001	9.905031e-001	-1.453814e-001	1.802496e-003	-1.059969e-002
8380242.230	2.252519e-003	-1.136354e-002	9.901345e-001	-1.466654e-001	9.901629e-001	-1.464101e-001	1.743937e-003	-1.074504e-002
8442781.313	2.197449e-003	-1.140527e-002	9.902225e-001	-1.475839e-001	9.900898e-001	-1.474074e-001	1.692761e-003	-1.091846e-002
8505320.397	2.147082e-003	-1.134883e-002	9.899805e-001	-1.487351e-001	9.899156e-001	-1.485916e-001	1.615633e-003	-1.093535e-002
8567859.481	2.055904e-003	-1.128348e-002	9.897802e-001	-1.496242e-001	9.898340e-001	-1.496590e-001	1.613711e-003	-1.084442e-002
8630398.565	2.118210e-003	-1.141651e-002	9.894312e-001	-1.507086e-001	9.896583e-001	-1.506792e-001	1.468821e-003	-1.118805e-002
8692937.649	2.040622e-003	-1.170876e-002	9.893989e-001	-1.518268e-001	9.893148e-001	-1.518284e-001	1.377510e-003	-1.116885e-002
8755476.732	2.026298e-003	-1.172945e-002	9.892461e-001	-1.530001e-001	9.891433e-001	-1.528083e-001	1.407494e-003	-1.123808e-002
8818015.816	1.870006e-003	-1.184686e-002	9.890288e-001	-1.540213e-001	9.888569e-001	-1.539649e-001	1.499204e-003	-1.140803e-002
8880554.900	2.057239e-003	-1.187629e-002	9.889886e-001	-1.551835e-001	9.889680e-001	-1.548836e-001	1.329290e-003	-1.165106e-002
8943093.984	1.849652e-003	-1.186185e-002	9.887256e-001	-1.561927e-001	9.887718e-001	-1.560123e-001	1.311642e-003	-1.167496e-002
9005633.068	1.888805e-003	-1.204641e-002	9.884772e-001	-1.573253e-001	9.886639e-001	-1.571992e-001	1.180524e-003	-1.189670e-002
9068172.151	1.702872e-003	-1.212726e-002	9.884358e-001	-1.584136e-001	9.883454e-001	-1.581459e-001	1.196884e-003	-1.192010e-002
9130711.235	1.884400e-003	-1.228130e-002	9.881868e-001	-1.594719e-001	9.882521e-001	-1.592380e-001	1.213766e-003	-1.220134e-002
9193250.319	1.837089e-003	-1.238709e-002	9.881447e-001	-1.604272e-001	9.880209e-001	-1.604212e-001	1.089855e-003	-1.220519e-002
9255789.403	1.699477e-003	-1.263081e-002	9.879659e-001	-1.614134e-001	9.878029e-001	-1.614671e-001	9.288117e-004	-1.222967e-002
9318328.487	1.627602e-003	-1.261023e-002	9.877196e-001	-1.627617e-001	9.877927e-001	-1.625035e-001	1.004527e-003	-1.231386e-002
9380867.570	1.597580e-003	-1.257784e-002	9.876182e-001	-1.638781e-001	9.874376e-001	-1.637424e-001	9.758298e-004	-1.242047e-002
9443406.654	1.612607e-003	-1.266786e-002	9.874600e-001	-1.648487e-001	9.874013e-001	-1.648477e-001	9.660581e-004	-1.257974e-002
9505945.738	1.553390e-003	-1.272317e-002	9.870699e-001	-1.660773e-001	9.873143e-001	-1.659134e-001	8.872637e-004	-1.266967e-002
9568484.822	1.555471e-003	-1.283585e-002	9.870371e-001	-1.671093e-001	9.868662e-001	-1.669488e-001	6.471361e-004	-1.251350e-002
