!Agilent Technologies,E5061B,MY49102235,A.02.00
!Date: Tue Jul 11 16:11:06 2023
!Data & Calibration Information:
!Freq	S11:SOLT2(ON)	S21:SOLT2(ON)	S12:SOLT2(ON)	S22:SOLT2(ON)
# Hz S RI R 50
5.000	-5.220807e-003	-5.646654e-003	1.001770e+000	8.060883e-003	1.000489e+000	1.023916e-002	-1.517414e-003	-7.560575e-003
62544.084	5.817031e-003	-4.899472e-004	1.001255e+000	6.461078e-004	1.000931e+000	1.191162e-003	7.692515e-003	-2.863130e-003
125083.168	5.684602e-003	-4.849634e-004	1.001022e+000	-8.224135e-004	1.000770e+000	-8.887915e-004	7.489296e-003	-2.258180e-003
187622.251	5.464431e-003	-3.068405e-004	1.000397e+000	-2.093393e-003	1.001021e+000	-1.035055e-003	7.374309e-003	-2.354601e-003
250161.335	5.288537e-003	-1.616089e-004	1.000534e+000	-3.071470e-003	1.000709e+000	-3.092278e-003	7.266750e-003	-2.009586e-003
312700.419	5.438729e-003	5.695376e-004	1.000783e+000	-3.823425e-003	1.000700e+000	-3.650972e-003	7.784702e-003	-2.302783e-003
375239.503	5.311091e-003	-9.227682e-004	1.001023e+000	-5.254217e-003	1.000599e+000	-4.932082e-003	7.259616e-003	-2.459353e-003
437778.587	5.147460e-003	-5.402176e-004	1.001381e+000	-5.417656e-003	1.000945e+000	-6.196634e-003	6.639181e-003	-2.160053e-003
500317.670	4.585494e-003	-4.215114e-004	1.001315e+000	-7.709086e-003	1.001681e+000	-7.560734e-003	4.813522e-003	-2.008073e-003
562856.754	5.909552e-003	-7.104511e-004	1.001354e+000	-9.252657e-003	1.001232e+000	-9.143763e-003	6.013838e-003	-1.503762e-003
625395.838	5.095753e-003	-5.680811e-004	1.002220e+000	-1.046815e-002	1.002285e+000	-1.006203e-002	6.100798e-003	-9.364536e-004
687934.922	5.153900e-003	-8.907561e-004	1.001313e+000	-1.146982e-002	1.001332e+000	-1.156548e-002	5.756733e-003	-1.405447e-003
750474.006	4.305883e-003	-5.864509e-004	1.000721e+000	-1.086279e-002	1.000964e+000	-1.055254e-002	5.502947e-003	-1.234031e-003
813013.089	4.481171e-003	-5.518730e-004	1.001210e+000	-1.266337e-002	1.000682e+000	-1.230158e-002	4.849807e-003	-1.063490e-003
875552.173	4.221012e-003	-3.829547e-004	1.001104e+000	-1.358990e-002	1.001065e+000	-1.357814e-002	5.636268e-003	-1.456534e-003
938091.257	4.293396e-003	-3.111045e-004	1.001224e+000	-1.504106e-002	1.001230e+000	-1.470685e-002	5.864955e-003	-8.926311e-004
1000630.341	3.733026e-003	-6.711276e-004	1.000701e+000	-1.641451e-002	1.001031e+000	-1.608169e-002	5.113284e-003	-1.591972e-003
1063169.425	4.087719e-003	-8.294594e-004	1.001015e+000	-1.786303e-002	1.000816e+000	-1.689119e-002	4.301987e-003	-1.901192e-003
1125708.508	3.964220e-003	-7.788402e-004	1.000822e+000	-1.888284e-002	1.000893e+000	-1.832058e-002	3.808115e-003	-1.615803e-003
1188247.592	4.517433e-003	-1.234765e-003	1.001019e+000	-2.013023e-002	1.001143e+000	-1.937852e-002	2.716638e-003	-2.181982e-003
1250786.676	4.356641e-003	-1.965006e-003	1.000604e+000	-1.993420e-002	1.000889e+000	-2.009845e-002	1.977708e-003	-3.851215e-003
1313325.760	4.478513e-003	-2.062824e-003	1.000973e+000	-2.151043e-002	1.001200e+000	-2.164545e-002	2.702332e-003	-3.645860e-003
1375864.844	4.209418e-003	-2.260738e-003	1.000677e+000	-2.345293e-002	1.000552e+000	-2.356262e-002	2.565509e-003	-3.366836e-003
1438403.927	4.102466e-003	-2.425008e-003	1.000632e+000	-2.415779e-002	1.001010e+000	-2.342423e-002	2.645201e-003	-3.108692e-003
1500943.011	4.329806e-003	-2.351186e-003	1.001315e+000	-2.499145e-002	1.001490e+000	-2.494736e-002	3.000406e-003	-3.508615e-003
1563482.095	4.323126e-003	-2.711217e-003	1.000952e+000	-2.641529e-002	1.000610e+000	-2.562961e-002	3.136103e-003	-3.319274e-003
1626021.179	4.121636e-003	-2.599953e-003	1.000802e+000	-2.761681e-002	1.001060e+000	-2.812188e-002	3.396877e-003	-3.347685e-003
1688560.263	3.832382e-003	-2.527949e-003	1.000531e+000	-2.921344e-002	1.001419e+000	-2.955286e-002	3.578065e-003	-3.371605e-003
1751099.346	3.960628e-003	-2.450412e-003	1.000969e+000	-3.040578e-002	1.000773e+000	-2.985101e-002	3.382021e-003	-2.524725e-003
1813638.430	3.598517e-003	-2.485964e-003	1.001319e+000	-3.190922e-002	1.001099e+000	-3.174130e-002	3.569334e-003	-2.915624e-003
1876177.514	3.639276e-003	-2.193264e-003	1.001644e+000	-3.291034e-002	1.001487e+000	-3.337431e-002	3.237866e-003	-2.254522e-003
1938716.598	3.097043e-003	-2.122687e-003	1.001782e+000	-3.357168e-002	1.001431e+000	-3.328397e-002	3.407356e-003	-1.867579e-003
2001255.682	2.995782e-003	-2.592764e-003	1.001764e+000	-3.507879e-002	1.001357e+000	-3.488759e-002	3.152389e-003	-2.329539e-003
2063794.765	3.090273e-003	-2.220620e-003	1.001357e+000	-3.613291e-002	1.000913e+000	-3.642733e-002	3.551396e-003	-2.413612e-003
2126333.849	2.636136e-003	-2.744768e-003	1.000704e+000	-3.730513e-002	1.000273e+000	-3.687300e-002	3.800561e-003	-2.165009e-003
2188872.933	3.131877e-003	-2.742813e-003	1.000580e+000	-3.847090e-002	1.000132e+000	-3.794458e-002	3.682640e-003	-2.221941e-003
2251412.017	3.217569e-003	-3.123846e-003	1.000455e+000	-4.007724e-002	1.000407e+000	-3.894277e-002	3.669461e-003	-2.331564e-003
2313951.101	3.546593e-003	-2.694743e-003	9.997985e-001	-4.105900e-002	1.000396e+000	-3.992637e-002	3.973010e-003	-2.401036e-003
2376490.184	3.295474e-003	-2.741862e-003	9.997739e-001	-4.148246e-002	1.000327e+000	-4.179434e-002	3.947660e-003	-2.403231e-003
2439029.268	3.733478e-003	-2.770992e-003	9.996440e-001	-4.306452e-002	9.994730e-001	-4.282789e-002	3.601183e-003	-2.311549e-003
2501568.352	3.701889e-003	-2.781750e-003	9.993007e-001	-4.333266e-002	1.000374e+000	-4.346194e-002	3.898261e-003	-2.351459e-003
2564107.436	3.620368e-003	-2.942362e-003	9.997107e-001	-4.497234e-002	1.000022e+000	-4.495112e-002	3.194346e-003	-2.734146e-003
2626646.520	4.104337e-003	-3.126016e-003	9.996275e-001	-4.629147e-002	9.989688e-001	-4.609912e-002	3.450093e-003	-2.795933e-003
2689185.604	4.065913e-003	-2.964132e-003	1.000042e+000	-4.694693e-002	9.997233e-001	-4.692096e-002	3.567918e-003	-2.745618e-003
2751724.687	4.168856e-003	-3.070698e-003	9.997822e-001	-4.773921e-002	9.996780e-001	-4.766225e-002	3.181138e-003	-2.787662e-003
2814263.771	4.108829e-003	-3.145333e-003	9.990056e-001	-4.957551e-002	9.993109e-001	-4.897434e-002	3.149044e-003	-2.924298e-003
2876802.855	4.061723e-003	-3.370945e-003	9.988971e-001	-5.096934e-002	9.993455e-001	-5.001922e-002	3.233539e-003	-2.818941e-003
2939341.939	4.179493e-003	-3.290304e-003	9.994343e-001	-5.142677e-002	9.992786e-001	-5.160912e-002	3.123280e-003	-2.923243e-003
3001881.023	4.100454e-003	-3.289026e-003	9.992879e-001	-5.262828e-002	9.989914e-001	-5.262618e-002	3.207937e-003	-3.086793e-003
3064420.106	4.138738e-003	-3.363747e-003	9.998800e-001	-5.359336e-002	9.990433e-001	-5.361839e-002	3.041686e-003	-3.222255e-003
3126959.190	4.347689e-003	-3.484476e-003	9.993475e-001	-5.486755e-002	9.992541e-001	-5.478618e-002	3.218258e-003	-3.306848e-003
3189498.274	4.320772e-003	-3.466093e-003	9.992870e-001	-5.584296e-002	9.991309e-001	-5.584958e-002	3.209209e-003	-3.378368e-003
3252037.358	4.233154e-003	-3.836476e-003	9.993524e-001	-5.702523e-002	9.992376e-001	-5.690592e-002	3.162214e-003	-3.346789e-003
3314576.442	4.251269e-003	-3.697552e-003	9.992203e-001	-5.802777e-002	9.990823e-001	-5.806501e-002	3.200391e-003	-3.468951e-003
3377115.525	4.210535e-003	-3.726884e-003	9.990413e-001	-5.906003e-002	9.988614e-001	-5.930301e-002	3.054966e-003	-3.636367e-003
3439654.609	4.211050e-003	-3.798953e-003	9.988333e-001	-6.021195e-002	9.991176e-001	-6.027365e-002	3.075406e-003	-3.466382e-003
3502193.693	4.162541e-003	-4.133186e-003	9.988114e-001	-6.141285e-002	9.987819e-001	-6.125230e-002	3.225711e-003	-3.539673e-003
3564732.777	4.224834e-003	-4.012951e-003	9.988663e-001	-6.243821e-002	9.987820e-001	-6.244884e-002	3.317410e-003	-3.544185e-003
3627271.861	4.058250e-003	-4.185655e-003	9.988711e-001	-6.361239e-002	9.988302e-001	-6.344334e-002	3.086031e-003	-3.793439e-003
3689810.944	3.974971e-003	-4.350965e-003	9.987242e-001	-6.474069e-002	9.986993e-001	-6.449184e-002	3.244917e-003	-3.813414e-003
3752350.028	4.079722e-003	-4.353613e-003	9.986417e-001	-6.556451e-002	9.984856e-001	-6.558315e-002	3.176269e-003	-3.893985e-003
3814889.112	4.174888e-003	-4.266993e-003	9.984845e-001	-6.673256e-002	9.986892e-001	-6.694871e-002	3.099794e-003	-4.075463e-003
3877428.196	4.120656e-003	-4.289987e-003	9.986047e-001	-6.789659e-002	9.985587e-001	-6.780466e-002	3.408319e-003	-4.094129e-003
3939967.280	4.089680e-003	-4.636033e-003	9.984963e-001	-6.904457e-002	9.985484e-001	-6.892348e-002	3.383515e-003	-4.058568e-003
4002506.363	4.143886e-003	-4.533153e-003	9.984883e-001	-7.007094e-002	9.984300e-001	-6.986597e-002	3.327220e-003	-4.181363e-003
4065045.447	3.967877e-003	-4.685411e-003	9.981940e-001	-7.127635e-002	9.982362e-001	-7.109997e-002	3.401263e-003	-4.339277e-003
4127584.531	3.936659e-003	-4.745486e-003	9.981248e-001	-7.230633e-002	9.981948e-001	-7.214107e-002	3.413114e-003	-4.275031e-003
4190123.615	3.978430e-003	-4.783811e-003	9.981647e-001	-7.363601e-002	9.980396e-001	-7.338660e-002	3.322910e-003	-4.564060e-003
4252662.699	3.928287e-003	-4.917371e-003	9.981806e-001	-7.471398e-002	9.978896e-001	-7.457007e-002	3.425900e-003	-4.588419e-003
4315201.782	4.072205e-003	-5.017423e-003	9.980470e-001	-7.557569e-002	9.981052e-001	-7.565405e-002	3.245097e-003	-4.838352e-003
4377740.866	3.967320e-003	-5.089728e-003	9.980587e-001	-7.686503e-002	9.978020e-001	-7.677304e-002	3.412201e-003	-4.604185e-003
4440279.950	3.849460e-003	-5.304829e-003	9.979405e-001	-7.773768e-002	9.976159e-001	-7.771024e-002	3.297490e-003	-4.829471e-003
4502819.034	3.845516e-003	-5.235830e-003	9.976273e-001	-7.894518e-002	9.977031e-001	-7.883309e-002	3.359134e-003	-4.747309e-003
4565358.118	3.745419e-003	-5.353101e-003	9.975710e-001	-8.003080e-002	9.974241e-001	-7.975417e-002	3.370240e-003	-4.916200e-003
4627897.201	3.925320e-003	-5.274111e-003	9.977093e-001	-8.111965e-002	9.974429e-001	-8.087095e-002	3.473528e-003	-4.878826e-003
4690436.285	3.739463e-003	-5.462228e-003	9.976264e-001	-8.227104e-002	9.974197e-001	-8.238229e-002	3.462362e-003	-5.128348e-003
4752975.369	3.742076e-003	-5.533147e-003	9.972660e-001	-8.350404e-002	9.974185e-001	-8.334750e-002	3.277142e-003	-5.257325e-003
4815514.453	3.859572e-003	-5.604392e-003	9.973813e-001	-8.449141e-002	9.973300e-001	-8.451847e-002	3.486885e-003	-5.230400e-003
4878053.537	3.956968e-003	-5.757988e-003	9.973731e-001	-8.551701e-002	9.971568e-001	-8.541493e-002	3.450891e-003	-5.371155e-003
4940592.620	3.682718e-003	-5.799365e-003	9.971125e-001	-8.668825e-002	9.970961e-001	-8.665057e-002	3.201712e-003	-5.483410e-003
5003131.704	3.749541e-003	-5.992200e-003	9.969850e-001	-8.775381e-002	9.970984e-001	-8.750185e-002	3.334348e-003	-5.599417e-003
5065670.788	3.664994e-003	-5.874478e-003	9.969151e-001	-8.891063e-002	9.969129e-001	-8.868404e-002	3.295036e-003	-5.629354e-003
5128209.872	3.789015e-003	-6.067345e-003	9.970140e-001	-8.994256e-002	9.968020e-001	-8.975632e-002	3.257972e-003	-5.906733e-003
5190748.956	3.689550e-003	-6.160607e-003	9.967952e-001	-9.110092e-002	9.968044e-001	-9.100809e-002	3.229071e-003	-5.851700e-003
5253288.039	3.730759e-003	-6.272753e-003	9.967987e-001	-9.220620e-002	9.967075e-001	-9.206010e-002	3.151043e-003	-5.843054e-003
5315827.123	3.703819e-003	-6.406211e-003	9.964996e-001	-9.329220e-002	9.966116e-001	-9.319395e-002	3.130719e-003	-6.018940e-003
5378366.207	3.772742e-003	-6.434960e-003	9.965793e-001	-9.441143e-002	9.965010e-001	-9.443805e-002	3.110928e-003	-6.180442e-003
5440905.291	3.587333e-003	-6.426988e-003	9.964983e-001	-9.548064e-002	9.964322e-001	-9.544039e-002	2.981499e-003	-6.204537e-003
5503444.375	3.796845e-003	-6.664984e-003	9.964157e-001	-9.668633e-002	9.964196e-001	-9.635215e-002	3.181075e-003	-6.358674e-003
5565983.458	3.419978e-003	-6.624132e-003	9.962874e-001	-9.766129e-002	9.962626e-001	-9.741593e-002	3.106182e-003	-6.284159e-003
5628522.542	3.671769e-003	-6.761710e-003	9.962124e-001	-9.864670e-002	9.962031e-001	-9.868379e-002	3.132576e-003	-6.479761e-003
5691061.626	3.733966e-003	-7.020239e-003	9.960716e-001	-9.995164e-002	9.959987e-001	-9.982210e-002	3.026322e-003	-6.507772e-003
5753600.710	3.572567e-003	-7.023986e-003	9.958524e-001	-1.009573e-001	9.959345e-001	-1.008491e-001	3.071083e-003	-6.736427e-003
5816139.794	3.663966e-003	-6.911132e-003	9.958913e-001	-1.021017e-001	9.956183e-001	-1.021519e-001	2.924549e-003	-6.764173e-003
5878678.877	3.549974e-003	-7.217632e-003	9.957528e-001	-1.032105e-001	9.956346e-001	-1.030887e-001	3.026993e-003	-6.971685e-003
5941217.961	3.541522e-003	-7.371231e-003	9.955599e-001	-1.043433e-001	9.955655e-001	-1.040375e-001	2.810299e-003	-6.948206e-003
6003757.045	3.370125e-003	-7.224307e-003	9.953185e-001	-1.053064e-001	9.954645e-001	-1.051480e-001	2.937138e-003	-7.056273e-003
6066296.129	3.487720e-003	-7.498440e-003	9.954610e-001	-1.063980e-001	9.953504e-001	-1.062167e-001	2.904314e-003	-7.157758e-003
6128835.213	3.578116e-003	-7.548552e-003	9.952993e-001	-1.072430e-001	9.954029e-001	-1.074699e-001	2.992122e-003	-7.247995e-003
6191374.296	3.516398e-003	-7.649994e-003	9.951209e-001	-1.085990e-001	9.950682e-001	-1.086752e-001	2.822630e-003	-7.241222e-003
6253913.380	3.402449e-003	-7.617627e-003	9.950526e-001	-1.097781e-001	9.950024e-001	-1.095989e-001	2.687574e-003	-7.214351e-003
6316452.464	3.354447e-003	-7.620666e-003	9.949688e-001	-1.107553e-001	9.947429e-001	-1.109254e-001	2.721633e-003	-7.526917e-003
6378991.548	3.325863e-003	-7.856133e-003	9.947956e-001	-1.121730e-001	9.948360e-001	-1.118764e-001	2.775519e-003	-7.718588e-003
6441530.632	3.257462e-003	-8.022093e-003	9.945964e-001	-1.129741e-001	9.946356e-001	-1.130731e-001	2.794605e-003	-7.698712e-003
6504069.715	3.234722e-003	-8.121947e-003	9.945071e-001	-1.143072e-001	9.946886e-001	-1.140716e-001	2.797502e-003	-7.779697e-003
6566608.799	3.378762e-003	-8.259576e-003	9.945111e-001	-1.154331e-001	9.944066e-001	-1.152343e-001	2.695804e-003	-7.676399e-003
6629147.883	3.300123e-003	-8.214443e-003	9.943009e-001	-1.162342e-001	9.942597e-001	-1.163646e-001	2.767698e-003	-7.904050e-003
6691686.967	3.173960e-003	-8.274397e-003	9.940749e-001	-1.174319e-001	9.941149e-001	-1.173973e-001	2.780567e-003	-7.900270e-003
6754226.051	3.110182e-003	-8.386619e-003	9.939225e-001	-1.186432e-001	9.938623e-001	-1.186360e-001	2.575106e-003	-8.198117e-003
6816765.134	3.191301e-003	-8.476443e-003	9.939209e-001	-1.196516e-001	9.938877e-001	-1.195950e-001	2.610906e-003	-8.083165e-003
6879304.218	3.078221e-003	-8.723034e-003	9.937030e-001	-1.207747e-001	9.937635e-001	-1.206826e-001	2.594029e-003	-8.227230e-003
6941843.302	3.132661e-003	-8.640640e-003	9.935480e-001	-1.219337e-001	9.936292e-001	-1.217574e-001	2.554817e-003	-8.222939e-003
7004382.386	2.913913e-003	-8.650400e-003	9.934986e-001	-1.228885e-001	9.934398e-001	-1.228719e-001	2.463063e-003	-8.274407e-003
7066921.470	3.003645e-003	-8.783476e-003	9.932509e-001	-1.241221e-001	9.933717e-001	-1.237762e-001	2.600521e-003	-8.517751e-003
7129460.553	2.879458e-003	-8.986157e-003	9.932023e-001	-1.250361e-001	9.931930e-001	-1.249928e-001	2.602385e-003	-8.543043e-003
7191999.637	2.849009e-003	-8.827611e-003	9.928864e-001	-1.262323e-001	9.928960e-001	-1.260785e-001	2.440369e-003	-8.610444e-003
7254538.721	2.898360e-003	-9.021956e-003	9.930694e-001	-1.273631e-001	9.929595e-001	-1.272272e-001	2.458672e-003	-8.680736e-003
7317077.805	3.040457e-003	-9.138206e-003	9.928109e-001	-1.283651e-001	9.927894e-001	-1.282878e-001	2.436771e-003	-8.877428e-003
7379616.889	2.888047e-003	-9.214644e-003	9.928285e-001	-1.296154e-001	9.926185e-001	-1.294082e-001	2.365653e-003	-8.926042e-003
7442155.972	2.726785e-003	-9.297061e-003	9.924942e-001	-1.305715e-001	9.925170e-001	-1.304521e-001	2.438188e-003	-8.787494e-003
7504695.056	2.748088e-003	-9.463805e-003	9.923174e-001	-1.315402e-001	9.922413e-001	-1.316830e-001	2.445934e-003	-8.811319e-003
7567234.140	2.903632e-003	-9.616349e-003	9.922699e-001	-1.326601e-001	9.920861e-001	-1.327387e-001	2.349682e-003	-8.990621e-003
7629773.224	2.790507e-003	-9.403816e-003	9.921619e-001	-1.339241e-001	9.920835e-001	-1.337275e-001	2.258221e-003	-9.120236e-003
7692312.308	2.631799e-003	-9.548874e-003	9.919794e-001	-1.349988e-001	9.918453e-001	-1.349475e-001	2.299006e-003	-9.285082e-003
7754851.391	2.602869e-003	-9.796610e-003	9.918043e-001	-1.361042e-001	9.915859e-001	-1.358470e-001	2.217325e-003	-9.232499e-003
7817390.475	2.661900e-003	-9.655619e-003	9.916929e-001	-1.373439e-001	9.914983e-001	-1.371794e-001	2.121199e-003	-9.198318e-003
7879929.559	2.553944e-003	-9.920292e-003	9.914411e-001	-1.384426e-001	9.913443e-001	-1.384403e-001	2.219201e-003	-9.277373e-003
7942468.643	2.483803e-003	-1.005736e-002	9.914092e-001	-1.394097e-001	9.913015e-001	-1.394581e-001	2.183941e-003	-9.551958e-003
8005007.727	2.554066e-003	-1.010173e-002	9.911235e-001	-1.405976e-001	9.911761e-001	-1.405258e-001	2.066058e-003	-9.393586e-003
8067546.811	2.392726e-003	-1.013620e-002	9.910003e-001	-1.416068e-001	9.908375e-001	-1.415273e-001	1.969425e-003	-9.686129e-003
8130085.894	2.436388e-003	-1.027680e-002	9.908338e-001	-1.426617e-001	9.907666e-001	-1.426786e-001	2.152536e-003	-9.808698e-003
8192624.978	2.253395e-003	-1.042084e-002	9.905308e-001	-1.438695e-001	9.906068e-001	-1.436988e-001	2.187447e-003	-9.900097e-003
8255164.062	2.351220e-003	-1.048251e-002	9.904808e-001	-1.449091e-001	9.903805e-001	-1.448254e-001	2.125014e-003	-1.002205e-002
8317703.146	2.201295e-003	-1.043968e-002	9.903585e-001	-1.460161e-001	9.903738e-001	-1.459419e-001	1.924928e-003	-1.005135e-002
8380242.230	2.299872e-003	-1.076729e-002	9.900448e-001	-1.472559e-001	9.900760e-001	-1.469659e-001	1.869374e-003	-1.018482e-002
8442781.313	2.249385e-003	-1.079872e-002	9.901324e-001	-1.482046e-001	9.899491e-001	-1.480363e-001	1.820143e-003	-1.035396e-002
8505320.397	2.215089e-003	-1.075021e-002	9.899036e-001	-1.493488e-001	9.897727e-001	-1.491636e-001	1.733391e-003	-1.036869e-002
8567859.481	2.128107e-003	-1.066926e-002	9.896762e-001	-1.502824e-001	9.896826e-001	-1.502325e-001	1.749001e-003	-1.029038e-002
8630398.565	2.193094e-003	-1.080478e-002	9.893535e-001	-1.513300e-001	9.895061e-001	-1.512563e-001	1.592680e-003	-1.061727e-002
8692937.649	2.104518e-003	-1.108683e-002	9.892974e-001	-1.524504e-001	9.891755e-001	-1.524215e-001	1.508575e-003	-1.059313e-002
8755476.732	2.092713e-003	-1.109496e-002	9.891633e-001	-1.536238e-001	9.890140e-001	-1.533855e-001	1.552402e-003	-1.066594e-002
8818015.816	1.935597e-003	-1.121026e-002	9.888722e-001	-1.546776e-001	9.887250e-001	-1.545638e-001	1.628163e-003	-1.083083e-002
8880554.900	2.124430e-003	-1.125753e-002	9.888792e-001	-1.558071e-001	9.888353e-001	-1.554875e-001	1.462140e-003	-1.106147e-002
8943093.984	1.919009e-003	-1.122612e-002	9.886496e-001	-1.567946e-001	9.886389e-001	-1.566227e-001	1.448103e-003	-1.108476e-002
9005633.068	1.951115e-003	-1.139211e-002	9.883865e-001	-1.579441e-001	9.885290e-001	-1.578244e-001	1.318173e-003	-1.130139e-002
9068172.151	1.770551e-003	-1.148457e-002	9.883375e-001	-1.590475e-001	9.881836e-001	-1.588102e-001	1.343352e-003	-1.132715e-002
9130711.235	1.952755e-003	-1.161857e-002	9.881052e-001	-1.601185e-001	9.880604e-001	-1.598836e-001	1.356951e-003	-1.160915e-002
9193250.319	1.907907e-003	-1.172988e-002	9.880212e-001	-1.610617e-001	9.878673e-001	-1.610747e-001	1.246880e-003	-1.160270e-002
9255789.403	1.767251e-003	-1.196807e-002	9.878495e-001	-1.620799e-001	9.876777e-001	-1.620695e-001	1.081185e-003	-1.162070e-002
9318328.487	1.702669e-003	-1.195395e-002	9.875743e-001	-1.634539e-001	9.876575e-001	-1.631177e-001	1.166822e-003	-1.170386e-002
9380867.570	1.675926e-003	-1.189673e-002	9.874955e-001	-1.645417e-001	9.872558e-001	-1.643827e-001	1.124695e-003	-1.179699e-002
9443406.654	1.686165e-003	-1.198940e-002	9.872905e-001	-1.655051e-001	9.872861e-001	-1.654659e-001	1.116722e-003	-1.196472e-002
9505945.738	1.631267e-003	-1.204553e-002	9.869907e-001	-1.667661e-001	9.871664e-001	-1.665558e-001	1.038553e-003	-1.204244e-002
9568484.822	1.634044e-003	-1.215632e-002	9.869200e-001	-1.678140e-001	9.867142e-001	-1.676108e-001	8.016425e-004	-1.188573e-002
