!Agilent Technologies,E5061B,MY49102235,A.02.00
!Date: Tue Jul 11 16:24:24 2023
!Data & Calibration Information:
!Freq	S11:SOLT2(ON)	S21:SOLT2(ON)	S12:SOLT2(ON)	S22:SOLT2(ON)
# Hz S RI R 50
5.000	-5.038672e-003	-5.645705e-003	1.001301e+000	7.944460e-003	1.000202e+000	1.028348e-002	-1.484437e-003	-7.548198e-003
62544.084	5.805158e-003	-5.046530e-004	1.001366e+000	5.417279e-004	1.000896e+000	1.294522e-003	7.697140e-003	-2.874571e-003
125083.168	5.685402e-003	-5.081580e-004	1.000901e+000	-7.495286e-004	1.000876e+000	-7.785201e-004	7.499299e-003	-2.285983e-003
187622.251	5.460084e-003	-3.461280e-004	1.000500e+000	-2.061372e-003	1.000931e+000	-9.857314e-004	7.378474e-003	-2.377398e-003
250161.335	5.293942e-003	-2.170648e-004	1.000579e+000	-3.055103e-003	1.000573e+000	-3.072328e-003	7.283024e-003	-2.050771e-003
312700.419	5.427689e-003	5.259746e-004	1.000754e+000	-3.786906e-003	1.000660e+000	-3.469572e-003	7.790930e-003	-2.371279e-003
375239.503	5.287201e-003	-9.982008e-004	1.001040e+000	-5.241595e-003	1.000518e+000	-4.929799e-003	7.274266e-003	-2.528772e-003
437778.587	5.160537e-003	-6.092160e-004	1.001206e+000	-5.379643e-003	1.001132e+000	-5.879777e-003	6.621358e-003	-2.283651e-003
500317.670	4.584913e-003	-4.976821e-004	1.001174e+000	-7.710987e-003	1.001741e+000	-7.524377e-003	4.802462e-003	-2.105502e-003
562856.754	5.893287e-003	-8.138253e-004	1.001334e+000	-9.244688e-003	1.001235e+000	-9.063214e-003	6.008139e-003	-1.599188e-003
625395.838	5.077638e-003	-6.744668e-004	1.002131e+000	-1.035123e-002	1.002164e+000	-9.932762e-003	6.118561e-003	-1.055092e-003
687934.922	5.143723e-003	-1.008800e-003	1.001226e+000	-1.133838e-002	1.001345e+000	-1.151890e-002	5.747604e-003	-1.531964e-003
750474.006	4.357474e-003	-6.924915e-004	1.000778e+000	-1.079436e-002	1.000922e+000	-1.066488e-002	5.532320e-003	-1.350501e-003
813013.089	4.524328e-003	-6.717990e-004	1.001008e+000	-1.262756e-002	1.000738e+000	-1.222526e-002	4.891446e-003	-1.179138e-003
875552.173	4.252547e-003	-5.208028e-004	1.001037e+000	-1.348389e-002	1.001286e+000	-1.350601e-002	5.686922e-003	-1.585762e-003
938091.257	4.340382e-003	-4.685127e-004	1.001097e+000	-1.490876e-002	1.001307e+000	-1.463800e-002	5.913545e-003	-1.036134e-003
1000630.341	3.776650e-003	-8.270299e-004	1.000708e+000	-1.636546e-002	1.001067e+000	-1.600771e-002	5.154445e-003	-1.736163e-003
1063169.425	4.125722e-003	-9.959642e-004	1.001010e+000	-1.772003e-002	1.000939e+000	-1.683379e-002	4.339591e-003	-2.074866e-003
1125708.508	4.014224e-003	-9.588269e-004	1.000787e+000	-1.876340e-002	1.000883e+000	-1.810181e-002	3.837888e-003	-1.800614e-003
1188247.592	4.557981e-003	-1.417287e-003	1.000958e+000	-1.987256e-002	1.001135e+000	-1.945463e-002	2.749162e-003	-2.379913e-003
1250786.676	4.395350e-003	-2.162506e-003	1.000600e+000	-1.977268e-002	1.000794e+000	-2.006789e-002	2.005003e-003	-4.057838e-003
1313325.760	4.509362e-003	-2.270950e-003	1.000899e+000	-2.131704e-002	1.001136e+000	-2.164656e-002	2.739640e-003	-3.859951e-003
1375864.844	4.244476e-003	-2.478797e-003	1.000555e+000	-2.322204e-002	1.000668e+000	-2.332922e-002	2.597624e-003	-3.580769e-003
1438403.927	4.124596e-003	-2.645147e-003	1.000666e+000	-2.377423e-002	1.001118e+000	-2.316563e-002	2.673684e-003	-3.328432e-003
1500943.011	4.345693e-003	-2.593990e-003	1.001258e+000	-2.462954e-002	1.001492e+000	-2.474483e-002	3.028564e-003	-3.743950e-003
1563482.095	4.361531e-003	-2.984190e-003	1.000875e+000	-2.610123e-002	1.000876e+000	-2.528152e-002	3.158704e-003	-3.556809e-003
1626021.179	4.158817e-003	-2.851805e-003	1.000608e+000	-2.729323e-002	1.001089e+000	-2.792974e-002	3.423109e-003	-3.621809e-003
1688560.263	3.871132e-003	-2.795530e-003	1.000560e+000	-2.904205e-002	1.001600e+000	-2.926844e-002	3.599544e-003	-3.639112e-003
1751099.346	3.985792e-003	-2.720928e-003	1.001019e+000	-3.017323e-002	1.000834e+000	-2.960591e-002	3.422629e-003	-2.813478e-003
1813638.430	3.641986e-003	-2.783445e-003	1.001275e+000	-3.168833e-002	1.001179e+000	-3.155336e-002	3.584493e-003	-3.207481e-003
1876177.514	3.665038e-003	-2.487876e-003	1.001558e+000	-3.249598e-002	1.001408e+000	-3.311028e-002	3.260518e-003	-2.544580e-003
1938716.598	3.131516e-003	-2.424920e-003	1.001813e+000	-3.344940e-002	1.001522e+000	-3.300192e-002	3.423676e-003	-2.171564e-003
2001255.682	3.023729e-003	-2.923631e-003	1.001643e+000	-3.474397e-002	1.001531e+000	-3.463085e-002	3.188710e-003	-2.649543e-003
2063794.765	3.130716e-003	-2.557489e-003	1.001324e+000	-3.587529e-002	1.000872e+000	-3.628699e-002	3.561327e-003	-2.748562e-003
2126333.849	2.660229e-003	-3.101528e-003	1.000758e+000	-3.709228e-002	1.000254e+000	-3.658601e-002	3.825676e-003	-2.508992e-003
2188872.933	3.155012e-003	-3.094552e-003	1.000591e+000	-3.819001e-002	1.000226e+000	-3.766958e-002	3.692168e-003	-2.563117e-003
2251412.017	3.253632e-003	-3.479535e-003	1.000438e+000	-3.967939e-002	1.000286e+000	-3.874896e-002	3.686936e-003	-2.698067e-003
2313951.101	3.556750e-003	-3.077622e-003	9.998546e-001	-4.063369e-002	1.000364e+000	-3.944745e-002	3.974724e-003	-2.765461e-003
2376490.184	3.315942e-003	-3.115600e-003	9.996511e-001	-4.116959e-002	1.000263e+000	-4.145295e-002	3.947106e-003	-2.787730e-003
2439029.268	3.763601e-003	-3.156138e-003	9.997443e-001	-4.276922e-002	9.995286e-001	-4.246275e-002	3.607303e-003	-2.687464e-003
2501568.352	3.717806e-003	-3.170190e-003	9.993179e-001	-4.282886e-002	1.000317e+000	-4.302635e-002	3.887913e-003	-2.737352e-003
2564107.436	3.630306e-003	-3.354526e-003	9.996601e-001	-4.483068e-002	1.000124e+000	-4.455088e-002	3.195338e-003	-3.142406e-003
2626646.520	4.134374e-003	-3.541948e-003	9.996345e-001	-4.586185e-002	9.989027e-001	-4.580063e-002	3.452660e-003	-3.215053e-003
2689185.604	4.075694e-003	-3.393337e-003	9.999223e-001	-4.653529e-002	9.997733e-001	-4.656579e-002	3.573320e-003	-3.175291e-003
2751724.687	4.183996e-003	-3.515728e-003	9.997107e-001	-4.730543e-002	9.997047e-001	-4.732313e-002	3.173484e-003	-3.232787e-003
2814263.771	4.129381e-003	-3.591217e-003	9.989107e-001	-4.906672e-002	9.992848e-001	-4.851828e-002	3.159826e-003	-3.373180e-003
2876802.855	4.081877e-003	-3.826182e-003	9.989312e-001	-5.044304e-002	9.993275e-001	-4.970915e-002	3.224953e-003	-3.284792e-003
2939341.939	4.205536e-003	-3.766827e-003	9.996932e-001	-5.107182e-002	9.991625e-001	-5.111050e-002	3.115136e-003	-3.383862e-003
3001881.023	4.128792e-003	-3.776304e-003	9.993286e-001	-5.219405e-002	9.992099e-001	-5.223766e-002	3.212323e-003	-3.550372e-003
3064420.106	4.163542e-003	-3.850252e-003	9.997963e-001	-5.310758e-002	9.990587e-001	-5.311215e-002	3.034754e-003	-3.698486e-003
3126959.190	4.352671e-003	-3.982027e-003	9.993594e-001	-5.440183e-002	9.992934e-001	-5.432929e-002	3.203364e-003	-3.798162e-003
3189498.274	4.325242e-003	-3.972595e-003	9.992565e-001	-5.533663e-002	9.992185e-001	-5.542463e-002	3.203609e-003	-3.873885e-003
3252037.358	4.245966e-003	-4.347021e-003	9.993464e-001	-5.649826e-002	9.993134e-001	-5.641037e-002	3.134806e-003	-3.850333e-003
3314576.442	4.255425e-003	-4.234511e-003	9.991979e-001	-5.751340e-002	9.991538e-001	-5.755225e-002	3.193021e-003	-3.990787e-003
3377115.525	4.233674e-003	-4.251793e-003	9.990423e-001	-5.857755e-002	9.989079e-001	-5.882062e-002	3.034239e-003	-4.165964e-003
3439654.609	4.211986e-003	-4.359061e-003	9.988636e-001	-5.966978e-002	9.991515e-001	-5.974668e-002	3.046130e-003	-3.994148e-003
3502193.693	4.175656e-003	-4.692529e-003	9.988404e-001	-6.090499e-002	9.988389e-001	-6.073403e-002	3.212165e-003	-4.080583e-003
3564732.777	4.228378e-003	-4.591949e-003	9.989018e-001	-6.188181e-002	9.988626e-001	-6.191485e-002	3.292337e-003	-4.107651e-003
3627271.861	4.066335e-003	-4.785138e-003	9.988977e-001	-6.306903e-002	9.988474e-001	-6.286532e-002	3.060707e-003	-4.365947e-003
3689810.944	3.965794e-003	-4.947457e-003	9.987251e-001	-6.417421e-002	9.988149e-001	-6.395152e-002	3.229760e-003	-4.393394e-003
3752350.028	4.081373e-003	-4.959001e-003	9.986471e-001	-6.498200e-002	9.985532e-001	-6.500564e-002	3.141779e-003	-4.491369e-003
3814889.112	4.179324e-003	-4.880347e-003	9.984935e-001	-6.615744e-002	9.987938e-001	-6.635742e-002	3.068724e-003	-4.666024e-003
3877428.196	4.113558e-003	-4.907847e-003	9.986266e-001	-6.725112e-002	9.986156e-001	-6.724982e-002	3.372646e-003	-4.713609e-003
3939967.280	4.092224e-003	-5.260303e-003	9.985171e-001	-6.840688e-002	9.986216e-001	-6.833681e-002	3.346453e-003	-4.670093e-003
4002506.363	4.139789e-003	-5.173022e-003	9.985131e-001	-6.944832e-002	9.985285e-001	-6.929419e-002	3.286444e-003	-4.809036e-003
4065045.447	3.957385e-003	-5.337075e-003	9.982541e-001	-7.062248e-002	9.983307e-001	-7.050388e-002	3.372088e-003	-4.976752e-003
4127584.531	3.932845e-003	-5.412285e-003	9.981563e-001	-7.169204e-002	9.982847e-001	-7.150081e-002	3.379299e-003	-4.926370e-003
4190123.615	3.979392e-003	-5.440591e-003	9.981453e-001	-7.294788e-002	9.981380e-001	-7.276056e-002	3.286159e-003	-5.217454e-003
4252662.699	3.905089e-003	-5.600948e-003	9.981883e-001	-7.404361e-002	9.980091e-001	-7.390701e-002	3.378803e-003	-5.248356e-003
4315201.782	4.055609e-003	-5.711220e-003	9.980981e-001	-7.489264e-002	9.981929e-001	-7.500968e-002	3.196160e-003	-5.521188e-003
4377740.866	3.959459e-003	-5.790612e-003	9.981122e-001	-7.617170e-002	9.979027e-001	-7.609328e-002	3.356770e-003	-5.284244e-003
4440279.950	3.839138e-003	-6.005142e-003	9.979805e-001	-7.710827e-002	9.977367e-001	-7.704641e-002	3.239816e-003	-5.532055e-003
4502819.034	3.821657e-003	-5.958211e-003	9.976432e-001	-7.828768e-002	9.977508e-001	-7.812182e-002	3.319840e-003	-5.446000e-003
4565358.118	3.736872e-003	-6.069245e-003	9.976193e-001	-7.929422e-002	9.975191e-001	-7.905269e-002	3.315188e-003	-5.622824e-003
4627897.201	3.909129e-003	-6.010527e-003	9.977525e-001	-8.039859e-002	9.975454e-001	-8.012399e-002	3.410358e-003	-5.601340e-003
4690436.285	3.725802e-003	-6.218653e-003	9.976867e-001	-8.154648e-002	9.974997e-001	-8.158394e-002	3.395630e-003	-5.867117e-003
4752975.369	3.721355e-003	-6.295262e-003	9.972977e-001	-8.272807e-002	9.975185e-001	-8.256433e-002	3.217535e-003	-5.986836e-003
4815514.453	3.837537e-003	-6.376121e-003	9.974454e-001	-8.371514e-002	9.973867e-001	-8.374024e-002	3.431832e-003	-5.969000e-003
4878053.537	3.928213e-003	-6.538647e-003	9.973930e-001	-8.474421e-002	9.972988e-001	-8.465138e-002	3.374533e-003	-6.129050e-003
4940592.620	3.658744e-003	-6.568656e-003	9.971968e-001	-8.588260e-002	9.972462e-001	-8.586531e-002	3.142846e-003	-6.242014e-003
5003131.704	3.713512e-003	-6.801381e-003	9.970704e-001	-8.696903e-002	9.972074e-001	-8.669577e-002	3.264903e-003	-6.374159e-003
5065670.788	3.633483e-003	-6.673384e-003	9.969995e-001	-8.812358e-002	9.970504e-001	-8.788200e-002	3.226692e-003	-6.417280e-003
5128209.872	3.736726e-003	-6.886934e-003	9.970777e-001	-8.913153e-002	9.969220e-001	-8.896085e-002	3.188186e-003	-6.682361e-003
5190748.956	3.661375e-003	-6.982904e-003	9.968456e-001	-9.029604e-002	9.969328e-001	-9.017172e-002	3.154856e-003	-6.667275e-003
5253288.039	3.695681e-003	-7.112872e-003	9.968723e-001	-9.137469e-002	9.968443e-001	-9.124480e-002	3.067198e-003	-6.672530e-003
5315827.123	3.655350e-003	-7.239969e-003	9.965929e-001	-9.244639e-002	9.966701e-001	-9.232785e-002	3.038705e-003	-6.844076e-003
5378366.207	3.728637e-003	-7.293900e-003	9.966425e-001	-9.353805e-002	9.966585e-001	-9.360110e-002	3.023880e-003	-7.021827e-003
5440905.291	3.548596e-003	-7.280884e-003	9.966057e-001	-9.461512e-002	9.965569e-001	-9.455993e-002	2.907095e-003	-7.057406e-003
5503444.375	3.736409e-003	-7.536412e-003	9.964857e-001	-9.578266e-002	9.965058e-001	-9.551905e-002	3.086901e-003	-7.215977e-003
5565983.458	3.364978e-003	-7.497211e-003	9.963784e-001	-9.674802e-002	9.963909e-001	-9.658247e-002	2.988574e-003	-7.147286e-003
5628522.542	3.624180e-003	-7.662300e-003	9.963307e-001	-9.776249e-002	9.962877e-001	-9.780719e-002	3.036718e-003	-7.359025e-003
5691061.626	3.681986e-003	-7.924904e-003	9.961565e-001	-9.909117e-002	9.961636e-001	-9.895142e-002	2.933306e-003	-7.394102e-003
5753600.710	3.523879e-003	-7.932775e-003	9.960167e-001	-1.000534e-001	9.960958e-001	-9.994436e-002	2.973576e-003	-7.620336e-003
5816139.794	3.604389e-003	-7.820694e-003	9.959328e-001	-1.011905e-001	9.958229e-001	-1.012114e-001	2.819558e-003	-7.658849e-003
5878678.877	3.505226e-003	-8.159521e-003	9.958487e-001	-1.022696e-001	9.957964e-001	-1.021760e-001	2.920458e-003	-7.883154e-003
5941217.961	3.486451e-003	-8.300161e-003	9.956660e-001	-1.034608e-001	9.957091e-001	-1.031181e-001	2.716710e-003	-7.883368e-003
6003757.045	3.307154e-003	-8.186903e-003	9.954455e-001	-1.043718e-001	9.955593e-001	-1.042130e-001	2.823397e-003	-7.988065e-003
6066296.129	3.432453e-003	-8.450801e-003	9.955394e-001	-1.054722e-001	9.954875e-001	-1.052902e-001	2.785242e-003	-8.110584e-003
6128835.213	3.513339e-003	-8.518487e-003	9.954011e-001	-1.062756e-001	9.955117e-001	-1.064872e-001	2.867924e-003	-8.192550e-003
6191374.296	3.457438e-003	-8.645660e-003	9.952577e-001	-1.076186e-001	9.952243e-001	-1.076982e-001	2.698492e-003	-8.201299e-003
6253913.380	3.349024e-003	-8.616594e-003	9.951760e-001	-1.087689e-001	9.951370e-001	-1.085982e-001	2.564269e-003	-8.174779e-003
6316452.464	3.296558e-003	-8.615206e-003	9.950439e-001	-1.097141e-001	9.948841e-001	-1.098915e-001	2.601021e-003	-8.493787e-003
6378991.548	3.245574e-003	-8.876226e-003	9.949196e-001	-1.111945e-001	9.950084e-001	-1.108594e-001	2.647015e-003	-8.701239e-003
6441530.632	3.190442e-003	-9.048082e-003	9.947372e-001	-1.119390e-001	9.948161e-001	-1.120788e-001	2.665429e-003	-8.692688e-003
6504069.715	3.166262e-003	-9.157729e-003	9.945530e-001	-1.133124e-001	9.948266e-001	-1.130712e-001	2.674351e-003	-8.780258e-003
6566608.799	3.294468e-003	-9.307792e-003	9.946241e-001	-1.144229e-001	9.945790e-001	-1.142050e-001	2.550182e-003	-8.692048e-003
6629147.883	3.231927e-003	-9.271946e-003	9.943937e-001	-1.151401e-001	9.943979e-001	-1.153042e-001	2.624940e-003	-8.918242e-003
6691686.967	3.096715e-003	-9.344955e-003	9.942282e-001	-1.163372e-001	9.942678e-001	-1.163625e-001	2.641826e-003	-8.927578e-003
6754226.051	3.024776e-003	-9.457769e-003	9.940936e-001	-1.175538e-001	9.940185e-001	-1.176219e-001	2.419426e-003	-9.229366e-003
6816765.134	3.108478e-003	-9.560533e-003	9.940190e-001	-1.185638e-001	9.940506e-001	-1.185217e-001	2.465216e-003	-9.130235e-003
6879304.218	2.985196e-003	-9.822740e-003	9.938018e-001	-1.196954e-001	9.939350e-001	-1.196033e-001	2.434576e-003	-9.282648e-003
6941843.302	3.044044e-003	-9.750805e-003	9.937051e-001	-1.208029e-001	9.937996e-001	-1.206563e-001	2.407656e-003	-9.285386e-003
7004382.386	2.826212e-003	-9.767284e-003	9.936434e-001	-1.217790e-001	9.935852e-001	-1.217697e-001	2.292293e-003	-9.354062e-003
7066921.470	2.899089e-003	-9.910550e-003	9.934171e-001	-1.230129e-001	9.935327e-001	-1.226729e-001	2.460245e-003	-9.604178e-003
7129460.553	2.789697e-003	-1.010959e-002	9.933504e-001	-1.239089e-001	9.933945e-001	-1.238942e-001	2.425065e-003	-9.629370e-003
7191999.637	2.745436e-003	-9.963771e-003	9.930053e-001	-1.251166e-001	9.930575e-001	-1.249461e-001	2.271731e-003	-9.727581e-003
7254538.721	2.790875e-003	-1.018195e-002	9.932043e-001	-1.262137e-001	9.931465e-001	-1.261351e-001	2.298024e-003	-9.801771e-003
7317077.805	2.942353e-003	-1.029070e-002	9.929461e-001	-1.271829e-001	9.929946e-001	-1.271284e-001	2.257728e-003	-9.994504e-003
7379616.889	2.792940e-003	-1.038147e-002	9.929565e-001	-1.284701e-001	9.927757e-001	-1.282310e-001	2.180341e-003	-1.006245e-002
7442155.972	2.625876e-003	-1.048489e-002	9.926343e-001	-1.293823e-001	9.926970e-001	-1.292902e-001	2.251222e-003	-9.922136e-003
7504695.056	2.639966e-003	-1.066930e-002	9.924157e-001	-1.303750e-001	9.923985e-001	-1.305190e-001	2.263414e-003	-9.951707e-003
7567234.140	2.795337e-003	-1.082303e-002	9.924305e-001	-1.314474e-001	9.923053e-001	-1.315110e-001	2.165041e-003	-1.016118e-002
7629773.224	2.676624e-003	-1.060827e-002	9.923150e-001	-1.327279e-001	9.922994e-001	-1.325663e-001	2.067322e-003	-1.029979e-002
7692312.308	2.507509e-003	-1.077626e-002	9.921125e-001	-1.337913e-001	9.920579e-001	-1.337459e-001	2.094844e-003	-1.047595e-002
7754851.391	2.493442e-003	-1.101078e-002	9.919755e-001	-1.348929e-001	9.917929e-001	-1.346324e-001	2.025005e-003	-1.041958e-002
7817390.475	2.537556e-003	-1.089593e-002	9.918523e-001	-1.361049e-001	9.917171e-001	-1.359526e-001	1.919617e-003	-1.039653e-002
7879929.559	2.422857e-003	-1.117160e-002	9.915724e-001	-1.371677e-001	9.915331e-001	-1.371880e-001	2.024693e-003	-1.050031e-002
7942468.643	2.353245e-003	-1.131656e-002	9.915726e-001	-1.381899e-001	9.914942e-001	-1.382010e-001	1.982460e-003	-1.075737e-002
8005007.727	2.430297e-003	-1.136603e-002	9.912881e-001	-1.393187e-001	9.913719e-001	-1.392600e-001	1.862132e-003	-1.061924e-002
8067546.811	2.252094e-003	-1.142634e-002	9.911890e-001	-1.403570e-001	9.910486e-001	-1.402494e-001	1.758722e-003	-1.092256e-002
8130085.894	2.297165e-003	-1.157386e-002	9.909941e-001	-1.414050e-001	9.910058e-001	-1.413681e-001	1.944237e-003	-1.105156e-002
8192624.978	2.123364e-003	-1.171900e-002	9.906765e-001	-1.425941e-001	9.908721e-001	-1.424004e-001	1.957217e-003	-1.114979e-002
8255164.062	2.207997e-003	-1.179109e-002	9.906565e-001	-1.436279e-001	9.906351e-001	-1.435167e-001	1.906817e-003	-1.128587e-002
8317703.146	2.050688e-003	-1.176846e-002	9.905891e-001	-1.447467e-001	9.905940e-001	-1.446164e-001	1.688457e-003	-1.131724e-002
8380242.230	2.160776e-003	-1.209189e-002	9.902365e-001	-1.459500e-001	9.902914e-001	-1.456403e-001	1.634957e-003	-1.146358e-002
8442781.313	2.096536e-003	-1.213726e-002	9.903343e-001	-1.468749e-001	9.902073e-001	-1.466837e-001	1.583526e-003	-1.163655e-002
8505320.397	2.050792e-003	-1.209602e-002	9.901148e-001	-1.480327e-001	9.900128e-001	-1.478061e-001	1.503212e-003	-1.167187e-002
8567859.481	1.971550e-003	-1.202973e-002	9.898840e-001	-1.489323e-001	9.899473e-001	-1.489441e-001	1.501866e-003	-1.159201e-002
8630398.565	2.032415e-003	-1.217563e-002	9.895630e-001	-1.499735e-001	9.897604e-001	-1.499138e-001	1.350998e-003	-1.193544e-002
8692937.649	1.941617e-003	-1.246961e-002	9.894966e-001	-1.510407e-001	9.894490e-001	-1.510644e-001	1.266408e-003	-1.192327e-002
8755476.732	1.928537e-003	-1.249041e-002	9.893972e-001	-1.522592e-001	9.892751e-001	-1.519894e-001	1.306561e-003	-1.199718e-002
8818015.816	1.764962e-003	-1.260653e-002	9.890833e-001	-1.532376e-001	9.889491e-001	-1.531946e-001	1.377140e-003	-1.217126e-002
8880554.900	1.947617e-003	-1.265533e-002	9.890984e-001	-1.544233e-001	9.890877e-001	-1.541012e-001	1.200011e-003	-1.242843e-002
8943093.984	1.752313e-003	-1.264981e-002	9.888577e-001	-1.554058e-001	9.889246e-001	-1.551971e-001	1.187288e-003	-1.245152e-002
9005633.068	1.772716e-003	-1.283169e-002	9.886116e-001	-1.565274e-001	9.887726e-001	-1.564195e-001	1.057297e-003	-1.267352e-002
9068172.151	1.593020e-003	-1.291706e-002	9.885659e-001	-1.576465e-001	9.884820e-001	-1.573889e-001	1.079822e-003	-1.271680e-002
9130711.235	1.783050e-003	-1.307948e-002	9.882834e-001	-1.587094e-001	9.883216e-001	-1.584371e-001	1.096298e-003	-1.299468e-002
9193250.319	1.723638e-003	-1.318933e-002	9.882401e-001	-1.596550e-001	9.881007e-001	-1.596151e-001	9.700661e-004	-1.300433e-002
9255789.403	1.590084e-003	-1.343096e-002	9.881007e-001	-1.606356e-001	9.879472e-001	-1.606130e-001	8.023875e-004	-1.302495e-002
9318328.487	1.514657e-003	-1.342879e-002	9.878592e-001	-1.619523e-001	9.879127e-001	-1.616345e-001	8.777008e-004	-1.312277e-002
9380867.570	1.476496e-003	-1.338497e-002	9.877580e-001	-1.630432e-001	9.875511e-001	-1.628745e-001	8.400476e-004	-1.322981e-002
9443406.654	1.495961e-003	-1.348263e-002	9.876130e-001	-1.640275e-001	9.875814e-001	-1.639952e-001	8.359098e-004	-1.338044e-002
9505945.738	1.440411e-003	-1.355835e-002	9.871993e-001	-1.653388e-001	9.874212e-001	-1.650745e-001	7.531591e-004	-1.349392e-002
9568484.822	1.441433e-003	-1.367922e-002	9.871793e-001	-1.663596e-001	9.870065e-001	-1.661187e-001	5.043627e-004	-1.333644e-002
