!Agilent Technologies,E5061B,MY49102235,A.02.00
!Date: Tue Jul 11 16:14:05 2023
!Data & Calibration Information:
!Freq	S11:SOLT2(ON)	S21:SOLT2(ON)	S12:SOLT2(ON)	S22:SOLT2(ON)
# Hz S RI R 50
5.000	-5.176655e-003	-5.630249e-003	1.001703e+000	8.162974e-003	1.000383e+000	1.018594e-002	-1.483659e-003	-7.566810e-003
62544.084	5.834723e-003	-8.931070e-005	1.001163e+000	3.246460e-004	1.000819e+000	7.018885e-004	7.696242e-003	-2.472094e-003
125083.168	5.712826e-003	2.974772e-004	1.000794e+000	-1.461489e-003	1.000857e+000	-1.607840e-003	7.514402e-003	-1.505168e-003
187622.251	5.492602e-003	8.611443e-004	1.000296e+000	-3.290796e-003	1.001065e+000	-2.240620e-003	7.396559e-003	-1.195352e-003
250161.335	5.325001e-003	1.376268e-003	1.000488e+000	-4.617867e-003	1.000677e+000	-4.601499e-003	7.315047e-003	-4.816775e-004
312700.419	5.475964e-003	2.502858e-003	1.000809e+000	-5.670565e-003	1.000591e+000	-5.533089e-003	7.843175e-003	-3.960580e-004
375239.503	5.376937e-003	1.374303e-003	1.000960e+000	-7.455729e-003	1.000481e+000	-7.307803e-003	7.318665e-003	-1.749290e-004
437778.587	5.223084e-003	2.155137e-003	1.001217e+000	-8.003845e-003	1.001078e+000	-8.878828e-003	6.684984e-003	5.007104e-004
500317.670	4.704246e-003	2.665204e-003	1.001156e+000	-1.074345e-002	1.001650e+000	-1.080304e-002	4.911829e-003	1.080071e-003
562856.754	6.026636e-003	2.742244e-003	1.001192e+000	-1.274778e-002	1.001206e+000	-1.263388e-002	6.131980e-003	1.940103e-003
625395.838	5.244919e-003	3.284147e-003	1.002001e+000	-1.430950e-002	1.002136e+000	-1.408638e-002	6.243066e-003	2.902167e-003
687934.922	5.310370e-003	3.339312e-003	1.001048e+000	-1.571298e-002	1.001190e+000	-1.583140e-002	5.925671e-003	2.810146e-003
750474.006	4.513869e-003	4.022383e-003	1.000515e+000	-1.545757e-002	1.000751e+000	-1.523724e-002	5.695188e-003	3.349526e-003
813013.089	4.722284e-003	4.438924e-003	1.000851e+000	-1.760778e-002	1.000509e+000	-1.748696e-002	5.086878e-003	3.916445e-003
875552.173	4.472278e-003	4.987588e-003	1.000729e+000	-1.886167e-002	1.000880e+000	-1.900530e-002	5.886574e-003	3.901001e-003
938091.257	4.584344e-003	5.435147e-003	1.000877e+000	-2.079174e-002	1.000934e+000	-2.046690e-002	6.138839e-003	4.847683e-003
1000630.341	4.054209e-003	5.474085e-003	1.000395e+000	-2.248463e-002	1.000838e+000	-2.236789e-002	5.411742e-003	4.546435e-003
1063169.425	4.438218e-003	5.697978e-003	1.000739e+000	-2.435782e-002	1.000653e+000	-2.351601e-002	4.613573e-003	4.623474e-003
1125708.508	4.337537e-003	6.144154e-003	1.000468e+000	-2.569817e-002	1.000567e+000	-2.535339e-002	4.160634e-003	5.300830e-003
1188247.592	4.923586e-003	6.086304e-003	1.000706e+000	-2.732310e-002	1.000872e+000	-2.693315e-002	3.102246e-003	5.141918e-003
1250786.676	4.778912e-003	5.727059e-003	1.000189e+000	-2.761365e-002	1.000423e+000	-2.787538e-002	2.358373e-003	3.871846e-003
1313325.760	4.909079e-003	6.020462e-003	1.000546e+000	-2.944631e-002	1.000685e+000	-2.995805e-002	3.129178e-003	4.463983e-003
1375864.844	4.692451e-003	6.214628e-003	1.000124e+000	-3.186582e-002	1.000245e+000	-3.215563e-002	3.034070e-003	5.141132e-003
1438403.927	4.605285e-003	6.449268e-003	1.000091e+000	-3.285949e-002	1.000632e+000	-3.243600e-002	3.156975e-003	5.785130e-003
1500943.011	4.888117e-003	6.908054e-003	1.000782e+000	-3.421018e-002	1.001141e+000	-3.433676e-002	3.547685e-003	5.779460e-003
1563482.095	4.922339e-003	6.935337e-003	1.000340e+000	-3.603562e-002	1.000203e+000	-3.527238e-002	3.710017e-003	6.381732e-003
1626021.179	4.763727e-003	7.463488e-003	1.000124e+000	-3.768707e-002	1.000603e+000	-3.836418e-002	4.034924e-003	6.730431e-003
1688560.263	4.507944e-003	7.941657e-003	9.996239e-001	-3.974972e-002	1.000887e+000	-4.002840e-002	4.250429e-003	7.110809e-003
1751099.346	4.678191e-003	8.449445e-003	1.000132e+000	-4.118475e-002	1.000213e+000	-4.087546e-002	4.122603e-003	8.364488e-003
1813638.430	4.392964e-003	8.821196e-003	1.000542e+000	-4.324381e-002	1.000430e+000	-4.317472e-002	4.350297e-003	8.389454e-003
1876177.514	4.483716e-003	9.534370e-003	1.000639e+000	-4.447125e-002	1.000628e+000	-4.530039e-002	4.077683e-003	9.479118e-003
1938716.598	4.007417e-003	1.003269e-002	1.000918e+000	-4.589099e-002	1.000666e+000	-4.558330e-002	4.322868e-003	1.028590e-002
2001255.682	3.953089e-003	9.966728e-003	1.000710e+000	-4.771327e-002	1.000303e+000	-4.751052e-002	4.109986e-003	1.024388e-002
2063794.765	4.116871e-003	1.077515e-002	1.000247e+000	-4.914371e-002	9.998069e-001	-4.963900e-002	4.565327e-003	1.058051e-002
2126333.849	3.719430e-003	1.069876e-002	9.996809e-001	-5.075695e-002	9.991695e-001	-5.030208e-002	4.892228e-003	1.123808e-002
2188872.933	4.270068e-003	1.111948e-002	9.994193e-001	-5.233404e-002	9.991919e-001	-5.180298e-002	4.850927e-003	1.163430e-002
2251412.017	4.428882e-003	1.117095e-002	9.990368e-001	-5.430770e-002	9.992654e-001	-5.327494e-002	4.913710e-003	1.194549e-002
2313951.101	4.861461e-003	1.200751e-002	9.983721e-001	-5.567725e-002	9.990266e-001	-5.474533e-002	5.301397e-003	1.230048e-002
2376490.184	4.701409e-003	1.243801e-002	9.982967e-001	-5.662527e-002	9.989833e-001	-5.705440e-002	5.358144e-003	1.274725e-002
2439029.268	5.246637e-003	1.283034e-002	9.981083e-001	-5.877292e-002	9.979650e-001	-5.854178e-002	5.121874e-003	1.329276e-002
2501568.352	5.314831e-003	1.326357e-002	9.977443e-001	-5.939210e-002	9.987231e-001	-5.962300e-002	5.521812e-003	1.369988e-002
2564107.436	5.335470e-003	1.356981e-002	9.979710e-001	-6.164914e-002	9.984551e-001	-6.160352e-002	4.911602e-003	1.378013e-002
2626646.520	5.930787e-003	1.380945e-002	9.977161e-001	-6.316795e-002	9.971214e-001	-6.305289e-002	5.279347e-003	1.415138e-002
2689185.604	6.009410e-003	1.441226e-002	9.980006e-001	-6.434870e-002	9.977349e-001	-6.440643e-002	5.531812e-003	1.465020e-002
2751724.687	6.234274e-003	1.475644e-002	9.977830e-001	-6.566256e-002	9.975464e-001	-6.568062e-002	5.263154e-003	1.508347e-002
2814263.771	6.323698e-003	1.514850e-002	9.965938e-001	-6.781035e-002	9.971858e-001	-6.737579e-002	5.372899e-003	1.538646e-002
2876802.855	6.414173e-003	1.538322e-002	9.964570e-001	-6.976523e-002	9.969467e-001	-6.905570e-002	5.622260e-003	1.594847e-002
2939341.939	6.696161e-003	1.590927e-002	9.970216e-001	-7.074862e-002	9.967427e-001	-7.103204e-002	5.656002e-003	1.630817e-002
3001881.023	6.780496e-003	1.637054e-002	9.965578e-001	-7.228297e-002	9.965391e-001	-7.243196e-002	5.897590e-003	1.661328e-002
3064420.106	6.979106e-003	1.677188e-002	9.970291e-001	-7.374061e-002	9.962839e-001	-7.380940e-002	5.866045e-003	1.694778e-002
3126959.190	7.353037e-003	1.709530e-002	9.963167e-001	-7.549228e-002	9.963188e-001	-7.553435e-002	6.236680e-003	1.732099e-002
3189498.274	7.512753e-003	1.757089e-002	9.960653e-001	-7.687561e-002	9.960427e-001	-7.710202e-002	6.403773e-003	1.770364e-002
3252037.358	7.593189e-003	1.765968e-002	9.959706e-001	-7.856979e-002	9.959260e-001	-7.857500e-002	6.533943e-003	1.819157e-002
3314576.442	7.806091e-003	1.826896e-002	9.956359e-001	-8.004630e-002	9.955952e-001	-8.020979e-002	6.789118e-003	1.853910e-002
3377115.525	7.978069e-003	1.871911e-002	9.952235e-001	-8.154456e-002	9.951094e-001	-8.192696e-002	6.842902e-003	1.884185e-002
3439654.609	8.205287e-003	1.909526e-002	9.948160e-001	-8.309191e-002	9.951825e-001	-8.337871e-002	7.071067e-003	1.947024e-002
3502193.693	8.384890e-003	1.922454e-002	9.946222e-001	-8.481206e-002	9.946366e-001	-8.480735e-002	7.473274e-003	1.984820e-002
3564732.777	8.668674e-003	1.978256e-002	9.943839e-001	-8.629635e-002	9.943735e-001	-8.645405e-002	7.800029e-003	2.029728e-002
3627271.861	8.752004e-003	2.009300e-002	9.941798e-001	-8.792309e-002	9.941554e-001	-8.792998e-002	7.801673e-003	2.052523e-002
3689810.944	8.909410e-003	2.039589e-002	9.937210e-001	-8.949887e-002	9.938075e-001	-8.946337e-002	8.231674e-003	2.096114e-002
3752350.028	9.285306e-003	2.083147e-002	9.933586e-001	-9.078764e-002	9.933204e-001	-9.094094e-002	8.420594e-003	2.133179e-002
3814889.112	9.681497e-003	2.136157e-002	9.929575e-001	-9.241032e-002	9.932625e-001	-9.281424e-002	8.608100e-003	2.162247e-002
3877428.196	9.912292e-003	2.178681e-002	9.927854e-001	-9.405673e-002	9.928156e-001	-9.411910e-002	9.211088e-003	2.201054e-002
3939967.280	1.015889e-002	2.189202e-002	9.924109e-001	-9.565897e-002	9.925371e-001	-9.566994e-002	9.492118e-003	2.251146e-002
4002506.363	1.052722e-002	2.241793e-002	9.920955e-001	-9.713289e-002	9.921304e-001	-9.710681e-002	9.736679e-003	2.282044e-002
4065045.447	1.065383e-002	2.272957e-002	9.914995e-001	-9.871908e-002	9.915977e-001	-9.875960e-002	1.012954e-002	2.309249e-002
4127584.531	1.096824e-002	2.308175e-002	9.910747e-001	-1.002484e-001	9.912586e-001	-1.001595e-001	1.046412e-002	2.358338e-002
4190123.615	1.133562e-002	2.346977e-002	9.907629e-001	-1.019267e-001	9.906916e-001	-1.018517e-001	1.070506e-002	2.372898e-002
4252662.699	1.162812e-002	2.375344e-002	9.904419e-001	-1.034493e-001	9.902326e-001	-1.034800e-001	1.114927e-002	2.410323e-002
4315201.782	1.211892e-002	2.405168e-002	9.899855e-001	-1.047378e-001	9.900726e-001	-1.049744e-001	1.129472e-002	2.427303e-002
4377740.866	1.237348e-002	2.437867e-002	9.896108e-001	-1.064244e-001	9.893818e-001	-1.064906e-001	1.185356e-002	2.490251e-002
4440279.950	1.262918e-002	2.458434e-002	9.891809e-001	-1.077268e-001	9.888764e-001	-1.078451e-001	1.210732e-002	2.508899e-002
4502819.034	1.299807e-002	2.503817e-002	9.884376e-001	-1.092936e-001	9.885606e-001	-1.093646e-001	1.257003e-002	2.554656e-002
4565358.118	1.330071e-002	2.531289e-002	9.880592e-001	-1.107436e-001	9.879579e-001	-1.106514e-001	1.294845e-002	2.575915e-002
4627897.201	1.386928e-002	2.573522e-002	9.876937e-001	-1.122181e-001	9.875483e-001	-1.121476e-001	1.344153e-002	2.615908e-002
4690436.285	1.409727e-002	2.593545e-002	9.872470e-001	-1.137871e-001	9.870976e-001	-1.139781e-001	1.382373e-002	2.626718e-002
4752975.369	1.449785e-002	2.619984e-002	9.864429e-001	-1.153826e-001	9.866811e-001	-1.152781e-001	1.404695e-002	2.651600e-002
4815514.453	1.500651e-002	2.646863e-002	9.861943e-001	-1.166825e-001	9.861476e-001	-1.168235e-001	1.466985e-002	2.687051e-002
4878053.537	1.552243e-002	2.665802e-002	9.857482e-001	-1.180555e-001	9.856347e-001	-1.181131e-001	1.504756e-002	2.706525e-002
4940592.620	1.568637e-002	2.696573e-002	9.851183e-001	-1.195266e-001	9.851178e-001	-1.196416e-001	1.524761e-002	2.730693e-002
5003131.704	1.616576e-002	2.706858e-002	9.845575e-001	-1.209116e-001	9.846766e-001	-1.208140e-001	1.577761e-002	2.750244e-002
5065670.788	1.652102e-002	2.751121e-002	9.839896e-001	-1.223696e-001	9.840686e-001	-1.223377e-001	1.618891e-002	2.777160e-002
5128209.872	1.707477e-002	2.759334e-002	9.836559e-001	-1.237488e-001	9.835182e-001	-1.237234e-001	1.657284e-002	2.780017e-002
5190748.956	1.742793e-002	2.780892e-002	9.829842e-001	-1.251731e-001	9.830696e-001	-1.252532e-001	1.698870e-002	2.814498e-002
5253288.039	1.791883e-002	2.797239e-002	9.825169e-001	-1.265574e-001	9.825208e-001	-1.265818e-001	1.736788e-002	2.843174e-002
5315827.123	1.831243e-002	2.811330e-002	9.818096e-001	-1.279032e-001	9.818975e-001	-1.279817e-001	1.779799e-002	2.852237e-002
5378366.207	1.884040e-002	2.832467e-002	9.813886e-001	-1.292560e-001	9.813961e-001	-1.294858e-001	1.822908e-002	2.862733e-002
5440905.291	1.914031e-002	2.859820e-002	9.809136e-001	-1.306639e-001	9.808309e-001	-1.307587e-001	1.857972e-002	2.885281e-002
5503444.375	1.976865e-002	2.858221e-002	9.803016e-001	-1.320487e-001	9.803492e-001	-1.318825e-001	1.921704e-002	2.891504e-002
5565983.458	1.988705e-002	2.887434e-002	9.797622e-001	-1.332824e-001	9.797458e-001	-1.331955e-001	1.962156e-002	2.922169e-002
5628522.542	2.059663e-002	2.892614e-002	9.792481e-001	-1.344944e-001	9.792166e-001	-1.346451e-001	2.009340e-002	2.923991e-002
5691061.626	2.110012e-002	2.886897e-002	9.785456e-001	-1.360390e-001	9.785465e-001	-1.360320e-001	2.046010e-002	2.942275e-002
5753600.710	2.142413e-002	2.909123e-002	9.779634e-001	-1.371985e-001	9.780324e-001	-1.372680e-001	2.096123e-002	2.940463e-002
5816139.794	2.198425e-002	2.937257e-002	9.773973e-001	-1.384839e-001	9.772682e-001	-1.387217e-001	2.127736e-002	2.956347e-002
5878678.877	2.232906e-002	2.923037e-002	9.768464e-001	-1.397698e-001	9.768289e-001	-1.398628e-001	2.184920e-002	2.953006e-002
5941217.961	2.277134e-002	2.925373e-002	9.761947e-001	-1.411577e-001	9.762298e-001	-1.410082e-001	2.212008e-002	2.971872e-002
6003757.045	2.309836e-002	2.955152e-002	9.755447e-001	-1.422459e-001	9.756890e-001	-1.422750e-001	2.269194e-002	2.975853e-002
6066296.129	2.366529e-002	2.943582e-002	9.751608e-001	-1.434645e-001	9.751161e-001	-1.434330e-001	2.311987e-002	2.979610e-002
6128835.213	2.420349e-002	2.949813e-002	9.745825e-001	-1.444337e-001	9.746471e-001	-1.448219e-001	2.366293e-002	2.983891e-002
6191374.296	2.458299e-002	2.952586e-002	9.739633e-001	-1.459434e-001	9.739033e-001	-1.461827e-001	2.395406e-002	2.998873e-002
6253913.380	2.495861e-002	2.967991e-002	9.733682e-001	-1.472301e-001	9.733286e-001	-1.472104e-001	2.430771e-002	3.013556e-002
6316452.464	2.537165e-002	2.978752e-002	9.728646e-001	-1.482572e-001	9.726590e-001	-1.486113e-001	2.476422e-002	2.992739e-002
6378991.548	2.576216e-002	2.965686e-002	9.722362e-001	-1.498337e-001	9.723244e-001	-1.496887e-001	2.526078e-002	2.984154e-002
6441530.632	2.612551e-002	2.959983e-002	9.716397e-001	-1.507535e-001	9.716907e-001	-1.509993e-001	2.573663e-002	2.995125e-002
6504069.715	2.656225e-002	2.958100e-002	9.710072e-001	-1.521474e-001	9.712422e-001	-1.520708e-001	2.617722e-002	2.995021e-002
6566608.799	2.712325e-002	2.950399e-002	9.705673e-001	-1.533604e-001	9.705134e-001	-1.533138e-001	2.652301e-002	3.013188e-002
6629147.883	2.750288e-002	2.962429e-002	9.699818e-001	-1.542327e-001	9.699223e-001	-1.544521e-001	2.702070e-002	2.998143e-002
6691686.967	2.780815e-002	2.962732e-002	9.693193e-001	-1.554873e-001	9.693481e-001	-1.555799e-001	2.747018e-002	3.004287e-002
6754226.051	2.816299e-002	2.958068e-002	9.687193e-001	-1.567443e-001	9.686666e-001	-1.569254e-001	2.768191e-002	2.982142e-002
6816765.134	2.868267e-002	2.952738e-002	9.682546e-001	-1.578006e-001	9.682581e-001	-1.579387e-001	2.816018e-002	2.996716e-002
6879304.218	2.896085e-002	2.934832e-002	9.676406e-001	-1.589840e-001	9.677228e-001	-1.590128e-001	2.852885e-002	2.986631e-002
6941843.302	2.944589e-002	2.945931e-002	9.670438e-001	-1.601374e-001	9.671479e-001	-1.601410e-001	2.894919e-002	2.988869e-002
7004382.386	2.966600e-002	2.948067e-002	9.666103e-001	-1.611647e-001	9.665522e-001	-1.613058e-001	2.926954e-002	2.989284e-002
7066921.470	3.013924e-002	2.936441e-002	9.659817e-001	-1.624406e-001	9.660734e-001	-1.622443e-001	2.979335e-002	2.966529e-002
7129460.553	3.040703e-002	2.920033e-002	9.655470e-001	-1.633694e-001	9.655507e-001	-1.635118e-001	3.018999e-002	2.966585e-002
7191999.637	3.080351e-002	2.937518e-002	9.647654e-001	-1.645475e-001	9.648289e-001	-1.645718e-001	3.042854e-002	2.959674e-002
7254538.721	3.121465e-002	2.917231e-002	9.645496e-001	-1.657280e-001	9.644988e-001	-1.657578e-001	3.083948e-002	2.953919e-002
7317077.805	3.174806e-002	2.906723e-002	9.639441e-001	-1.666715e-001	9.639594e-001	-1.668103e-001	3.120822e-002	2.936589e-002
7379616.889	3.198585e-002	2.899824e-002	9.635695e-001	-1.679979e-001	9.633854e-001	-1.679198e-001	3.151634e-002	2.931569e-002
7442155.972	3.220063e-002	2.893007e-002	9.628432e-001	-1.689155e-001	9.628748e-001	-1.689336e-001	3.198117e-002	2.944373e-002
7504695.056	3.259922e-002	2.874970e-002	9.622820e-001	-1.698910e-001	9.621958e-001	-1.701505e-001	3.235943e-002	2.940712e-002
7567234.140	3.310093e-002	2.857962e-002	9.619075e-001	-1.710021e-001	9.617205e-001	-1.712159e-001	3.263672e-002	2.923142e-002
7629773.224	3.337766e-002	2.877788e-002	9.613944e-001	-1.722582e-001	9.613610e-001	-1.722790e-001	3.290525e-002	2.909152e-002
7692312.308	3.358292e-002	2.862907e-002	9.608482e-001	-1.732885e-001	9.607438e-001	-1.733938e-001	3.330314e-002	2.891385e-002
7754851.391	3.389867e-002	2.839140e-002	9.603317e-001	-1.744236e-001	9.601199e-001	-1.742606e-001	3.358197e-002	2.893891e-002
7817390.475	3.432213e-002	2.848156e-002	9.598223e-001	-1.755972e-001	9.596801e-001	-1.755548e-001	3.386102e-002	2.894757e-002
7879929.559	3.454646e-002	2.820273e-002	9.592498e-001	-1.766690e-001	9.591291e-001	-1.768020e-001	3.431669e-002	2.883149e-002
7942468.643	3.482194e-002	2.806247e-002	9.588732e-001	-1.776457e-001	9.587671e-001	-1.777994e-001	3.459710e-002	2.857006e-002
8005007.727	3.524371e-002	2.798063e-002	9.582554e-001	-1.787819e-001	9.582640e-001	-1.788202e-001	3.484192e-002	2.867062e-002
8067546.811	3.540849e-002	2.790616e-002	9.577891e-001	-1.797878e-001	9.576481e-001	-1.798169e-001	3.507013e-002	2.837671e-002
8130085.894	3.577595e-002	2.772200e-002	9.572755e-001	-1.807802e-001	9.572374e-001	-1.809232e-001	3.558447e-002	2.820108e-002
8192624.978	3.592441e-002	2.757383e-002	9.566198e-001	-1.820094e-001	9.567605e-001	-1.819621e-001	3.592771e-002	2.807666e-002
8255164.062	3.635127e-002	2.747536e-002	9.562663e-001	-1.830040e-001	9.561970e-001	-1.830337e-001	3.619414e-002	2.791194e-002
8317703.146	3.654556e-002	2.745945e-002	9.558246e-001	-1.840752e-001	9.558305e-001	-1.840868e-001	3.632438e-002	2.787177e-002
8380242.230	3.692711e-002	2.710649e-002	9.551951e-001	-1.851878e-001	9.552370e-001	-1.850978e-001	3.658755e-002	2.769424e-002
8442781.313	3.719974e-002	2.704048e-002	9.549669e-001	-1.861308e-001	9.548179e-001	-1.861430e-001	3.685452e-002	2.749920e-002
8505320.397	3.747618e-002	2.703661e-002	9.544204e-001	-1.872577e-001	9.543099e-001	-1.871901e-001	3.710226e-002	2.742619e-002
8567859.481	3.773388e-002	2.706232e-002	9.538734e-001	-1.881055e-001	9.538612e-001	-1.881996e-001	3.742308e-002	2.744378e-002
8630398.565	3.807741e-002	2.688641e-002	9.532530e-001	-1.891149e-001	9.534376e-001	-1.892218e-001	3.758091e-002	2.709072e-002
8692937.649	3.828762e-002	2.654729e-002	9.529244e-001	-1.901871e-001	9.527802e-001	-1.903047e-001	3.779620e-002	2.706203e-002
8755476.732	3.857275e-002	2.649642e-002	9.524229e-001	-1.912906e-001	9.523585e-001	-1.912332e-001	3.813748e-002	2.694952e-002
8818015.816	3.872585e-002	2.633405e-002	9.519250e-001	-1.923288e-001	9.517251e-001	-1.923262e-001	3.848844e-002	2.672472e-002
8880554.900	3.919677e-002	2.621886e-002	9.515907e-001	-1.934085e-001	9.515278e-001	-1.932504e-001	3.862554e-002	2.646195e-002
8943093.984	3.929748e-002	2.620362e-002	9.510437e-001	-1.943494e-001	9.510698e-001	-1.943051e-001	3.891056e-002	2.637484e-002
9005633.068	3.960193e-002	2.597430e-002	9.505005e-001	-1.954318e-001	9.506556e-001	-1.955060e-001	3.905298e-002	2.611976e-002
9068172.151	3.973067e-002	2.584741e-002	9.501779e-001	-1.965101e-001	9.500692e-001	-1.963559e-001	3.935324e-002	2.602350e-002
9130711.235	4.017557e-002	2.562080e-002	9.495835e-001	-1.974886e-001	9.496654e-001	-1.973953e-001	3.963294e-002	2.570112e-002
9193250.319	4.039307e-002	2.546652e-002	9.493116e-001	-1.983682e-001	9.491636e-001	-1.985287e-001	3.981621e-002	2.564257e-002
9255789.403	4.052272e-002	2.520063e-002	9.488951e-001	-1.993218e-001	9.486777e-001	-1.994957e-001	3.993888e-002	2.556711e-002
9318328.487	4.073094e-002	2.515420e-002	9.483706e-001	-2.005947e-001	9.483922e-001	-2.004783e-001	4.027630e-002	2.541987e-002
9380867.570	4.099219e-002	2.510996e-002	9.479524e-001	-2.016192e-001	9.477762e-001	-2.016023e-001	4.052118e-002	2.524986e-002
9443406.654	4.127283e-002	2.496113e-002	9.474945e-001	-2.025597e-001	9.474717e-001	-2.026669e-001	4.078004e-002	2.504080e-002
9505945.738	4.148123e-002	2.483647e-002	9.468516e-001	-2.037158e-001	9.470605e-001	-2.036905e-001	4.096574e-002	2.489081e-002
9568484.822	4.173445e-002	2.465241e-002	9.465576e-001	-2.046883e-001	9.463431e-001	-2.046439e-001	4.102348e-002	2.499567e-002
9631023.906	4.195870e-002	2.451532e-002	9.461612e-001	-2.056897e-001	9.459363e-001	-2.057359e-001	4.139669e-002	2.452976e-002
9693562.989	4.220456e-002	2.434765e-002	9.455659e-001	-2.067199e-001	9.456022e-001	-2.066667e-001	4.139868e-002	2.451814e-002
9756102.073	4.239582e-002	2.417215e-002	9.453814e-001	-2.077802e-001	9.451359e-001	-2.076149e-001	4.163550e-002	2.423613e-002
