!Agilent Technologies,E5061B,MY49102235,A.02.00
!Date: Tue Jul 11 16:19:37 2023
!Data & Calibration Information:
!Freq	S11:SOLT2(ON)	S21:SOLT2(ON)	S12:SOLT2(ON)	S22:SOLT2(ON)
# Hz S RI R 50
5.000	-5.187237e-003	-5.642783e-003	1.001545e+000	8.039514e-003	1.000307e+000	1.022351e-002	-1.512995e-003	-7.545539e-003
62544.084	5.817946e-003	-4.551949e-004	1.001299e+000	5.936056e-004	1.000895e+000	1.172289e-003	7.706707e-003	-2.838747e-003
125083.168	5.680182e-003	-4.260090e-004	1.000877e+000	-7.910790e-004	1.000710e+000	-8.603760e-004	7.501266e-003	-2.203517e-003
187622.251	5.483380e-003	-2.225982e-004	1.000303e+000	-2.139693e-003	1.001042e+000	-1.030797e-003	7.390377e-003	-2.273019e-003
250161.335	5.275989e-003	-3.478824e-005	1.000567e+000	-3.349671e-003	1.000744e+000	-3.341390e-003	7.265303e-003	-1.896741e-003
312700.419	5.427878e-003	7.047128e-004	1.000857e+000	-3.872382e-003	1.000657e+000	-3.765954e-003	7.779070e-003	-2.177586e-003
375239.503	5.312098e-003	-7.613604e-004	1.000984e+000	-5.382775e-003	1.000623e+000	-5.103626e-003	7.261233e-003	-2.321005e-003
437778.587	5.140278e-003	-3.384747e-004	1.001315e+000	-5.538754e-003	1.001093e+000	-6.305299e-003	6.625196e-003	-1.987164e-003
500317.670	4.580989e-003	-1.866817e-004	1.001300e+000	-8.004646e-003	1.001693e+000	-7.806343e-003	4.816952e-003	-1.800099e-003
562856.754	5.891259e-003	-4.767333e-004	1.001439e+000	-9.502052e-003	1.001263e+000	-9.411859e-003	6.019566e-003	-1.269390e-003
625395.838	5.092852e-003	-2.960988e-004	1.002211e+000	-1.067257e-002	1.002256e+000	-1.037489e-002	6.104269e-003	-6.630388e-004
687934.922	5.156379e-003	-6.046103e-004	1.001203e+000	-1.164343e-002	1.001365e+000	-1.187532e-002	5.756730e-003	-1.113965e-003
750474.006	4.338808e-003	-2.341909e-004	1.000760e+000	-1.112686e-002	1.000903e+000	-1.106296e-002	5.515376e-003	-9.004917e-004
813013.089	4.516645e-003	-1.799784e-004	1.001063e+000	-1.304251e-002	1.000737e+000	-1.275185e-002	4.885888e-003	-6.910132e-004
875552.173	4.245108e-003	1.383652e-005	1.001002e+000	-1.394673e-002	1.001157e+000	-1.412037e-002	5.672645e-003	-1.060595e-003
938091.257	4.317908e-003	1.091157e-004	1.001084e+000	-1.546755e-002	1.001260e+000	-1.516726e-002	5.905353e-003	-4.616448e-004
1000630.341	3.778472e-003	-2.157035e-004	1.000716e+000	-1.690584e-002	1.001114e+000	-1.667723e-002	5.151523e-003	-1.130276e-003
1063169.425	4.136133e-003	-3.488366e-004	1.001071e+000	-1.818493e-002	1.000719e+000	-1.749768e-002	4.330105e-003	-1.429382e-003
1125708.508	4.009765e-003	-2.786698e-004	1.000824e+000	-1.945397e-002	1.000859e+000	-1.884574e-002	3.844821e-003	-1.100315e-003
1188247.592	4.566020e-003	-6.872660e-004	1.000974e+000	-2.063638e-002	1.001075e+000	-2.004052e-002	2.739697e-003	-1.643633e-003
1250786.676	4.411154e-003	-1.410730e-003	1.000545e+000	-2.055066e-002	1.000829e+000	-2.071462e-002	1.996633e-003	-3.275766e-003
1313325.760	4.515051e-003	-1.471594e-003	1.001047e+000	-2.209389e-002	1.001144e+000	-2.234671e-002	2.745935e-003	-3.040273e-003
1375864.844	4.238330e-003	-1.636023e-003	1.000535e+000	-2.402268e-002	1.000683e+000	-2.410019e-002	2.609543e-003	-2.728947e-003
1438403.927	4.139659e-003	-1.765892e-003	1.000576e+000	-2.465443e-002	1.001008e+000	-2.409313e-002	2.677368e-003	-2.454898e-003
1500943.011	4.361294e-003	-1.670350e-003	1.001221e+000	-2.562262e-002	1.001439e+000	-2.560548e-002	3.032715e-003	-2.822582e-003
1563482.095	4.385066e-003	-2.011147e-003	1.000954e+000	-2.706375e-002	1.000696e+000	-2.630436e-002	3.156383e-003	-2.593980e-003
1626021.179	4.176737e-003	-1.858933e-003	1.000752e+000	-2.826534e-002	1.001153e+000	-2.896868e-002	3.439805e-003	-2.611388e-003
1688560.263	3.876691e-003	-1.760927e-003	1.000410e+000	-3.005113e-002	1.001435e+000	-3.029680e-002	3.622817e-003	-2.607684e-003
1751099.346	4.009874e-003	-1.645214e-003	1.001018e+000	-3.127695e-002	1.000869e+000	-3.075815e-002	3.429379e-003	-1.728486e-003
1813638.430	3.661772e-003	-1.670836e-003	1.001361e+000	-3.278260e-002	1.001110e+000	-3.261908e-002	3.610246e-003	-2.088217e-003
1876177.514	3.689102e-003	-1.347133e-003	1.001599e+000	-3.371847e-002	1.001475e+000	-3.424362e-002	3.276021e-003	-1.392476e-003
1938716.598	3.152714e-003	-1.249645e-003	1.001797e+000	-3.462593e-002	1.001395e+000	-3.412467e-002	3.450052e-003	-9.732916e-004
2001255.682	3.067703e-003	-1.691281e-003	1.001708e+000	-3.601236e-002	1.001390e+000	-3.579733e-002	3.213327e-003	-1.415933e-003
2063794.765	3.144298e-003	-1.289438e-003	1.001322e+000	-3.704070e-002	1.000856e+000	-3.752281e-002	3.595762e-003	-1.468144e-003
2126333.849	2.696178e-003	-1.777309e-003	1.000783e+000	-3.829430e-002	1.000320e+000	-3.791329e-002	3.864323e-003	-1.194652e-003
2188872.933	3.168620e-003	-1.748156e-003	1.000477e+000	-3.946185e-002	1.000311e+000	-3.892606e-002	3.740739e-003	-1.224965e-003
2251412.017	3.286621e-003	-2.094371e-003	1.000280e+000	-4.104570e-002	1.000415e+000	-4.001934e-002	3.731618e-003	-1.310495e-003
2313951.101	3.609230e-003	-1.653004e-003	9.997258e-001	-4.214921e-002	1.000431e+000	-4.097343e-002	4.039059e-003	-1.346123e-003
2376490.184	3.359582e-003	-1.661458e-003	9.997632e-001	-4.249745e-002	1.000248e+000	-4.283873e-002	3.991572e-003	-1.322852e-003
2439029.268	3.812206e-003	-1.664924e-003	9.995665e-001	-4.435414e-002	9.994142e-001	-4.401973e-002	3.671911e-003	-1.195449e-003
2501568.352	3.788708e-003	-1.655332e-003	9.993711e-001	-4.440441e-002	1.000181e+000	-4.464501e-002	3.957898e-003	-1.213178e-003
2564107.436	3.698595e-003	-1.783508e-003	9.996110e-001	-4.622768e-002	1.000040e+000	-4.617686e-002	3.262084e-003	-1.559000e-003
2626646.520	4.175886e-003	-1.936671e-003	9.995348e-001	-4.744533e-002	9.988143e-001	-4.726109e-002	3.513773e-003	-1.598918e-003
2689185.604	4.138908e-003	-1.746613e-003	9.998594e-001	-4.822457e-002	9.996769e-001	-4.817427e-002	3.653273e-003	-1.528396e-003
2751724.687	4.245308e-003	-1.828207e-003	9.997589e-001	-4.907448e-002	9.995041e-001	-4.901660e-002	3.252501e-003	-1.541083e-003
2814263.771	4.211142e-003	-1.870478e-003	9.988226e-001	-5.085477e-002	9.992714e-001	-5.033875e-002	3.224237e-003	-1.650178e-003
2876802.855	4.153962e-003	-2.062897e-003	9.989415e-001	-5.230318e-002	9.992585e-001	-5.140635e-002	3.301389e-003	-1.496064e-003
2939341.939	4.276249e-003	-1.958139e-003	9.994840e-001	-5.280327e-002	9.990870e-001	-5.306896e-002	3.211418e-003	-1.603002e-003
3001881.023	4.204051e-003	-1.928526e-003	9.991837e-001	-5.390778e-002	9.990704e-001	-5.407383e-002	3.296080e-003	-1.715565e-003
3064420.106	4.244978e-003	-1.973785e-003	9.996001e-001	-5.500362e-002	9.989808e-001	-5.502286e-002	3.127798e-003	-1.825413e-003
3126959.190	4.442750e-003	-2.054120e-003	9.992737e-001	-5.631032e-002	9.991959e-001	-5.624495e-002	3.311485e-003	-1.876115e-003
3189498.274	4.431447e-003	-2.008262e-003	9.991907e-001	-5.730064e-002	9.991015e-001	-5.740441e-002	3.299285e-003	-1.920503e-003
3252037.358	4.342531e-003	-2.368051e-003	9.992214e-001	-5.850314e-002	9.991343e-001	-5.840853e-002	3.248972e-003	-1.861328e-003
3314576.442	4.359114e-003	-2.191679e-003	9.991010e-001	-5.954503e-002	9.990065e-001	-5.963525e-002	3.307164e-003	-1.969974e-003
3377115.525	4.317835e-003	-2.183252e-003	9.989281e-001	-6.060120e-002	9.987804e-001	-6.084065e-002	3.152153e-003	-2.093932e-003
3439654.609	4.330034e-003	-2.243509e-003	9.987474e-001	-6.176945e-002	9.990402e-001	-6.187235e-002	3.169267e-003	-1.897701e-003
3502193.693	4.293622e-003	-2.552324e-003	9.987384e-001	-6.298949e-002	9.987177e-001	-6.289476e-002	3.328667e-003	-1.936804e-003
3564732.777	4.343719e-003	-2.413531e-003	9.987480e-001	-6.406908e-002	9.987202e-001	-6.415432e-002	3.423969e-003	-1.931586e-003
3627271.861	4.183659e-003	-2.541801e-003	9.987428e-001	-6.524945e-002	9.987693e-001	-6.509764e-002	3.194668e-003	-2.136793e-003
3689810.944	4.091271e-003	-2.677137e-003	9.985961e-001	-6.635993e-002	9.986276e-001	-6.623042e-002	3.356271e-003	-2.130356e-003
3752350.028	4.206286e-003	-2.661435e-003	9.985039e-001	-6.725880e-002	9.983901e-001	-6.732311e-002	3.288982e-003	-2.183852e-003
3814889.112	4.331082e-003	-2.545242e-003	9.983526e-001	-6.848518e-002	9.985743e-001	-6.873150e-002	3.208181e-003	-2.335289e-003
3877428.196	4.269795e-003	-2.531560e-003	9.984869e-001	-6.963778e-002	9.984627e-001	-6.965059e-002	3.532890e-003	-2.346072e-003
3939967.280	4.231269e-003	-2.852368e-003	9.983495e-001	-7.082690e-002	9.984593e-001	-7.077610e-002	3.504611e-003	-2.265326e-003
4002506.363	4.295700e-003	-2.730035e-003	9.983378e-001	-7.191401e-002	9.983364e-001	-7.174871e-002	3.451584e-003	-2.356815e-003
4065045.447	4.121024e-003	-2.834512e-003	9.980671e-001	-7.310612e-002	9.981257e-001	-7.301435e-002	3.542276e-003	-2.482104e-003
4127584.531	4.098709e-003	-2.880148e-003	9.979876e-001	-7.415518e-002	9.980773e-001	-7.408301e-002	3.556135e-003	-2.402211e-003
4190123.615	4.144259e-003	-2.883758e-003	9.979947e-001	-7.551211e-002	9.979043e-001	-7.530945e-002	3.460315e-003	-2.653365e-003
4252662.699	4.085146e-003	-2.999074e-003	9.980088e-001	-7.664631e-002	9.978070e-001	-7.655685e-002	3.571283e-003	-2.658391e-003
4315201.782	4.237467e-003	-3.067208e-003	9.979137e-001	-7.752356e-002	9.979785e-001	-7.767177e-002	3.382668e-003	-2.876481e-003
4377740.866	4.137025e-003	-3.113732e-003	9.979276e-001	-7.880192e-002	9.976950e-001	-7.883160e-002	3.566873e-003	-2.605409e-003
4440279.950	4.034327e-003	-3.291459e-003	9.977434e-001	-7.978988e-002	9.975142e-001	-7.979509e-002	3.450778e-003	-2.811941e-003
4502819.034	4.025217e-003	-3.187141e-003	9.974384e-001	-8.101483e-002	9.975810e-001	-8.093391e-002	3.531873e-003	-2.697807e-003
4565358.118	3.941952e-003	-3.278289e-003	9.974065e-001	-8.208156e-002	9.973177e-001	-8.187117e-002	3.533394e-003	-2.836242e-003
4627897.201	4.121206e-003	-3.181869e-003	9.974733e-001	-8.322153e-002	9.972985e-001	-8.297930e-002	3.630942e-003	-2.757386e-003
4690436.285	3.946688e-003	-3.332974e-003	9.974259e-001	-8.442329e-002	9.972996e-001	-8.451214e-002	3.628367e-003	-2.996508e-003
4752975.369	3.950935e-003	-3.381900e-003	9.970969e-001	-8.568668e-002	9.972403e-001	-8.549011e-002	3.464825e-003	-3.083641e-003
4815514.453	4.061459e-003	-3.419558e-003	9.971849e-001	-8.664865e-002	9.971502e-001	-8.671416e-002	3.665869e-003	-3.029027e-003
4878053.537	4.160342e-003	-3.545423e-003	9.971537e-001	-8.770790e-002	9.969921e-001	-8.768789e-002	3.637047e-003	-3.144761e-003
4940592.620	3.900335e-003	-3.558456e-003	9.968988e-001	-8.888093e-002	9.969434e-001	-8.892133e-002	3.388701e-003	-3.231358e-003
5003131.704	3.963198e-003	-3.727519e-003	9.968283e-001	-8.996025e-002	9.969185e-001	-8.978983e-002	3.516457e-003	-3.325203e-003
5065670.788	3.900281e-003	-3.570456e-003	9.967036e-001	-9.118701e-002	9.967434e-001	-9.103936e-002	3.496193e-003	-3.319708e-003
5128209.872	4.015988e-003	-3.747455e-003	9.967974e-001	-9.228683e-002	9.966652e-001	-9.213320e-002	3.465313e-003	-3.561749e-003
5190748.956	3.921008e-003	-3.806231e-003	9.965719e-001	-9.341072e-002	9.966464e-001	-9.337193e-002	3.426801e-003	-3.489311e-003
5253288.039	3.970867e-003	-3.889245e-003	9.965443e-001	-9.458893e-002	9.965286e-001	-9.447508e-002	3.350231e-003	-3.449908e-003
5315827.123	3.930150e-003	-3.996921e-003	9.962579e-001	-9.568179e-002	9.963823e-001	-9.562999e-002	3.333671e-003	-3.599516e-003
5378366.207	4.028398e-003	-3.997854e-003	9.963317e-001	-9.682131e-002	9.963156e-001	-9.693893e-002	3.327439e-003	-3.736736e-003
5440905.291	3.839338e-003	-3.955364e-003	9.962654e-001	-9.796935e-002	9.962211e-001	-9.791285e-002	3.209767e-003	-3.735032e-003
5503444.375	4.039040e-003	-4.172786e-003	9.961073e-001	-9.914660e-002	9.961936e-001	-9.887404e-002	3.409600e-003	-3.850143e-003
5565983.458	3.686781e-003	-4.095166e-003	9.960756e-001	-1.001163e-001	9.960359e-001	-9.999671e-002	3.331390e-003	-3.750802e-003
5628522.542	3.941276e-003	-4.218855e-003	9.959621e-001	-1.012142e-001	9.959615e-001	-1.013086e-001	3.367965e-003	-3.915906e-003
5691061.626	4.011380e-003	-4.453335e-003	9.957812e-001	-1.025475e-001	9.957503e-001	-1.024503e-001	3.268368e-003	-3.918242e-003
5753600.710	3.851122e-003	-4.400022e-003	9.956061e-001	-1.035578e-001	9.956987e-001	-1.034938e-001	3.317469e-003	-4.097455e-003
5816139.794	3.953285e-003	-4.277892e-003	9.955787e-001	-1.047052e-001	9.954285e-001	-1.048011e-001	3.167314e-003	-4.110858e-003
5878678.877	3.840633e-003	-4.552455e-003	9.954995e-001	-1.058795e-001	9.953932e-001	-1.058280e-001	3.276953e-003	-4.289689e-003
5941217.961	3.829177e-003	-4.675741e-003	9.953025e-001	-1.070579e-001	9.953082e-001	-1.068064e-001	3.080404e-003	-4.249909e-003
6003757.045	3.674601e-003	-4.508216e-003	9.950318e-001	-1.080348e-001	9.951663e-001	-1.079155e-001	3.206560e-003	-4.319354e-003
6066296.129	3.806867e-003	-4.750610e-003	9.951612e-001	-1.091651e-001	9.950636e-001	-1.090080e-001	3.172020e-003	-4.400873e-003
6128835.213	3.892455e-003	-4.776837e-003	9.950025e-001	-1.100243e-001	9.951123e-001	-1.102694e-001	3.266332e-003	-4.456280e-003
6191374.296	3.829991e-003	-4.852288e-003	9.948399e-001	-1.113989e-001	9.948113e-001	-1.114880e-001	3.100340e-003	-4.411434e-003
6253913.380	3.722144e-003	-4.792620e-003	9.947451e-001	-1.125740e-001	9.946955e-001	-1.124538e-001	2.978923e-003	-4.354300e-003
6316452.464	3.703353e-003	-4.761521e-003	9.946468e-001	-1.135347e-001	9.944547e-001	-1.138328e-001	3.011468e-003	-4.635745e-003
6378991.548	3.652716e-003	-4.974454e-003	9.944974e-001	-1.150972e-001	9.945812e-001	-1.147770e-001	3.076119e-003	-4.812914e-003
6441530.632	3.590861e-003	-5.111425e-003	9.943043e-001	-1.158460e-001	9.943538e-001	-1.160212e-001	3.111758e-003	-4.757779e-003
6504069.715	3.585022e-003	-5.176402e-003	9.941514e-001	-1.172622e-001	9.943909e-001	-1.170690e-001	3.109396e-003	-4.814188e-003
6566608.799	3.721324e-003	-5.292028e-003	9.941530e-001	-1.184313e-001	9.940921e-001	-1.182559e-001	3.005187e-003	-4.676496e-003
6629147.883	3.672794e-003	-5.217710e-003	9.939472e-001	-1.191956e-001	9.939395e-001	-1.193749e-001	3.075256e-003	-4.876614e-003
6691686.967	3.541540e-003	-5.263973e-003	9.937452e-001	-1.204435e-001	9.937535e-001	-1.204531e-001	3.102440e-003	-4.843475e-003
6754226.051	3.487123e-003	-5.329786e-003	9.935728e-001	-1.217018e-001	9.935237e-001	-1.217696e-001	2.895163e-003	-5.118520e-003
6816765.134	3.571527e-003	-5.387597e-003	9.935362e-001	-1.227338e-001	9.935700e-001	-1.227244e-001	2.937567e-003	-4.962672e-003
6879304.218	3.456241e-003	-5.606206e-003	9.933577e-001	-1.238936e-001	9.934376e-001	-1.238362e-001	2.929360e-003	-5.094163e-003
6941843.302	3.523246e-003	-5.504368e-003	9.931943e-001	-1.250607e-001	9.932401e-001	-1.249160e-001	2.913916e-003	-5.059282e-003
7004382.386	3.325769e-003	-5.491497e-003	9.931265e-001	-1.260448e-001	9.930752e-001	-1.260759e-001	2.822655e-003	-5.072819e-003
7066921.470	3.404751e-003	-5.595533e-003	9.928853e-001	-1.273033e-001	9.930024e-001	-1.270327e-001	2.975960e-003	-5.287381e-003
7129460.553	3.291690e-003	-5.770306e-003	9.928009e-001	-1.282747e-001	9.928640e-001	-1.283036e-001	2.962912e-003	-5.286191e-003
7191999.637	3.273254e-003	-5.577392e-003	9.924572e-001	-1.295011e-001	9.925206e-001	-1.293583e-001	2.810294e-003	-5.337072e-003
7254538.721	3.323693e-003	-5.748745e-003	9.926659e-001	-1.306504e-001	9.926100e-001	-1.305572e-001	2.848034e-003	-5.371689e-003
7317077.805	3.485497e-003	-5.820959e-003	9.924041e-001	-1.316240e-001	9.924540e-001	-1.316148e-001	2.827503e-003	-5.528395e-003
7379616.889	3.337080e-003	-5.881484e-003	9.923887e-001	-1.329656e-001	9.922128e-001	-1.327806e-001	2.756602e-003	-5.560330e-003
7442155.972	3.183541e-003	-5.937251e-003	9.920876e-001	-1.339129e-001	9.921331e-001	-1.338553e-001	2.837232e-003	-5.404579e-003
7504695.056	3.203696e-003	-6.072353e-003	9.918210e-001	-1.349623e-001	9.918250e-001	-1.351121e-001	2.846137e-003	-5.383743e-003
7567234.140	3.375877e-003	-6.200958e-003	9.918225e-001	-1.360946e-001	9.916961e-001	-1.362154e-001	2.766337e-003	-5.546650e-003
7629773.224	3.266574e-003	-5.950378e-003	9.917293e-001	-1.373598e-001	9.916948e-001	-1.372617e-001	2.671803e-003	-5.648543e-003
7692312.308	3.107660e-003	-6.068006e-003	9.915587e-001	-1.384420e-001	9.914100e-001	-1.384813e-001	2.726391e-003	-5.786356e-003
7754851.391	3.086849e-003	-6.281892e-003	9.913534e-001	-1.396305e-001	9.911475e-001	-1.393909e-001	2.656557e-003	-5.704398e-003
7817390.475	3.161254e-003	-6.123098e-003	9.911956e-001	-1.408673e-001	9.910604e-001	-1.407164e-001	2.564332e-003	-5.637296e-003
7879929.559	3.059281e-003	-6.361445e-003	9.909298e-001	-1.420071e-001	9.909050e-001	-1.420369e-001	2.677785e-003	-5.690882e-003
7942468.643	2.992696e-003	-6.467342e-003	9.909185e-001	-1.430238e-001	9.908149e-001	-1.430986e-001	2.649283e-003	-5.924815e-003
8005007.727	3.084278e-003	-6.487705e-003	9.906305e-001	-1.442265e-001	9.906961e-001	-1.441767e-001	2.522428e-003	-5.748059e-003
8067546.811	2.906861e-003	-6.485065e-003	9.905083e-001	-1.453066e-001	9.903747e-001	-1.451951e-001	2.436658e-003	-6.014238e-003
8130085.894	2.970488e-003	-6.612105e-003	9.902980e-001	-1.463422e-001	9.902702e-001	-1.463885e-001	2.634494e-003	-6.106108e-003
8192624.978	2.793515e-003	-6.724726e-003	9.899817e-001	-1.475783e-001	9.901307e-001	-1.474923e-001	2.674195e-003	-6.160018e-003
8255164.062	2.896651e-003	-6.751853e-003	9.899725e-001	-1.486858e-001	9.898717e-001	-1.486280e-001	2.614589e-003	-6.262193e-003
8317703.146	2.758530e-003	-6.686670e-003	9.898529e-001	-1.498151e-001	9.898531e-001	-1.497279e-001	2.422996e-003	-6.260395e-003
8380242.230	2.873433e-003	-6.983960e-003	9.895110e-001	-1.510250e-001	9.895760e-001	-1.507862e-001	2.372640e-003	-6.371589e-003
8442781.313	2.817238e-003	-6.994647e-003	9.896151e-001	-1.520164e-001	9.894648e-001	-1.518949e-001	2.329776e-003	-6.507548e-003
8505320.397	2.790583e-003	-6.911740e-003	9.893756e-001	-1.531803e-001	9.892452e-001	-1.530793e-001	2.254567e-003	-6.501395e-003
8567859.481	2.720384e-003	-6.804807e-003	9.891251e-001	-1.541173e-001	9.891381e-001	-1.541780e-001	2.274894e-003	-6.377367e-003
8630398.565	2.793353e-003	-6.901951e-003	9.887918e-001	-1.552374e-001	9.889722e-001	-1.552341e-001	2.137483e-003	-6.679349e-003
8692937.649	2.697786e-003	-7.163491e-003	9.887462e-001	-1.563628e-001	9.886003e-001	-1.563919e-001	2.061235e-003	-6.627092e-003
8755476.732	2.700294e-003	-7.150814e-003	9.885726e-001	-1.575889e-001	9.884646e-001	-1.574246e-001	2.109154e-003	-6.662653e-003
8818015.816	2.567018e-003	-7.234129e-003	9.883219e-001	-1.586320e-001	9.881183e-001	-1.585920e-001	2.188959e-003	-6.808607e-003
8880554.900	2.751876e-003	-7.254508e-003	9.882816e-001	-1.598278e-001	9.882382e-001	-1.595635e-001	2.026572e-003	-7.019066e-003
8943093.984	2.573724e-003	-7.192599e-003	9.880328e-001	-1.608380e-001	9.880408e-001	-1.607032e-001	2.024665e-003	-7.006918e-003
9005633.068	2.604021e-003	-7.340178e-003	9.877586e-001	-1.620246e-001	9.879205e-001	-1.619594e-001	1.911038e-003	-7.194790e-003
9068172.151	2.424713e-003	-7.395033e-003	9.877016e-001	-1.631638e-001	9.875986e-001	-1.629593e-001	1.925792e-003	-7.189457e-003
9130711.235	2.627738e-003	-7.508020e-003	9.874007e-001	-1.642783e-001	9.874596e-001	-1.640511e-001	1.951818e-003	-7.437089e-003
9193250.319	2.582548e-003	-7.596282e-003	9.873585e-001	-1.652541e-001	9.872028e-001	-1.652643e-001	1.841871e-003	-7.407078e-003
9255789.403	2.450713e-003	-7.791422e-003	9.872124e-001	-1.662818e-001	9.870529e-001	-1.662893e-001	1.681700e-003	-7.401192e-003
9318328.487	2.389063e-003	-7.751665e-003	9.869755e-001	-1.676227e-001	9.870265e-001	-1.673587e-001	1.783084e-003	-7.460729e-003
9380867.570	2.368141e-003	-7.685480e-003	9.868368e-001	-1.687787e-001	9.866772e-001	-1.686430e-001	1.751595e-003	-7.522296e-003
9443406.654	2.399974e-003	-7.729110e-003	9.866424e-001	-1.697884e-001	9.866012e-001	-1.697918e-001	1.762117e-003	-7.648130e-003
9505945.738	2.344217e-003	-7.761956e-003	9.862634e-001	-1.710659e-001	9.864986e-001	-1.708675e-001	1.689158e-003	-7.710059e-003
9568484.822	2.371901e-003	-7.862893e-003	9.862203e-001	-1.721365e-001	9.860419e-001	-1.719732e-001	1.462523e-003	-7.520276e-003
