!Agilent Technologies,E5061B,MY49102235,A.02.00
!Date: Tue Jul 11 16:21:22 2023
!Data & Calibration Information:
!Freq	S11:SOLT2(ON)	S21:SOLT2(ON)	S12:SOLT2(ON)	S22:SOLT2(ON)
# Hz S RI R 50
5.000	-5.309571e-003	-5.652256e-003	1.001720e+000	8.045131e-003	1.000301e+000	1.022265e-002	-1.525808e-003	-7.520874e-003
62544.084	5.814963e-003	-5.041196e-004	1.001291e+000	6.488615e-004	1.000854e+000	1.178014e-003	7.701700e-003	-2.871116e-003
125083.168	5.673064e-003	-4.809298e-004	1.000890e+000	-8.963503e-004	1.000759e+000	-8.490727e-004	7.499644e-003	-2.260102e-003
187622.251	5.465766e-003	-3.019710e-004	1.000343e+000	-2.170452e-003	1.001045e+000	-9.575830e-004	7.381304e-003	-2.360312e-003
250161.335	5.284244e-003	-1.810548e-004	1.000543e+000	-3.088748e-003	1.000824e+000	-3.156670e-003	7.264780e-003	-2.028179e-003
312700.419	5.431412e-003	5.591081e-004	1.000741e+000	-3.721395e-003	1.000717e+000	-3.528080e-003	7.778673e-003	-2.353814e-003
375239.503	5.282534e-003	-9.611961e-004	1.001134e+000	-5.247266e-003	1.000638e+000	-4.977295e-003	7.263976e-003	-2.498846e-003
437778.587	5.143902e-003	-5.601374e-004	1.001305e+000	-5.367740e-003	1.001054e+000	-6.078639e-003	6.624870e-003	-2.212127e-003
500317.670	4.584797e-003	-4.339088e-004	1.001192e+000	-7.687534e-003	1.001707e+000	-7.672905e-003	4.818165e-003	-2.030413e-003
562856.754	5.896496e-003	-7.493738e-004	1.001359e+000	-9.239870e-003	1.001234e+000	-9.135342e-003	6.018189e-003	-1.530857e-003
625395.838	5.089066e-003	-5.834250e-004	1.002070e+000	-1.043418e-002	1.002230e+000	-1.009337e-002	6.106243e-003	-9.749508e-004
687934.922	5.149895e-003	-9.382885e-004	1.001237e+000	-1.136264e-002	1.001336e+000	-1.156317e-002	5.751661e-003	-1.440802e-003
750474.006	4.330059e-003	-6.052523e-004	1.000678e+000	-1.076732e-002	1.001052e+000	-1.061389e-002	5.526790e-003	-1.268587e-003
813013.089	4.518137e-003	-5.785750e-004	1.001132e+000	-1.263408e-002	1.000784e+000	-1.239893e-002	4.894797e-003	-1.086195e-003
875552.173	4.243581e-003	-4.368656e-004	1.000958e+000	-1.362669e-002	1.001227e+000	-1.349343e-002	5.680089e-003	-1.485249e-003
938091.257	4.325228e-003	-3.509150e-004	1.001169e+000	-1.502977e-002	1.001281e+000	-1.471816e-002	5.922273e-003	-9.325989e-004
1000630.341	3.772997e-003	-7.159181e-004	1.000721e+000	-1.636117e-002	1.001172e+000	-1.606900e-002	5.160851e-003	-1.627441e-003
1063169.425	4.129821e-003	-8.753792e-004	1.000931e+000	-1.776058e-002	1.000772e+000	-1.694979e-002	4.327084e-003	-1.949921e-003
1125708.508	4.016540e-003	-8.259709e-004	1.000804e+000	-1.883248e-002	1.000908e+000	-1.834830e-002	3.834304e-003	-1.668050e-003
1188247.592	4.553324e-003	-1.276769e-003	1.001032e+000	-2.002484e-002	1.001088e+000	-1.945240e-002	2.731786e-003	-2.237953e-003
1250786.676	4.400303e-003	-2.026965e-003	1.000590e+000	-1.993130e-002	1.000847e+000	-2.012713e-002	2.006490e-003	-3.908724e-003
1313325.760	4.503744e-003	-2.122024e-003	1.001000e+000	-2.141868e-002	1.001164e+000	-2.166018e-002	2.741777e-003	-3.688134e-003
1375864.844	4.234170e-003	-2.324081e-003	1.000591e+000	-2.334088e-002	1.000713e+000	-2.350039e-002	2.588490e-003	-3.423562e-003
1438403.927	4.132458e-003	-2.484581e-003	1.000606e+000	-2.398874e-002	1.001017e+000	-2.346248e-002	2.675209e-003	-3.174384e-003
1500943.011	4.356352e-003	-2.417463e-003	1.001305e+000	-2.485381e-002	1.001554e+000	-2.495593e-002	3.023400e-003	-3.578135e-003
1563482.095	4.349789e-003	-2.799308e-003	1.000787e+000	-2.631926e-002	1.000853e+000	-2.559178e-002	3.164784e-003	-3.379898e-003
1626021.179	4.161336e-003	-2.674288e-003	1.000685e+000	-2.744295e-002	1.001207e+000	-2.822180e-002	3.431128e-003	-3.430152e-003
1688560.263	3.853560e-003	-2.607610e-003	1.000477e+000	-2.927099e-002	1.001448e+000	-2.946097e-002	3.603654e-003	-3.442830e-003
1751099.346	3.997581e-003	-2.523920e-003	1.001045e+000	-3.036968e-002	1.000823e+000	-2.987789e-002	3.401485e-003	-2.609472e-003
1813638.430	3.641353e-003	-2.577434e-003	1.001162e+000	-3.195900e-002	1.001155e+000	-3.181539e-002	3.598648e-003	-2.996602e-003
1876177.514	3.662528e-003	-2.280860e-003	1.001609e+000	-3.276196e-002	1.001508e+000	-3.337542e-002	3.255605e-003	-2.331026e-003
1938716.598	3.128771e-003	-2.210772e-003	1.001792e+000	-3.364009e-002	1.001525e+000	-3.321472e-002	3.425474e-003	-1.940784e-003
2001255.682	3.033830e-003	-2.688859e-003	1.001725e+000	-3.499829e-002	1.001433e+000	-3.476834e-002	3.172672e-003	-2.408693e-003
2063794.765	3.121488e-003	-2.316872e-003	1.001291e+000	-3.612132e-002	1.000799e+000	-3.648680e-002	3.559755e-003	-2.498721e-003
2126333.849	2.660902e-003	-2.840208e-003	1.000815e+000	-3.716844e-002	1.000200e+000	-3.697818e-002	3.805912e-003	-2.275037e-003
2188872.933	3.139442e-003	-2.851507e-003	1.000542e+000	-3.847069e-002	1.000223e+000	-3.777241e-002	3.698566e-003	-2.312262e-003
2251412.017	3.246679e-003	-3.229682e-003	1.000286e+000	-4.000169e-002	1.000513e+000	-3.892851e-002	3.700521e-003	-2.423925e-003
2313951.101	3.558222e-003	-2.799414e-003	9.998385e-001	-4.097454e-002	1.000425e+000	-3.967917e-002	3.986199e-003	-2.503314e-003
2376490.184	3.314204e-003	-2.841157e-003	9.996931e-001	-4.122036e-002	1.000293e+000	-4.174089e-002	3.951423e-003	-2.511569e-003
2439029.268	3.761302e-003	-2.884876e-003	9.995881e-001	-4.309632e-002	9.994667e-001	-4.273641e-002	3.607756e-003	-2.417046e-003
2501568.352	3.730638e-003	-2.899333e-003	9.993510e-001	-4.330278e-002	1.000300e+000	-4.334572e-002	3.902864e-003	-2.447268e-003
2564107.436	3.647773e-003	-3.041457e-003	9.997993e-001	-4.492272e-002	1.000060e+000	-4.499642e-002	3.205531e-003	-2.838494e-003
2626646.520	4.125180e-003	-3.243773e-003	9.995842e-001	-4.614497e-002	9.990284e-001	-4.597536e-002	3.463530e-003	-2.919398e-003
2689185.604	4.086324e-003	-3.092725e-003	1.000019e+000	-4.687252e-002	9.996623e-001	-4.678555e-002	3.580042e-003	-2.865448e-003
2751724.687	4.191474e-003	-3.198304e-003	9.997580e-001	-4.765125e-002	9.995837e-001	-4.758993e-002	3.192419e-003	-2.920790e-003
2814263.771	4.137086e-003	-3.268316e-003	9.988360e-001	-4.947183e-002	9.992159e-001	-4.895065e-002	3.157082e-003	-3.061308e-003
2876802.855	4.084947e-003	-3.498548e-003	9.989344e-001	-5.078480e-002	9.994203e-001	-4.997782e-002	3.238491e-003	-2.937962e-003
2939341.939	4.191168e-003	-3.423804e-003	9.994694e-001	-5.132084e-002	9.993399e-001	-5.151770e-002	3.136619e-003	-3.062018e-003
3001881.023	4.120593e-003	-3.430941e-003	9.991539e-001	-5.249335e-002	9.991743e-001	-5.254057e-002	3.223017e-003	-3.215485e-003
3064420.106	4.162247e-003	-3.493179e-003	9.998257e-001	-5.346367e-002	9.991405e-001	-5.348222e-002	3.055897e-003	-3.345055e-003
3126959.190	4.368929e-003	-3.609961e-003	9.993830e-001	-5.475164e-002	9.992871e-001	-5.469205e-002	3.223279e-003	-3.420599e-003
3189498.274	4.354309e-003	-3.603154e-003	9.992796e-001	-5.571673e-002	9.991761e-001	-5.580430e-002	3.214731e-003	-3.521538e-003
3252037.358	4.261130e-003	-3.979670e-003	9.993467e-001	-5.687651e-002	9.992124e-001	-5.680496e-002	3.156081e-003	-3.474064e-003
3314576.442	4.267197e-003	-3.850504e-003	9.991864e-001	-5.791626e-002	9.991128e-001	-5.794853e-002	3.213915e-003	-3.609253e-003
3377115.525	4.223166e-003	-3.868887e-003	9.990130e-001	-5.890021e-002	9.988515e-001	-5.919086e-002	3.050665e-003	-3.776066e-003
3439654.609	4.235374e-003	-3.960283e-003	9.988279e-001	-6.004394e-002	9.991449e-001	-6.021582e-002	3.078360e-003	-3.604929e-003
3502193.693	4.189711e-003	-4.278530e-003	9.988087e-001	-6.128441e-002	9.988152e-001	-6.113770e-002	3.233849e-003	-3.688309e-003
3564732.777	4.236717e-003	-4.183919e-003	9.988815e-001	-6.226752e-002	9.988210e-001	-6.234160e-002	3.309330e-003	-3.691466e-003
3627271.861	4.081357e-003	-4.356259e-003	9.988780e-001	-6.346001e-002	9.988363e-001	-6.331848e-002	3.094790e-003	-3.949349e-003
3689810.944	3.989333e-003	-4.511543e-003	9.987147e-001	-6.456365e-002	9.987735e-001	-6.436050e-002	3.236184e-003	-3.965370e-003
3752350.028	4.102405e-003	-4.523079e-003	9.986052e-001	-6.536979e-002	9.985171e-001	-6.543851e-002	3.170822e-003	-4.062591e-003
3814889.112	4.208551e-003	-4.444934e-003	9.984702e-001	-6.658069e-002	9.987071e-001	-6.682267e-002	3.075865e-003	-4.233272e-003
3877428.196	4.140858e-003	-4.471364e-003	9.986375e-001	-6.770978e-002	9.985912e-001	-6.767674e-002	3.404599e-003	-4.263427e-003
3939967.280	4.104923e-003	-4.814634e-003	9.984522e-001	-6.885851e-002	9.985999e-001	-6.878338e-002	3.369380e-003	-4.212041e-003
4002506.363	4.169117e-003	-4.713899e-003	9.984586e-001	-6.989792e-002	9.984888e-001	-6.978510e-002	3.317671e-003	-4.346927e-003
4065045.447	3.979631e-003	-4.869785e-003	9.982246e-001	-7.107555e-002	9.982731e-001	-7.101110e-002	3.393581e-003	-4.512002e-003
4127584.531	3.942390e-003	-4.942227e-003	9.981034e-001	-7.214891e-002	9.982077e-001	-7.197983e-002	3.414676e-003	-4.460876e-003
4190123.615	3.984423e-003	-4.973001e-003	9.981797e-001	-7.343023e-002	9.980241e-001	-7.322480e-002	3.309238e-003	-4.741025e-003
4252662.699	3.944011e-003	-5.109909e-003	9.981828e-001	-7.452929e-002	9.979867e-001	-7.444664e-002	3.419411e-003	-4.769891e-003
4315201.782	4.078537e-003	-5.214810e-003	9.980491e-001	-7.540540e-002	9.981357e-001	-7.551514e-002	3.229206e-003	-5.024127e-003
4377740.866	3.977993e-003	-5.300221e-003	9.980647e-001	-7.663805e-002	9.978440e-001	-7.660022e-002	3.397882e-003	-4.779751e-003
4440279.950	3.868950e-003	-5.498248e-003	9.979459e-001	-7.754466e-002	9.976803e-001	-7.758136e-002	3.289943e-003	-5.019931e-003
4502819.034	3.857724e-003	-5.426728e-003	9.975832e-001	-7.876715e-002	9.977455e-001	-7.865694e-002	3.355678e-003	-4.925181e-003
4565358.118	3.751734e-003	-5.547117e-003	9.975706e-001	-7.982016e-002	9.974810e-001	-7.960447e-002	3.355917e-003	-5.108552e-003
4627897.201	3.924184e-003	-5.479091e-003	9.976701e-001	-8.091757e-002	9.974801e-001	-8.067108e-002	3.459205e-003	-5.059212e-003
4690436.285	3.760008e-003	-5.678406e-003	9.976314e-001	-8.207361e-002	9.974713e-001	-8.219103e-002	3.441014e-003	-5.319829e-003
4752975.369	3.759679e-003	-5.754644e-003	9.972524e-001	-8.328250e-002	9.974258e-001	-8.315014e-002	3.264119e-003	-5.458460e-003
4815514.453	3.870636e-003	-5.812696e-003	9.974217e-001	-8.427234e-002	9.973496e-001	-8.429268e-002	3.466229e-003	-5.429377e-003
4878053.537	3.958421e-003	-5.983476e-003	9.973552e-001	-8.531191e-002	9.972009e-001	-8.524395e-002	3.428788e-003	-5.578213e-003
4940592.620	3.699767e-003	-6.010685e-003	9.971389e-001	-8.642289e-002	9.971513e-001	-8.643873e-002	3.188930e-003	-5.693079e-003
5003131.704	3.762009e-003	-6.222249e-003	9.970099e-001	-8.752473e-002	9.971241e-001	-8.728112e-002	3.310862e-003	-5.795210e-003
5065670.788	3.669772e-003	-6.099982e-003	9.969499e-001	-8.865623e-002	9.969873e-001	-8.847190e-002	3.264143e-003	-5.837096e-003
5128209.872	3.792372e-003	-6.298295e-003	9.970168e-001	-8.969613e-002	9.968915e-001	-8.958772e-002	3.235959e-003	-6.119879e-003
5190748.956	3.693940e-003	-6.394551e-003	9.967942e-001	-9.083350e-002	9.968461e-001	-9.082652e-002	3.199639e-003	-6.066389e-003
5253288.039	3.732940e-003	-6.506869e-003	9.967920e-001	-9.198244e-002	9.967736e-001	-9.186960e-002	3.129671e-003	-6.065013e-003
5315827.123	3.689528e-003	-6.640552e-003	9.964823e-001	-9.300722e-002	9.966052e-001	-9.297824e-002	3.097616e-003	-6.244830e-003
5378366.207	3.779083e-003	-6.661041e-003	9.965795e-001	-9.414152e-002	9.965660e-001	-9.422007e-002	3.079669e-003	-6.396995e-003
5440905.291	3.576451e-003	-6.661982e-003	9.965175e-001	-9.529226e-002	9.964870e-001	-9.519531e-002	2.965634e-003	-6.433732e-003
5503444.375	3.781857e-003	-6.903199e-003	9.964123e-001	-9.639384e-002	9.964493e-001	-9.616217e-002	3.152062e-003	-6.587747e-003
5565983.458	3.416100e-003	-6.868008e-003	9.963332e-001	-9.738752e-002	9.963560e-001	-9.720999e-002	3.054199e-003	-6.507517e-003
5628522.542	3.667682e-003	-6.994362e-003	9.962317e-001	-9.841938e-002	9.962276e-001	-9.846701e-002	3.099948e-003	-6.715848e-003
5691061.626	3.735250e-003	-7.260862e-003	9.960718e-001	-9.970570e-002	9.960501e-001	-9.959929e-002	2.984782e-003	-6.748619e-003
5753600.710	3.576592e-003	-7.260983e-003	9.959191e-001	-1.006841e-001	9.959936e-001	-1.006088e-001	3.036989e-003	-6.959811e-003
5816139.794	3.661924e-003	-7.150619e-003	9.958873e-001	-1.018216e-001	9.957246e-001	-1.019363e-001	2.879222e-003	-6.987379e-003
5878678.877	3.557469e-003	-7.474292e-003	9.957757e-001	-1.029366e-001	9.957126e-001	-1.028730e-001	2.979358e-003	-7.211196e-003
5941217.961	3.541127e-003	-7.623332e-003	9.955952e-001	-1.041211e-001	9.956203e-001	-1.038223e-001	2.792411e-003	-7.201040e-003
6003757.045	3.369595e-003	-7.481954e-003	9.953714e-001	-1.050294e-001	9.954708e-001	-1.049119e-001	2.903212e-003	-7.293839e-003
6066296.129	3.500757e-003	-7.762191e-003	9.954125e-001	-1.061600e-001	9.954066e-001	-1.059585e-001	2.858382e-003	-7.412447e-003
6128835.213	3.586196e-003	-7.814983e-003	9.953038e-001	-1.069602e-001	9.954580e-001	-1.071602e-001	2.941077e-003	-7.495259e-003
6191374.296	3.505717e-003	-7.923444e-003	9.951538e-001	-1.083058e-001	9.951223e-001	-1.084484e-001	2.773720e-003	-7.494782e-003
6253913.380	3.410199e-003	-7.898207e-003	9.950791e-001	-1.094750e-001	9.950397e-001	-1.093306e-001	2.649996e-003	-7.471607e-003
6316452.464	3.364622e-003	-7.894696e-003	9.949833e-001	-1.104429e-001	9.948353e-001	-1.106749e-001	2.686109e-003	-7.772488e-003
6378991.548	3.314751e-003	-8.136351e-003	9.948284e-001	-1.118770e-001	9.949430e-001	-1.116102e-001	2.728209e-003	-7.975124e-003
6441530.632	3.251065e-003	-8.297372e-003	9.946720e-001	-1.126882e-001	9.947061e-001	-1.128247e-001	2.753698e-003	-7.959515e-003
6504069.715	3.235185e-003	-8.417891e-003	9.945299e-001	-1.140309e-001	9.947345e-001	-1.137961e-001	2.761941e-003	-8.042686e-003
6566608.799	3.363353e-003	-8.550128e-003	9.945369e-001	-1.151587e-001	9.944507e-001	-1.149498e-001	2.634825e-003	-7.941914e-003
6629147.883	3.298085e-003	-8.500468e-003	9.943190e-001	-1.159517e-001	9.943306e-001	-1.160688e-001	2.718452e-003	-8.168852e-003
6691686.967	3.156927e-003	-8.577321e-003	9.941083e-001	-1.171190e-001	9.941610e-001	-1.171505e-001	2.723218e-003	-8.166401e-003
6754226.051	3.095510e-003	-8.679331e-003	9.939542e-001	-1.183477e-001	9.939252e-001	-1.184015e-001	2.514896e-003	-8.467606e-003
6816765.134	3.189815e-003	-8.765305e-003	9.939594e-001	-1.193305e-001	9.939534e-001	-1.193367e-001	2.557967e-003	-8.345687e-003
6879304.218	3.053399e-003	-9.019352e-003	9.937545e-001	-1.204515e-001	9.938291e-001	-1.203911e-001	2.527068e-003	-8.500984e-003
6941843.302	3.121610e-003	-8.934808e-003	9.936035e-001	-1.216154e-001	9.936702e-001	-1.214547e-001	2.506053e-003	-8.502272e-003
7004382.386	2.904241e-003	-8.971281e-003	9.935283e-001	-1.225703e-001	9.934994e-001	-1.225832e-001	2.394362e-003	-8.542612e-003
7066921.470	2.997664e-003	-9.109714e-003	9.933038e-001	-1.238250e-001	9.934633e-001	-1.235328e-001	2.560098e-003	-8.793957e-003
7129460.553	2.869452e-003	-9.294850e-003	9.932417e-001	-1.247309e-001	9.932823e-001	-1.247452e-001	2.529294e-003	-8.818454e-003
7191999.637	2.838542e-003	-9.144199e-003	9.929090e-001	-1.258804e-001	9.929958e-001	-1.257836e-001	2.375454e-003	-8.901849e-003
7254538.721	2.873646e-003	-9.352948e-003	9.930737e-001	-1.270383e-001	9.930078e-001	-1.269915e-001	2.390306e-003	-8.972698e-003
7317077.805	3.033135e-003	-9.446919e-003	9.928668e-001	-1.280231e-001	9.928727e-001	-1.280038e-001	2.364636e-003	-9.155375e-003
7379616.889	2.880363e-003	-9.534298e-003	9.928785e-001	-1.293192e-001	9.926940e-001	-1.291057e-001	2.300548e-003	-9.215066e-003
7442155.972	2.704690e-003	-9.621941e-003	9.925372e-001	-1.302248e-001	9.925422e-001	-1.301220e-001	2.357228e-003	-9.079877e-003
7504695.056	2.737622e-003	-9.794684e-003	9.923150e-001	-1.311840e-001	9.923063e-001	-1.313826e-001	2.375407e-003	-9.099558e-003
7567234.140	2.891280e-003	-9.955299e-003	9.923030e-001	-1.323145e-001	9.921578e-001	-1.324599e-001	2.279134e-003	-9.291656e-003
7629773.224	2.776145e-003	-9.729592e-003	9.922172e-001	-1.335755e-001	9.921965e-001	-1.334465e-001	2.184855e-003	-9.421178e-003
7692312.308	2.609698e-003	-9.877490e-003	9.920184e-001	-1.346461e-001	9.919514e-001	-1.346483e-001	2.233663e-003	-9.593843e-003
7754851.391	2.588044e-003	-1.012582e-002	9.918455e-001	-1.357792e-001	9.916783e-001	-1.355591e-001	2.145896e-003	-9.542073e-003
7817390.475	2.644746e-003	-1.000148e-002	9.917238e-001	-1.369989e-001	9.915942e-001	-1.368640e-001	2.045725e-003	-9.508662e-003
7879929.559	2.534842e-003	-1.025968e-002	9.914631e-001	-1.381066e-001	9.914228e-001	-1.380996e-001	2.151712e-003	-9.593131e-003
7942468.643	2.461276e-003	-1.039239e-002	9.914478e-001	-1.390561e-001	9.913787e-001	-1.391094e-001	2.109874e-003	-9.854395e-003
8005007.727	2.539439e-003	-1.043785e-002	9.911852e-001	-1.402329e-001	9.912091e-001	-1.401923e-001	1.991156e-003	-9.709268e-003
8067546.811	2.372449e-003	-1.048446e-002	9.910916e-001	-1.412913e-001	9.909075e-001	-1.411986e-001	1.893631e-003	-1.000583e-002
8130085.894	2.423025e-003	-1.063084e-002	9.908770e-001	-1.422940e-001	9.908480e-001	-1.423797e-001	2.070589e-003	-1.011884e-002
8192624.978	2.235558e-003	-1.077758e-002	9.905630e-001	-1.435582e-001	9.906997e-001	-1.433969e-001	2.095511e-003	-1.021465e-002
8255164.062	2.328948e-003	-1.082876e-002	9.905171e-001	-1.445540e-001	9.904662e-001	-1.444898e-001	2.048618e-003	-1.034024e-002
8317703.146	2.175078e-003	-1.080216e-002	9.904216e-001	-1.456828e-001	9.904335e-001	-1.455723e-001	1.843267e-003	-1.037376e-002
8380242.230	2.277389e-003	-1.112008e-002	9.901261e-001	-1.468622e-001	9.901566e-001	-1.466086e-001	1.780429e-003	-1.052090e-002
8442781.313	2.223443e-003	-1.115924e-002	9.901566e-001	-1.478281e-001	9.900596e-001	-1.476782e-001	1.721150e-003	-1.067788e-002
8505320.397	2.181671e-003	-1.110761e-002	9.899736e-001	-1.489937e-001	9.898697e-001	-1.488127e-001	1.647331e-003	-1.069491e-002
8567859.481	2.104138e-003	-1.104111e-002	9.897302e-001	-1.498725e-001	9.897780e-001	-1.498918e-001	1.662137e-003	-1.061207e-002
8630398.565	2.157450e-003	-1.117815e-002	9.894167e-001	-1.509638e-001	9.896451e-001	-1.509447e-001	1.520917e-003	-1.094170e-002
8692937.649	2.069685e-003	-1.146760e-002	9.893040e-001	-1.520666e-001	9.892333e-001	-1.520830e-001	1.411018e-003	-1.093462e-002
8755476.732	2.055599e-003	-1.148720e-002	9.892073e-001	-1.532196e-001	9.891093e-001	-1.530461e-001	1.461570e-003	-1.099368e-002
8818015.816	1.902974e-003	-1.159497e-002	9.889642e-001	-1.542982e-001	9.887936e-001	-1.542254e-001	1.536140e-003	-1.117065e-002
8880554.900	2.088808e-003	-1.162518e-002	9.889173e-001	-1.553921e-001	9.889432e-001	-1.551259e-001	1.363571e-003	-1.140093e-002
8943093.984	1.887450e-003	-1.160739e-002	9.887204e-001	-1.564431e-001	9.887533e-001	-1.562680e-001	1.354136e-003	-1.143013e-002
9005633.068	1.921225e-003	-1.179185e-002	9.884251e-001	-1.575460e-001	9.886546e-001	-1.574804e-001	1.227661e-003	-1.164178e-002
9068172.151	1.743993e-003	-1.188260e-002	9.884311e-001	-1.586924e-001	9.882741e-001	-1.584191e-001	1.242924e-003	-1.167188e-002
9130711.235	1.918670e-003	-1.202112e-002	9.881352e-001	-1.597455e-001	9.881714e-001	-1.595031e-001	1.255244e-003	-1.195330e-002
9193250.319	1.878876e-003	-1.212187e-002	9.880825e-001	-1.606917e-001	9.879195e-001	-1.607095e-001	1.143068e-003	-1.195204e-002
9255789.403	1.732985e-003	-1.236073e-002	9.879161e-001	-1.616980e-001	9.877907e-001	-1.616681e-001	9.751898e-004	-1.197580e-002
9318328.487	1.648111e-003	-1.235323e-002	9.876871e-001	-1.629983e-001	9.877540e-001	-1.627472e-001	1.059214e-003	-1.206472e-002
9380867.570	1.628528e-003	-1.231103e-002	9.875550e-001	-1.641360e-001	9.873745e-001	-1.639553e-001	1.013858e-003	-1.215928e-002
9443406.654	1.658460e-003	-1.239919e-002	9.874051e-001	-1.651136e-001	9.873773e-001	-1.650675e-001	1.023419e-003	-1.231900e-002
9505945.738	1.595951e-003	-1.245344e-002	9.870297e-001	-1.663323e-001	9.872562e-001	-1.661416e-001	9.276327e-004	-1.241193e-002
9568484.822	1.596921e-003	-1.258273e-002	9.869543e-001	-1.674178e-001	9.868426e-001	-1.672119e-001	6.934989e-004	-1.224572e-002
