!Agilent Technologies,E5061B,MY49102235,A.02.00
!Date: Tue Jul 11 16:15:31 2023
!Data & Calibration Information:
!Freq	S11:SOLT2(ON)	S21:SOLT2(ON)	S12:SOLT2(ON)	S22:SOLT2(ON)
# Hz S RI R 50
5.000	-5.278354e-003	-5.647783e-003	1.001839e+000	8.116566e-003	1.000420e+000	1.020952e-002	-1.512075e-003	-7.538807e-003
62544.084	5.829492e-003	-9.415071e-005	1.001225e+000	2.699217e-004	1.000883e+000	7.772527e-004	7.710080e-003	-2.493167e-003
125083.168	5.713207e-003	2.824685e-004	1.000934e+000	-1.439464e-003	1.000685e+000	-1.678981e-003	7.506694e-003	-1.495844e-003
187622.251	5.491101e-003	8.516563e-004	1.000390e+000	-3.273575e-003	1.001008e+000	-2.179397e-003	7.398103e-003	-1.211239e-003
250161.335	5.326365e-003	1.377682e-003	1.000462e+000	-4.685952e-003	1.000662e+000	-4.570745e-003	7.312481e-003	-5.067754e-004
312700.419	5.488780e-003	2.478108e-003	1.000718e+000	-5.603315e-003	1.000535e+000	-5.574007e-003	7.829218e-003	-4.061871e-004
375239.503	5.376327e-003	1.337217e-003	1.000917e+000	-7.413663e-003	1.000493e+000	-7.258958e-003	7.325655e-003	-2.043760e-004
437778.587	5.224751e-003	2.113645e-003	1.001251e+000	-7.937979e-003	1.000976e+000	-8.767621e-003	6.687501e-003	4.515927e-004
500317.670	4.692182e-003	2.627651e-003	1.001073e+000	-1.076761e-002	1.001512e+000	-1.069867e-002	4.914007e-003	1.028904e-003
562856.754	6.025575e-003	2.696802e-003	1.001224e+000	-1.263879e-002	1.001114e+000	-1.259556e-002	6.116381e-003	1.900875e-003
625395.838	5.234138e-003	3.225345e-003	1.002006e+000	-1.425786e-002	1.002173e+000	-1.398116e-002	6.229920e-003	2.840521e-003
687934.922	5.297851e-003	3.259406e-003	1.001103e+000	-1.553792e-002	1.001262e+000	-1.578778e-002	5.881862e-003	2.741548e-003
750474.006	4.511979e-003	3.975626e-003	1.000584e+000	-1.547940e-002	1.000750e+000	-1.527187e-002	5.697447e-003	3.305993e-003
813013.089	4.698784e-003	4.362769e-003	1.000854e+000	-1.766888e-002	1.000491e+000	-1.732955e-002	5.078061e-003	3.858232e-003
875552.173	4.460636e-003	4.910408e-003	1.000795e+000	-1.891362e-002	1.000906e+000	-1.894803e-002	5.876730e-003	3.829600e-003
938091.257	4.559358e-003	5.344627e-003	1.000961e+000	-2.062566e-002	1.001083e+000	-2.048430e-002	6.135768e-003	4.775290e-003
1000630.341	4.036481e-003	5.373512e-003	1.000397e+000	-2.256469e-002	1.000923e+000	-2.220092e-002	5.405634e-003	4.451418e-003
1063169.425	4.416057e-003	5.602029e-003	1.000715e+000	-2.412841e-002	1.000586e+000	-2.356220e-002	4.613116e-003	4.512357e-003
1125708.508	4.318984e-003	6.016358e-003	1.000531e+000	-2.573922e-002	1.000537e+000	-2.519323e-002	4.149456e-003	5.186728e-003
1188247.592	4.888522e-003	5.954339e-003	1.000723e+000	-2.726209e-002	1.000793e+000	-2.665697e-002	3.057901e-003	5.010539e-003
1250786.676	4.748778e-003	5.596894e-003	1.000274e+000	-2.756491e-002	1.000554e+000	-2.776014e-002	2.337676e-003	3.741566e-003
1313325.760	4.891753e-003	5.855177e-003	1.000511e+000	-2.942922e-002	1.000788e+000	-2.973494e-002	3.107763e-003	4.315041e-003
1375864.844	4.653007e-003	6.053177e-003	1.000220e+000	-3.174400e-002	1.000362e+000	-3.193936e-002	2.994448e-003	4.973420e-003
1438403.927	4.569063e-003	6.261999e-003	1.000162e+000	-3.280943e-002	1.000586e+000	-3.225063e-002	3.125286e-003	5.612387e-003
1500943.011	4.844253e-003	6.712999e-003	1.000751e+000	-3.403735e-002	1.001053e+000	-3.409243e-002	3.503558e-003	5.587430e-003
1563482.095	4.870806e-003	6.727703e-003	1.000306e+000	-3.584188e-002	1.000276e+000	-3.516719e-002	3.670506e-003	6.164152e-003
1626021.179	4.708627e-003	7.241734e-003	1.000239e+000	-3.741255e-002	1.000611e+000	-3.801246e-002	3.977538e-003	6.500963e-003
1688560.263	4.465028e-003	7.692517e-003	9.998905e-001	-3.967351e-002	1.000816e+000	-3.967304e-002	4.181579e-003	6.860670e-003
1751099.346	4.623621e-003	8.169892e-003	1.000360e+000	-4.101960e-002	1.000168e+000	-4.064614e-002	4.062631e-003	8.087064e-003
1813638.430	4.312852e-003	8.516130e-003	1.000637e+000	-4.295895e-002	1.000421e+000	-4.293389e-002	4.277530e-003	8.088951e-003
1876177.514	4.404070e-003	9.198888e-003	1.000911e+000	-4.420978e-002	1.000760e+000	-4.490292e-002	3.989734e-003	9.148052e-003
1938716.598	3.903204e-003	9.659034e-003	1.001006e+000	-4.558904e-002	1.000720e+000	-4.509420e-002	4.221724e-003	9.925897e-003
2001255.682	3.838565e-003	9.574596e-003	1.000939e+000	-4.734079e-002	1.000486e+000	-4.707811e-002	4.003456e-003	9.868736e-003
2063794.765	4.006922e-003	1.034982e-002	1.000329e+000	-4.873776e-002	9.999018e-001	-4.918913e-002	4.447158e-003	1.014289e-002
2126333.849	3.579069e-003	1.023658e-002	9.999113e-001	-5.038624e-002	9.992870e-001	-4.991971e-002	4.748624e-003	1.078764e-002
2188872.933	4.107173e-003	1.060945e-002	9.996048e-001	-5.185455e-002	9.993354e-001	-5.129300e-002	4.686605e-003	1.113766e-002
2251412.017	4.254665e-003	1.064250e-002	9.992756e-001	-5.376725e-002	9.993928e-001	-5.286601e-002	4.723176e-003	1.140787e-002
2313951.101	4.653904e-003	1.143963e-002	9.987109e-001	-5.508680e-002	9.993051e-001	-5.409169e-002	5.079101e-003	1.172504e-002
2376490.184	4.448340e-003	1.181690e-002	9.986122e-001	-5.593443e-002	9.991911e-001	-5.638462e-002	5.107473e-003	1.212322e-002
2439029.268	4.966136e-003	1.216195e-002	9.984706e-001	-5.825630e-002	9.982671e-001	-5.783938e-002	4.852164e-003	1.263814e-002
2501568.352	5.001044e-003	1.256048e-002	9.981603e-001	-5.871709e-002	9.990665e-001	-5.883601e-002	5.190127e-003	1.298474e-002
2564107.436	4.976990e-003	1.281199e-002	9.983526e-001	-6.079374e-002	9.987126e-001	-6.090910e-002	4.546488e-003	1.303899e-002
2626646.520	5.524057e-003	1.302458e-002	9.982531e-001	-6.243759e-002	9.975552e-001	-6.222828e-002	4.879772e-003	1.336719e-002
2689185.604	5.534536e-003	1.358732e-002	9.984845e-001	-6.348689e-002	9.982453e-001	-6.363506e-002	5.073835e-003	1.380833e-002
2751724.687	5.716958e-003	1.389237e-002	9.982826e-001	-6.469053e-002	9.981439e-001	-6.487102e-002	4.743976e-003	1.418756e-002
2814263.771	5.748312e-003	1.421460e-002	9.971793e-001	-6.700067e-002	9.977362e-001	-6.654748e-002	4.803884e-003	1.446135e-002
2876802.855	5.764249e-003	1.442176e-002	9.973098e-001	-6.868055e-002	9.976994e-001	-6.800978e-002	4.960497e-003	1.498803e-002
2939341.939	5.981430e-003	1.490415e-002	9.978060e-001	-6.964999e-002	9.974253e-001	-6.999132e-002	4.948147e-003	1.530143e-002
3001881.023	5.995018e-003	1.532361e-002	9.974154e-001	-7.125201e-002	9.972268e-001	-7.133647e-002	5.093493e-003	1.557026e-002
3064420.106	6.124236e-003	1.567210e-002	9.979207e-001	-7.277133e-002	9.971756e-001	-7.278760e-002	5.013340e-003	1.586192e-002
3126959.190	6.411907e-003	1.597522e-002	9.973254e-001	-7.440604e-002	9.972423e-001	-7.442504e-002	5.283076e-003	1.619823e-002
3189498.274	6.489005e-003	1.641069e-002	9.971129e-001	-7.577182e-002	9.970531e-001	-7.593862e-002	5.377326e-003	1.653893e-002
3252037.358	6.482090e-003	1.646234e-002	9.971151e-001	-7.737765e-002	9.970001e-001	-7.736806e-002	5.427584e-003	1.699881e-002
3314576.442	6.602734e-003	1.703924e-002	9.969061e-001	-7.884066e-002	9.967835e-001	-7.895218e-002	5.574790e-003	1.730010e-002
3377115.525	6.671950e-003	1.745170e-002	9.965818e-001	-8.031003e-002	9.964409e-001	-8.061611e-002	5.508803e-003	1.757695e-002
3439654.609	6.786998e-003	1.778889e-002	9.962897e-001	-8.186176e-002	9.965837e-001	-8.207984e-002	5.656864e-003	1.818123e-002
3502193.693	6.840493e-003	1.789443e-002	9.961526e-001	-8.352857e-002	9.961485e-001	-8.349433e-002	5.929800e-003	1.854527e-002
3564732.777	7.021267e-003	1.844180e-002	9.961079e-001	-8.498517e-002	9.960511e-001	-8.508428e-002	6.137916e-003	1.895377e-002
3627271.861	6.985382e-003	1.871939e-002	9.959856e-001	-8.661048e-002	9.959523e-001	-8.653527e-002	6.020900e-003	1.916750e-002
3689810.944	6.994797e-003	1.901783e-002	9.956878e-001	-8.815016e-002	9.957227e-001	-8.807378e-002	6.314968e-003	1.958216e-002
3752350.028	7.255736e-003	1.944446e-002	9.954958e-001	-8.942079e-002	9.953774e-001	-8.957263e-002	6.383071e-003	1.993227e-002
3814889.112	7.519682e-003	1.996386e-002	9.951494e-001	-9.103444e-002	9.954055e-001	-9.138903e-002	6.416974e-003	2.020440e-002
3877428.196	7.591904e-003	2.038660e-002	9.951526e-001	-9.264086e-002	9.951344e-001	-9.268146e-002	6.885512e-003	2.062725e-002
3939967.280	7.688874e-003	2.049272e-002	9.948920e-001	-9.425413e-002	9.949793e-001	-9.427036e-002	7.004261e-003	2.110921e-002
4002506.363	7.916382e-003	2.102756e-002	9.947500e-001	-9.576823e-002	9.947249e-001	-9.569195e-002	7.102360e-003	2.144274e-002
4065045.447	7.896568e-003	2.136238e-002	9.943431e-001	-9.735482e-002	9.943764e-001	-9.738646e-002	7.342405e-003	2.173985e-002
4127584.531	8.025182e-003	2.174532e-002	9.940650e-001	-9.893065e-002	9.941831e-001	-9.877946e-002	7.526366e-003	2.224888e-002
4190123.615	8.245568e-003	2.216626e-002	9.938846e-001	-1.006383e-001	9.938315e-001	-1.005091e-001	7.592480e-003	2.242835e-002
4252662.699	8.370134e-003	2.249621e-002	9.937643e-001	-1.022428e-001	9.935054e-001	-1.022061e-001	7.867815e-003	2.285203e-002
4315201.782	8.684175e-003	2.283005e-002	9.934420e-001	-1.035373e-001	9.935724e-001	-1.037533e-001	7.869514e-003	2.307453e-002
4377740.866	8.773790e-003	2.323107e-002	9.932323e-001	-1.052902e-001	9.930310e-001	-1.053003e-001	8.249858e-003	2.374352e-002
4440279.950	8.871334e-003	2.348990e-002	9.929184e-001	-1.066523e-001	9.926896e-001	-1.067026e-001	8.318626e-003	2.398943e-002
4502819.034	9.064248e-003	2.400819e-002	9.923950e-001	-1.082913e-001	9.925089e-001	-1.083443e-001	8.612273e-003	2.452562e-002
4565358.118	9.192849e-003	2.435686e-002	9.921556e-001	-1.098600e-001	9.920655e-001	-1.096494e-001	8.813655e-003	2.482447e-002
4627897.201	9.591705e-003	2.488434e-002	9.920559e-001	-1.113850e-001	9.918233e-001	-1.112265e-001	9.150384e-003	2.531274e-002
4690436.285	9.638541e-003	2.516353e-002	9.917334e-001	-1.130559e-001	9.915798e-001	-1.131829e-001	9.354970e-003	2.551413e-002
4752975.369	9.884577e-003	2.553996e-002	9.911344e-001	-1.146719e-001	9.913477e-001	-1.146435e-001	9.405178e-003	2.586557e-002
4815514.453	1.022559e-002	2.593484e-002	9.910378e-001	-1.161432e-001	9.909597e-001	-1.162814e-001	9.864985e-003	2.634227e-002
4878053.537	1.056907e-002	2.622854e-002	9.907331e-001	-1.176598e-001	9.906098e-001	-1.176591e-001	1.008193e-002	2.665551e-002
4940592.620	1.056730e-002	2.667206e-002	9.902579e-001	-1.192659e-001	9.902818e-001	-1.193365e-001	1.010272e-002	2.701899e-002
5003131.704	1.087145e-002	2.692699e-002	9.898868e-001	-1.207656e-001	9.899949e-001	-1.206395e-001	1.048050e-002	2.736232e-002
5065670.788	1.108765e-002	2.750110e-002	9.894743e-001	-1.223713e-001	9.895396e-001	-1.222971e-001	1.073161e-002	2.777499e-002
5128209.872	1.147744e-002	2.773941e-002	9.893221e-001	-1.238986e-001	9.891154e-001	-1.238473e-001	1.097963e-002	2.794992e-002
5190748.956	1.167985e-002	2.811356e-002	9.888125e-001	-1.254925e-001	9.888313e-001	-1.255202e-001	1.123617e-002	2.845825e-002
5253288.039	1.202374e-002	2.843618e-002	9.884720e-001	-1.270454e-001	9.884404e-001	-1.270357e-001	1.146443e-002	2.891853e-002
5315827.123	1.227736e-002	2.875837e-002	9.878826e-001	-1.285721e-001	9.879686e-001	-1.286005e-001	1.174093e-002	2.919030e-002
5378366.207	1.269745e-002	2.916305e-002	9.876190e-001	-1.301392e-001	9.876047e-001	-1.303096e-001	1.204725e-002	2.946470e-002
5440905.291	1.283823e-002	2.961753e-002	9.872606e-001	-1.317202e-001	9.872221e-001	-1.317186e-001	1.225021e-002	2.989598e-002
5503444.375	1.335221e-002	2.979793e-002	9.867998e-001	-1.333069e-001	9.868319e-001	-1.331281e-001	1.277114e-002	3.014979e-002
5565983.458	1.335064e-002	3.030152e-002	9.863733e-001	-1.347545e-001	9.863383e-001	-1.346078e-001	1.304563e-002	3.066479e-002
5628522.542	1.394270e-002	3.055155e-002	9.859668e-001	-1.361610e-001	9.859021e-001	-1.363170e-001	1.343505e-002	3.088973e-002
5691061.626	1.434541e-002	3.072387e-002	9.854045e-001	-1.379135e-001	9.853835e-001	-1.378669e-001	1.368844e-002	3.129601e-002
5753600.710	1.458292e-002	3.114732e-002	9.848680e-001	-1.393066e-001	9.849105e-001	-1.392739e-001	1.408377e-002	3.149643e-002
5816139.794	1.505544e-002	3.166588e-002	9.844613e-001	-1.408449e-001	9.842644e-001	-1.409986e-001	1.432151e-002	3.187564e-002
5878678.877	1.532624e-002	3.175241e-002	9.839484e-001	-1.423509e-001	9.838847e-001	-1.424044e-001	1.480543e-002	3.205323e-002
5941217.961	1.568848e-002	3.200540e-002	9.833998e-001	-1.439260e-001	9.833788e-001	-1.437196e-001	1.500660e-002	3.248296e-002
6003757.045	1.594978e-002	3.253551e-002	9.827352e-001	-1.452087e-001	9.828578e-001	-1.452158e-001	1.551912e-002	3.277096e-002
6066296.129	1.645221e-002	3.263724e-002	9.824415e-001	-1.467444e-001	9.823799e-001	-1.466520e-001	1.589909e-002	3.302474e-002
6128835.213	1.695962e-002	3.295312e-002	9.819143e-001	-1.479718e-001	9.819688e-001	-1.482612e-001	1.640137e-002	3.331637e-002
6191374.296	1.730527e-002	3.321552e-002	9.813048e-001	-1.496333e-001	9.812130e-001	-1.499050e-001	1.665749e-002	3.370929e-002
6253913.380	1.764738e-002	3.361901e-002	9.807825e-001	-1.512140e-001	9.807465e-001	-1.511263e-001	1.697357e-002	3.409647e-002
6316452.464	1.805253e-002	3.395874e-002	9.802798e-001	-1.525179e-001	9.800170e-001	-1.527673e-001	1.741970e-002	3.414045e-002
6378991.548	1.842690e-002	3.407470e-002	9.796462e-001	-1.542983e-001	9.797201e-001	-1.540825e-001	1.789507e-002	3.427540e-002
6441530.632	1.879564e-002	3.424658e-002	9.790471e-001	-1.554383e-001	9.790611e-001	-1.556519e-001	1.838227e-002	3.463264e-002
6504069.715	1.922709e-002	3.447157e-002	9.784236e-001	-1.570771e-001	9.786266e-001	-1.569924e-001	1.881526e-002	3.487112e-002
6566608.799	1.980249e-002	3.462749e-002	9.779942e-001	-1.585558e-001	9.779044e-001	-1.584641e-001	1.919152e-002	3.529970e-002
6629147.883	2.021091e-002	3.497436e-002	9.773428e-001	-1.596331e-001	9.772765e-001	-1.598405e-001	1.971228e-002	3.537007e-002
6691686.967	2.054650e-002	3.521109e-002	9.766456e-001	-1.611314e-001	9.766551e-001	-1.612146e-001	2.019782e-002	3.566626e-002
6754226.051	2.093452e-002	3.540118e-002	9.760420e-001	-1.626493e-001	9.759410e-001	-1.627954e-001	2.042209e-002	3.568406e-002
6816765.134	2.148685e-002	3.559290e-002	9.755555e-001	-1.639340e-001	9.755079e-001	-1.640206e-001	2.095051e-002	3.605739e-002
6879304.218	2.182248e-002	3.562808e-002	9.748844e-001	-1.653381e-001	9.749556e-001	-1.653346e-001	2.138776e-002	3.617904e-002
6941843.302	2.236147e-002	3.596110e-002	9.742522e-001	-1.667144e-001	9.743038e-001	-1.666885e-001	2.184507e-002	3.643697e-002
7004382.386	2.264913e-002	3.620550e-002	9.736861e-001	-1.679337e-001	9.736369e-001	-1.680569e-001	2.222937e-002	3.665886e-002
7066921.470	2.319989e-002	3.630311e-002	9.730065e-001	-1.694665e-001	9.730879e-001	-1.692057e-001	2.284415e-002	3.664679e-002
7129460.553	2.352987e-002	3.635322e-002	9.724744e-001	-1.705760e-001	9.724559e-001	-1.707131e-001	2.329982e-002	3.685416e-002
7191999.637	2.400730e-002	3.672834e-002	9.716427e-001	-1.719806e-001	9.717005e-001	-1.719875e-001	2.362180e-002	3.700571e-002
7254538.721	2.449387e-002	3.674555e-002	9.713491e-001	-1.733451e-001	9.712517e-001	-1.733794e-001	2.411942e-002	3.715365e-002
7317077.805	2.513540e-002	3.682622e-002	9.706531e-001	-1.745192e-001	9.706206e-001	-1.746070e-001	2.456329e-002	3.717896e-002
7379616.889	2.547244e-002	3.696979e-002	9.701543e-001	-1.760299e-001	9.699571e-001	-1.759321e-001	2.497591e-002	3.732545e-002
7442155.972	2.576914e-002	3.708323e-002	9.693713e-001	-1.771599e-001	9.693366e-001	-1.771364e-001	2.554071e-002	3.764043e-002
7504695.056	2.626133e-002	3.709335e-002	9.686502e-001	-1.783615e-001	9.685930e-001	-1.785440e-001	2.603506e-002	3.779870e-002
7567234.140	2.688293e-002	3.710340e-002	9.682007e-001	-1.796168e-001	9.679929e-001	-1.797932e-001	2.641299e-002	3.780794e-002
7629773.224	2.726823e-002	3.748620e-002	9.675848e-001	-1.810425e-001	9.674808e-001	-1.810195e-001	2.678643e-002	3.783856e-002
7692312.308	2.758693e-002	3.751709e-002	9.669447e-001	-1.822822e-001	9.667902e-001	-1.823571e-001	2.728776e-002	3.783233e-002
7754851.391	2.801576e-002	3.745092e-002	9.662577e-001	-1.835610e-001	9.660697e-001	-1.833890e-001	2.770674e-002	3.804067e-002
7817390.475	2.856640e-002	3.768913e-002	9.656557e-001	-1.849276e-001	9.654469e-001	-1.848733e-001	2.809603e-002	3.822806e-002
7879929.559	2.890712e-002	3.758651e-002	9.649264e-001	-1.861751e-001	9.648024e-001	-1.862544e-001	2.866244e-002	3.827041e-002
7942468.643	2.929580e-002	3.760305e-002	9.644508e-001	-1.873133e-001	9.642936e-001	-1.874268e-001	2.907444e-002	3.816104e-002
8005007.727	2.984698e-002	3.766394e-002	9.637036e-001	-1.885893e-001	9.636687e-001	-1.886014e-001	2.945805e-002	3.843321e-002
8067546.811	3.014703e-002	3.776077e-002	9.631185e-001	-1.897707e-001	9.629238e-001	-1.897421e-001	2.979880e-002	3.827781e-002
8130085.894	3.064633e-002	3.772673e-002	9.624515e-001	-1.908816e-001	9.623908e-001	-1.909895e-001	3.044716e-002	3.824900e-002
8192624.978	3.091931e-002	3.772071e-002	9.617039e-001	-1.922174e-001	9.617933e-001	-1.921647e-001	3.093135e-002	3.826240e-002
8255164.062	3.148165e-002	3.773913e-002	9.612200e-001	-1.934015e-001	9.611001e-001	-1.933723e-001	3.132003e-002	3.823286e-002
8317703.146	3.180537e-002	3.788600e-002	9.606349e-001	-1.945984e-001	9.605829e-001	-1.945696e-001	3.159932e-002	3.834418e-002
8380242.230	3.233110e-002	3.764258e-002	9.598396e-001	-1.958505e-001	9.598349e-001	-1.956906e-001	3.199163e-002	3.828328e-002
8442781.313	3.272224e-002	3.769861e-002	9.594754e-001	-1.969012e-001	9.592940e-001	-1.968665e-001	3.239709e-002	3.821581e-002
8505320.397	3.315305e-002	3.782783e-002	9.587959e-001	-1.981228e-001	9.586355e-001	-1.980579e-001	3.277218e-002	3.827064e-002
8567859.481	3.356181e-002	3.797319e-002	9.581178e-001	-1.991004e-001	9.580941e-001	-1.992105e-001	3.327145e-002	3.841511e-002
8630398.565	3.405070e-002	3.790643e-002	9.573470e-001	-2.002241e-001	9.574651e-001	-2.003384e-001	3.353591e-002	3.817376e-002
8692937.649	3.438984e-002	3.768354e-002	9.568417e-001	-2.013845e-001	9.567028e-001	-2.015224e-001	3.391166e-002	3.825937e-002
8755476.732	3.482137e-002	3.773580e-002	9.562286e-001	-2.026388e-001	9.561043e-001	-2.025497e-001	3.438057e-002	3.825628e-002
8818015.816	3.511596e-002	3.767762e-002	9.555766e-001	-2.037610e-001	9.553432e-001	-2.037848e-001	3.488945e-002	3.812757e-002
8880554.900	3.573544e-002	3.767251e-002	9.550757e-001	-2.049691e-001	9.550346e-001	-2.047713e-001	3.514779e-002	3.795982e-002
8943093.984	3.598366e-002	3.774888e-002	9.544325e-001	-2.059905e-001	9.544043e-001	-2.059425e-001	3.557709e-002	3.796866e-002
9005633.068	3.643497e-002	3.760745e-002	9.537130e-001	-2.071491e-001	9.538335e-001	-2.071955e-001	3.586945e-002	3.782865e-002
9068172.151	3.669189e-002	3.757670e-002	9.532109e-001	-2.083284e-001	9.531133e-001	-2.081959e-001	3.632487e-002	3.782280e-002
9130711.235	3.728704e-002	3.742983e-002	9.525524e-001	-2.093979e-001	9.525585e-001	-2.092857e-001	3.673670e-002	3.758574e-002
9193250.319	3.765323e-002	3.735490e-002	9.520861e-001	-2.104149e-001	9.518957e-001	-2.105006e-001	3.706851e-002	3.759933e-002
9255789.403	3.792344e-002	3.717744e-002	9.515252e-001	-2.114312e-001	9.513159e-001	-2.115518e-001	3.733830e-002	3.761756e-002
9318328.487	3.827550e-002	3.719327e-002	9.508263e-001	-2.127571e-001	9.508448e-001	-2.126182e-001	3.783161e-002	3.754263e-002
9380867.570	3.868416e-002	3.724713e-002	9.502878e-001	-2.138773e-001	9.500958e-001	-2.138366e-001	3.821160e-002	3.745513e-002
9443406.654	3.911219e-002	3.716057e-002	9.497031e-001	-2.148697e-001	9.496073e-001	-2.149577e-001	3.861447e-002	3.730735e-002
9505945.738	3.946586e-002	3.711224e-002	9.489161e-001	-2.161231e-001	9.490511e-001	-2.160422e-001	3.893601e-002	3.722854e-002
9568484.822	3.986410e-002	3.698794e-002	9.484721e-001	-2.171553e-001	9.482080e-001	-2.171174e-001	3.916066e-002	3.739324e-002
9631023.906	4.022892e-002	3.691614e-002	9.479308e-001	-2.182427e-001	9.476465e-001	-2.182073e-001	3.967344e-002	3.698708e-002
9693562.989	4.061178e-002	3.680707e-002	9.471876e-001	-2.193138e-001	9.471669e-001	-2.192444e-001	3.981002e-002	3.704531e-002
9756102.073	4.095801e-002	3.668014e-002	9.468189e-001	-2.203911e-001	9.466104e-001	-2.202508e-001	4.020512e-002	3.682156e-002
