!Agilent Technologies,E5061B,MY49102235,A.02.00
!Date: Tue Jul 11 16:24:01 2023
!Data & Calibration Information:
!Freq	S11:SOLT2(ON)	S21:SOLT2(ON)	S12:SOLT2(ON)	S22:SOLT2(ON)
# Hz S RI R 50
5.000	-5.234235e-003	-5.636172e-003	1.001526e+000	8.052147e-003	1.000154e+000	1.024466e-002	-1.429143e-003	-7.556392e-003
62544.084	5.808066e-003	-5.067501e-004	1.001308e+000	5.563725e-004	1.000847e+000	1.284228e-003	7.720314e-003	-2.874894e-003
125083.168	5.668125e-003	-5.158871e-004	1.000966e+000	-8.583926e-004	1.000798e+000	-7.809026e-004	7.503900e-003	-2.280065e-003
187622.251	5.455812e-003	-3.300420e-004	1.000402e+000	-2.115452e-003	1.001067e+000	-8.922886e-004	7.391844e-003	-2.395512e-003
250161.335	5.277696e-003	-1.979601e-004	1.000573e+000	-3.119963e-003	1.000800e+000	-3.141903e-003	7.265801e-003	-2.052779e-003
312700.419	5.412334e-003	5.358192e-004	1.000853e+000	-3.799248e-003	1.000638e+000	-3.523753e-003	7.782855e-003	-2.374271e-003
375239.503	5.296298e-003	-9.925488e-004	1.001061e+000	-5.205245e-003	1.000701e+000	-4.894936e-003	7.241677e-003	-2.542701e-003
437778.587	5.148217e-003	-6.191294e-004	1.001197e+000	-5.354857e-003	1.000990e+000	-5.953107e-003	6.646056e-003	-2.261233e-003
500317.670	4.572910e-003	-5.070041e-004	1.001284e+000	-7.641176e-003	1.001729e+000	-7.501255e-003	4.813991e-003	-2.097040e-003
562856.754	5.906091e-003	-7.993890e-004	1.001262e+000	-9.188269e-003	1.001158e+000	-9.027435e-003	6.031623e-003	-1.602105e-003
625395.838	5.084813e-003	-6.582035e-004	1.002190e+000	-1.037514e-002	1.002173e+000	-1.002919e-002	6.112250e-003	-1.031891e-003
687934.922	5.116157e-003	-9.858238e-004	1.001274e+000	-1.144519e-002	1.001411e+000	-1.136438e-002	5.744310e-003	-1.541115e-003
750474.006	4.354974e-003	-6.754969e-004	1.000792e+000	-1.093298e-002	1.001093e+000	-1.057308e-002	5.539191e-003	-1.326360e-003
813013.089	4.531290e-003	-6.704904e-004	1.001135e+000	-1.257135e-002	1.000664e+000	-1.228170e-002	4.889562e-003	-1.181566e-003
875552.173	4.269840e-003	-5.193480e-004	1.001090e+000	-1.354484e-002	1.001059e+000	-1.356449e-002	5.683424e-003	-1.584542e-003
938091.257	4.334241e-003	-4.528870e-004	1.001073e+000	-1.486205e-002	1.001294e+000	-1.460323e-002	5.922072e-003	-1.030443e-003
1000630.341	3.784309e-003	-8.225683e-004	1.000633e+000	-1.629256e-002	1.001280e+000	-1.597205e-002	5.161993e-003	-1.722184e-003
1063169.425	4.128750e-003	-9.851799e-004	1.000987e+000	-1.759231e-002	1.000958e+000	-1.674651e-002	4.338417e-003	-2.058590e-003
1125708.508	4.018579e-003	-9.612071e-004	1.000826e+000	-1.881997e-002	1.000922e+000	-1.817515e-002	3.841749e-003	-1.783695e-003
1188247.592	4.557316e-003	-1.405671e-003	1.001012e+000	-1.994895e-002	1.001199e+000	-1.936264e-002	2.757313e-003	-2.360008e-003
1250786.676	4.400829e-003	-2.152078e-003	1.000600e+000	-1.976354e-002	1.000889e+000	-1.999545e-002	2.007522e-003	-4.037526e-003
1313325.760	4.529458e-003	-2.253209e-003	1.001035e+000	-2.129198e-002	1.001169e+000	-2.153234e-002	2.734153e-003	-3.851338e-003
1375864.844	4.248195e-003	-2.468273e-003	1.000628e+000	-2.330708e-002	1.000671e+000	-2.330433e-002	2.593444e-003	-3.572012e-003
1438403.927	4.134097e-003	-2.643482e-003	1.000634e+000	-2.390682e-002	1.001152e+000	-2.332133e-002	2.670513e-003	-3.336344e-003
1500943.011	4.357628e-003	-2.585255e-003	1.001219e+000	-2.473193e-002	1.001602e+000	-2.476674e-002	3.026606e-003	-3.731213e-003
1563482.095	4.362763e-003	-2.964601e-003	1.000872e+000	-2.617990e-002	1.000670e+000	-2.539988e-002	3.158886e-003	-3.544994e-003
1626021.179	4.156006e-003	-2.844742e-003	1.000577e+000	-2.729350e-002	1.001184e+000	-2.797720e-002	3.428594e-003	-3.601430e-003
1688560.263	3.865185e-003	-2.795982e-003	1.000373e+000	-2.910121e-002	1.001575e+000	-2.930581e-002	3.608297e-003	-3.622523e-003
1751099.346	3.993141e-003	-2.695960e-003	1.000914e+000	-3.019583e-002	1.000954e+000	-2.984277e-002	3.419615e-003	-2.799086e-003
1813638.430	3.642647e-003	-2.770000e-003	1.001301e+000	-3.175078e-002	1.001161e+000	-3.150969e-002	3.596869e-003	-3.187753e-003
1876177.514	3.668125e-003	-2.472879e-003	1.001540e+000	-3.253128e-002	1.001405e+000	-3.324340e-002	3.249830e-003	-2.538421e-003
1938716.598	3.126104e-003	-2.408027e-003	1.001874e+000	-3.340525e-002	1.001519e+000	-3.303113e-002	3.421273e-003	-2.149178e-003
2001255.682	3.033075e-003	-2.906009e-003	1.001775e+000	-3.481361e-002	1.001451e+000	-3.462481e-002	3.171435e-003	-2.624366e-003
2063794.765	3.118935e-003	-2.526828e-003	1.001310e+000	-3.584552e-002	1.001009e+000	-3.628105e-002	3.568069e-003	-2.724857e-003
2126333.849	2.674183e-003	-3.074908e-003	1.000950e+000	-3.712290e-002	1.000179e+000	-3.654728e-002	3.806212e-003	-2.499727e-003
2188872.933	3.148988e-003	-3.085459e-003	1.000515e+000	-3.818049e-002	1.000259e+000	-3.760637e-002	3.700970e-003	-2.544934e-003
2251412.017	3.236369e-003	-3.459558e-003	1.000358e+000	-3.977039e-002	1.000416e+000	-3.862737e-002	3.687311e-003	-2.666891e-003
2313951.101	3.569846e-003	-3.045128e-003	9.998173e-001	-4.078411e-002	1.000449e+000	-3.957673e-002	3.989641e-003	-2.746512e-003
2376490.184	3.308275e-003	-3.101640e-003	9.997054e-001	-4.107076e-002	1.000312e+000	-4.136513e-002	3.936904e-003	-2.756070e-003
2439029.268	3.753621e-003	-3.139015e-003	9.997562e-001	-4.275629e-002	9.995748e-001	-4.248340e-002	3.601024e-003	-2.663756e-003
2501568.352	3.728681e-003	-3.153983e-003	9.993810e-001	-4.303182e-002	1.000349e+000	-4.310131e-002	3.886969e-003	-2.715694e-003
2564107.436	3.627459e-003	-3.330609e-003	9.996626e-001	-4.472507e-002	1.000056e+000	-4.457931e-002	3.198362e-003	-3.104637e-003
2626646.520	4.109799e-003	-3.524770e-003	9.994973e-001	-4.585772e-002	9.990334e-001	-4.571164e-002	3.464778e-003	-3.192928e-003
2689185.604	4.075384e-003	-3.364935e-003	9.999812e-001	-4.654206e-002	9.997312e-001	-4.649497e-002	3.577550e-003	-3.153989e-003
2751724.687	4.190892e-003	-3.490282e-003	9.997179e-001	-4.742411e-002	9.995898e-001	-4.730804e-002	3.187040e-003	-3.216619e-003
2814263.771	4.123083e-003	-3.573462e-003	9.989471e-001	-4.913927e-002	9.993100e-001	-4.845109e-002	3.139433e-003	-3.343708e-003
2876802.855	4.077553e-003	-3.804662e-003	9.990481e-001	-5.050956e-002	9.993739e-001	-4.958312e-002	3.219426e-003	-3.242416e-003
2939341.939	4.192207e-003	-3.738048e-003	9.995736e-001	-5.097053e-002	9.993389e-001	-5.117212e-002	3.125412e-003	-3.373564e-003
3001881.023	4.111982e-003	-3.763892e-003	9.992027e-001	-5.229157e-002	9.990754e-001	-5.217839e-002	3.207281e-003	-3.527984e-003
3064420.106	4.159890e-003	-3.826243e-003	9.998920e-001	-5.318342e-002	9.991574e-001	-5.310982e-002	3.032375e-003	-3.669033e-003
3126959.190	4.363427e-003	-3.949528e-003	9.993669e-001	-5.441495e-002	9.993079e-001	-5.431738e-002	3.193197e-003	-3.763838e-003
3189498.274	4.335451e-003	-3.940318e-003	9.992967e-001	-5.536042e-002	9.992236e-001	-5.539623e-002	3.196652e-003	-3.846474e-003
3252037.358	4.243556e-003	-4.338433e-003	9.993196e-001	-5.653465e-002	9.992593e-001	-5.640263e-002	3.134683e-003	-3.822210e-003
3314576.442	4.244210e-003	-4.199170e-003	9.992378e-001	-5.754979e-002	9.991290e-001	-5.756741e-002	3.190950e-003	-3.966823e-003
3377115.525	4.217631e-003	-4.225801e-003	9.990572e-001	-5.856857e-002	9.989106e-001	-5.881462e-002	3.035050e-003	-4.125596e-003
3439654.609	4.223003e-003	-4.326726e-003	9.988490e-001	-5.969480e-002	9.992052e-001	-5.980070e-002	3.052912e-003	-3.974509e-003
3502193.693	4.176091e-003	-4.660746e-003	9.988863e-001	-6.089801e-002	9.988514e-001	-6.076643e-002	3.208256e-003	-4.055960e-003
3564732.777	4.227050e-003	-4.562492e-003	9.988859e-001	-6.191852e-002	9.988477e-001	-6.192917e-002	3.294935e-003	-4.070901e-003
3627271.861	4.068347e-003	-4.745613e-003	9.989194e-001	-6.310589e-002	9.988742e-001	-6.293409e-002	3.069344e-003	-4.341516e-003
3689810.944	3.969820e-003	-4.914931e-003	9.987297e-001	-6.414987e-002	9.987765e-001	-6.395357e-002	3.221094e-003	-4.370710e-003
3752350.028	4.061910e-003	-4.928878e-003	9.986348e-001	-6.499782e-002	9.985663e-001	-6.505552e-002	3.143026e-003	-4.467358e-003
3814889.112	4.184566e-003	-4.843916e-003	9.985195e-001	-6.615717e-002	9.987669e-001	-6.641608e-002	3.061857e-003	-4.633154e-003
3877428.196	4.125080e-003	-4.889303e-003	9.986458e-001	-6.731703e-002	9.986145e-001	-6.727539e-002	3.369067e-003	-4.674001e-003
3939967.280	4.088696e-003	-5.231189e-003	9.985063e-001	-6.852621e-002	9.986225e-001	-6.838218e-002	3.354795e-003	-4.639598e-003
4002506.363	4.142972e-003	-5.142872e-003	9.985060e-001	-6.955939e-002	9.984993e-001	-6.930874e-002	3.284993e-003	-4.776378e-003
4065045.447	3.958289e-003	-5.289815e-003	9.982577e-001	-7.065788e-002	9.983030e-001	-7.053282e-002	3.365287e-003	-4.936572e-003
4127584.531	3.935703e-003	-5.375932e-003	9.981343e-001	-7.170674e-002	9.982857e-001	-7.152490e-002	3.377772e-003	-4.892087e-003
4190123.615	3.963504e-003	-5.418073e-003	9.981647e-001	-7.298417e-002	9.981306e-001	-7.274694e-002	3.283777e-003	-5.180772e-003
4252662.699	3.922221e-003	-5.562067e-003	9.982275e-001	-7.405246e-002	9.979965e-001	-7.397757e-002	3.381166e-003	-5.215299e-003
4315201.782	4.044634e-003	-5.674144e-003	9.980702e-001	-7.490952e-002	9.982123e-001	-7.504524e-002	3.199493e-003	-5.479847e-003
4377740.866	3.935639e-003	-5.762912e-003	9.980978e-001	-7.619904e-002	9.978653e-001	-7.610196e-002	3.368161e-003	-5.246297e-003
4440279.950	3.833034e-003	-5.961084e-003	9.979856e-001	-7.709531e-002	9.976934e-001	-7.713156e-002	3.250264e-003	-5.493597e-003
4502819.034	3.828196e-003	-5.908768e-003	9.976540e-001	-7.827849e-002	9.977278e-001	-7.819289e-002	3.311926e-003	-5.425697e-003
4565358.118	3.737739e-003	-6.036940e-003	9.976121e-001	-7.934042e-002	9.975270e-001	-7.909588e-002	3.317392e-003	-5.589983e-003
4627897.201	3.908455e-003	-5.976482e-003	9.977220e-001	-8.041399e-002	9.975207e-001	-8.017535e-002	3.416831e-003	-5.550221e-003
4690436.285	3.731886e-003	-6.164119e-003	9.976872e-001	-8.157611e-002	9.975109e-001	-8.165930e-002	3.418994e-003	-5.826782e-003
4752975.369	3.734174e-003	-6.258855e-003	9.973001e-001	-8.279010e-002	9.974871e-001	-8.261175e-002	3.218159e-003	-5.964333e-003
4815514.453	3.835967e-003	-6.321260e-003	9.974629e-001	-8.376224e-002	9.973711e-001	-8.381448e-002	3.422104e-003	-5.922918e-003
4878053.537	3.939842e-003	-6.494145e-003	9.974071e-001	-8.479107e-002	9.972257e-001	-8.471548e-002	3.381049e-003	-6.096232e-003
4940592.620	3.659115e-003	-6.533503e-003	9.971847e-001	-8.594463e-002	9.972138e-001	-8.588064e-002	3.149425e-003	-6.201987e-003
5003131.704	3.716633e-003	-6.737135e-003	9.970768e-001	-8.698225e-002	9.971764e-001	-8.675314e-002	3.266437e-003	-6.334789e-003
5065670.788	3.628483e-003	-6.629290e-003	9.969765e-001	-8.812796e-002	9.970303e-001	-8.791154e-002	3.225985e-003	-6.366192e-003
5128209.872	3.762243e-003	-6.851059e-003	9.970683e-001	-8.918946e-002	9.969066e-001	-8.901201e-002	3.192544e-003	-6.661808e-003
5190748.956	3.657763e-003	-6.932799e-003	9.968410e-001	-9.029569e-002	9.969060e-001	-9.026641e-002	3.159346e-003	-6.616584e-003
5253288.039	3.701196e-003	-7.058840e-003	9.968931e-001	-9.143475e-002	9.968230e-001	-9.127521e-002	3.072265e-003	-6.615034e-003
5315827.123	3.654059e-003	-7.212197e-003	9.965766e-001	-9.248160e-002	9.966954e-001	-9.238358e-002	3.048641e-003	-6.795196e-003
5378366.207	3.741367e-003	-7.246042e-003	9.966167e-001	-9.358933e-002	9.966256e-001	-9.365378e-002	3.027143e-003	-6.973184e-003
5440905.291	3.542923e-003	-7.238329e-003	9.966233e-001	-9.467287e-002	9.965371e-001	-9.460023e-002	2.913136e-003	-7.003192e-003
5503444.375	3.742172e-003	-7.488961e-003	9.964380e-001	-9.583942e-002	9.965164e-001	-9.557582e-002	3.089505e-003	-7.170504e-003
5565983.458	3.380117e-003	-7.445914e-003	9.963828e-001	-9.680170e-002	9.963811e-001	-9.658362e-002	3.002600e-003	-7.097475e-003
5628522.542	3.623190e-003	-7.601137e-003	9.962952e-001	-9.782526e-002	9.963080e-001	-9.785745e-002	3.049041e-003	-7.306240e-003
5691061.626	3.680265e-003	-7.868218e-003	9.961057e-001	-9.915258e-002	9.961433e-001	-9.897655e-002	2.937823e-003	-7.346321e-003
5753600.710	3.525032e-003	-7.878909e-003	9.959432e-001	-1.001075e-001	9.960263e-001	-9.999002e-002	2.980361e-003	-7.574099e-003
5816139.794	3.606956e-003	-7.774390e-003	9.959095e-001	-1.012137e-001	9.957538e-001	-1.012649e-001	2.817652e-003	-7.609370e-003
5878678.877	3.501910e-003	-8.104287e-003	9.958032e-001	-1.023351e-001	9.958067e-001	-1.022557e-001	2.918889e-003	-7.828568e-003
5941217.961	3.484394e-003	-8.265758e-003	9.956707e-001	-1.035092e-001	9.956431e-001	-1.031474e-001	2.717269e-003	-7.829366e-003
6003757.045	3.307887e-003	-8.123759e-003	9.954357e-001	-1.044279e-001	9.955494e-001	-1.043076e-001	2.835546e-003	-7.938406e-003
6066296.129	3.448377e-003	-8.408628e-003	9.955092e-001	-1.055245e-001	9.955159e-001	-1.053282e-001	2.784828e-003	-8.059044e-003
6128835.213	3.525758e-003	-8.470992e-003	9.953935e-001	-1.063310e-001	9.955336e-001	-1.065411e-001	2.866791e-003	-8.138133e-003
6191374.296	3.446477e-003	-8.580084e-003	9.952350e-001	-1.076641e-001	9.951581e-001	-1.077348e-001	2.709875e-003	-8.140680e-003
6253913.380	3.349192e-003	-8.556309e-003	9.951584e-001	-1.088466e-001	9.951202e-001	-1.086579e-001	2.564592e-003	-8.133239e-003
6316452.464	3.296722e-003	-8.558474e-003	9.950959e-001	-1.098127e-001	9.949280e-001	-1.099610e-001	2.611068e-003	-8.437387e-003
6378991.548	3.258785e-003	-8.808623e-003	9.949116e-001	-1.112152e-001	9.949648e-001	-1.109097e-001	2.645698e-003	-8.647229e-003
6441530.632	3.176163e-003	-8.975758e-003	9.947303e-001	-1.120163e-001	9.948313e-001	-1.121429e-001	2.675474e-003	-8.630977e-003
6504069.715	3.171733e-003	-9.101270e-003	9.945640e-001	-1.133449e-001	9.948196e-001	-1.131112e-001	2.670727e-003	-8.724335e-003
6566608.799	3.299953e-003	-9.250127e-003	9.946083e-001	-1.144767e-001	9.945771e-001	-1.142564e-001	2.565148e-003	-8.628258e-003
6629147.883	3.225730e-003	-9.205415e-003	9.944099e-001	-1.152213e-001	9.944130e-001	-1.153741e-001	2.625440e-003	-8.864100e-003
6691686.967	3.094570e-003	-9.284147e-003	9.941751e-001	-1.164172e-001	9.942476e-001	-1.164421e-001	2.636193e-003	-8.867086e-003
6754226.051	3.026075e-003	-9.398813e-003	9.940579e-001	-1.176443e-001	9.940296e-001	-1.176366e-001	2.432906e-003	-9.172039e-003
6816765.134	3.111988e-003	-9.495184e-003	9.939958e-001	-1.186040e-001	9.940175e-001	-1.185852e-001	2.465973e-003	-9.073072e-003
6879304.218	2.992584e-003	-9.753621e-003	9.938387e-001	-1.197584e-001	9.939249e-001	-1.196661e-001	2.436954e-003	-9.221536e-003
6941843.302	3.040065e-003	-9.677664e-003	9.936552e-001	-1.209048e-001	9.937391e-001	-1.207117e-001	2.414510e-003	-9.239894e-003
7004382.386	2.832138e-003	-9.698479e-003	9.936191e-001	-1.218000e-001	9.935651e-001	-1.218314e-001	2.297192e-003	-9.290984e-003
7066921.470	2.917798e-003	-9.862115e-003	9.933711e-001	-1.230860e-001	9.935437e-001	-1.227585e-001	2.458066e-003	-9.538865e-003
7129460.553	2.790122e-003	-1.005983e-002	9.933541e-001	-1.239720e-001	9.933733e-001	-1.239672e-001	2.437491e-003	-9.569961e-003
7191999.637	2.760811e-003	-9.905748e-003	9.930039e-001	-1.251528e-001	9.931035e-001	-1.250425e-001	2.279742e-003	-9.656229e-003
7254538.721	2.800941e-003	-1.011803e-002	9.931688e-001	-1.263034e-001	9.931724e-001	-1.262153e-001	2.295521e-003	-9.728788e-003
7317077.805	2.954286e-003	-1.023177e-002	9.929800e-001	-1.272453e-001	9.929825e-001	-1.271838e-001	2.272878e-003	-9.923410e-003
7379616.889	2.791707e-003	-1.030437e-002	9.929650e-001	-1.285468e-001	9.928075e-001	-1.282888e-001	2.195138e-003	-9.994697e-003
7442155.972	2.619510e-003	-1.040155e-002	9.926408e-001	-1.294110e-001	9.927182e-001	-1.293544e-001	2.259870e-003	-9.867771e-003
7504695.056	2.646883e-003	-1.059287e-002	9.924255e-001	-1.304486e-001	9.924256e-001	-1.305447e-001	2.270543e-003	-9.887281e-003
7567234.140	2.805476e-003	-1.075456e-002	9.923988e-001	-1.315048e-001	9.922961e-001	-1.316023e-001	2.172933e-003	-1.009345e-002
7629773.224	2.684689e-003	-1.054860e-002	9.923146e-001	-1.327754e-001	9.922729e-001	-1.326489e-001	2.079525e-003	-1.023699e-002
7692312.308	2.525364e-003	-1.069713e-002	9.921433e-001	-1.338689e-001	9.920329e-001	-1.338065e-001	2.122143e-003	-1.040569e-002
7754851.391	2.487656e-003	-1.094799e-002	9.919762e-001	-1.349772e-001	9.918055e-001	-1.347119e-001	2.029125e-003	-1.036262e-002
7817390.475	2.553563e-003	-1.081604e-002	9.918371e-001	-1.362286e-001	9.917344e-001	-1.359985e-001	1.933984e-003	-1.033538e-002
7879929.559	2.432922e-003	-1.110295e-002	9.915708e-001	-1.372699e-001	9.915386e-001	-1.372657e-001	2.026309e-003	-1.043248e-002
7942468.643	2.363733e-003	-1.124149e-002	9.915517e-001	-1.382644e-001	9.915013e-001	-1.382657e-001	1.992798e-003	-1.069287e-002
8005007.727	2.442208e-003	-1.130587e-002	9.913059e-001	-1.393646e-001	9.913427e-001	-1.393359e-001	1.878260e-003	-1.055650e-002
8067546.811	2.262659e-003	-1.133946e-002	9.911958e-001	-1.404300e-001	9.910411e-001	-1.403188e-001	1.763912e-003	-1.085491e-002
8130085.894	2.316069e-003	-1.149723e-002	9.910090e-001	-1.414717e-001	9.909887e-001	-1.414365e-001	1.951547e-003	-1.098460e-002
8192624.978	2.125744e-003	-1.164587e-002	9.906929e-001	-1.426808e-001	9.908110e-001	-1.424905e-001	1.975203e-003	-1.108354e-002
8255164.062	2.212392e-003	-1.172990e-002	9.906514e-001	-1.436940e-001	9.905988e-001	-1.435913e-001	1.907217e-003	-1.121783e-002
8317703.146	2.075100e-003	-1.169489e-002	9.905374e-001	-1.447858e-001	9.905716e-001	-1.447153e-001	1.703253e-003	-1.124039e-002
8380242.230	2.170876e-003	-1.202067e-002	9.902772e-001	-1.460198e-001	9.902664e-001	-1.457119e-001	1.642967e-003	-1.140368e-002
8442781.313	2.117562e-003	-1.206653e-002	9.903251e-001	-1.469488e-001	9.901830e-001	-1.467411e-001	1.603971e-003	-1.156412e-002
8505320.397	2.069795e-003	-1.201831e-002	9.900731e-001	-1.481046e-001	9.900231e-001	-1.478761e-001	1.517306e-003	-1.160167e-002
8567859.481	1.976209e-003	-1.196333e-002	9.898767e-001	-1.489972e-001	9.899206e-001	-1.489767e-001	1.521415e-003	-1.151075e-002
8630398.565	2.041531e-003	-1.208712e-002	9.895716e-001	-1.500486e-001	9.897337e-001	-1.500009e-001	1.372722e-003	-1.185379e-002
8692937.649	1.957436e-003	-1.238677e-002	9.894709e-001	-1.511308e-001	9.894131e-001	-1.511233e-001	1.272716e-003	-1.183905e-002
8755476.732	1.933396e-003	-1.241925e-002	9.893609e-001	-1.523101e-001	9.892803e-001	-1.520983e-001	1.305338e-003	-1.191222e-002
8818015.816	1.785527e-003	-1.253799e-002	9.890923e-001	-1.533661e-001	9.889581e-001	-1.532193e-001	1.378765e-003	-1.208388e-002
8880554.900	1.964044e-003	-1.258400e-002	9.891150e-001	-1.545307e-001	9.890803e-001	-1.542032e-001	1.222436e-003	-1.234664e-002
8943093.984	1.764091e-003	-1.256631e-002	9.888698e-001	-1.554678e-001	9.888841e-001	-1.553001e-001	1.203155e-003	-1.237082e-002
9005633.068	1.795040e-003	-1.273509e-002	9.886040e-001	-1.566177e-001	9.887769e-001	-1.564817e-001	1.072043e-003	-1.259007e-002
9068172.151	1.606941e-003	-1.283860e-002	9.885780e-001	-1.577067e-001	9.884453e-001	-1.574640e-001	1.096019e-003	-1.263693e-002
9130711.235	1.790341e-003	-1.299566e-002	9.882893e-001	-1.587989e-001	9.882738e-001	-1.585480e-001	1.094718e-003	-1.290174e-002
9193250.319	1.737467e-003	-1.310544e-002	9.882620e-001	-1.597375e-001	9.881146e-001	-1.597161e-001	9.886110e-004	-1.292081e-002
9255789.403	1.598604e-003	-1.334695e-002	9.880802e-001	-1.607044e-001	9.879469e-001	-1.607051e-001	8.196995e-004	-1.294564e-002
9318328.487	1.517089e-003	-1.335004e-002	9.878563e-001	-1.620649e-001	9.879057e-001	-1.617614e-001	8.975248e-004	-1.304295e-002
9380867.570	1.495400e-003	-1.330648e-002	9.877179e-001	-1.631489e-001	9.875738e-001	-1.629649e-001	8.533892e-004	-1.314622e-002
9443406.654	1.506357e-003	-1.340148e-002	9.875674e-001	-1.641144e-001	9.875415e-001	-1.640999e-001	8.439867e-004	-1.331403e-002
9505945.738	1.449132e-003	-1.346378e-002	9.872082e-001	-1.653704e-001	9.874214e-001	-1.651204e-001	7.606189e-004	-1.341556e-002
9568484.822	1.437973e-003	-1.359245e-002	9.871575e-001	-1.664004e-001	9.869643e-001	-1.661966e-001	5.135203e-004	-1.325143e-002
