!Agilent Technologies,E5061B,MY49102235,A.02.00
!Date: Tue Jul 11 14:39:01 2023
!Data & Calibration Information:
!Freq	S11:SOLT2(ON)	S21:SOLT2(ON)	S12:SOLT2(ON)	S22:SOLT2(ON)
# Hz S RI R 50
5.000	-5.328574e-003	-5.628266e-003	1.001681e+000	7.778509e-003	1.000207e+000	1.031987e-002	-1.469794e-003	-7.548888e-003
62544.084	5.795607e-003	-5.138955e-004	1.001573e+000	3.935846e-004	1.000794e+000	1.243574e-003	7.707713e-003	-2.892869e-003
125083.168	5.664312e-003	-5.174654e-004	1.001135e+000	-8.980573e-004	1.000805e+000	-8.545803e-004	7.473423e-003	-2.303975e-003
187622.251	5.415806e-003	-3.361420e-004	1.000712e+000	-2.434395e-003	1.000899e+000	-9.066530e-004	7.363121e-003	-2.392847e-003
250161.335	5.247489e-003	-1.953169e-004	1.000745e+000	-3.426907e-003	1.000572e+000	-3.093135e-003	7.258406e-003	-2.050560e-003
312700.419	5.403018e-003	5.378776e-004	1.000871e+000	-4.036705e-003	1.000642e+000	-3.526436e-003	7.751782e-003	-2.368157e-003
375239.503	5.277272e-003	-1.006106e-003	1.001190e+000	-5.332893e-003	1.000521e+000	-4.840702e-003	7.243899e-003	-2.555273e-003
437778.587	5.100096e-003	-6.105560e-004	1.001549e+000	-5.581229e-003	1.001031e+000	-6.072972e-003	6.604308e-003	-2.264621e-003
500317.670	4.567905e-003	-4.926248e-004	1.001361e+000	-7.942155e-003	1.001683e+000	-7.449517e-003	4.786432e-003	-2.095068e-003
562856.754	5.880184e-003	-8.045757e-004	1.001457e+000	-9.469365e-003	1.001105e+000	-9.028341e-003	6.002149e-003	-1.603881e-003
625395.838	5.047442e-003	-6.703298e-004	1.002349e+000	-1.068055e-002	1.002150e+000	-9.936483e-003	6.077120e-003	-1.055178e-003
687934.922	5.096657e-003	-1.013254e-003	1.001461e+000	-1.152774e-002	1.001238e+000	-1.137447e-002	5.717990e-003	-1.533982e-003
750474.006	4.411915e-003	-6.606708e-004	1.001150e+000	-1.110649e-002	1.000743e+000	-1.061498e-002	5.563429e-003	-1.332924e-003
813013.089	4.568684e-003	-6.401263e-004	1.001379e+000	-1.271379e-002	1.000578e+000	-1.234334e-002	4.917792e-003	-1.171442e-003
875552.173	4.307277e-003	-4.935931e-004	1.001372e+000	-1.368199e-002	1.000909e+000	-1.346883e-002	5.696182e-003	-1.577721e-003
938091.257	4.383625e-003	-4.374837e-004	1.001485e+000	-1.521220e-002	1.001077e+000	-1.461996e-002	5.938193e-003	-1.012545e-003
1000630.341	3.838486e-003	-7.900355e-004	1.001039e+000	-1.671441e-002	1.000849e+000	-1.597750e-002	5.179065e-003	-1.716031e-003
1063169.425	4.174406e-003	-9.679793e-004	1.001339e+000	-1.784613e-002	1.000695e+000	-1.673591e-002	4.359340e-003	-2.055195e-003
1125708.508	4.059223e-003	-9.174456e-004	1.001153e+000	-1.896195e-002	1.000700e+000	-1.816172e-002	3.871147e-003	-1.764072e-003
1188247.592	4.592627e-003	-1.374917e-003	1.001399e+000	-2.030797e-002	1.001037e+000	-1.920243e-002	2.750018e-003	-2.338362e-003
1250786.676	4.436564e-003	-2.129640e-003	1.000919e+000	-2.004459e-002	1.000641e+000	-1.994074e-002	2.013304e-003	-4.023114e-003
1313325.760	4.558238e-003	-2.244453e-003	1.001232e+000	-2.166710e-002	1.000939e+000	-2.147445e-002	2.753115e-003	-3.819949e-003
1375864.844	4.282536e-003	-2.426961e-003	1.000946e+000	-2.341308e-002	1.000519e+000	-2.328073e-002	2.604498e-003	-3.566023e-003
1438403.927	4.171022e-003	-2.605366e-003	1.000847e+000	-2.412455e-002	1.000980e+000	-2.323333e-002	2.698757e-003	-3.301553e-003
1500943.011	4.411535e-003	-2.554949e-003	1.001650e+000	-2.521976e-002	1.001341e+000	-2.461289e-002	3.034487e-003	-3.705233e-003
1563482.095	4.396422e-003	-2.926118e-003	1.001247e+000	-2.638419e-002	1.000599e+000	-2.533972e-002	3.165322e-003	-3.520880e-003
1626021.179	4.203473e-003	-2.805708e-003	1.001153e+000	-2.762749e-002	1.000957e+000	-2.793086e-002	3.443921e-003	-3.584285e-003
1688560.263	3.904112e-003	-2.752487e-003	1.000754e+000	-2.937014e-002	1.001365e+000	-2.915084e-002	3.613609e-003	-3.590301e-003
1751099.346	4.031199e-003	-2.665203e-003	1.001324e+000	-3.051150e-002	1.000621e+000	-2.974875e-002	3.425814e-003	-2.771246e-003
1813638.430	3.676954e-003	-2.727771e-003	1.001500e+000	-3.206216e-002	1.000966e+000	-3.147482e-002	3.594230e-003	-3.145847e-003
1876177.514	3.704124e-003	-2.437795e-003	1.001862e+000	-3.291557e-002	1.001286e+000	-3.307481e-002	3.264713e-003	-2.492009e-003
1938716.598	3.165570e-003	-2.362863e-003	1.002116e+000	-3.365434e-002	1.001406e+000	-3.294645e-002	3.431972e-003	-2.112750e-003
2001255.682	3.077589e-003	-2.861850e-003	1.002045e+000	-3.516987e-002	1.001224e+000	-3.451500e-002	3.179983e-003	-2.588284e-003
2063794.765	3.165255e-003	-2.490166e-003	1.001530e+000	-3.622652e-002	1.000786e+000	-3.617220e-002	3.574629e-003	-2.683396e-003
2126333.849	2.703635e-003	-3.010941e-003	1.001030e+000	-3.744687e-002	1.000162e+000	-3.656483e-002	3.832106e-003	-2.440505e-003
2188872.933	3.187490e-003	-3.034992e-003	1.000871e+000	-3.862323e-002	1.000145e+000	-3.760794e-002	3.704889e-003	-2.493369e-003
2251412.017	3.284954e-003	-3.403092e-003	1.000665e+000	-4.013975e-002	1.000162e+000	-3.850613e-002	3.695565e-003	-2.617252e-003
2313951.101	3.607335e-003	-2.983290e-003	1.000170e+000	-4.103749e-002	1.000266e+000	-3.955904e-002	4.002512e-003	-2.692461e-003
2376490.184	3.350849e-003	-3.044259e-003	9.999533e-001	-4.146370e-002	1.000213e+000	-4.143255e-002	3.958280e-003	-2.719060e-003
2439029.268	3.797699e-003	-3.088018e-003	9.999894e-001	-4.332438e-002	9.993661e-001	-4.244953e-002	3.615424e-003	-2.614537e-003
2501568.352	3.774619e-003	-3.101937e-003	9.997005e-001	-4.335579e-002	1.000075e+000	-4.308515e-002	3.909499e-003	-2.664829e-003
2564107.436	3.668415e-003	-3.275595e-003	9.999985e-001	-4.505284e-002	9.999954e-001	-4.460959e-002	3.217316e-003	-3.049014e-003
2626646.520	4.151932e-003	-3.462454e-003	9.998241e-001	-4.614998e-002	9.986987e-001	-4.567589e-002	3.465832e-003	-3.133375e-003
2689185.604	4.110185e-003	-3.310679e-003	1.000284e+000	-4.699021e-002	9.994564e-001	-4.638120e-002	3.582233e-003	-3.088012e-003
2751724.687	4.211970e-003	-3.414453e-003	1.000005e+000	-4.769698e-002	9.993744e-001	-4.723109e-002	3.198763e-003	-3.147579e-003
2814263.771	4.159361e-003	-3.517311e-003	9.990660e-001	-4.962297e-002	9.990772e-001	-4.857035e-002	3.166205e-003	-3.288777e-003
2876802.855	4.101734e-003	-3.734059e-003	9.991694e-001	-5.085557e-002	9.992508e-001	-4.965961e-002	3.241472e-003	-3.184926e-003
2939341.939	4.225683e-003	-3.667207e-003	9.997727e-001	-5.147762e-002	9.991896e-001	-5.124779e-002	3.140213e-003	-3.304994e-003
3001881.023	4.131058e-003	-3.676572e-003	9.994672e-001	-5.249095e-002	9.990805e-001	-5.214566e-002	3.222564e-003	-3.452655e-003
3064420.106	4.188635e-003	-3.764989e-003	1.000131e+000	-5.360464e-002	9.990335e-001	-5.308141e-002	3.046441e-003	-3.598465e-003
3126959.190	4.380336e-003	-3.883246e-003	9.995744e-001	-5.479000e-002	9.991832e-001	-5.436135e-002	3.237404e-003	-3.695793e-003
3189498.274	4.357536e-003	-3.870622e-003	9.994698e-001	-5.577658e-002	9.990833e-001	-5.540853e-002	3.219087e-003	-3.770103e-003
3252037.358	4.283793e-003	-4.254442e-003	9.995807e-001	-5.693931e-002	9.991770e-001	-5.641228e-002	3.161776e-003	-3.749214e-003
3314576.442	4.278335e-003	-4.120227e-003	9.994645e-001	-5.792525e-002	9.990534e-001	-5.761645e-002	3.223711e-003	-3.883001e-003
3377115.525	4.239882e-003	-4.145032e-003	9.992713e-001	-5.894977e-002	9.987824e-001	-5.876256e-002	3.055095e-003	-4.058130e-003
3439654.609	4.250463e-003	-4.246609e-003	9.990662e-001	-6.006585e-002	9.990546e-001	-5.975694e-002	3.068591e-003	-3.899798e-003
3502193.693	4.198363e-003	-4.585563e-003	9.990905e-001	-6.130026e-002	9.987318e-001	-6.074363e-002	3.229164e-003	-3.969181e-003
3564732.777	4.253284e-003	-4.475605e-003	9.990854e-001	-6.232866e-002	9.987521e-001	-6.193636e-002	3.335612e-003	-3.993349e-003
3627271.861	4.099165e-003	-4.656374e-003	9.991353e-001	-6.349732e-002	9.987647e-001	-6.288774e-002	3.086475e-003	-4.246306e-003
3689810.944	3.991021e-003	-4.819130e-003	9.989607e-001	-6.459926e-002	9.986589e-001	-6.395874e-002	3.243620e-003	-4.276653e-003
3752350.028	4.103276e-003	-4.842351e-003	9.988792e-001	-6.543972e-002	9.984362e-001	-6.499175e-002	3.167658e-003	-4.372330e-003
3814889.112	4.216863e-003	-4.759140e-003	9.987148e-001	-6.661268e-002	9.986192e-001	-6.637246e-002	3.086256e-003	-4.555830e-003
3877428.196	4.140527e-003	-4.796324e-003	9.988455e-001	-6.774014e-002	9.984999e-001	-6.723122e-002	3.407496e-003	-4.586680e-003
3939967.280	4.110921e-003	-5.131704e-003	9.987438e-001	-6.891899e-002	9.985154e-001	-6.833703e-002	3.384395e-003	-4.551482e-003
4002506.363	4.174164e-003	-5.054588e-003	9.987272e-001	-6.993534e-002	9.983768e-001	-6.929651e-002	3.317559e-003	-4.693733e-003
4065045.447	3.984577e-003	-5.207454e-003	9.984415e-001	-7.106405e-002	9.981830e-001	-7.049945e-002	3.397777e-003	-4.853105e-003
4127584.531	3.960357e-003	-5.285011e-003	9.983585e-001	-7.213576e-002	9.981531e-001	-7.156821e-002	3.423323e-003	-4.796926e-003
4190123.615	3.984096e-003	-5.316101e-003	9.983809e-001	-7.335835e-002	9.979932e-001	-7.276240e-002	3.318183e-003	-5.090881e-003
4252662.699	3.946354e-003	-5.473017e-003	9.984197e-001	-7.446331e-002	9.979110e-001	-7.394779e-002	3.412359e-003	-5.112723e-003
4315201.782	4.067805e-003	-5.575821e-003	9.983249e-001	-7.537448e-002	9.980771e-001	-7.507874e-002	3.237850e-003	-5.380753e-003
4377740.866	3.969909e-003	-5.665070e-003	9.983135e-001	-7.657666e-002	9.977533e-001	-7.613661e-002	3.401829e-003	-5.157440e-003
4440279.950	3.859203e-003	-5.876759e-003	9.981925e-001	-7.751900e-002	9.976230e-001	-7.710657e-002	3.283855e-003	-5.384290e-003
4502819.034	3.853529e-003	-5.819237e-003	9.978225e-001	-7.874124e-002	9.976495e-001	-7.818916e-002	3.353127e-003	-5.318275e-003
4565358.118	3.755059e-003	-5.931927e-003	9.978375e-001	-7.978555e-002	9.973825e-001	-7.911064e-002	3.355356e-003	-5.499469e-003
4627897.201	3.922443e-003	-5.862893e-003	9.979387e-001	-8.086440e-002	9.974293e-001	-8.014898e-002	3.445689e-003	-5.449389e-003
4690436.285	3.749895e-003	-6.058158e-003	9.978925e-001	-8.201541e-002	9.973857e-001	-8.167099e-002	3.445112e-003	-5.721223e-003
4752975.369	3.729749e-003	-6.150481e-003	9.975110e-001	-8.318394e-002	9.973612e-001	-8.261268e-002	3.258868e-003	-5.838466e-003
4815514.453	3.859096e-003	-6.218810e-003	9.976225e-001	-8.417056e-002	9.972792e-001	-8.378139e-002	3.462116e-003	-5.825366e-003
4878053.537	3.953640e-003	-6.383555e-003	9.975962e-001	-8.522544e-002	9.971225e-001	-8.471655e-002	3.431905e-003	-5.983742e-003
4940592.620	3.678820e-003	-6.423743e-003	9.973889e-001	-8.639561e-002	9.971138e-001	-8.591861e-002	3.185432e-003	-6.091937e-003
5003131.704	3.739910e-003	-6.641570e-003	9.972502e-001	-8.744589e-002	9.970680e-001	-8.676805e-002	3.301487e-003	-6.215170e-003
5065670.788	3.656901e-003	-6.518920e-003	9.971649e-001	-8.861656e-002	9.969182e-001	-8.795192e-002	3.262479e-003	-6.264695e-003
5128209.872	3.777211e-003	-6.731662e-003	9.972426e-001	-8.966039e-002	9.967997e-001	-8.902236e-002	3.238454e-003	-6.547022e-003
5190748.956	3.669633e-003	-6.821837e-003	9.970723e-001	-9.076060e-002	9.967568e-001	-9.023105e-002	3.186741e-003	-6.495969e-003
5253288.039	3.708920e-003	-6.957181e-003	9.970738e-001	-9.181093e-002	9.967034e-001	-9.128343e-002	3.108384e-003	-6.512487e-003
5315827.123	3.668810e-003	-7.100347e-003	9.967421e-001	-9.291477e-002	9.965636e-001	-9.241586e-002	3.071941e-003	-6.682416e-003
5378366.207	3.757135e-003	-7.124094e-003	9.968437e-001	-9.401851e-002	9.965332e-001	-9.368360e-002	3.072736e-003	-6.858963e-003
5440905.291	3.555664e-003	-7.128152e-003	9.968119e-001	-9.509189e-002	9.964298e-001	-9.463011e-002	2.943957e-003	-6.887193e-003
5503444.375	3.751727e-003	-7.368746e-003	9.966645e-001	-9.625868e-002	9.963735e-001	-9.554306e-002	3.126727e-003	-7.048011e-003
5565983.458	3.394993e-003	-7.339233e-003	9.965512e-001	-9.720599e-002	9.963207e-001	-9.662920e-002	3.054909e-003	-6.987222e-003
5628522.542	3.631919e-003	-7.484164e-003	9.964746e-001	-9.826625e-002	9.961905e-001	-9.785914e-002	3.084578e-003	-7.187052e-003
5691061.626	3.690368e-003	-7.759329e-003	9.963226e-001	-9.954908e-002	9.960512e-001	-9.897174e-002	2.982934e-003	-7.227012e-003
5753600.710	3.542119e-003	-7.750360e-003	9.961780e-001	-1.005239e-001	9.959576e-001	-1.000107e-001	3.027428e-003	-7.449466e-003
5816139.794	3.615558e-003	-7.651409e-003	9.961178e-001	-1.016718e-001	9.956584e-001	-1.012916e-001	2.867324e-003	-7.489641e-003
5878678.877	3.512965e-003	-7.974219e-003	9.959958e-001	-1.028102e-001	9.956339e-001	-1.022711e-001	2.961661e-003	-7.708887e-003
5941217.961	3.499396e-003	-8.138417e-003	9.958190e-001	-1.039415e-001	9.955354e-001	-1.031848e-001	2.755736e-003	-7.703832e-003
6003757.045	3.333319e-003	-7.999241e-003	9.955896e-001	-1.049159e-001	9.954510e-001	-1.043151e-001	2.874558e-003	-7.809119e-003
6066296.129	3.439254e-003	-8.276120e-003	9.957389e-001	-1.060315e-001	9.953662e-001	-1.053205e-001	2.837415e-003	-7.924769e-003
6128835.213	3.518736e-003	-8.345954e-003	9.956213e-001	-1.068177e-001	9.954173e-001	-1.065552e-001	2.914965e-003	-8.016451e-003
6191374.296	3.465645e-003	-8.454340e-003	9.953930e-001	-1.081641e-001	9.950555e-001	-1.078268e-001	2.749345e-003	-8.018170e-003
6253913.380	3.353561e-003	-8.429830e-003	9.953640e-001	-1.092697e-001	9.950240e-001	-1.087109e-001	2.614746e-003	-8.006515e-003
6316452.464	3.311393e-003	-8.442428e-003	9.952480e-001	-1.102211e-001	9.947862e-001	-1.100024e-001	2.658014e-003	-8.309493e-003
6378991.548	3.257945e-003	-8.681456e-003	9.951030e-001	-1.116537e-001	9.948939e-001	-1.109769e-001	2.698847e-003	-8.523812e-003
6441530.632	3.193368e-003	-8.855174e-003	9.949079e-001	-1.124619e-001	9.947088e-001	-1.121959e-001	2.722378e-003	-8.507479e-003
6504069.715	3.174608e-003	-8.954460e-003	9.947609e-001	-1.137794e-001	9.947245e-001	-1.131650e-001	2.719851e-003	-8.603096e-003
6566608.799	3.300229e-003	-9.101683e-003	9.947948e-001	-1.149258e-001	9.944398e-001	-1.143041e-001	2.596422e-003	-8.495640e-003
6629147.883	3.233186e-003	-9.070007e-003	9.946232e-001	-1.157136e-001	9.942671e-001	-1.153843e-001	2.684516e-003	-8.730241e-003
6691686.967	3.103053e-003	-9.157775e-003	9.943776e-001	-1.168546e-001	9.941282e-001	-1.164529e-001	2.691500e-003	-8.742322e-003
6754226.051	3.026585e-003	-9.253072e-003	9.942066e-001	-1.181014e-001	9.938882e-001	-1.177281e-001	2.489365e-003	-9.040435e-003
6816765.134	3.111619e-003	-9.364943e-003	9.941678e-001	-1.190872e-001	9.939086e-001	-1.186664e-001	2.506910e-003	-8.935594e-003
6879304.218	2.987326e-003	-9.611765e-003	9.940132e-001	-1.202393e-001	9.938359e-001	-1.197210e-001	2.486176e-003	-9.101191e-003
6941843.302	3.043589e-003	-9.544786e-003	9.938429e-001	-1.213633e-001	9.936557e-001	-1.207730e-001	2.456590e-003	-9.090221e-003
7004382.386	2.828535e-003	-9.554896e-003	9.938164e-001	-1.223216e-001	9.934717e-001	-1.218826e-001	2.357808e-003	-9.148988e-003
7066921.470	2.910742e-003	-9.715966e-003	9.935680e-001	-1.236030e-001	9.934009e-001	-1.228096e-001	2.507532e-003	-9.396302e-003
7129460.553	2.782962e-003	-9.918473e-003	9.935025e-001	-1.244981e-001	9.932692e-001	-1.239994e-001	2.489059e-003	-9.425237e-003
7191999.637	2.762629e-003	-9.772305e-003	9.931497e-001	-1.256542e-001	9.929659e-001	-1.250759e-001	2.327492e-003	-9.521716e-003
7254538.721	2.787205e-003	-9.957945e-003	9.933458e-001	-1.267970e-001	9.930080e-001	-1.262604e-001	2.351801e-003	-9.605272e-003
7317077.805	2.944903e-003	-1.008680e-002	9.930984e-001	-1.277497e-001	9.929060e-001	-1.272536e-001	2.319870e-003	-9.783459e-003
7379616.889	2.781350e-003	-1.017078e-002	9.931316e-001	-1.290289e-001	9.926993e-001	-1.283809e-001	2.253109e-003	-9.849846e-003
7442155.972	2.616175e-003	-1.026241e-002	9.928264e-001	-1.299240e-001	9.925800e-001	-1.293975e-001	2.315546e-003	-9.724476e-003
7504695.056	2.639278e-003	-1.044439e-002	9.925915e-001	-1.309692e-001	9.922945e-001	-1.306475e-001	2.326342e-003	-9.747996e-003
7567234.140	2.798548e-003	-1.060332e-002	9.926030e-001	-1.320312e-001	9.921660e-001	-1.316574e-001	2.238029e-003	-9.940117e-003
7629773.224	2.666345e-003	-1.039113e-002	9.924501e-001	-1.333047e-001	9.921867e-001	-1.327010e-001	2.132295e-003	-1.007704e-002
7692312.308	2.512909e-003	-1.055610e-002	9.923288e-001	-1.343418e-001	9.919539e-001	-1.338738e-001	2.159960e-003	-1.025795e-002
7754851.391	2.472315e-003	-1.079847e-002	9.921175e-001	-1.354921e-001	9.916640e-001	-1.347662e-001	2.085544e-003	-1.021099e-002
7817390.475	2.533889e-003	-1.067740e-002	9.920000e-001	-1.366575e-001	9.915852e-001	-1.360951e-001	1.987296e-003	-1.017935e-002
7879929.559	2.413488e-003	-1.093849e-002	9.917450e-001	-1.377846e-001	9.914297e-001	-1.373156e-001	2.088162e-003	-1.027788e-002
7942468.643	2.357048e-003	-1.109319e-002	9.917137e-001	-1.387516e-001	9.913979e-001	-1.383448e-001	2.042322e-003	-1.054678e-002
8005007.727	2.426743e-003	-1.114856e-002	9.914383e-001	-1.399030e-001	9.912553e-001	-1.394044e-001	1.923530e-003	-1.039517e-002
8067546.811	2.248760e-003	-1.118846e-002	9.913413e-001	-1.409361e-001	9.909442e-001	-1.404184e-001	1.821684e-003	-1.070052e-002
8130085.894	2.299218e-003	-1.134707e-002	9.911765e-001	-1.419532e-001	9.908707e-001	-1.415855e-001	2.016805e-003	-1.083837e-002
8192624.978	2.114433e-003	-1.149122e-002	9.908588e-001	-1.431890e-001	9.907209e-001	-1.425904e-001	2.039616e-003	-1.092472e-002
8255164.062	2.202587e-003	-1.156953e-002	9.908046e-001	-1.442280e-001	9.905274e-001	-1.436845e-001	1.976749e-003	-1.105352e-002
8317703.146	2.052695e-003	-1.152606e-002	9.906949e-001	-1.453004e-001	9.904719e-001	-1.447461e-001	1.765841e-003	-1.109009e-002
8380242.230	2.147078e-003	-1.185192e-002	9.903983e-001	-1.465080e-001	9.901780e-001	-1.458167e-001	1.698797e-003	-1.124060e-002
8442781.313	2.102875e-003	-1.190290e-002	9.904965e-001	-1.474666e-001	9.901159e-001	-1.468571e-001	1.664439e-003	-1.140387e-002
8505320.397	2.042146e-003	-1.186336e-002	9.902769e-001	-1.486085e-001	9.898824e-001	-1.479877e-001	1.565249e-003	-1.144781e-002
8567859.481	1.956098e-003	-1.178912e-002	9.900316e-001	-1.495421e-001	9.897983e-001	-1.490607e-001	1.575152e-003	-1.134501e-002
8630398.565	2.015901e-003	-1.191980e-002	9.896925e-001	-1.505808e-001	9.896278e-001	-1.500746e-001	1.426687e-003	-1.170251e-002
8692937.649	1.924706e-003	-1.222710e-002	9.896087e-001	-1.517002e-001	9.893026e-001	-1.512275e-001	1.334092e-003	-1.169455e-002
8755476.732	1.909530e-003	-1.224140e-002	9.895283e-001	-1.528779e-001	9.891526e-001	-1.522208e-001	1.375863e-003	-1.175074e-002
8818015.816	1.758482e-003	-1.236580e-002	9.892644e-001	-1.538938e-001	9.888520e-001	-1.533789e-001	1.442089e-003	-1.192339e-002
8880554.900	1.944668e-003	-1.241648e-002	9.892510e-001	-1.550547e-001	9.889583e-001	-1.542717e-001	1.276510e-003	-1.218733e-002
8943093.984	1.735943e-003	-1.239988e-002	9.889729e-001	-1.560560e-001	9.887743e-001	-1.554193e-001	1.266305e-003	-1.220509e-002
9005633.068	1.757320e-003	-1.257607e-002	9.887218e-001	-1.571846e-001	9.886549e-001	-1.565999e-001	1.135735e-003	-1.242401e-002
9068172.151	1.575257e-003	-1.266216e-002	9.887334e-001	-1.582852e-001	9.883464e-001	-1.575497e-001	1.150467e-003	-1.246803e-002
9130711.235	1.758292e-003	-1.281876e-002	9.884366e-001	-1.593468e-001	9.882244e-001	-1.586078e-001	1.156648e-003	-1.274811e-002
9193250.319	1.710013e-003	-1.293393e-002	9.884155e-001	-1.602927e-001	9.880066e-001	-1.597954e-001	1.042369e-003	-1.275715e-002
9255789.403	1.583522e-003	-1.317614e-002	9.882670e-001	-1.613002e-001	9.878129e-001	-1.607916e-001	8.804595e-004	-1.278182e-002
9318328.487	1.478866e-003	-1.315956e-002	9.880016e-001	-1.626114e-001	9.878107e-001	-1.618528e-001	9.552222e-004	-1.286538e-002
9380867.570	1.458871e-003	-1.313016e-002	9.878736e-001	-1.636596e-001	9.874506e-001	-1.630813e-001	9.114307e-004	-1.298224e-002
9443406.654	1.476814e-003	-1.323444e-002	9.877228e-001	-1.646551e-001	9.874104e-001	-1.642015e-001	9.148654e-004	-1.314805e-002
9505945.738	1.411933e-003	-1.330323e-002	9.873199e-001	-1.659094e-001	9.873125e-001	-1.652519e-001	8.240236e-004	-1.323608e-002
9568484.822	1.415285e-003	-1.341445e-002	9.872985e-001	-1.669238e-001	9.868591e-001	-1.663576e-001	5.760765e-004	-1.308198e-002
