!Agilent Technologies,E5061B,MY49102235,A.02.00
!Date: Tue Jul 11 14:36:44 2023
!Data & Calibration Information:
!Freq	S11:SOLT2(ON)	S21:SOLT2(ON)	S12:SOLT2(ON)	S22:SOLT2(ON)
# Hz S RI R 50
5.000	-5.250395e-003	-5.642431e-003	1.001564e+000	7.857414e-003	1.000106e+000	1.024932e-002	-1.493986e-003	-7.548126e-003
62544.084	5.803057e-003	-1.062734e-004	1.001526e+000	9.221594e-006	1.000790e+000	7.786182e-004	7.710311e-003	-2.496664e-003
125083.168	5.666103e-003	2.879269e-004	1.001052e+000	-1.681026e-003	1.000719e+000	-1.625091e-003	7.499837e-003	-1.499746e-003
187622.251	5.450786e-003	8.570160e-004	1.000534e+000	-3.480533e-003	1.000906e+000	-2.069561e-003	7.399335e-003	-1.206240e-003
250161.335	5.295651e-003	1.383547e-003	1.000651e+000	-4.838006e-003	1.000598e+000	-4.741836e-003	7.300888e-003	-4.705589e-004
312700.419	5.455244e-003	2.501018e-003	1.000916e+000	-5.903359e-003	1.000668e+000	-5.528482e-003	7.791730e-003	-4.122665e-004
375239.503	5.337417e-003	1.397067e-003	1.001074e+000	-7.831552e-003	1.000560e+000	-7.306909e-003	7.292545e-003	-1.832918e-004
437778.587	5.200595e-003	2.157191e-003	1.001376e+000	-8.207800e-003	1.000896e+000	-8.819555e-003	6.686201e-003	4.892083e-004
500317.670	4.667832e-003	2.665039e-003	1.001258e+000	-1.101298e-002	1.001481e+000	-1.071203e-002	4.900889e-003	1.064403e-003
562856.754	5.988260e-003	2.747119e-003	1.001376e+000	-1.297458e-002	1.000929e+000	-1.263720e-002	6.125651e-003	1.936146e-003
625395.838	5.197322e-003	3.287387e-003	1.002213e+000	-1.455728e-002	1.001975e+000	-1.401373e-002	6.226666e-003	2.882347e-003
687934.922	5.278473e-003	3.339284e-003	1.001226e+000	-1.599483e-002	1.001023e+000	-1.583072e-002	5.895169e-003	2.795863e-003
750474.006	4.622258e-003	4.097174e-003	1.000949e+000	-1.577828e-002	1.000554e+000	-1.534819e-002	5.781047e-003	3.417379e-003
813013.089	4.821846e-003	4.503458e-003	1.001162e+000	-1.782299e-002	1.000378e+000	-1.743570e-002	5.157867e-003	3.968713e-003
875552.173	4.579729e-003	5.060003e-003	1.001134e+000	-1.909091e-002	1.000688e+000	-1.912083e-002	5.969040e-003	3.954995e-003
938091.257	4.686409e-003	5.505018e-003	1.001339e+000	-2.114832e-002	1.000824e+000	-2.056571e-002	6.232169e-003	4.895594e-003
1000630.341	4.155670e-003	5.533829e-003	1.000621e+000	-2.291380e-002	1.000764e+000	-2.239786e-002	5.497598e-003	4.596503e-003
1063169.425	4.535824e-003	5.767496e-003	1.001052e+000	-2.457868e-002	1.000352e+000	-2.365573e-002	4.697858e-003	4.672980e-003
1125708.508	4.450548e-003	6.210658e-003	1.000987e+000	-2.609927e-002	1.000270e+000	-2.541680e-002	4.234377e-003	5.349949e-003
1188247.592	5.023013e-003	6.145874e-003	1.000951e+000	-2.785503e-002	1.000608e+000	-2.693156e-002	3.167384e-003	5.189645e-003
1250786.676	4.881787e-003	5.805892e-003	1.000507e+000	-2.800326e-002	1.000357e+000	-2.798354e-002	2.434932e-003	3.945579e-003
1313325.760	5.032610e-003	6.093238e-003	1.000799e+000	-3.003450e-002	1.000486e+000	-3.003143e-002	3.199424e-003	4.532565e-003
1375864.844	4.785110e-003	6.301482e-003	1.000442e+000	-3.216542e-002	1.000186e+000	-3.221514e-002	3.100927e-003	5.212385e-003
1438403.927	4.709516e-003	6.547257e-003	1.000318e+000	-3.329330e-002	1.000485e+000	-3.246918e-002	3.233684e-003	5.879233e-003
1500943.011	4.998045e-003	7.006019e-003	1.001080e+000	-3.466859e-002	1.000801e+000	-3.445021e-002	3.610982e-003	5.870446e-003
1563482.095	5.020188e-003	7.039979e-003	1.000666e+000	-3.637857e-002	1.000001e+000	-3.541431e-002	3.779999e-003	6.472508e-003
1626021.179	4.875422e-003	7.588108e-003	1.000439e+000	-3.799764e-002	1.000383e+000	-3.839911e-002	4.103231e-003	6.828941e-003
1688560.263	4.609075e-003	8.066050e-003	1.000082e+000	-4.022911e-002	1.000731e+000	-4.019773e-002	4.321824e-003	7.226625e-003
1751099.346	4.790188e-003	8.561145e-003	1.000427e+000	-4.173843e-002	9.999840e-001	-4.093059e-002	4.185411e-003	8.483029e-003
1813638.430	4.496411e-003	8.957422e-003	1.000737e+000	-4.367878e-002	1.000161e+000	-4.327621e-002	4.414758e-003	8.522670e-003
1876177.514	4.600697e-003	9.665675e-003	1.001129e+000	-4.508336e-002	1.000462e+000	-4.538208e-002	4.151280e-003	9.626265e-003
1938716.598	4.118232e-003	1.018388e-002	1.001219e+000	-4.629988e-002	1.000419e+000	-4.566740e-002	4.387171e-003	1.042977e-002
2001255.682	4.069331e-003	1.014215e-002	1.001066e+000	-4.809104e-002	1.000313e+000	-4.766658e-002	4.197320e-003	1.040981e-002
2063794.765	4.245864e-003	1.094617e-002	1.000556e+000	-4.960255e-002	9.997367e-001	-4.971412e-002	4.656774e-003	1.075010e-002
2126333.849	3.842166e-003	1.087411e-002	9.999409e-001	-5.132497e-002	9.990884e-001	-5.050554e-002	4.983886e-003	1.142025e-002
2188872.933	4.403837e-003	1.129863e-002	9.996843e-001	-5.291648e-002	9.988687e-001	-5.205136e-002	4.946255e-003	1.182011e-002
2251412.017	4.565245e-003	1.138442e-002	9.993891e-001	-5.490399e-002	9.989688e-001	-5.346174e-002	5.008217e-003	1.215960e-002
2313951.101	5.008033e-003	1.223400e-002	9.986356e-001	-5.628559e-002	9.988111e-001	-5.488614e-002	5.406075e-003	1.251280e-002
2376490.184	4.844145e-003	1.266105e-002	9.985424e-001	-5.707812e-002	9.987527e-001	-5.717560e-002	5.470845e-003	1.296888e-002
2439029.268	5.383365e-003	1.306125e-002	9.982794e-001	-5.932204e-002	9.978107e-001	-5.867042e-002	5.260340e-003	1.354425e-002
2501568.352	5.485507e-003	1.351791e-002	9.979827e-001	-5.999975e-002	9.984867e-001	-5.988248e-002	5.647565e-003	1.395118e-002
2564107.436	5.508986e-003	1.383639e-002	9.982555e-001	-6.226082e-002	9.980610e-001	-6.184998e-002	5.041288e-003	1.406323e-002
2626646.520	6.098343e-003	1.407939e-002	9.978555e-001	-6.371857e-002	9.968381e-001	-6.331864e-002	5.444813e-003	1.442499e-002
2689185.604	6.184798e-003	1.470806e-002	9.981057e-001	-6.495261e-002	9.974847e-001	-6.463112e-002	5.698416e-003	1.493661e-002
2751724.687	6.443434e-003	1.506707e-002	9.978769e-001	-6.619878e-002	9.972640e-001	-6.588078e-002	5.432775e-003	1.538781e-002
2814263.771	6.545237e-003	1.546639e-002	9.968315e-001	-6.854518e-002	9.969529e-001	-6.763467e-002	5.565418e-003	1.572376e-002
2876802.855	6.642176e-003	1.571823e-002	9.966849e-001	-7.034369e-002	9.966535e-001	-6.926364e-002	5.827299e-003	1.629161e-002
2939341.939	6.928073e-003	1.627214e-002	9.971121e-001	-7.126702e-002	9.964943e-001	-7.118176e-002	5.879273e-003	1.666452e-002
3001881.023	7.040714e-003	1.673443e-002	9.966425e-001	-7.306853e-002	9.962172e-001	-7.280237e-002	6.143458e-003	1.697860e-002
3064420.106	7.262675e-003	1.714815e-002	9.970310e-001	-7.447586e-002	9.960009e-001	-7.423876e-002	6.144138e-003	1.732494e-002
3126959.190	7.645840e-003	1.748741e-002	9.963503e-001	-7.617935e-002	9.959574e-001	-7.585905e-002	6.520282e-003	1.771273e-002
3189498.274	7.838529e-003	1.797882e-002	9.960162e-001	-7.766303e-002	9.956369e-001	-7.742249e-002	6.709108e-003	1.810548e-002
3252037.358	7.939883e-003	1.808069e-002	9.959086e-001	-7.932178e-002	9.954913e-001	-7.893930e-002	6.879608e-003	1.862601e-002
3314576.442	8.182129e-003	1.868952e-002	9.955759e-001	-8.079492e-002	9.951250e-001	-8.056663e-002	7.158094e-003	1.896543e-002
3377115.525	8.381922e-003	1.915091e-002	9.951769e-001	-8.227411e-002	9.946558e-001	-8.227535e-002	7.230126e-003	1.928127e-002
3439654.609	8.635520e-003	1.953537e-002	9.947290e-001	-8.390811e-002	9.946573e-001	-8.372950e-002	7.499508e-003	1.993069e-002
3502193.693	8.831709e-003	1.967777e-002	9.944753e-001	-8.562207e-002	9.941031e-001	-8.519242e-002	7.915450e-003	2.031377e-002
3564732.777	9.149760e-003	2.025459e-002	9.942306e-001	-8.710080e-002	9.938120e-001	-8.685416e-002	8.265336e-003	2.077462e-002
3627271.861	9.263710e-003	2.055833e-002	9.939692e-001	-8.877828e-002	9.936127e-001	-8.832664e-002	8.322332e-003	2.100580e-002
3689810.944	9.460914e-003	2.087765e-002	9.934625e-001	-9.035886e-002	9.931929e-001	-8.984678e-002	8.756675e-003	2.144583e-002
3752350.028	9.860618e-003	2.131874e-002	9.931008e-001	-9.166088e-002	9.926829e-001	-9.137654e-002	8.985878e-003	2.182465e-002
3814889.112	1.028674e-002	2.185413e-002	9.926256e-001	-9.327737e-002	9.925785e-001	-9.321794e-002	9.218995e-003	2.211021e-002
3877428.196	1.055159e-002	2.229036e-002	9.924621e-001	-9.488424e-002	9.921100e-001	-9.454005e-002	9.851449e-003	2.251939e-002
3939967.280	1.083301e-002	2.239152e-002	9.920072e-001	-9.652247e-002	9.917821e-001	-9.611400e-002	1.017363e-002	2.300170e-002
4002506.363	1.125632e-002	2.292330e-002	9.916321e-001	-9.802142e-002	9.913358e-001	-9.751147e-002	1.046536e-002	2.333140e-002
4065045.447	1.142515e-002	2.322416e-002	9.910048e-001	-9.956037e-002	9.907797e-001	-9.916175e-002	1.089758e-002	2.360212e-002
4127584.531	1.175459e-002	2.357914e-002	9.905626e-001	-1.010701e-001	9.903688e-001	-1.006111e-001	1.127231e-002	2.408106e-002
4190123.615	1.217663e-002	2.396366e-002	9.901897e-001	-1.027613e-001	9.898119e-001	-1.022599e-001	1.154905e-002	2.421908e-002
4252662.699	1.251055e-002	2.423249e-002	9.898367e-001	-1.043012e-001	9.892831e-001	-1.038949e-001	1.203472e-002	2.459113e-002
4315201.782	1.302663e-002	2.454125e-002	9.893422e-001	-1.055431e-001	9.891377e-001	-1.054102e-001	1.223883e-002	2.476308e-002
4377740.866	1.333299e-002	2.485083e-002	9.889579e-001	-1.071883e-001	9.884005e-001	-1.068566e-001	1.282547e-002	2.537263e-002
4440279.950	1.363953e-002	2.503703e-002	9.884290e-001	-1.085611e-001	9.877935e-001	-1.082151e-001	1.311627e-002	2.553043e-002
4502819.034	1.404816e-002	2.548803e-002	9.876680e-001	-1.101205e-001	9.874554e-001	-1.097324e-001	1.362584e-002	2.598748e-002
4565358.118	1.438821e-002	2.573683e-002	9.871796e-001	-1.115602e-001	9.867881e-001	-1.109802e-001	1.403997e-002	2.617079e-002
4627897.201	1.499504e-002	2.613928e-002	9.868532e-001	-1.129855e-001	9.863649e-001	-1.124368e-001	1.458220e-002	2.655969e-002
4690436.285	1.526616e-002	2.631223e-002	9.863345e-001	-1.145218e-001	9.858575e-001	-1.142546e-001	1.501024e-002	2.664273e-002
4752975.369	1.570230e-002	2.655977e-002	9.855299e-001	-1.160267e-001	9.854217e-001	-1.156006e-001	1.526296e-002	2.686990e-002
4815514.453	1.626544e-002	2.681503e-002	9.852197e-001	-1.173461e-001	9.848629e-001	-1.170843e-001	1.593361e-002	2.720601e-002
4878053.537	1.679410e-002	2.696023e-002	9.847012e-001	-1.186819e-001	9.842873e-001	-1.183108e-001	1.636054e-002	2.738663e-002
4940592.620	1.701399e-002	2.724556e-002	9.840142e-001	-1.201468e-001	9.837506e-001	-1.198384e-001	1.659123e-002	2.758752e-002
5003131.704	1.751951e-002	2.733587e-002	9.834373e-001	-1.215074e-001	9.832711e-001	-1.209938e-001	1.717487e-002	2.774555e-002
5065670.788	1.793597e-002	2.773249e-002	9.828496e-001	-1.229440e-001	9.825895e-001	-1.224593e-001	1.761959e-002	2.800763e-002
5128209.872	1.852204e-002	2.778814e-002	9.824667e-001	-1.243087e-001	9.820248e-001	-1.238331e-001	1.803938e-002	2.799725e-002
5190748.956	1.890443e-002	2.796474e-002	9.817695e-001	-1.256788e-001	9.815132e-001	-1.252908e-001	1.849631e-002	2.829568e-002
5253288.039	1.943078e-002	2.809135e-002	9.812913e-001	-1.270090e-001	9.809369e-001	-1.266271e-001	1.891654e-002	2.856635e-002
5315827.123	1.987885e-002	2.819362e-002	9.805352e-001	-1.283406e-001	9.803046e-001	-1.279636e-001	1.937143e-002	2.861594e-002
5378366.207	2.044476e-002	2.838765e-002	9.800593e-001	-1.296543e-001	9.797510e-001	-1.294573e-001	1.983386e-002	2.867005e-002
5440905.291	2.075519e-002	2.861724e-002	9.795462e-001	-1.309941e-001	9.791460e-001	-1.306408e-001	2.021445e-002	2.885864e-002
5503444.375	2.142720e-002	2.857135e-002	9.789336e-001	-1.323251e-001	9.786584e-001	-1.317948e-001	2.088051e-002	2.888834e-002
5565983.458	2.157087e-002	2.882078e-002	9.783341e-001	-1.335406e-001	9.780386e-001	-1.330398e-001	2.131790e-002	2.915860e-002
5628522.542	2.229750e-002	2.882901e-002	9.777933e-001	-1.347221e-001	9.774454e-001	-1.344573e-001	2.183088e-002	2.912462e-002
5691061.626	2.282784e-002	2.873066e-002	9.771256e-001	-1.362147e-001	9.767727e-001	-1.357600e-001	2.221877e-002	2.926649e-002
5753600.710	2.317881e-002	2.889639e-002	9.764438e-001	-1.373075e-001	9.762196e-001	-1.369335e-001	2.274287e-002	2.920294e-002
5816139.794	2.376225e-002	2.912774e-002	9.759127e-001	-1.385799e-001	9.754220e-001	-1.383924e-001	2.308310e-002	2.932227e-002
5878678.877	2.415072e-002	2.895828e-002	9.752591e-001	-1.398740e-001	9.749312e-001	-1.394738e-001	2.367981e-002	2.923047e-002
5941217.961	2.459699e-002	2.892508e-002	9.746327e-001	-1.411558e-001	9.743553e-001	-1.405532e-001	2.397285e-002	2.937265e-002
6003757.045	2.494530e-002	2.918015e-002	9.739311e-001	-1.421864e-001	9.737676e-001	-1.417700e-001	2.456269e-002	2.936880e-002
6066296.129	2.551743e-002	2.901169e-002	9.735862e-001	-1.434434e-001	9.731625e-001	-1.429254e-001	2.501671e-002	2.936479e-002
6128835.213	2.607181e-002	2.902896e-002	9.729500e-001	-1.443143e-001	9.727237e-001	-1.442238e-001	2.557385e-002	2.936360e-002
6191374.296	2.648799e-002	2.901321e-002	9.722654e-001	-1.457663e-001	9.719248e-001	-1.455351e-001	2.589055e-002	2.945761e-002
6253913.380	2.686820e-002	2.911296e-002	9.717053e-001	-1.469626e-001	9.713649e-001	-1.465365e-001	2.624964e-002	2.955844e-002
6316452.464	2.729592e-002	2.917307e-002	9.711565e-001	-1.479679e-001	9.706696e-001	-1.479260e-001	2.671330e-002	2.930757e-002
6378991.548	2.770119e-002	2.898545e-002	9.705348e-001	-1.494803e-001	9.702935e-001	-1.489307e-001	2.721533e-002	2.916144e-002
6441530.632	2.807619e-002	2.888089e-002	9.699005e-001	-1.502994e-001	9.696400e-001	-1.501650e-001	2.771670e-002	2.921160e-002
6504069.715	2.850724e-002	2.881168e-002	9.693004e-001	-1.517327e-001	9.692304e-001	-1.512130e-001	2.816153e-002	2.916464e-002
6566608.799	2.906929e-002	2.868488e-002	9.688898e-001	-1.528794e-001	9.684646e-001	-1.523837e-001	2.852619e-002	2.928896e-002
6629147.883	2.946704e-002	2.875735e-002	9.682244e-001	-1.536630e-001	9.679125e-001	-1.535108e-001	2.901606e-002	2.909382e-002
6691686.967	2.977297e-002	2.871007e-002	9.675690e-001	-1.548688e-001	9.673301e-001	-1.545502e-001	2.947265e-002	2.910623e-002
6754226.051	3.012817e-002	2.861817e-002	9.669917e-001	-1.560972e-001	9.666180e-001	-1.558671e-001	2.969188e-002	2.883873e-002
6816765.134	3.062890e-002	2.852859e-002	9.664963e-001	-1.571001e-001	9.662176e-001	-1.567932e-001	3.016342e-002	2.893933e-002
6879304.218	3.092312e-002	2.828775e-002	9.659104e-001	-1.582175e-001	9.656922e-001	-1.578492e-001	3.054915e-002	2.878802e-002
6941843.302	3.140552e-002	2.834280e-002	9.653525e-001	-1.593557e-001	9.651131e-001	-1.589264e-001	3.094265e-002	2.877379e-002
7004382.386	3.163008e-002	2.832082e-002	9.648729e-001	-1.603632e-001	9.645103e-001	-1.600311e-001	3.127126e-002	2.870722e-002
7066921.470	3.209665e-002	2.815980e-002	9.642276e-001	-1.615686e-001	9.640748e-001	-1.609271e-001	3.179397e-002	2.845097e-002
7129460.553	3.236153e-002	2.794893e-002	9.637923e-001	-1.624490e-001	9.635001e-001	-1.621183e-001	3.218845e-002	2.838923e-002
7191999.637	3.274979e-002	2.807464e-002	9.630223e-001	-1.635753e-001	9.628441e-001	-1.631571e-001	3.241721e-002	2.828289e-002
7254538.721	3.315990e-002	2.783107e-002	9.628277e-001	-1.647315e-001	9.624971e-001	-1.642926e-001	3.283335e-002	2.818956e-002
7317077.805	3.368227e-002	2.766760e-002	9.622220e-001	-1.656528e-001	9.619394e-001	-1.652877e-001	3.317736e-002	2.796165e-002
7379616.889	3.390669e-002	2.757619e-002	9.618488e-001	-1.669041e-001	9.614009e-001	-1.663649e-001	3.348877e-002	2.785641e-002
7442155.972	3.411116e-002	2.745269e-002	9.611664e-001	-1.677700e-001	9.608964e-001	-1.673573e-001	3.394130e-002	2.793663e-002
7504695.056	3.449867e-002	2.722137e-002	9.605862e-001	-1.687443e-001	9.602587e-001	-1.685202e-001	3.430981e-002	2.786014e-002
7567234.140	3.498482e-002	2.702438e-002	9.602403e-001	-1.697659e-001	9.597752e-001	-1.695391e-001	3.458500e-002	2.764546e-002
7629773.224	3.526163e-002	2.716634e-002	9.596937e-001	-1.709795e-001	9.593974e-001	-1.705504e-001	3.483359e-002	2.746716e-002
7692312.308	3.545173e-002	2.697682e-002	9.592155e-001	-1.719959e-001	9.587915e-001	-1.716381e-001	3.521266e-002	2.723695e-002
7754851.391	3.574918e-002	2.670058e-002	9.586597e-001	-1.730712e-001	9.582146e-001	-1.724977e-001	3.549463e-002	2.722095e-002
7817390.475	3.616424e-002	2.672972e-002	9.581789e-001	-1.741885e-001	9.577711e-001	-1.737352e-001	3.575897e-002	2.719856e-002
7879929.559	3.637878e-002	2.644053e-002	9.576156e-001	-1.752260e-001	9.572435e-001	-1.749253e-001	3.618296e-002	2.703277e-002
7942468.643	3.663394e-002	2.624196e-002	9.572676e-001	-1.761513e-001	9.568807e-001	-1.759162e-001	3.646569e-002	2.672808e-002
8005007.727	3.703573e-002	2.612163e-002	9.566690e-001	-1.772295e-001	9.564001e-001	-1.769003e-001	3.669135e-002	2.680115e-002
8067546.811	3.718796e-002	2.601608e-002	9.562249e-001	-1.782404e-001	9.558067e-001	-1.778053e-001	3.688913e-002	2.647217e-002
8130085.894	3.754522e-002	2.579501e-002	9.557225e-001	-1.791940e-001	9.553777e-001	-1.789170e-001	3.738511e-002	2.624860e-002
8192624.978	3.766889e-002	2.560919e-002	9.550918e-001	-1.803350e-001	9.549172e-001	-1.799010e-001	3.771801e-002	2.609062e-002
8255164.062	3.806951e-002	2.546957e-002	9.547595e-001	-1.813036e-001	9.543993e-001	-1.809326e-001	3.796278e-002	2.589957e-002
8317703.146	3.824834e-002	2.542930e-002	9.543122e-001	-1.823548e-001	9.540640e-001	-1.819207e-001	3.808463e-002	2.581505e-002
8380242.230	3.861337e-002	2.503787e-002	9.537465e-001	-1.834768e-001	9.534609e-001	-1.828825e-001	3.831846e-002	2.559246e-002
8442781.313	3.885566e-002	2.492817e-002	9.535053e-001	-1.843360e-001	9.530877e-001	-1.839222e-001	3.857661e-002	2.537056e-002
8505320.397	3.912098e-002	2.490083e-002	9.529734e-001	-1.854172e-001	9.525765e-001	-1.849124e-001	3.879341e-002	2.525812e-002
8567859.481	3.935592e-002	2.488204e-002	9.524571e-001	-1.862378e-001	9.521946e-001	-1.859250e-001	3.911106e-002	2.524502e-002
8630398.565	3.968466e-002	2.466266e-002	9.518348e-001	-1.872417e-001	9.517345e-001	-1.868760e-001	3.924092e-002	2.486528e-002
8692937.649	3.986913e-002	2.430474e-002	9.514789e-001	-1.882584e-001	9.511074e-001	-1.879279e-001	3.943593e-002	2.480421e-002
8755476.732	4.013548e-002	2.420851e-002	9.510795e-001	-1.893973e-001	9.506787e-001	-1.888642e-001	3.975492e-002	2.464941e-002
8818015.816	4.026620e-002	2.402312e-002	9.505466e-001	-1.903556e-001	9.500970e-001	-1.899211e-001	4.008093e-002	2.439556e-002
8880554.900	4.071775e-002	2.388684e-002	9.502525e-001	-1.914174e-001	9.499228e-001	-1.907947e-001	4.019958e-002	2.409678e-002
8943093.984	4.079563e-002	2.383699e-002	9.497442e-001	-1.923225e-001	9.495102e-001	-1.918308e-001	4.045158e-002	2.399730e-002
9005633.068	4.108550e-002	2.357948e-002	9.492146e-001	-1.933765e-001	9.490887e-001	-1.929670e-001	4.057854e-002	2.371479e-002
9068172.151	4.118140e-002	2.342240e-002	9.489037e-001	-1.943854e-001	9.485211e-001	-1.938444e-001	4.086901e-002	2.358290e-002
9130711.235	4.159625e-002	2.316604e-002	9.483612e-001	-1.953897e-001	9.481471e-001	-1.948513e-001	4.112624e-002	2.323692e-002
9193250.319	4.179828e-002	2.297744e-002	9.480823e-001	-1.962777e-001	9.476538e-001	-1.959147e-001	4.128777e-002	2.314133e-002
9255789.403	4.190876e-002	2.268073e-002	9.476822e-001	-1.971634e-001	9.472077e-001	-1.968555e-001	4.139317e-002	2.303627e-002
9318328.487	4.209054e-002	2.260397e-002	9.471818e-001	-1.984053e-001	9.469569e-001	-1.977986e-001	4.170507e-002	2.286736e-002
9380867.570	4.233321e-002	2.255538e-002	9.468010e-001	-1.993873e-001	9.463395e-001	-1.989231e-001	4.191685e-002	2.267331e-002
9443406.654	4.259309e-002	2.237348e-002	9.463822e-001	-2.002887e-001	9.460505e-001	-2.000107e-001	4.216611e-002	2.243588e-002
9505945.738	4.277914e-002	2.222923e-002	9.457514e-001	-2.014413e-001	9.456815e-001	-2.009712e-001	4.231814e-002	2.225433e-002
9568484.822	4.301373e-002	2.201542e-002	9.454711e-001	-2.024053e-001	9.449895e-001	-2.019492e-001	4.235999e-002	2.233197e-002
9631023.906	4.319980e-002	2.186423e-002	9.450982e-001	-2.033732e-001	9.445755e-001	-2.029671e-001	4.271461e-002	2.185232e-002
9693562.989	4.341600e-002	2.167073e-002	9.445446e-001	-2.043731e-001	9.442389e-001	-2.039129e-001	4.267352e-002	2.181059e-002
9756102.073	4.359092e-002	2.145884e-002	9.443417e-001	-2.053887e-001	9.438816e-001	-2.048318e-001	4.291772e-002	2.151011e-002
