!Agilent Technologies,E5061B,MY49102235,A.02.00
!Date: Tue Jul 11 16:23:36 2023
!Data & Calibration Information:
!Freq	S11:SOLT2(ON)	S21:SOLT2(ON)	S12:SOLT2(ON)	S22:SOLT2(ON)
# Hz S RI R 50
5.000	-5.258008e-003	-5.646486e-003	1.001555e+000	8.011492e-003	1.000236e+000	1.025237e-002	-1.502814e-003	-7.541377e-003
62544.084	5.816513e-003	-5.050958e-004	1.001320e+000	5.447975e-004	1.000973e+000	1.226717e-003	7.704094e-003	-2.878285e-003
125083.168	5.675517e-003	-5.096369e-004	1.000984e+000	-8.270493e-004	1.000787e+000	-8.144594e-004	7.494399e-003	-2.285575e-003
187622.251	5.460968e-003	-3.310522e-004	1.000356e+000	-2.131835e-003	1.001087e+000	-9.982145e-004	7.373836e-003	-2.385568e-003
250161.335	5.288166e-003	-1.876921e-004	1.000445e+000	-3.142775e-003	1.000888e+000	-3.109554e-003	7.249002e-003	-2.066340e-003
312700.419	5.431862e-003	5.134634e-004	1.000748e+000	-3.645297e-003	1.000721e+000	-3.503131e-003	7.781090e-003	-2.371123e-003
375239.503	5.310622e-003	-9.748128e-004	1.000843e+000	-5.230458e-003	1.000567e+000	-4.922378e-003	7.269203e-003	-2.536665e-003
437778.587	5.138896e-003	-6.215265e-004	1.001346e+000	-5.255432e-003	1.001000e+000	-6.028615e-003	6.627838e-003	-2.258211e-003
500317.670	4.569735e-003	-4.920205e-004	1.001337e+000	-7.711285e-003	1.001744e+000	-7.480010e-003	4.812359e-003	-2.098350e-003
562856.754	5.896062e-003	-8.031847e-004	1.001370e+000	-9.246378e-003	1.001180e+000	-9.111649e-003	6.018885e-003	-1.587216e-003
625395.838	5.075368e-003	-6.602785e-004	1.002306e+000	-1.037575e-002	1.002254e+000	-9.947770e-003	6.105102e-003	-1.043556e-003
687934.922	5.130177e-003	-9.840465e-004	1.001312e+000	-1.140349e-002	1.001346e+000	-1.146831e-002	5.753547e-003	-1.515712e-003
750474.006	4.347241e-003	-6.684977e-004	1.000721e+000	-1.081080e-002	1.001068e+000	-1.060253e-002	5.529170e-003	-1.329385e-003
813013.089	4.513115e-003	-6.649452e-004	1.001028e+000	-1.273812e-002	1.000911e+000	-1.235592e-002	4.900832e-003	-1.157914e-003
875552.173	4.252719e-003	-5.026350e-004	1.001054e+000	-1.348043e-002	1.001207e+000	-1.345870e-002	5.679838e-003	-1.574142e-003
938091.257	4.341446e-003	-4.506577e-004	1.001173e+000	-1.493373e-002	1.001185e+000	-1.462359e-002	5.903624e-003	-1.013460e-003
1000630.341	3.779887e-003	-8.114876e-004	1.000661e+000	-1.633343e-002	1.001142e+000	-1.601866e-002	5.156839e-003	-1.731513e-003
1063169.425	4.137445e-003	-9.811578e-004	1.000972e+000	-1.752689e-002	1.000925e+000	-1.687861e-002	4.333071e-003	-2.049505e-003
1125708.508	4.002797e-003	-9.253973e-004	1.000806e+000	-1.867103e-002	1.000811e+000	-1.829380e-002	3.845238e-003	-1.780135e-003
1188247.592	4.552346e-003	-1.394850e-003	1.000934e+000	-1.990435e-002	1.001221e+000	-1.937202e-002	2.747095e-003	-2.364545e-003
1250786.676	4.397659e-003	-2.139659e-003	1.000522e+000	-1.972665e-002	1.000941e+000	-2.000823e-002	2.008447e-003	-4.036331e-003
1313325.760	4.523711e-003	-2.236442e-003	1.000925e+000	-2.139084e-002	1.001216e+000	-2.153115e-002	2.743358e-003	-3.830005e-003
1375864.844	4.243690e-003	-2.452941e-003	1.000688e+000	-2.328318e-002	1.000613e+000	-2.336167e-002	2.595359e-003	-3.555570e-003
1438403.927	4.141998e-003	-2.616037e-003	1.000630e+000	-2.390224e-002	1.001053e+000	-2.335255e-002	2.681040e-003	-3.317888e-003
1500943.011	4.372190e-003	-2.564525e-003	1.001277e+000	-2.487460e-002	1.001559e+000	-2.481070e-002	3.033885e-003	-3.710150e-003
1563482.095	4.358470e-003	-2.944722e-003	1.000825e+000	-2.618648e-002	1.000756e+000	-2.538582e-002	3.167429e-003	-3.531702e-003
1626021.179	4.162316e-003	-2.824118e-003	1.000654e+000	-2.735817e-002	1.001113e+000	-2.798075e-002	3.429711e-003	-3.593679e-003
1688560.263	3.868367e-003	-2.779354e-003	1.000430e+000	-2.909412e-002	1.001479e+000	-2.923729e-002	3.590011e-003	-3.618185e-003
1751099.346	3.995077e-003	-2.681774e-003	1.001009e+000	-3.018211e-002	1.000832e+000	-2.971787e-002	3.411948e-003	-2.777093e-003
1813638.430	3.637269e-003	-2.736436e-003	1.001262e+000	-3.165820e-002	1.001102e+000	-3.156043e-002	3.583141e-003	-3.176075e-003
1876177.514	3.666016e-003	-2.466329e-003	1.001597e+000	-3.261735e-002	1.001473e+000	-3.319545e-002	3.256388e-003	-2.506978e-003
1938716.598	3.124675e-003	-2.392241e-003	1.001663e+000	-3.343140e-002	1.001619e+000	-3.302072e-002	3.435282e-003	-2.133307e-003
2001255.682	3.037829e-003	-2.890647e-003	1.001757e+000	-3.483146e-002	1.001390e+000	-3.468859e-002	3.174664e-003	-2.609505e-003
2063794.765	3.120673e-003	-2.517233e-003	1.001268e+000	-3.590134e-002	1.000818e+000	-3.632605e-002	3.569354e-003	-2.722563e-003
2126333.849	2.660308e-003	-3.072095e-003	1.000661e+000	-3.707012e-002	1.000268e+000	-3.653490e-002	3.813129e-003	-2.466823e-003
2188872.933	3.152391e-003	-3.054043e-003	1.000595e+000	-3.825161e-002	1.000334e+000	-3.771622e-002	3.696111e-003	-2.526090e-003
2251412.017	3.256152e-003	-3.439780e-003	1.000303e+000	-3.983784e-002	1.000327e+000	-3.867177e-002	3.685334e-003	-2.643475e-003
2313951.101	3.561062e-003	-3.016263e-003	9.997451e-001	-4.062792e-002	1.000491e+000	-3.969679e-002	3.987098e-003	-2.733043e-003
2376490.184	3.311413e-003	-3.068285e-003	9.996700e-001	-4.108551e-002	1.000441e+000	-4.141815e-002	3.951648e-003	-2.730229e-003
2439029.268	3.759145e-003	-3.123448e-003	9.997217e-001	-4.279060e-002	9.994956e-001	-4.243074e-002	3.600814e-003	-2.644350e-003
2501568.352	3.730380e-003	-3.135337e-003	9.994037e-001	-4.301365e-002	1.000370e+000	-4.314712e-002	3.895552e-003	-2.687145e-003
2564107.436	3.633603e-003	-3.305157e-003	9.996593e-001	-4.478761e-002	1.000097e+000	-4.460044e-002	3.202889e-003	-3.083012e-003
2626646.520	4.124400e-003	-3.497907e-003	9.995876e-001	-4.592710e-002	9.989380e-001	-4.576699e-002	3.452306e-003	-3.163494e-003
2689185.604	4.078658e-003	-3.353272e-003	9.999749e-001	-4.663508e-002	9.997828e-001	-4.645712e-002	3.577142e-003	-3.118172e-003
2751724.687	4.192474e-003	-3.453940e-003	9.997888e-001	-4.736372e-002	9.996084e-001	-4.729264e-002	3.179142e-003	-3.174949e-003
2814263.771	4.125899e-003	-3.542611e-003	9.988799e-001	-4.922353e-002	9.993666e-001	-4.867087e-002	3.156863e-003	-3.316603e-003
2876802.855	4.068067e-003	-3.771435e-003	9.989407e-001	-5.048536e-002	9.994174e-001	-4.960997e-002	3.222735e-003	-3.222817e-003
2939341.939	4.192930e-003	-3.706900e-003	9.995424e-001	-5.110689e-002	9.992606e-001	-5.115665e-002	3.126389e-003	-3.338015e-003
3001881.023	4.125493e-003	-3.718015e-003	9.993258e-001	-5.228258e-002	9.989923e-001	-5.226601e-002	3.201416e-003	-3.500345e-003
3064420.106	4.156078e-003	-3.789636e-003	9.998116e-001	-5.323923e-002	9.991197e-001	-5.317559e-002	3.040774e-003	-3.639684e-003
3126959.190	4.353824e-003	-3.911040e-003	9.993570e-001	-5.446895e-002	9.993434e-001	-5.440711e-002	3.215331e-003	-3.735963e-003
3189498.274	4.328104e-003	-3.901214e-003	9.992512e-001	-5.540199e-002	9.992260e-001	-5.548416e-002	3.200551e-003	-3.817687e-003
3252037.358	4.246474e-003	-4.294300e-003	9.993698e-001	-5.659815e-002	9.992681e-001	-5.649005e-002	3.138465e-003	-3.792440e-003
3314576.442	4.247883e-003	-4.161789e-003	9.992649e-001	-5.756652e-002	9.991270e-001	-5.764653e-002	3.198771e-003	-3.935317e-003
3377115.525	4.215758e-003	-4.180729e-003	9.990696e-001	-5.857766e-002	9.989135e-001	-5.884453e-002	3.049622e-003	-4.098581e-003
3439654.609	4.214367e-003	-4.287696e-003	9.988414e-001	-5.971425e-002	9.991576e-001	-5.984025e-002	3.055306e-003	-3.949927e-003
3502193.693	4.182023e-003	-4.641423e-003	9.988484e-001	-6.093780e-002	9.988702e-001	-6.081131e-002	3.206918e-003	-4.024058e-003
3564732.777	4.227995e-003	-4.523972e-003	9.988615e-001	-6.194069e-002	9.988366e-001	-6.201560e-002	3.300620e-003	-4.036540e-003
3627271.861	4.066905e-003	-4.701638e-003	9.989192e-001	-6.313794e-002	9.988914e-001	-6.297142e-002	3.065612e-003	-4.288418e-003
3689810.944	3.972874e-003	-4.863260e-003	9.987476e-001	-6.420269e-002	9.987672e-001	-6.406232e-002	3.215436e-003	-4.314854e-003
3752350.028	4.077399e-003	-4.877717e-003	9.986304e-001	-6.502219e-002	9.985595e-001	-6.508581e-002	3.140482e-003	-4.417954e-003
3814889.112	4.190110e-003	-4.795360e-003	9.985068e-001	-6.619478e-002	9.987603e-001	-6.645604e-002	3.067394e-003	-4.597434e-003
3877428.196	4.125345e-003	-4.845731e-003	9.986277e-001	-6.733729e-002	9.986245e-001	-6.729791e-002	3.379733e-003	-4.635470e-003
3939967.280	4.093536e-003	-5.187538e-003	9.985024e-001	-6.851347e-002	9.986314e-001	-6.841564e-002	3.337996e-003	-4.605498e-003
4002506.363	4.151213e-003	-5.096071e-003	9.984981e-001	-6.956182e-002	9.985182e-001	-6.938215e-002	3.294436e-003	-4.735641e-003
4065045.447	3.959424e-003	-5.256324e-003	9.982332e-001	-7.069467e-002	9.982852e-001	-7.057843e-002	3.383423e-003	-4.898020e-003
4127584.531	3.927405e-003	-5.327848e-003	9.981387e-001	-7.174929e-002	9.983330e-001	-7.155751e-002	3.376045e-003	-4.842534e-003
4190123.615	3.972963e-003	-5.372437e-003	9.981523e-001	-7.301086e-002	9.981154e-001	-7.279236e-002	3.281192e-003	-5.142666e-003
4252662.699	3.924219e-003	-5.518569e-003	9.981903e-001	-7.410884e-002	9.979944e-001	-7.399906e-002	3.378585e-003	-5.168170e-003
4315201.782	4.050647e-003	-5.623501e-003	9.980886e-001	-7.498851e-002	9.982022e-001	-7.509098e-002	3.206501e-003	-5.443123e-003
4377740.866	3.950963e-003	-5.711837e-003	9.981095e-001	-7.622843e-002	9.978865e-001	-7.617464e-002	3.367325e-003	-5.214094e-003
4440279.950	3.845857e-003	-5.916408e-003	9.979934e-001	-7.713553e-002	9.977216e-001	-7.713488e-002	3.246449e-003	-5.444663e-003
4502819.034	3.829375e-003	-5.859839e-003	9.976457e-001	-7.833771e-002	9.978066e-001	-7.826365e-002	3.325256e-003	-5.360934e-003
4565358.118	3.736377e-003	-5.974569e-003	9.975873e-001	-7.938468e-002	9.975163e-001	-7.913428e-002	3.312812e-003	-5.539085e-003
4627897.201	3.913490e-003	-5.925171e-003	9.977133e-001	-8.047078e-002	9.975503e-001	-8.021667e-002	3.426214e-003	-5.504219e-003
4690436.285	3.718889e-003	-6.124496e-003	9.976474e-001	-8.160686e-002	9.974931e-001	-8.171446e-002	3.406941e-003	-5.775577e-003
4752975.369	3.741751e-003	-6.198251e-003	9.973273e-001	-8.281180e-002	9.975271e-001	-8.266937e-002	3.221643e-003	-5.902656e-003
4815514.453	3.843597e-003	-6.278986e-003	9.974365e-001	-8.384865e-002	9.973859e-001	-8.382784e-002	3.433266e-003	-5.884103e-003
4878053.537	3.940526e-003	-6.433883e-003	9.974117e-001	-8.483477e-002	9.972705e-001	-8.474194e-002	3.384374e-003	-6.041178e-003
4940592.620	3.665070e-003	-6.474895e-003	9.971997e-001	-8.598220e-002	9.972379e-001	-8.594894e-002	3.157246e-003	-6.156815e-003
5003131.704	3.723406e-003	-6.698121e-003	9.970405e-001	-8.704122e-002	9.971985e-001	-8.680859e-002	3.264017e-003	-6.283330e-003
5065670.788	3.636018e-003	-6.584485e-003	9.969852e-001	-8.816904e-002	9.970078e-001	-8.800982e-002	3.230869e-003	-6.323213e-003
5128209.872	3.757932e-003	-6.792891e-003	9.970821e-001	-8.923996e-002	9.969357e-001	-8.910410e-002	3.203319e-003	-6.605555e-003
5190748.956	3.661800e-003	-6.886416e-003	9.968320e-001	-9.035505e-002	9.968809e-001	-9.029385e-002	3.151300e-003	-6.567887e-003
5253288.039	3.696677e-003	-7.009820e-003	9.968446e-001	-9.143326e-002	9.968210e-001	-9.131507e-002	3.074168e-003	-6.566254e-003
5315827.123	3.664471e-003	-7.153219e-003	9.965637e-001	-9.253488e-002	9.966889e-001	-9.244825e-002	3.047130e-003	-6.742522e-003
5378366.207	3.729583e-003	-7.174772e-003	9.966085e-001	-9.362572e-002	9.966181e-001	-9.372534e-002	3.034426e-003	-6.919523e-003
5440905.291	3.546788e-003	-7.184520e-003	9.965764e-001	-9.472631e-002	9.965001e-001	-9.464053e-002	2.918636e-003	-6.955781e-003
5503444.375	3.747233e-003	-7.428520e-003	9.964592e-001	-9.588796e-002	9.965091e-001	-9.563187e-002	3.092244e-003	-7.116866e-003
5565983.458	3.382026e-003	-7.387583e-003	9.963535e-001	-9.687130e-002	9.963794e-001	-9.666139e-002	3.011343e-003	-7.038103e-003
5628522.542	3.629105e-003	-7.549037e-003	9.962870e-001	-9.786577e-002	9.962614e-001	-9.793915e-002	3.045559e-003	-7.258087e-003
5691061.626	3.678425e-003	-7.810804e-003	9.961172e-001	-9.920833e-002	9.961448e-001	-9.902189e-002	2.939094e-003	-7.288105e-003
5753600.710	3.524092e-003	-7.820492e-003	9.959168e-001	-1.001469e-001	9.960772e-001	-1.000393e-001	2.989113e-003	-7.502499e-003
5816139.794	3.617605e-003	-7.714385e-003	9.959460e-001	-1.012871e-001	9.957502e-001	-1.013294e-001	2.823452e-003	-7.545524e-003
5878678.877	3.510410e-003	-8.034307e-003	9.957781e-001	-1.023650e-001	9.958166e-001	-1.023043e-001	2.925282e-003	-7.765155e-003
5941217.961	3.481089e-003	-8.192319e-003	9.956586e-001	-1.035597e-001	9.956826e-001	-1.032548e-001	2.724886e-003	-7.766248e-003
6003757.045	3.328229e-003	-8.071197e-003	9.953866e-001	-1.044431e-001	9.955700e-001	-1.043518e-001	2.831638e-003	-7.867427e-003
6066296.129	3.452320e-003	-8.340075e-003	9.955296e-001	-1.056119e-001	9.954636e-001	-1.053844e-001	2.801678e-003	-7.992340e-003
6128835.213	3.528039e-003	-8.409744e-003	9.953837e-001	-1.063672e-001	9.954830e-001	-1.066049e-001	2.890233e-003	-8.076161e-003
6191374.296	3.460757e-003	-8.516101e-003	9.952248e-001	-1.077172e-001	9.952080e-001	-1.078524e-001	2.707656e-003	-8.073661e-003
6253913.380	3.356901e-003	-8.489307e-003	9.951433e-001	-1.089124e-001	9.951301e-001	-1.087270e-001	2.575393e-003	-8.060366e-003
6316452.464	3.307565e-003	-8.502276e-003	9.950887e-001	-1.098348e-001	9.949061e-001	-1.100599e-001	2.602733e-003	-8.376004e-003
6378991.548	3.267108e-003	-8.737373e-003	9.948990e-001	-1.113239e-001	9.949767e-001	-1.109890e-001	2.661830e-003	-8.593543e-003
6441530.632	3.190649e-003	-8.915350e-003	9.947190e-001	-1.120953e-001	9.947856e-001	-1.121801e-001	2.679239e-003	-8.567724e-003
6504069.715	3.187245e-003	-9.031000e-003	9.945845e-001	-1.134005e-001	9.948111e-001	-1.132079e-001	2.677961e-003	-8.655901e-003
6566608.799	3.309592e-003	-9.178990e-003	9.945814e-001	-1.145118e-001	9.945337e-001	-1.143185e-001	2.556722e-003	-8.568776e-003
6629147.883	3.239191e-003	-9.141858e-003	9.944137e-001	-1.152796e-001	9.943843e-001	-1.154406e-001	2.638141e-003	-8.802099e-003
6691686.967	3.110537e-003	-9.217196e-003	9.941881e-001	-1.165111e-001	9.942647e-001	-1.164715e-001	2.655955e-003	-8.804494e-003
6754226.051	3.052218e-003	-9.331324e-003	9.940373e-001	-1.176781e-001	9.940063e-001	-1.177287e-001	2.440662e-003	-9.099659e-003
6816765.134	3.123461e-003	-9.428393e-003	9.940110e-001	-1.186581e-001	9.940247e-001	-1.186881e-001	2.479003e-003	-8.998908e-003
6879304.218	2.987073e-003	-9.687100e-003	9.937796e-001	-1.198007e-001	9.939167e-001	-1.197186e-001	2.454161e-003	-9.152643e-003
6941843.302	3.058848e-003	-9.614949e-003	9.936756e-001	-1.209407e-001	9.937462e-001	-1.208115e-001	2.413196e-003	-9.167976e-003
7004382.386	2.844494e-003	-9.631030e-003	9.936376e-001	-1.219019e-001	9.935640e-001	-1.218857e-001	2.322520e-003	-9.212433e-003
7066921.470	2.918780e-003	-9.780471e-003	9.933711e-001	-1.231307e-001	9.935190e-001	-1.228187e-001	2.467928e-003	-9.467315e-003
7129460.553	2.798829e-003	-9.971718e-003	9.933398e-001	-1.240526e-001	9.933701e-001	-1.240297e-001	2.449408e-003	-9.494591e-003
7191999.637	2.770238e-003	-9.829975e-003	9.929759e-001	-1.252135e-001	9.930927e-001	-1.250832e-001	2.289574e-003	-9.586863e-003
7254538.721	2.801799e-003	-1.004205e-002	9.931637e-001	-1.263442e-001	9.931461e-001	-1.262442e-001	2.307207e-003	-9.655790e-003
7317077.805	2.961929e-003	-1.015868e-002	9.929465e-001	-1.272999e-001	9.929969e-001	-1.272392e-001	2.284418e-003	-9.856948e-003
7379616.889	2.818921e-003	-1.024472e-002	9.929381e-001	-1.286127e-001	9.927667e-001	-1.283998e-001	2.200373e-003	-9.906939e-003
7442155.972	2.635719e-003	-1.033019e-002	9.926177e-001	-1.295103e-001	9.926796e-001	-1.294222e-001	2.266434e-003	-9.792031e-003
7504695.056	2.656602e-003	-1.051075e-002	9.924292e-001	-1.305260e-001	9.923853e-001	-1.306604e-001	2.279338e-003	-9.811971e-003
7567234.140	2.811585e-003	-1.068050e-002	9.923878e-001	-1.315944e-001	9.922898e-001	-1.316796e-001	2.185415e-003	-1.000601e-002
7629773.224	2.700014e-003	-1.047176e-002	9.923141e-001	-1.328591e-001	9.922487e-001	-1.327059e-001	2.083318e-003	-1.015002e-002
7692312.308	2.534791e-003	-1.061572e-002	9.921126e-001	-1.339306e-001	9.920328e-001	-1.338956e-001	2.116223e-003	-1.032264e-002
7754851.391	2.492019e-003	-1.086585e-002	9.919282e-001	-1.350392e-001	9.917821e-001	-1.347826e-001	2.043496e-003	-1.027710e-002
7817390.475	2.550329e-003	-1.074266e-002	9.918742e-001	-1.362476e-001	9.916782e-001	-1.360587e-001	1.943601e-003	-1.024673e-002
7879929.559	2.443711e-003	-1.102251e-002	9.915507e-001	-1.373252e-001	9.915218e-001	-1.373241e-001	2.040693e-003	-1.034609e-002
7942468.643	2.368807e-003	-1.115454e-002	9.915309e-001	-1.383221e-001	9.914971e-001	-1.383520e-001	1.988406e-003	-1.060550e-002
8005007.727	2.455145e-003	-1.121999e-002	9.912506e-001	-1.394654e-001	9.913407e-001	-1.394028e-001	1.893750e-003	-1.046953e-002
8067546.811	2.274583e-003	-1.125405e-002	9.911663e-001	-1.405150e-001	9.910469e-001	-1.403962e-001	1.771614e-003	-1.077830e-002
8130085.894	2.320731e-003	-1.141218e-002	9.909677e-001	-1.415503e-001	9.909870e-001	-1.415601e-001	1.957334e-003	-1.090118e-002
8192624.978	2.135526e-003	-1.156484e-002	9.906401e-001	-1.427547e-001	9.907840e-001	-1.426111e-001	1.985871e-003	-1.099443e-002
8255164.062	2.229653e-003	-1.163532e-002	9.906379e-001	-1.437561e-001	9.905983e-001	-1.437000e-001	1.921406e-003	-1.112257e-002
8317703.146	2.083898e-003	-1.160151e-002	9.905120e-001	-1.448736e-001	9.905718e-001	-1.447649e-001	1.721471e-003	-1.116167e-002
8380242.230	2.178598e-003	-1.192898e-002	9.901926e-001	-1.460826e-001	9.902974e-001	-1.457873e-001	1.652710e-003	-1.130437e-002
8442781.313	2.122897e-003	-1.196111e-002	9.903337e-001	-1.470110e-001	9.902071e-001	-1.468785e-001	1.610132e-003	-1.147916e-002
8505320.397	2.082257e-003	-1.193194e-002	9.901002e-001	-1.481694e-001	9.900103e-001	-1.479834e-001	1.527892e-003	-1.150865e-002
8567859.481	1.994834e-003	-1.185612e-002	9.898486e-001	-1.490498e-001	9.899260e-001	-1.490634e-001	1.534963e-003	-1.142270e-002
8630398.565	2.047948e-003	-1.199914e-002	9.895263e-001	-1.501148e-001	9.897145e-001	-1.501037e-001	1.386437e-003	-1.177263e-002
8692937.649	1.962317e-003	-1.230023e-002	9.894630e-001	-1.512275e-001	9.894080e-001	-1.512440e-001	1.295553e-003	-1.175553e-002
8755476.732	1.955784e-003	-1.232168e-002	9.893273e-001	-1.523983e-001	9.892737e-001	-1.522075e-001	1.328544e-003	-1.182800e-002
8818015.816	1.799840e-003	-1.244556e-002	9.890728e-001	-1.534777e-001	9.889530e-001	-1.533725e-001	1.393269e-003	-1.200634e-002
8880554.900	1.983763e-003	-1.249472e-002	9.890558e-001	-1.546051e-001	9.890380e-001	-1.542738e-001	1.234113e-003	-1.224943e-002
8943093.984	1.775600e-003	-1.246961e-002	9.888360e-001	-1.555432e-001	9.888547e-001	-1.554084e-001	1.220227e-003	-1.227820e-002
9005633.068	1.798756e-003	-1.265369e-002	9.885654e-001	-1.567383e-001	9.887547e-001	-1.566194e-001	1.087250e-003	-1.250815e-002
9068172.151	1.614065e-003	-1.274587e-002	9.885463e-001	-1.578101e-001	9.884395e-001	-1.575764e-001	1.096330e-003	-1.253469e-002
9130711.235	1.801049e-003	-1.289946e-002	9.882499e-001	-1.588998e-001	9.882963e-001	-1.586058e-001	1.112390e-003	-1.281422e-002
9193250.319	1.759112e-003	-1.300646e-002	9.882081e-001	-1.598262e-001	9.881109e-001	-1.597804e-001	9.953737e-004	-1.281839e-002
9255789.403	1.605842e-003	-1.325321e-002	9.880456e-001	-1.608040e-001	9.879067e-001	-1.608014e-001	8.275502e-004	-1.285810e-002
9318328.487	1.529191e-003	-1.324158e-002	9.878346e-001	-1.621675e-001	9.879207e-001	-1.618528e-001	8.973872e-004	-1.294126e-002
9380867.570	1.506878e-003	-1.321884e-002	9.877194e-001	-1.632544e-001	9.875498e-001	-1.630677e-001	8.623024e-004	-1.305081e-002
9443406.654	1.517011e-003	-1.330951e-002	9.875686e-001	-1.642257e-001	9.875228e-001	-1.641752e-001	8.591139e-004	-1.321866e-002
9505945.738	1.459151e-003	-1.336888e-002	9.871736e-001	-1.654723e-001	9.873898e-001	-1.652139e-001	7.710850e-004	-1.330140e-002
9568484.822	1.465996e-003	-1.349723e-002	9.871462e-001	-1.664936e-001	9.869517e-001	-1.663183e-001	5.320129e-004	-1.316379e-002
