!Agilent Technologies,E5061B,MY49102235,A.02.00
!Date: Tue Jul 11 16:20:33 2023
!Data & Calibration Information:
!Freq	S11:SOLT2(ON)	S21:SOLT2(ON)	S12:SOLT2(ON)	S22:SOLT2(ON)
# Hz S RI R 50
5.000	-5.116541e-003	-5.654084e-003	1.001518e+000	8.020946e-003	1.000190e+000	1.022353e-002	-1.380450e-003	-7.552979e-003
62544.084	5.820179e-003	-4.987541e-004	1.001398e+000	6.453516e-004	1.000879e+000	1.225069e-003	7.706669e-003	-2.870556e-003
125083.168	5.672150e-003	-4.665103e-004	1.000942e+000	-8.725025e-004	1.000821e+000	-8.425433e-004	7.493526e-003	-2.251519e-003
187622.251	5.467935e-003	-2.838178e-004	1.000415e+000	-2.106342e-003	1.001023e+000	-1.006087e-003	7.376389e-003	-2.343210e-003
250161.335	5.285448e-003	-1.303263e-004	1.000557e+000	-3.187181e-003	1.000765e+000	-3.093316e-003	7.262977e-003	-2.001535e-003
312700.419	5.444808e-003	6.188727e-004	1.000681e+000	-3.798905e-003	1.000681e+000	-3.611433e-003	7.775011e-003	-2.283416e-003
375239.503	5.299039e-003	-8.842217e-004	1.001098e+000	-5.331785e-003	1.000694e+000	-5.035106e-003	7.248366e-003	-2.443128e-003
437778.587	5.143164e-003	-4.998885e-004	1.001349e+000	-5.332246e-003	1.001102e+000	-6.279668e-003	6.602789e-003	-2.142793e-003
500317.670	4.610037e-003	-3.488447e-004	1.001094e+000	-7.741633e-003	1.001685e+000	-7.660638e-003	4.819394e-003	-1.954095e-003
562856.754	5.894862e-003	-6.538504e-004	1.001375e+000	-9.346475e-003	1.001240e+000	-9.197097e-003	6.013312e-003	-1.446145e-003
625395.838	5.098088e-003	-5.021997e-004	1.002197e+000	-1.052149e-002	1.002158e+000	-1.014872e-002	6.125069e-003	-8.794574e-004
687934.922	5.151729e-003	-8.450892e-004	1.001264e+000	-1.147116e-002	1.001420e+000	-1.168447e-002	5.727961e-003	-1.335365e-003
750474.006	4.339926e-003	-4.876514e-004	1.000677e+000	-1.103344e-002	1.000920e+000	-1.077154e-002	5.529888e-003	-1.149548e-003
813013.089	4.507942e-003	-4.556750e-004	1.000960e+000	-1.275897e-002	1.000729e+000	-1.250887e-002	4.887233e-003	-9.661230e-004
875552.173	4.236029e-003	-2.823023e-004	1.001082e+000	-1.361149e-002	1.001107e+000	-1.380655e-002	5.680193e-003	-1.362642e-003
938091.257	4.317074e-003	-2.026200e-004	1.001121e+000	-1.509750e-002	1.001217e+000	-1.484990e-002	5.893878e-003	-7.742684e-004
1000630.341	3.765927e-003	-5.523450e-004	1.000725e+000	-1.650337e-002	1.001197e+000	-1.620019e-002	5.151083e-003	-1.463952e-003
1063169.425	4.123407e-003	-7.011089e-004	1.000909e+000	-1.794433e-002	1.000852e+000	-1.713456e-002	4.329640e-003	-1.773489e-003
1125708.508	4.018217e-003	-6.367351e-004	1.000785e+000	-1.906821e-002	1.000877e+000	-1.848729e-002	3.843189e-003	-1.474607e-003
1188247.592	4.550440e-003	-1.080121e-003	1.001047e+000	-2.013630e-002	1.001193e+000	-1.953823e-002	2.730267e-003	-2.046869e-003
1250786.676	4.388920e-003	-1.827321e-003	1.000454e+000	-2.014156e-002	1.000843e+000	-2.021347e-002	2.010062e-003	-3.695398e-003
1313325.760	4.509775e-003	-1.904392e-003	1.001045e+000	-2.160166e-002	1.001166e+000	-2.197481e-002	2.736986e-003	-3.483134e-003
1375864.844	4.232174e-003	-2.091260e-003	1.000503e+000	-2.361831e-002	1.000730e+000	-2.370895e-002	2.606940e-003	-3.201401e-003
1438403.927	4.132066e-003	-2.236813e-003	1.000702e+000	-2.421884e-002	1.001002e+000	-2.368494e-002	2.675474e-003	-2.933541e-003
1500943.011	4.354439e-003	-2.174094e-003	1.001310e+000	-2.502055e-002	1.001687e+000	-2.522599e-002	3.045689e-003	-3.335049e-003
1563482.095	4.361830e-003	-2.553882e-003	1.000842e+000	-2.658835e-002	1.000669e+000	-2.570733e-002	3.154397e-003	-3.129957e-003
1626021.179	4.176986e-003	-2.391612e-003	1.000771e+000	-2.788419e-002	1.001109e+000	-2.845831e-002	3.438636e-003	-3.143617e-003
1688560.263	3.862520e-003	-2.333085e-003	1.000390e+000	-2.945047e-002	1.001540e+000	-2.968338e-002	3.602413e-003	-3.174137e-003
1751099.346	4.004818e-003	-2.240674e-003	1.001004e+000	-3.072879e-002	1.000748e+000	-3.018753e-002	3.401814e-003	-2.328276e-003
1813638.430	3.636077e-003	-2.269698e-003	1.001212e+000	-3.215791e-002	1.001086e+000	-3.197297e-002	3.597384e-003	-2.683601e-003
1876177.514	3.679223e-003	-1.969081e-003	1.001594e+000	-3.308858e-002	1.001407e+000	-3.365726e-002	3.265396e-003	-2.024466e-003
1938716.598	3.131478e-003	-1.881507e-003	1.001927e+000	-3.382805e-002	1.001482e+000	-3.365049e-002	3.437855e-003	-1.636776e-003
2001255.682	3.047164e-003	-2.372112e-003	1.001777e+000	-3.549946e-002	1.001390e+000	-3.515605e-002	3.183880e-003	-2.077696e-003
2063794.765	3.125453e-003	-1.988095e-003	1.001284e+000	-3.641464e-002	1.000810e+000	-3.677441e-002	3.576188e-003	-2.167922e-003
2126333.849	2.684308e-003	-2.484490e-003	1.000827e+000	-3.761191e-002	1.000339e+000	-3.717476e-002	3.833111e-003	-1.910598e-003
2188872.933	3.164087e-003	-2.487217e-003	1.000622e+000	-3.869268e-002	1.000292e+000	-3.824920e-002	3.706608e-003	-1.949485e-003
2251412.017	3.259375e-003	-2.860355e-003	1.000372e+000	-4.035506e-002	1.000474e+000	-3.924522e-002	3.706933e-003	-2.053416e-003
2313951.101	3.579741e-003	-2.423512e-003	9.998282e-001	-4.126657e-002	1.000432e+000	-4.020088e-002	4.004426e-003	-2.116431e-003
2376490.184	3.329747e-003	-2.444551e-003	9.998217e-001	-4.169492e-002	1.000397e+000	-4.210979e-002	3.974665e-003	-2.118182e-003
2439029.268	3.783251e-003	-2.479512e-003	9.997842e-001	-4.344677e-002	9.995250e-001	-4.318760e-002	3.632637e-003	-2.006114e-003
2501568.352	3.744948e-003	-2.480027e-003	9.993886e-001	-4.356865e-002	1.000191e+000	-4.373240e-002	3.915579e-003	-2.046745e-003
2564107.436	3.670809e-003	-2.656330e-003	9.996846e-001	-4.548843e-002	9.999813e-001	-4.531885e-002	3.230095e-003	-2.408291e-003
2626646.520	4.140846e-003	-2.814270e-003	9.995814e-001	-4.660211e-002	9.989263e-001	-4.632182e-002	3.478824e-003	-2.468881e-003
2689185.604	4.108762e-003	-2.640759e-003	9.999683e-001	-4.742442e-002	9.997012e-001	-4.721243e-002	3.604048e-003	-2.416123e-003
2751724.687	4.188168e-003	-2.746661e-003	9.997535e-001	-4.808761e-002	9.996150e-001	-4.805044e-002	3.205662e-003	-2.460570e-003
2814263.771	4.168057e-003	-2.811409e-003	9.987976e-001	-4.994155e-002	9.992655e-001	-4.939745e-002	3.186010e-003	-2.597845e-003
2876802.855	4.102379e-003	-3.025341e-003	9.989541e-001	-5.132664e-002	9.993156e-001	-5.043593e-002	3.260717e-003	-2.471778e-003
2939341.939	4.217485e-003	-2.931715e-003	9.996359e-001	-5.190899e-002	9.993497e-001	-5.198246e-002	3.157210e-003	-2.573889e-003
3001881.023	4.148634e-003	-2.942140e-003	9.992142e-001	-5.293080e-002	9.990283e-001	-5.301222e-002	3.248631e-003	-2.723907e-003
3064420.106	4.192999e-003	-3.001122e-003	9.996792e-001	-5.405133e-002	9.990275e-001	-5.403507e-002	3.079997e-003	-2.863625e-003
3126959.190	4.392462e-003	-3.106767e-003	9.992928e-001	-5.526259e-002	9.992917e-001	-5.522654e-002	3.246370e-003	-2.918262e-003
3189498.274	4.371228e-003	-3.081437e-003	9.991857e-001	-5.621810e-002	9.991733e-001	-5.633727e-002	3.241221e-003	-2.989983e-003
3252037.358	4.279737e-003	-3.452565e-003	9.993415e-001	-5.740447e-002	9.992272e-001	-5.733062e-002	3.186109e-003	-2.947497e-003
3314576.442	4.291908e-003	-3.297937e-003	9.992146e-001	-5.843318e-002	9.991240e-001	-5.848338e-002	3.245187e-003	-3.069044e-003
3377115.525	4.260466e-003	-3.313719e-003	9.990323e-001	-5.940401e-002	9.988489e-001	-5.977099e-002	3.094717e-003	-3.215884e-003
3439654.609	4.255338e-003	-3.385998e-003	9.988087e-001	-6.060249e-002	9.991221e-001	-6.072840e-002	3.101659e-003	-3.042420e-003
3502193.693	4.223919e-003	-3.719908e-003	9.987799e-001	-6.184107e-002	9.987658e-001	-6.174210e-002	3.258851e-003	-3.112964e-003
3564732.777	4.267167e-003	-3.588309e-003	9.987838e-001	-6.287879e-002	9.987900e-001	-6.294256e-002	3.361321e-003	-3.114273e-003
3627271.861	4.113477e-003	-3.752614e-003	9.988564e-001	-6.403338e-002	9.988395e-001	-6.394229e-002	3.129982e-003	-3.353186e-003
3689810.944	4.014870e-003	-3.900744e-003	9.986968e-001	-6.514542e-002	9.987221e-001	-6.496335e-002	3.283459e-003	-3.364729e-003
3752350.028	4.120723e-003	-3.912776e-003	9.985363e-001	-6.601216e-002	9.985032e-001	-6.605425e-002	3.218364e-003	-3.440549e-003
3814889.112	4.233471e-003	-3.817848e-003	9.984161e-001	-6.718503e-002	9.986787e-001	-6.746090e-002	3.128898e-003	-3.613541e-003
3877428.196	4.168005e-003	-3.826790e-003	9.985644e-001	-6.836338e-002	9.985787e-001	-6.830528e-002	3.444893e-003	-3.642420e-003
3939967.280	4.147953e-003	-4.172397e-003	9.984447e-001	-6.957028e-002	9.985723e-001	-6.944493e-002	3.426376e-003	-3.585062e-003
4002506.363	4.202819e-003	-4.061861e-003	9.984130e-001	-7.059614e-002	9.984300e-001	-7.041974e-002	3.364144e-003	-3.694784e-003
4065045.447	4.021063e-003	-4.194114e-003	9.981635e-001	-7.173642e-002	9.982393e-001	-7.167208e-002	3.440240e-003	-3.841456e-003
4127584.531	4.006016e-003	-4.265567e-003	9.980509e-001	-7.280154e-002	9.982110e-001	-7.265707e-002	3.451921e-003	-3.771931e-003
4190123.615	4.048241e-003	-4.281515e-003	9.980775e-001	-7.414705e-002	9.980068e-001	-7.396068e-002	3.348728e-003	-4.060395e-003
4252662.699	3.998000e-003	-4.406139e-003	9.981293e-001	-7.518660e-002	9.979043e-001	-7.512690e-002	3.468438e-003	-4.057120e-003
4315201.782	4.117500e-003	-4.503443e-003	9.979956e-001	-7.608741e-002	9.980990e-001	-7.624293e-002	3.273286e-003	-4.317833e-003
4377740.866	4.022660e-003	-4.582109e-003	9.980275e-001	-7.733048e-002	9.977760e-001	-7.732015e-002	3.454914e-003	-4.072229e-003
4440279.950	3.909060e-003	-4.768132e-003	9.978963e-001	-7.827299e-002	9.976595e-001	-7.830560e-002	3.339365e-003	-4.297080e-003
4502819.034	3.904845e-003	-4.694494e-003	9.975790e-001	-7.947930e-002	9.976886e-001	-7.941819e-002	3.413718e-003	-4.194381e-003
4565358.118	3.824929e-003	-4.797026e-003	9.975385e-001	-8.058509e-002	9.974288e-001	-8.034535e-002	3.404027e-003	-4.361068e-003
4627897.201	3.996130e-003	-4.721540e-003	9.976382e-001	-8.166544e-002	9.974498e-001	-8.147178e-002	3.520530e-003	-4.303242e-003
4690436.285	3.817171e-003	-4.901519e-003	9.975556e-001	-8.286264e-002	9.974173e-001	-8.295103e-002	3.499114e-003	-4.559819e-003
4752975.369	3.820491e-003	-4.979158e-003	9.972385e-001	-8.407722e-002	9.973958e-001	-8.393549e-002	3.333006e-003	-4.676264e-003
4815514.453	3.932117e-003	-5.033701e-003	9.973593e-001	-8.506083e-002	9.972835e-001	-8.511309e-002	3.549273e-003	-4.639433e-003
4878053.537	4.030322e-003	-5.179632e-003	9.973192e-001	-8.608032e-002	9.971344e-001	-8.605051e-002	3.492460e-003	-4.778495e-003
4940592.620	3.756068e-003	-5.192245e-003	9.970720e-001	-8.725115e-002	9.971192e-001	-8.730410e-002	3.263337e-003	-4.874605e-003
5003131.704	3.825833e-003	-5.397853e-003	9.969425e-001	-8.834783e-002	9.970916e-001	-8.815454e-002	3.373844e-003	-4.984029e-003
5065670.788	3.746100e-003	-5.264597e-003	9.968009e-001	-8.949985e-002	9.968946e-001	-8.933565e-002	3.344000e-003	-5.008430e-003
5128209.872	3.859735e-003	-5.459692e-003	9.969357e-001	-9.058888e-002	9.968036e-001	-9.044777e-002	3.311909e-003	-5.273167e-003
5190748.956	3.758734e-003	-5.534742e-003	9.967127e-001	-9.170458e-002	9.967813e-001	-9.167795e-002	3.270002e-003	-5.215929e-003
5253288.039	3.799410e-003	-5.635335e-003	9.967199e-001	-9.281017e-002	9.966902e-001	-9.268574e-002	3.190663e-003	-5.202140e-003
5315827.123	3.775166e-003	-5.767689e-003	9.964562e-001	-9.392960e-002	9.965846e-001	-9.385150e-002	3.183941e-003	-5.366609e-003
5378366.207	3.856022e-003	-5.787697e-003	9.965369e-001	-9.501342e-002	9.965061e-001	-9.513449e-002	3.162415e-003	-5.525252e-003
5440905.291	3.657736e-003	-5.769135e-003	9.964570e-001	-9.612757e-002	9.963823e-001	-9.610431e-002	3.038451e-003	-5.542680e-003
5503444.375	3.874902e-003	-5.993671e-003	9.963242e-001	-9.731887e-002	9.963858e-001	-9.709273e-002	3.234710e-003	-5.692142e-003
5565983.458	3.509381e-003	-5.949053e-003	9.962292e-001	-9.829269e-002	9.962809e-001	-9.812594e-002	3.156756e-003	-5.603935e-003
5628522.542	3.763175e-003	-6.096455e-003	9.961631e-001	-9.933661e-002	9.961357e-001	-9.940647e-002	3.193730e-003	-5.791167e-003
5691061.626	3.813925e-003	-6.337991e-003	9.959663e-001	-1.006741e-001	9.959868e-001	-1.005406e-001	3.080443e-003	-5.816027e-003
5753600.710	3.664009e-003	-6.328947e-003	9.957668e-001	-1.016316e-001	9.958900e-001	-1.015881e-001	3.126848e-003	-6.021651e-003
5816139.794	3.754033e-003	-6.216940e-003	9.957593e-001	-1.027750e-001	9.956275e-001	-1.028654e-001	2.985323e-003	-6.049542e-003
5878678.877	3.641186e-003	-6.523013e-003	9.956330e-001	-1.038957e-001	9.956145e-001	-1.038803e-001	3.075313e-003	-6.248343e-003
5941217.961	3.634968e-003	-6.654407e-003	9.955081e-001	-1.050787e-001	9.954883e-001	-1.048121e-001	2.874400e-003	-6.229954e-003
6003757.045	3.468514e-003	-6.510465e-003	9.952420e-001	-1.060098e-001	9.953905e-001	-1.059331e-001	3.003421e-003	-6.317056e-003
6066296.129	3.585867e-003	-6.769942e-003	9.953803e-001	-1.071601e-001	9.953234e-001	-1.069840e-001	2.964261e-003	-6.422036e-003
6128835.213	3.672159e-003	-6.807688e-003	9.952508e-001	-1.079643e-001	9.953580e-001	-1.081887e-001	3.052018e-003	-6.499045e-003
6191374.296	3.607517e-003	-6.920538e-003	9.950697e-001	-1.093232e-001	9.949671e-001	-1.094686e-001	2.894694e-003	-6.468169e-003
6253913.380	3.510072e-003	-6.862715e-003	9.949966e-001	-1.104983e-001	9.949714e-001	-1.103934e-001	2.748506e-003	-6.444073e-003
6316452.464	3.465802e-003	-6.853974e-003	9.949189e-001	-1.114944e-001	9.947139e-001	-1.117203e-001	2.788746e-003	-6.749908e-003
6378991.548	3.426085e-003	-7.088963e-003	9.946894e-001	-1.129347e-001	9.948108e-001	-1.126491e-001	2.833519e-003	-6.935914e-003
6441530.632	3.360180e-003	-7.241765e-003	9.945394e-001	-1.137373e-001	9.945873e-001	-1.138993e-001	2.866096e-003	-6.900012e-003
6504069.715	3.343421e-003	-7.346137e-003	9.943992e-001	-1.151134e-001	9.946419e-001	-1.149025e-001	2.873088e-003	-6.980747e-003
6566608.799	3.478725e-003	-7.467075e-003	9.944369e-001	-1.162188e-001	9.943814e-001	-1.160451e-001	2.761429e-003	-6.858191e-003
6629147.883	3.417388e-003	-7.407722e-003	9.942058e-001	-1.170232e-001	9.941867e-001	-1.171914e-001	2.837857e-003	-7.078972e-003
6691686.967	3.280805e-003	-7.483595e-003	9.939859e-001	-1.182209e-001	9.940150e-001	-1.182781e-001	2.855640e-003	-7.075784e-003
6754226.051	3.213691e-003	-7.578048e-003	9.938301e-001	-1.194204e-001	9.938155e-001	-1.195110e-001	2.636100e-003	-7.363180e-003
6816765.134	3.311606e-003	-7.660177e-003	9.938011e-001	-1.204196e-001	9.938458e-001	-1.204433e-001	2.690116e-003	-7.247033e-003
6879304.218	3.187509e-003	-7.898231e-003	9.936155e-001	-1.216051e-001	9.936809e-001	-1.215284e-001	2.658684e-003	-7.376687e-003
6941843.302	3.242032e-003	-7.805643e-003	9.934452e-001	-1.227157e-001	9.935564e-001	-1.226443e-001	2.633639e-003	-7.369380e-003
7004382.386	3.044188e-003	-7.815009e-003	9.933918e-001	-1.237008e-001	9.933332e-001	-1.237474e-001	2.531312e-003	-7.409248e-003
7066921.470	3.124511e-003	-7.955381e-003	9.931501e-001	-1.249765e-001	9.933143e-001	-1.246966e-001	2.681790e-003	-7.638628e-003
7129460.553	3.002367e-003	-8.133249e-003	9.931218e-001	-1.258543e-001	9.931591e-001	-1.259062e-001	2.674199e-003	-7.653505e-003
7191999.637	2.983436e-003	-7.968983e-003	9.927480e-001	-1.270788e-001	9.928470e-001	-1.269771e-001	2.519792e-003	-7.722479e-003
7254538.721	3.015162e-003	-8.164804e-003	9.929360e-001	-1.282170e-001	9.929092e-001	-1.281488e-001	2.548072e-003	-7.788690e-003
7317077.805	3.188683e-003	-8.259779e-003	9.927212e-001	-1.291987e-001	9.927494e-001	-1.291943e-001	2.521859e-003	-7.969280e-003
7379616.889	3.029233e-003	-8.329547e-003	9.927185e-001	-1.304910e-001	9.925266e-001	-1.303151e-001	2.458461e-003	-8.011343e-003
7442155.972	2.856508e-003	-8.399892e-003	9.924236e-001	-1.314366e-001	9.924404e-001	-1.313911e-001	2.522719e-003	-7.875126e-003
7504695.056	2.884312e-003	-8.581231e-003	9.921495e-001	-1.324493e-001	9.921396e-001	-1.326267e-001	2.526302e-003	-7.882257e-003
7567234.140	3.047822e-003	-8.715055e-003	9.921593e-001	-1.335266e-001	9.920683e-001	-1.336579e-001	2.448686e-003	-8.058810e-003
7629773.224	2.938057e-003	-8.488574e-003	9.920336e-001	-1.348314e-001	9.920272e-001	-1.347227e-001	2.349830e-003	-8.189139e-003
7692312.308	2.776889e-003	-8.620544e-003	9.918657e-001	-1.359156e-001	9.917698e-001	-1.359220e-001	2.398266e-003	-8.331364e-003
7754851.391	2.745352e-003	-8.853640e-003	9.917061e-001	-1.370379e-001	9.914993e-001	-1.368029e-001	2.308011e-003	-8.276744e-003
7817390.475	2.805795e-003	-8.724738e-003	9.915801e-001	-1.382503e-001	9.914241e-001	-1.381438e-001	2.222342e-003	-8.239527e-003
7879929.559	2.695549e-003	-8.980892e-003	9.913145e-001	-1.393683e-001	9.912593e-001	-1.394070e-001	2.315447e-003	-8.311015e-003
7942468.643	2.633905e-003	-9.100378e-003	9.912653e-001	-1.403590e-001	9.912051e-001	-1.404254e-001	2.280188e-003	-8.561890e-003
8005007.727	2.714570e-003	-9.142197e-003	9.910094e-001	-1.415371e-001	9.911011e-001	-1.415100e-001	2.162237e-003	-8.405703e-003
8067546.811	2.547519e-003	-9.176993e-003	9.908814e-001	-1.426061e-001	9.907381e-001	-1.425132e-001	2.060634e-003	-8.691930e-003
8130085.894	2.596048e-003	-9.313769e-003	9.906623e-001	-1.436293e-001	9.907185e-001	-1.437015e-001	2.253531e-003	-8.801397e-003
8192624.978	2.406417e-003	-9.446164e-003	9.903763e-001	-1.448749e-001	9.905042e-001	-1.447360e-001	2.292326e-003	-8.892149e-003
8255164.062	2.510454e-003	-9.490611e-003	9.903269e-001	-1.459132e-001	9.903119e-001	-1.458521e-001	2.237945e-003	-8.988090e-003
8317703.146	2.366088e-003	-9.457250e-003	9.902638e-001	-1.470582e-001	9.902514e-001	-1.469441e-001	2.023434e-003	-9.016292e-003
8380242.230	2.468622e-003	-9.761076e-003	9.898852e-001	-1.483017e-001	9.899707e-001	-1.480194e-001	1.960250e-003	-9.153449e-003
8442781.313	2.411957e-003	-9.794426e-003	9.899968e-001	-1.492148e-001	9.898546e-001	-1.491188e-001	1.918913e-003	-9.308415e-003
8505320.397	2.364591e-003	-9.725072e-003	9.897252e-001	-1.503519e-001	9.896641e-001	-1.502264e-001	1.853305e-003	-9.325672e-003
8567859.481	2.301777e-003	-9.638441e-003	9.895463e-001	-1.512630e-001	9.896094e-001	-1.513225e-001	1.861382e-003	-9.218043e-003
8630398.565	2.356089e-003	-9.764251e-003	9.891989e-001	-1.523539e-001	9.893993e-001	-1.523678e-001	1.718316e-003	-9.547499e-003
8692937.649	2.273680e-003	-1.004315e-002	9.891261e-001	-1.534650e-001	9.890911e-001	-1.534964e-001	1.625230e-003	-9.510690e-003
8755476.732	2.263017e-003	-1.004195e-002	9.890008e-001	-1.546667e-001	9.889199e-001	-1.544885e-001	1.660801e-003	-9.568839e-003
8818015.816	2.117190e-003	-1.016060e-002	9.887537e-001	-1.557060e-001	9.886057e-001	-1.556736e-001	1.748666e-003	-9.727585e-003
8880554.900	2.299224e-003	-1.018752e-002	9.887227e-001	-1.568816e-001	9.887336e-001	-1.566201e-001	1.590250e-003	-9.964686e-003
8943093.984	2.105507e-003	-1.016559e-002	9.884744e-001	-1.578878e-001	9.885358e-001	-1.577505e-001	1.570085e-003	-9.971367e-003
9005633.068	2.138097e-003	-1.032990e-002	9.882529e-001	-1.590133e-001	9.884109e-001	-1.589523e-001	1.444994e-003	-1.017553e-002
9068172.151	1.948956e-003	-1.040440e-002	9.881615e-001	-1.601545e-001	9.881004e-001	-1.598998e-001	1.474646e-003	-1.019678e-002
9130711.235	2.143291e-003	-1.053416e-002	9.879084e-001	-1.612616e-001	9.879452e-001	-1.610587e-001	1.484613e-003	-1.046055e-002
9193250.319	2.108035e-003	-1.063922e-002	9.878293e-001	-1.621855e-001	9.877287e-001	-1.622082e-001	1.378722e-003	-1.045739e-002
9255789.403	1.958102e-003	-1.085734e-002	9.877116e-001	-1.632080e-001	9.875532e-001	-1.632442e-001	1.209633e-003	-1.047775e-002
9318328.487	1.889706e-003	-1.083204e-002	9.874465e-001	-1.645523e-001	9.875287e-001	-1.642834e-001	1.285304e-003	-1.055329e-002
9380867.570	1.867962e-003	-1.078099e-002	9.873465e-001	-1.656719e-001	9.871553e-001	-1.655138e-001	1.251191e-003	-1.064568e-002
9443406.654	1.887347e-003	-1.085550e-002	9.871934e-001	-1.666356e-001	9.871226e-001	-1.666235e-001	1.258823e-003	-1.078724e-002
9505945.738	1.834199e-003	-1.092341e-002	9.867656e-001	-1.679080e-001	9.869979e-001	-1.677276e-001	1.186860e-003	-1.085262e-002
9568484.822	1.846352e-003	-1.101601e-002	9.867343e-001	-1.689646e-001	9.865444e-001	-1.688131e-001	9.436319e-004	-1.070090e-002
