!Agilent Technologies,E5061B,MY49102235,A.02.00
!Date: Tue Jul 11 16:20:01 2023
!Data & Calibration Information:
!Freq	S11:SOLT2(ON)	S21:SOLT2(ON)	S12:SOLT2(ON)	S22:SOLT2(ON)
# Hz S RI R 50
5.000	-5.216648e-003	-5.612581e-003	1.001687e+000	8.031632e-003	1.000409e+000	1.021696e-002	-1.592589e-003	-7.546914e-003
62544.084	5.818210e-003	-4.675462e-004	1.001219e+000	6.979165e-004	1.000952e+000	1.138302e-003	7.701325e-003	-2.864153e-003
125083.168	5.674519e-003	-4.480713e-004	1.000918e+000	-9.031826e-004	1.000828e+000	-8.513381e-004	7.496989e-003	-2.244444e-003
187622.251	5.470063e-003	-2.614114e-004	1.000399e+000	-2.168596e-003	1.001002e+000	-8.083321e-004	7.391893e-003	-2.315091e-003
250161.335	5.281777e-003	-9.255204e-005	1.000554e+000	-3.230557e-003	1.000783e+000	-3.310369e-003	7.272083e-003	-1.944353e-003
312700.419	5.425228e-003	6.429710e-004	1.000801e+000	-3.824714e-003	1.000772e+000	-3.625934e-003	7.770450e-003	-2.251215e-003
375239.503	5.293539e-003	-8.501234e-004	1.001047e+000	-5.287444e-003	1.000616e+000	-5.115099e-003	7.264250e-003	-2.386865e-003
437778.587	5.147674e-003	-4.263812e-004	1.001191e+000	-5.446563e-003	1.001119e+000	-6.219566e-003	6.624192e-003	-2.084594e-003
500317.670	4.587849e-003	-2.820977e-004	1.001169e+000	-7.921406e-003	1.001720e+000	-7.733613e-003	4.826745e-003	-1.898863e-003
562856.754	5.906256e-003	-5.604862e-004	1.001239e+000	-9.415739e-003	1.001260e+000	-9.320092e-003	6.004965e-003	-1.381492e-003
625395.838	5.098518e-003	-4.126267e-004	1.002188e+000	-1.067146e-002	1.002235e+000	-1.035919e-002	6.104037e-003	-7.814099e-004
687934.922	5.151398e-003	-7.279871e-004	1.001214e+000	-1.163844e-002	1.001305e+000	-1.181150e-002	5.754625e-003	-1.238984e-003
750474.006	4.338431e-003	-4.034285e-004	1.000571e+000	-1.123757e-002	1.000867e+000	-1.087698e-002	5.519122e-003	-1.052721e-003
813013.089	4.509119e-003	-3.551596e-004	1.001079e+000	-1.281354e-002	1.000735e+000	-1.257156e-002	4.889498e-003	-8.565837e-004
875552.173	4.247749e-003	-1.695958e-004	1.000962e+000	-1.382665e-002	1.001188e+000	-1.394109e-002	5.675427e-003	-1.235657e-003
938091.257	4.330537e-003	-8.636517e-005	1.001171e+000	-1.530318e-002	1.001327e+000	-1.493012e-002	5.904313e-003	-6.430430e-004
1000630.341	3.778550e-003	-4.221890e-004	1.000749e+000	-1.667835e-002	1.001000e+000	-1.633465e-002	5.142052e-003	-1.334445e-003
1063169.425	4.132425e-003	-5.661390e-004	1.001079e+000	-1.803972e-002	1.000856e+000	-1.727598e-002	4.325572e-003	-1.641910e-003
1125708.508	3.996318e-003	-5.070490e-004	1.000931e+000	-1.911190e-002	1.000998e+000	-1.863763e-002	3.835726e-003	-1.329396e-003
1188247.592	4.566448e-003	-9.370703e-004	1.001050e+000	-2.044834e-002	1.001056e+000	-1.976641e-002	2.736954e-003	-1.888529e-003
1250786.676	4.395607e-003	-1.662532e-003	1.000610e+000	-2.027622e-002	1.000828e+000	-2.038101e-002	2.000362e-003	-3.546025e-003
1313325.760	4.516309e-003	-1.737399e-003	1.000964e+000	-2.180337e-002	1.001135e+000	-2.203495e-002	2.737524e-003	-3.322356e-003
1375864.844	4.248603e-003	-1.923773e-003	1.000622e+000	-2.380934e-002	1.000577e+000	-2.397537e-002	2.598555e-003	-3.025475e-003
1438403.927	4.137682e-003	-2.074509e-003	1.000606e+000	-2.455523e-002	1.001098e+000	-2.390417e-002	2.685466e-003	-2.747544e-003
1500943.011	4.370274e-003	-1.983545e-003	1.001264e+000	-2.533730e-002	1.001557e+000	-2.534648e-002	3.023540e-003	-3.133099e-003
1563482.095	4.351630e-003	-2.341796e-003	1.000837e+000	-2.668192e-002	1.000773e+000	-2.600168e-002	3.164231e-003	-2.923498e-003
1626021.179	4.166134e-003	-2.202856e-003	1.000580e+000	-2.795677e-002	1.001296e+000	-2.862053e-002	3.440375e-003	-2.952114e-003
1688560.263	3.872987e-003	-2.117096e-003	1.000576e+000	-2.966083e-002	1.001492e+000	-2.983136e-002	3.601472e-003	-2.954987e-003
1751099.346	4.002707e-003	-2.019992e-003	1.000850e+000	-3.091755e-002	1.000861e+000	-3.041959e-002	3.418751e-003	-2.100592e-003
1813638.430	3.653213e-003	-2.040708e-003	1.001319e+000	-3.237385e-002	1.001033e+000	-3.225495e-002	3.594971e-003	-2.477322e-003
1876177.514	3.682616e-003	-1.735076e-003	1.001552e+000	-3.327900e-002	1.001514e+000	-3.401303e-002	3.282463e-003	-1.792388e-003
1938716.598	3.137426e-003	-1.651426e-003	1.001724e+000	-3.410323e-002	1.001539e+000	-3.385238e-002	3.444801e-003	-1.390593e-003
2001255.682	3.057984e-003	-2.118448e-003	1.001679e+000	-3.560146e-002	1.001484e+000	-3.543393e-002	3.201956e-003	-1.833860e-003
2063794.765	3.140349e-003	-1.715282e-003	1.001275e+000	-3.658550e-002	1.000836e+000	-3.708298e-002	3.576490e-003	-1.899662e-003
2126333.849	2.676926e-003	-2.227978e-003	1.000791e+000	-3.791275e-002	1.000324e+000	-3.750201e-002	3.847739e-003	-1.642740e-003
2188872.933	3.169001e-003	-2.217174e-003	1.000525e+000	-3.900503e-002	1.000189e+000	-3.860602e-002	3.727154e-003	-1.694443e-003
2251412.017	3.272491e-003	-2.577658e-003	1.000430e+000	-4.061190e-002	1.000239e+000	-3.947942e-002	3.704356e-003	-1.788753e-003
2313951.101	3.593037e-003	-2.140265e-003	9.997812e-001	-4.155098e-002	1.000297e+000	-4.051357e-002	4.017226e-003	-1.837927e-003
2376490.184	3.331708e-003	-2.158273e-003	9.996542e-001	-4.189897e-002	1.000326e+000	-4.237137e-002	3.980014e-003	-1.831752e-003
2439029.268	3.787469e-003	-2.182291e-003	9.996196e-001	-4.376218e-002	9.995129e-001	-4.339099e-002	3.632592e-003	-1.705626e-003
2501568.352	3.769301e-003	-2.166211e-003	9.993910e-001	-4.395378e-002	1.000308e+000	-4.423245e-002	3.935524e-003	-1.728734e-003
2564107.436	3.676134e-003	-2.320805e-003	9.996893e-001	-4.573943e-002	1.000128e+000	-4.571214e-002	3.232737e-003	-2.100673e-003
2626646.520	4.157075e-003	-2.492067e-003	9.995057e-001	-4.685480e-002	9.988977e-001	-4.674310e-002	3.495085e-003	-2.149799e-003
2689185.604	4.117549e-003	-2.313786e-003	9.998602e-001	-4.775652e-002	9.997088e-001	-4.758793e-002	3.615591e-003	-2.088635e-003
2751724.687	4.218408e-003	-2.392313e-003	9.996720e-001	-4.852977e-002	9.995592e-001	-4.846144e-002	3.218133e-003	-2.126590e-003
2814263.771	4.181786e-003	-2.469429e-003	9.988162e-001	-5.024671e-002	9.992769e-001	-4.966588e-002	3.193118e-003	-2.241814e-003
2876802.855	4.135745e-003	-2.660849e-003	9.989258e-001	-5.167500e-002	9.992474e-001	-5.080711e-002	3.266211e-003	-2.101849e-003
2939341.939	4.235265e-003	-2.573141e-003	9.995309e-001	-5.221121e-002	9.991583e-001	-5.232407e-002	3.175726e-003	-2.202849e-003
3001881.023	4.163532e-003	-2.570734e-003	9.993406e-001	-5.335848e-002	9.991838e-001	-5.336450e-002	3.255465e-003	-2.335170e-003
3064420.106	4.208867e-003	-2.606646e-003	9.997555e-001	-5.432299e-002	9.989774e-001	-5.440184e-002	3.090410e-003	-2.461278e-003
3126959.190	4.408973e-003	-2.717735e-003	9.992815e-001	-5.564170e-002	9.992542e-001	-5.560744e-002	3.271532e-003	-2.537516e-003
3189498.274	4.382956e-003	-2.686103e-003	9.991909e-001	-5.664073e-002	9.991494e-001	-5.668801e-002	3.267415e-003	-2.581277e-003
3252037.358	4.307359e-003	-3.046768e-003	9.992600e-001	-5.782796e-002	9.991720e-001	-5.775189e-002	3.210513e-003	-2.533962e-003
3314576.442	4.311547e-003	-2.885175e-003	9.991543e-001	-5.880611e-002	9.990513e-001	-5.891234e-002	3.254003e-003	-2.646524e-003
3377115.525	4.271381e-003	-2.885340e-003	9.989934e-001	-5.982564e-002	9.988084e-001	-6.016259e-002	3.120879e-003	-2.794120e-003
3439654.609	4.287565e-003	-2.964972e-003	9.987437e-001	-6.103696e-002	9.990687e-001	-6.115376e-002	3.119798e-003	-2.614758e-003
3502193.693	4.249193e-003	-3.279150e-003	9.987638e-001	-6.228232e-002	9.987781e-001	-6.217282e-002	3.294447e-003	-2.671331e-003
3564732.777	4.293817e-003	-3.168163e-003	9.987857e-001	-6.330952e-002	9.987534e-001	-6.342745e-002	3.381716e-003	-2.661311e-003
3627271.861	4.143088e-003	-3.305961e-003	9.988140e-001	-6.449733e-002	9.987969e-001	-6.439766e-002	3.152042e-003	-2.894964e-003
3689810.944	4.045708e-003	-3.455556e-003	9.986431e-001	-6.560397e-002	9.987057e-001	-6.545213e-002	3.305217e-003	-2.897935e-003
3752350.028	4.162779e-003	-3.454839e-003	9.985447e-001	-6.647072e-002	9.984542e-001	-6.654141e-002	3.236727e-003	-2.979106e-003
3814889.112	4.271111e-003	-3.334064e-003	9.983753e-001	-6.764302e-002	9.986613e-001	-6.793319e-002	3.157856e-003	-3.131280e-003
3877428.196	4.206853e-003	-3.351257e-003	9.985457e-001	-6.884389e-002	9.985171e-001	-6.881283e-002	3.482282e-003	-3.140002e-003
3939967.280	4.181676e-003	-3.670240e-003	9.984107e-001	-6.999680e-002	9.984817e-001	-6.993448e-002	3.452477e-003	-3.089129e-003
4002506.363	4.237396e-003	-3.579342e-003	9.984092e-001	-7.107867e-002	9.983980e-001	-7.093305e-002	3.395683e-003	-3.190160e-003
4065045.447	4.065187e-003	-3.697341e-003	9.981606e-001	-7.221193e-002	9.981856e-001	-7.215698e-002	3.476317e-003	-3.339230e-003
4127584.531	4.035459e-003	-3.743680e-003	9.980577e-001	-7.330156e-002	9.982120e-001	-7.317260e-002	3.494821e-003	-3.263476e-003
4190123.615	4.084193e-003	-3.770290e-003	9.980538e-001	-7.459029e-002	9.979735e-001	-7.445705e-002	3.404482e-003	-3.532696e-003
4252662.699	4.031134e-003	-3.881539e-003	9.980838e-001	-7.576894e-002	9.978454e-001	-7.566010e-002	3.509554e-003	-3.543358e-003
4315201.782	4.157131e-003	-3.970447e-003	9.979775e-001	-7.659451e-002	9.980849e-001	-7.673102e-002	3.322266e-003	-3.776752e-003
4377740.866	4.055705e-003	-4.042272e-003	9.979827e-001	-7.790360e-002	9.977502e-001	-7.789310e-002	3.495734e-003	-3.529938e-003
4440279.950	3.963149e-003	-4.229142e-003	9.978228e-001	-7.884069e-002	9.976169e-001	-7.885555e-002	3.380330e-003	-3.736034e-003
4502819.034	3.947164e-003	-4.138937e-003	9.975163e-001	-8.008291e-002	9.976723e-001	-7.996078e-002	3.450376e-003	-3.632141e-003
4565358.118	3.856671e-003	-4.220915e-003	9.974658e-001	-8.109244e-002	9.973733e-001	-8.094398e-002	3.455237e-003	-3.799889e-003
4627897.201	4.034903e-003	-4.153823e-003	9.975750e-001	-8.221667e-002	9.973637e-001	-8.201307e-002	3.553853e-003	-3.736162e-003
4690436.285	3.855116e-003	-4.318594e-003	9.975216e-001	-8.343126e-002	9.973652e-001	-8.352861e-002	3.556736e-003	-3.983709e-003
4752975.369	3.862709e-003	-4.383374e-003	9.971370e-001	-8.461087e-002	9.973747e-001	-8.452733e-002	3.366936e-003	-4.082277e-003
4815514.453	3.974970e-003	-4.424092e-003	9.973118e-001	-8.559550e-002	9.972229e-001	-8.567212e-002	3.579092e-003	-4.034279e-003
4878053.537	4.079541e-003	-4.583525e-003	9.972367e-001	-8.668436e-002	9.970949e-001	-8.663891e-002	3.548542e-003	-4.168474e-003
4940592.620	3.806842e-003	-4.583734e-003	9.970256e-001	-8.784473e-002	9.970436e-001	-8.784734e-002	3.297136e-003	-4.258896e-003
5003131.704	3.878542e-003	-4.773617e-003	9.968894e-001	-8.894998e-002	9.970432e-001	-8.877616e-002	3.433518e-003	-4.360551e-003
5065670.788	3.784752e-003	-4.635174e-003	9.967932e-001	-9.009640e-002	9.968413e-001	-8.994418e-002	3.395356e-003	-4.380553e-003
5128209.872	3.926717e-003	-4.824452e-003	9.968730e-001	-9.120877e-002	9.967445e-001	-9.106694e-002	3.374846e-003	-4.648247e-003
5190748.956	3.811318e-003	-4.900568e-003	9.967019e-001	-9.232711e-002	9.967339e-001	-9.228438e-002	3.327656e-003	-4.579969e-003
5253288.039	3.859856e-003	-4.995464e-003	9.966837e-001	-9.346718e-002	9.966330e-001	-9.335444e-002	3.255646e-003	-4.545052e-003
5315827.123	3.823471e-003	-5.101624e-003	9.963681e-001	-9.457451e-002	9.964699e-001	-9.452980e-002	3.231194e-003	-4.710103e-003
5378366.207	3.915106e-003	-5.121073e-003	9.964626e-001	-9.569422e-002	9.964425e-001	-9.577646e-002	3.226682e-003	-4.848106e-003
5440905.291	3.722184e-003	-5.116073e-003	9.964032e-001	-9.675283e-002	9.963154e-001	-9.677152e-002	3.106837e-003	-4.864848e-003
5503444.375	3.937740e-003	-5.323822e-003	9.962422e-001	-9.799783e-002	9.963118e-001	-9.774653e-002	3.294965e-003	-5.004219e-003
5565983.458	3.575603e-003	-5.263182e-003	9.961407e-001	-9.898185e-002	9.961887e-001	-9.884688e-002	3.214402e-003	-4.906727e-003
5628522.542	3.826189e-003	-5.395059e-003	9.960858e-001	-1.000202e-001	9.960694e-001	-1.000688e-001	3.260600e-003	-5.105025e-003
5691061.626	3.883777e-003	-5.631871e-003	9.958882e-001	-1.013731e-001	9.958996e-001	-1.012381e-001	3.158812e-003	-5.095200e-003
5753600.710	3.731514e-003	-5.608820e-003	9.957428e-001	-1.023479e-001	9.958389e-001	-1.023264e-001	3.204127e-003	-5.299243e-003
5816139.794	3.821051e-003	-5.486793e-003	9.957289e-001	-1.034949e-001	9.955378e-001	-1.036054e-001	3.051196e-003	-5.316679e-003
5878678.877	3.716413e-003	-5.780792e-003	9.955956e-001	-1.046058e-001	9.955251e-001	-1.045713e-001	3.152569e-003	-5.522488e-003
5941217.961	3.707575e-003	-5.933385e-003	9.954001e-001	-1.058362e-001	9.954493e-001	-1.055649e-001	2.941582e-003	-5.485434e-003
6003757.045	3.546684e-003	-5.776881e-003	9.951575e-001	-1.067627e-001	9.953194e-001	-1.066889e-001	3.075525e-003	-5.571775e-003
6066296.129	3.658367e-003	-6.020653e-003	9.953325e-001	-1.078948e-001	9.951944e-001	-1.077408e-001	3.038188e-003	-5.668215e-003
6128835.213	3.748353e-003	-6.061443e-003	9.951604e-001	-1.087154e-001	9.951974e-001	-1.089916e-001	3.126354e-003	-5.732643e-003
6191374.296	3.694771e-003	-6.140890e-003	9.949197e-001	-1.100807e-001	9.949902e-001	-1.102241e-001	2.965437e-003	-5.714790e-003
6253913.380	3.589873e-003	-6.098200e-003	9.948676e-001	-1.112712e-001	9.948907e-001	-1.111544e-001	2.831732e-003	-5.668252e-003
6316452.464	3.555197e-003	-6.095609e-003	9.947981e-001	-1.122567e-001	9.946013e-001	-1.124780e-001	2.862380e-003	-5.960713e-003
6378991.548	3.511245e-003	-6.304834e-003	9.947054e-001	-1.137073e-001	9.947248e-001	-1.134555e-001	2.922634e-003	-6.145219e-003
6441530.632	3.443626e-003	-6.452366e-003	9.944386e-001	-1.145255e-001	9.945128e-001	-1.146839e-001	2.956342e-003	-6.111838e-003
6504069.715	3.420918e-003	-6.530464e-003	9.943011e-001	-1.158984e-001	9.945280e-001	-1.157337e-001	2.961427e-003	-6.169840e-003
6566608.799	3.564375e-003	-6.664364e-003	9.943287e-001	-1.170476e-001	9.943227e-001	-1.168942e-001	2.849805e-003	-6.054028e-003
6629147.883	3.503397e-003	-6.594929e-003	9.941382e-001	-1.177926e-001	9.941081e-001	-1.180306e-001	2.931323e-003	-6.267094e-003
6691686.967	3.384686e-003	-6.664966e-003	9.938878e-001	-1.190185e-001	9.939193e-001	-1.190597e-001	2.942194e-003	-6.244764e-003
6754226.051	3.303873e-003	-6.739706e-003	9.937584e-001	-1.202930e-001	9.937139e-001	-1.203286e-001	2.739410e-003	-6.511832e-003
6816765.134	3.404056e-003	-6.811549e-003	9.937055e-001	-1.213050e-001	9.937023e-001	-1.213261e-001	2.780339e-003	-6.394035e-003
6879304.218	3.287747e-003	-7.052362e-003	9.935168e-001	-1.224331e-001	9.936374e-001	-1.223558e-001	2.765201e-003	-6.527489e-003
6941843.302	3.351208e-003	-6.943750e-003	9.933665e-001	-1.235995e-001	9.934332e-001	-1.234884e-001	2.734688e-003	-6.519138e-003
7004382.386	3.137852e-003	-6.945155e-003	9.932911e-001	-1.245912e-001	9.932429e-001	-1.246285e-001	2.631779e-003	-6.547373e-003
7066921.470	3.227891e-003	-7.076259e-003	9.930247e-001	-1.258335e-001	9.932181e-001	-1.255843e-001	2.781623e-003	-6.765174e-003
7129460.553	3.109693e-003	-7.261397e-003	9.930128e-001	-1.267880e-001	9.930391e-001	-1.268088e-001	2.774210e-003	-6.766606e-003
7191999.637	3.081183e-003	-7.084049e-003	9.926481e-001	-1.280069e-001	9.927267e-001	-1.279004e-001	2.635932e-003	-6.839528e-003
7254538.721	3.129331e-003	-7.248159e-003	9.928518e-001	-1.291318e-001	9.927535e-001	-1.290609e-001	2.653357e-003	-6.886444e-003
7317077.805	3.298253e-003	-7.348965e-003	9.925987e-001	-1.301278e-001	9.926687e-001	-1.300993e-001	2.632664e-003	-7.059096e-003
7379616.889	3.132006e-003	-7.410047e-003	9.925955e-001	-1.314106e-001	9.924211e-001	-1.312495e-001	2.564739e-003	-7.099992e-003
7442155.972	2.979505e-003	-7.479414e-003	9.923058e-001	-1.323738e-001	9.923214e-001	-1.323093e-001	2.634380e-003	-6.941439e-003
7504695.056	2.993670e-003	-7.646202e-003	9.920272e-001	-1.333852e-001	9.919960e-001	-1.335996e-001	2.646941e-003	-6.951681e-003
7567234.140	3.156200e-003	-7.781521e-003	9.920262e-001	-1.344862e-001	9.919136e-001	-1.345943e-001	2.568328e-003	-7.117878e-003
7629773.224	3.045327e-003	-7.541055e-003	9.919573e-001	-1.357836e-001	9.918870e-001	-1.356571e-001	2.465916e-003	-7.236779e-003
7692312.308	2.903514e-003	-7.676454e-003	9.917687e-001	-1.368560e-001	9.916586e-001	-1.368552e-001	2.504345e-003	-7.386632e-003
7754851.391	2.865807e-003	-7.894455e-003	9.915845e-001	-1.380058e-001	9.913717e-001	-1.378035e-001	2.438182e-003	-7.316934e-003
7817390.475	2.940031e-003	-7.755333e-003	9.914433e-001	-1.392241e-001	9.913284e-001	-1.390861e-001	2.345465e-003	-7.270179e-003
7879929.559	2.836428e-003	-7.999714e-003	9.911766e-001	-1.403633e-001	9.911211e-001	-1.403628e-001	2.453948e-003	-7.342188e-003
7942468.643	2.763029e-003	-8.117984e-003	9.911691e-001	-1.413257e-001	9.910748e-001	-1.414509e-001	2.416119e-003	-7.582816e-003
8005007.727	2.851041e-003	-8.146944e-003	9.908678e-001	-1.425060e-001	9.909123e-001	-1.425187e-001	2.306198e-003	-7.424911e-003
8067546.811	2.677262e-003	-8.168380e-003	9.907380e-001	-1.436028e-001	9.906581e-001	-1.435160e-001	2.204162e-003	-7.686046e-003
8130085.894	2.726649e-003	-8.302339e-003	9.905480e-001	-1.446227e-001	9.905385e-001	-1.446849e-001	2.394760e-003	-7.797680e-003
8192624.978	2.541013e-003	-8.430671e-003	9.902468e-001	-1.458591e-001	9.903487e-001	-1.457386e-001	2.417930e-003	-7.869966e-003
8255164.062	2.646904e-003	-8.467835e-003	9.901885e-001	-1.469618e-001	9.901636e-001	-1.469155e-001	2.377256e-003	-7.982780e-003
8317703.146	2.509342e-003	-8.414877e-003	9.901117e-001	-1.480751e-001	9.901183e-001	-1.479673e-001	2.172847e-003	-7.998452e-003
8380242.230	2.617757e-003	-8.714490e-003	9.897627e-001	-1.492846e-001	9.898362e-001	-1.490355e-001	2.114233e-003	-8.107345e-003
8442781.313	2.560507e-003	-8.740163e-003	9.898617e-001	-1.502586e-001	9.896978e-001	-1.501109e-001	2.078862e-003	-8.261854e-003
8505320.397	2.529773e-003	-8.673496e-003	9.896377e-001	-1.514364e-001	9.894966e-001	-1.512880e-001	1.994096e-003	-8.270039e-003
8567859.481	2.450561e-003	-8.576077e-003	9.894014e-001	-1.523405e-001	9.894304e-001	-1.523718e-001	2.012184e-003	-8.154929e-003
8630398.565	2.514452e-003	-8.700803e-003	9.890667e-001	-1.533925e-001	9.892565e-001	-1.534295e-001	1.870980e-003	-8.478663e-003
8692937.649	2.418139e-003	-8.976316e-003	9.889605e-001	-1.545342e-001	9.889121e-001	-1.545821e-001	1.783475e-003	-8.451647e-003
8755476.732	2.417671e-003	-8.954591e-003	9.888478e-001	-1.557534e-001	9.887513e-001	-1.555936e-001	1.830630e-003	-8.491580e-003
8818015.816	2.278829e-003	-9.070657e-003	9.886008e-001	-1.567921e-001	9.884068e-001	-1.567513e-001	1.921992e-003	-8.639964e-003
8880554.900	2.465009e-003	-9.094692e-003	9.885583e-001	-1.579769e-001	9.885248e-001	-1.577293e-001	1.740327e-003	-8.864399e-003
8943093.984	2.272852e-003	-9.054444e-003	9.883359e-001	-1.589581e-001	9.883372e-001	-1.588564e-001	1.741030e-003	-8.866098e-003
9005633.068	2.303945e-003	-9.214135e-003	9.880484e-001	-1.601491e-001	9.882090e-001	-1.600836e-001	1.604680e-003	-9.062318e-003
9068172.151	2.120453e-003	-9.281798e-003	9.879963e-001	-1.612296e-001	9.878648e-001	-1.610286e-001	1.638048e-003	-9.081943e-003
9130711.235	2.324443e-003	-9.401104e-003	9.877231e-001	-1.623597e-001	9.877799e-001	-1.621289e-001	1.650092e-003	-9.340621e-003
9193250.319	2.268232e-003	-9.494468e-003	9.876746e-001	-1.633098e-001	9.875323e-001	-1.633126e-001	1.554041e-003	-9.314628e-003
9255789.403	2.146959e-003	-9.717758e-003	9.875113e-001	-1.643229e-001	9.873600e-001	-1.643936e-001	1.391961e-003	-9.337988e-003
9318328.487	2.066820e-003	-9.685447e-003	9.872466e-001	-1.656908e-001	9.873391e-001	-1.654362e-001	1.465972e-003	-9.382231e-003
9380867.570	2.052104e-003	-9.615396e-003	9.871661e-001	-1.667778e-001	9.869895e-001	-1.666575e-001	1.442766e-003	-9.480747e-003
9443406.654	2.074580e-003	-9.695536e-003	9.869572e-001	-1.677692e-001	9.869346e-001	-1.678173e-001	1.436125e-003	-9.622543e-003
9505945.738	2.025355e-003	-9.733576e-003	9.866206e-001	-1.690623e-001	9.868188e-001	-1.689288e-001	1.365445e-003	-9.694472e-003
9568484.822	2.029433e-003	-9.845177e-003	9.865755e-001	-1.701596e-001	9.863709e-001	-1.699833e-001	1.135705e-003	-9.511809e-003
