!Agilent Technologies,E5061B,MY49102235,A.02.00
!Date: Tue Jul 11 15:18:14 2023
!Data & Calibration Information:
!Freq	S11:SOLT2(ON)	S21:SOLT2(ON)	S12:SOLT2(ON)	S22:SOLT2(ON)
# Hz S RI R 50
5.000	-5.172314e-003	-5.633197e-003	1.001656e+000	7.912214e-003	1.000345e+000	1.027188e-002	-1.605039e-003	-7.553276e-003
62544.084	5.821015e-003	-5.087979e-004	1.001405e+000	5.283749e-004	1.000852e+000	1.259776e-003	7.699588e-003	-2.882881e-003
125083.168	5.685119e-003	-5.060828e-004	1.000982e+000	-8.455089e-004	1.000720e+000	-6.620448e-004	7.494075e-003	-2.293282e-003
187622.251	5.439196e-003	-3.459681e-004	1.000533e+000	-2.206093e-003	1.000996e+000	-9.362768e-004	7.362955e-003	-2.397614e-003
250161.335	5.264079e-003	-1.852974e-004	1.000617e+000	-3.267342e-003	1.000769e+000	-3.112543e-003	7.239549e-003	-2.054332e-003
312700.419	5.413484e-003	5.346370e-004	1.000929e+000	-3.890482e-003	1.000629e+000	-3.438765e-003	7.758087e-003	-2.373838e-003
375239.503	5.306638e-003	-9.832345e-004	1.001009e+000	-5.241886e-003	1.000577e+000	-4.849671e-003	7.244075e-003	-2.541047e-003
437778.587	5.130311e-003	-5.955965e-004	1.001339e+000	-5.430973e-003	1.000973e+000	-6.062417e-003	6.605773e-003	-2.253031e-003
500317.670	4.571672e-003	-4.886879e-004	1.001346e+000	-7.852501e-003	1.001776e+000	-7.460096e-003	4.788313e-003	-2.094282e-003
562856.754	5.876069e-003	-7.957450e-004	1.001392e+000	-9.343938e-003	1.000989e+000	-9.002275e-003	6.024816e-003	-1.592940e-003
625395.838	5.074220e-003	-6.636156e-004	1.002291e+000	-1.052078e-002	1.002194e+000	-9.862913e-003	6.086281e-003	-1.045260e-003
687934.922	5.149545e-003	-9.821431e-004	1.001239e+000	-1.149658e-002	1.001249e+000	-1.147678e-002	5.735151e-003	-1.510682e-003
750474.006	4.359982e-003	-6.755491e-004	1.000827e+000	-1.080394e-002	1.000819e+000	-1.065307e-002	5.546210e-003	-1.334592e-003
813013.089	4.548828e-003	-6.487638e-004	1.001361e+000	-1.271106e-002	1.000654e+000	-1.220351e-002	4.903023e-003	-1.168610e-003
875552.173	4.281785e-003	-4.994307e-004	1.001291e+000	-1.357093e-002	1.001009e+000	-1.356518e-002	5.702301e-003	-1.567232e-003
938091.257	4.351906e-003	-4.390991e-004	1.001385e+000	-1.496006e-002	1.001150e+000	-1.460520e-002	5.925479e-003	-1.020453e-003
1000630.341	3.799590e-003	-7.977069e-004	1.000943e+000	-1.640258e-002	1.001058e+000	-1.594554e-002	5.175585e-003	-1.721740e-003
1063169.425	4.155223e-003	-9.617712e-004	1.001136e+000	-1.774700e-002	1.000675e+000	-1.680340e-002	4.349801e-003	-2.050963e-003
1125708.508	4.033238e-003	-9.317082e-004	1.001060e+000	-1.880952e-002	1.000791e+000	-1.813650e-002	3.843613e-003	-1.773624e-003
1188247.592	4.568511e-003	-1.391348e-003	1.001121e+000	-2.007281e-002	1.001044e+000	-1.919612e-002	2.761390e-003	-2.357766e-003
1250786.676	4.415312e-003	-2.147607e-003	1.000676e+000	-1.990788e-002	1.000740e+000	-1.988383e-002	2.021544e-003	-4.031767e-003
1313325.760	4.530154e-003	-2.236320e-003	1.001143e+000	-2.132153e-002	1.001087e+000	-2.153299e-002	2.745498e-003	-3.829103e-003
1375864.844	4.265062e-003	-2.458023e-003	1.000767e+000	-2.335378e-002	1.000594e+000	-2.324203e-002	2.608961e-003	-3.554584e-003
1438403.927	4.151195e-003	-2.611629e-003	1.000676e+000	-2.394824e-002	1.000902e+000	-2.323200e-002	2.683568e-003	-3.318263e-003
1500943.011	4.369415e-003	-2.555756e-003	1.001418e+000	-2.478640e-002	1.001387e+000	-2.469610e-002	3.034156e-003	-3.727211e-003
1563482.095	4.373020e-003	-2.941842e-003	1.001069e+000	-2.624997e-002	1.000629e+000	-2.526794e-002	3.169130e-003	-3.538448e-003
1626021.179	4.179724e-003	-2.815740e-003	1.000854e+000	-2.746099e-002	1.001116e+000	-2.792365e-002	3.455421e-003	-3.582597e-003
1688560.263	3.886170e-003	-2.781165e-003	1.000506e+000	-2.916607e-002	1.001382e+000	-2.912027e-002	3.615020e-003	-3.608500e-003
1751099.346	4.017951e-003	-2.678728e-003	1.001274e+000	-3.028035e-002	1.000791e+000	-2.966303e-002	3.421963e-003	-2.774981e-003
1813638.430	3.657355e-003	-2.738715e-003	1.001439e+000	-3.174509e-002	1.001112e+000	-3.152265e-002	3.611415e-003	-3.172891e-003
1876177.514	3.685352e-003	-2.454513e-003	1.001824e+000	-3.259329e-002	1.001356e+000	-3.306185e-002	3.259538e-003	-2.510039e-003
1938716.598	3.141641e-003	-2.403308e-003	1.001941e+000	-3.352215e-002	1.001468e+000	-3.292420e-002	3.443493e-003	-2.140058e-003
2001255.682	3.054144e-003	-2.880849e-003	1.002020e+000	-3.499687e-002	1.001434e+000	-3.446561e-002	3.186192e-003	-2.601316e-003
2063794.765	3.136659e-003	-2.510039e-003	1.001488e+000	-3.595451e-002	1.000856e+000	-3.606083e-002	3.572194e-003	-2.697670e-003
2126333.849	2.677258e-003	-3.045275e-003	1.000974e+000	-3.708219e-002	1.000247e+000	-3.645833e-002	3.842897e-003	-2.463053e-003
2188872.933	3.160418e-003	-3.051840e-003	1.000698e+000	-3.824959e-002	1.000215e+000	-3.739036e-002	3.714166e-003	-2.516081e-003
2251412.017	3.256771e-003	-3.435769e-003	1.000561e+000	-3.976616e-002	1.000316e+000	-3.854353e-002	3.701042e-003	-2.643159e-003
2313951.101	3.576918e-003	-3.015331e-003	9.999266e-001	-4.079985e-002	1.000417e+000	-3.941736e-002	4.004147e-003	-2.732727e-003
2376490.184	3.328525e-003	-3.062071e-003	9.999160e-001	-4.108323e-002	1.000197e+000	-4.132058e-002	3.958331e-003	-2.739298e-003
2439029.268	3.773035e-003	-3.117639e-003	9.997714e-001	-4.285401e-002	9.994766e-001	-4.233397e-002	3.621803e-003	-2.636513e-003
2501568.352	3.739901e-003	-3.121972e-003	9.995709e-001	-4.308374e-002	1.000214e+000	-4.278666e-002	3.907064e-003	-2.686386e-003
2564107.436	3.661279e-003	-3.285735e-003	9.998907e-001	-4.483750e-002	1.000136e+000	-4.453919e-002	3.234275e-003	-3.081247e-003
2626646.520	4.128583e-003	-3.480847e-003	9.997111e-001	-4.585742e-002	9.989069e-001	-4.543340e-002	3.463128e-003	-3.162368e-003
2689185.604	4.094897e-003	-3.350086e-003	1.000130e+000	-4.658010e-002	9.995691e-001	-4.630595e-002	3.594160e-003	-3.123648e-003
2751724.687	4.203077e-003	-3.450132e-003	9.999451e-001	-4.736173e-002	9.995378e-001	-4.715257e-002	3.196815e-003	-3.183715e-003
2814263.771	4.151858e-003	-3.537422e-003	9.990342e-001	-4.927186e-002	9.993079e-001	-4.840504e-002	3.174711e-003	-3.312356e-003
2876802.855	4.096314e-003	-3.760587e-003	9.990624e-001	-5.064500e-002	9.993215e-001	-4.952233e-002	3.243735e-003	-3.219153e-003
2939341.939	4.216767e-003	-3.701167e-003	9.998068e-001	-5.116303e-002	9.991393e-001	-5.101593e-002	3.147910e-003	-3.327912e-003
3001881.023	4.137201e-003	-3.710174e-003	9.994007e-001	-5.231936e-002	9.991220e-001	-5.211280e-002	3.233646e-003	-3.496277e-003
3064420.106	4.171372e-003	-3.789332e-003	9.999049e-001	-5.324393e-002	9.990393e-001	-5.294555e-002	3.068861e-003	-3.644431e-003
3126959.190	4.367525e-003	-3.915613e-003	9.995154e-001	-5.445072e-002	9.992148e-001	-5.418087e-002	3.235064e-003	-3.733083e-003
3189498.274	4.342722e-003	-3.898402e-003	9.994070e-001	-5.539699e-002	9.991347e-001	-5.524584e-002	3.224161e-003	-3.811322e-003
3252037.358	4.253288e-003	-4.290485e-003	9.994866e-001	-5.659531e-002	9.991996e-001	-5.622181e-002	3.171456e-003	-3.785261e-003
3314576.442	4.271504e-003	-4.157611e-003	9.994003e-001	-5.754638e-002	9.990841e-001	-5.736235e-002	3.228312e-003	-3.927951e-003
3377115.525	4.234595e-003	-4.177775e-003	9.991944e-001	-5.855429e-002	9.988298e-001	-5.863092e-002	3.070240e-003	-4.095418e-003
3439654.609	4.236163e-003	-4.280453e-003	9.989831e-001	-5.969790e-002	9.990934e-001	-5.960201e-002	3.082366e-003	-3.935084e-003
3502193.693	4.192628e-003	-4.620694e-003	9.989833e-001	-6.090070e-002	9.987781e-001	-6.052946e-002	3.242495e-003	-4.025124e-003
3564732.777	4.239336e-003	-4.517976e-003	9.990055e-001	-6.192942e-002	9.987488e-001	-6.173033e-002	3.326120e-003	-4.039780e-003
3627271.861	4.083908e-003	-4.693379e-003	9.990169e-001	-6.309448e-002	9.988128e-001	-6.265915e-002	3.103202e-003	-4.295450e-003
3689810.944	3.997204e-003	-4.860733e-003	9.988635e-001	-6.419569e-002	9.987110e-001	-6.373898e-002	3.255376e-003	-4.312552e-003
3752350.028	4.094017e-003	-4.872683e-003	9.987442e-001	-6.504204e-002	9.984625e-001	-6.481259e-002	3.186309e-003	-4.414580e-003
3814889.112	4.211346e-003	-4.801281e-003	9.986027e-001	-6.616101e-002	9.986693e-001	-6.618289e-002	3.095156e-003	-4.600689e-003
3877428.196	4.137133e-003	-4.826885e-003	9.987809e-001	-6.732396e-002	9.985355e-001	-6.703407e-002	3.421102e-003	-4.641550e-003
3939967.280	4.101976e-003	-5.177558e-003	9.986271e-001	-6.847718e-002	9.985564e-001	-6.813629e-002	3.386195e-003	-4.606023e-003
4002506.363	4.154610e-003	-5.100550e-003	9.986181e-001	-6.952549e-002	9.984584e-001	-6.908370e-002	3.335729e-003	-4.739729e-003
4065045.447	3.981692e-003	-5.244706e-003	9.983420e-001	-7.065332e-002	9.982445e-001	-7.027776e-002	3.417428e-003	-4.903151e-003
4127584.531	3.951017e-003	-5.324470e-003	9.982787e-001	-7.171539e-002	9.982259e-001	-7.125296e-002	3.419156e-003	-4.849203e-003
4190123.615	3.987545e-003	-5.366110e-003	9.983056e-001	-7.293511e-002	9.980231e-001	-7.252753e-002	3.332806e-003	-5.144276e-003
4252662.699	3.936962e-003	-5.518001e-003	9.983379e-001	-7.406939e-002	9.979114e-001	-7.370915e-002	3.425539e-003	-5.179933e-003
4315201.782	4.059483e-003	-5.620798e-003	9.982190e-001	-7.487099e-002	9.981251e-001	-7.480437e-002	3.239268e-003	-5.436957e-003
4377740.866	3.963386e-003	-5.713859e-003	9.982302e-001	-7.617122e-002	9.978309e-001	-7.589444e-002	3.409402e-003	-5.210326e-003
4440279.950	3.852062e-003	-5.918525e-003	9.981065e-001	-7.709172e-002	9.976462e-001	-7.680946e-002	3.298223e-003	-5.443950e-003
4502819.034	3.840208e-003	-5.860734e-003	9.977766e-001	-7.829659e-002	9.977199e-001	-7.788959e-002	3.369675e-003	-5.370137e-003
4565358.118	3.757575e-003	-5.977941e-003	9.977410e-001	-7.930805e-002	9.974448e-001	-7.881111e-002	3.373223e-003	-5.543009e-003
4627897.201	3.913744e-003	-5.916487e-003	9.978421e-001	-8.037063e-002	9.974538e-001	-7.991713e-002	3.463347e-003	-5.506538e-003
4690436.285	3.744325e-003	-6.119007e-003	9.977665e-001	-8.153546e-002	9.974483e-001	-8.134818e-002	3.457873e-003	-5.781582e-003
4752975.369	3.730986e-003	-6.195101e-003	9.974116e-001	-8.270576e-002	9.974472e-001	-8.236513e-002	3.267104e-003	-5.912608e-003
4815514.453	3.855847e-003	-6.268881e-003	9.975871e-001	-8.369344e-002	9.973191e-001	-8.348955e-002	3.479103e-003	-5.882223e-003
4878053.537	3.950341e-003	-6.447980e-003	9.975309e-001	-8.473239e-002	9.972270e-001	-8.443685e-002	3.445865e-003	-6.042596e-003
4940592.620	3.677423e-003	-6.481823e-003	9.973109e-001	-8.584901e-002	9.971555e-001	-8.560118e-002	3.188175e-003	-6.162234e-003
5003131.704	3.729544e-003	-6.697973e-003	9.972070e-001	-8.694725e-002	9.971085e-001	-8.643627e-002	3.320861e-003	-6.285202e-003
5065670.788	3.647172e-003	-6.584320e-003	9.970981e-001	-8.806411e-002	9.969867e-001	-8.764776e-002	3.281516e-003	-6.331260e-003
5128209.872	3.775824e-003	-6.789437e-003	9.971872e-001	-8.916701e-002	9.968667e-001	-8.872343e-002	3.239823e-003	-6.610787e-003
5190748.956	3.662393e-003	-6.887860e-003	9.969495e-001	-9.023558e-002	9.968473e-001	-8.994831e-002	3.205231e-003	-6.567602e-003
5253288.039	3.707952e-003	-7.005986e-003	9.969515e-001	-9.136456e-002	9.967735e-001	-9.096787e-002	3.128743e-003	-6.577376e-003
5315827.123	3.662808e-003	-7.156217e-003	9.966932e-001	-9.240013e-002	9.966338e-001	-9.210700e-002	3.102298e-003	-6.754478e-003
5378366.207	3.736664e-003	-7.187362e-003	9.967571e-001	-9.352386e-002	9.965570e-001	-9.335720e-002	3.087338e-003	-6.928203e-003
5440905.291	3.555515e-003	-7.187917e-003	9.967002e-001	-9.456759e-002	9.964632e-001	-9.433333e-002	2.960496e-003	-6.969851e-003
5503444.375	3.758877e-003	-7.424834e-003	9.965569e-001	-9.571977e-002	9.964674e-001	-9.526497e-002	3.158311e-003	-7.130208e-003
5565983.458	3.400968e-003	-7.399895e-003	9.965117e-001	-9.672777e-002	9.963416e-001	-9.631923e-002	3.061961e-003	-7.055138e-003
5628522.542	3.638950e-003	-7.553105e-003	9.963968e-001	-9.769793e-002	9.962472e-001	-9.756996e-002	3.100147e-003	-7.268334e-003
5691061.626	3.694304e-003	-7.807945e-003	9.962233e-001	-9.903395e-002	9.961030e-001	-9.863124e-002	2.994811e-003	-7.310451e-003
5753600.710	3.539234e-003	-7.818514e-003	9.960862e-001	-9.996986e-002	9.960057e-001	-9.966685e-002	3.035137e-003	-7.528671e-003
5816139.794	3.626720e-003	-7.725138e-003	9.960964e-001	-1.010994e-001	9.957345e-001	-1.009584e-001	2.884033e-003	-7.563883e-003
5878678.877	3.514363e-003	-8.039809e-003	9.959731e-001	-1.022122e-001	9.957306e-001	-1.018964e-001	2.984840e-003	-7.790404e-003
5941217.961	3.495771e-003	-8.195661e-003	9.957861e-001	-1.033899e-001	9.956415e-001	-1.028299e-001	2.777047e-003	-7.780769e-003
6003757.045	3.323600e-003	-8.065954e-003	9.955251e-001	-1.043102e-001	9.955054e-001	-1.039087e-001	2.896286e-003	-7.888102e-003
6066296.129	3.440918e-003	-8.337510e-003	9.956581e-001	-1.054332e-001	9.954508e-001	-1.049570e-001	2.858658e-003	-8.006828e-003
6128835.213	3.527793e-003	-8.412925e-003	9.955269e-001	-1.062140e-001	9.954945e-001	-1.061761e-001	2.939297e-003	-8.107936e-003
6191374.296	3.461653e-003	-8.530738e-003	9.953538e-001	-1.075767e-001	9.951244e-001	-1.073835e-001	2.769466e-003	-8.104844e-003
6253913.380	3.359284e-003	-8.501540e-003	9.952744e-001	-1.086794e-001	9.950996e-001	-1.083088e-001	2.641304e-003	-8.085586e-003
6316452.464	3.306491e-003	-8.506991e-003	9.951711e-001	-1.096309e-001	9.948433e-001	-1.095743e-001	2.680240e-003	-8.398339e-003
6378991.548	3.260487e-003	-8.762273e-003	9.950460e-001	-1.110952e-001	9.949383e-001	-1.105281e-001	2.722478e-003	-8.612190e-003
6441530.632	3.196660e-003	-8.924172e-003	9.948660e-001	-1.118196e-001	9.947865e-001	-1.117478e-001	2.742147e-003	-8.591684e-003
6504069.715	3.169461e-003	-9.028255e-003	9.946949e-001	-1.132172e-001	9.947794e-001	-1.127459e-001	2.745594e-003	-8.686434e-003
6566608.799	3.297877e-003	-9.182141e-003	9.947524e-001	-1.143333e-001	9.945120e-001	-1.138794e-001	2.632050e-003	-8.590848e-003
6629147.883	3.252185e-003	-9.145241e-003	9.945257e-001	-1.150756e-001	9.943672e-001	-1.149901e-001	2.712598e-003	-8.820808e-003
6691686.967	3.102106e-003	-9.223826e-003	9.943120e-001	-1.162639e-001	9.941985e-001	-1.160066e-001	2.712757e-003	-8.829302e-003
6754226.051	3.028429e-003	-9.330153e-003	9.942007e-001	-1.174432e-001	9.939782e-001	-1.172646e-001	2.505300e-003	-9.136640e-003
6816765.134	3.117137e-003	-9.435183e-003	9.941257e-001	-1.184794e-001	9.940031e-001	-1.182192e-001	2.547416e-003	-9.028301e-003
6879304.218	2.989371e-003	-9.688047e-003	9.939750e-001	-1.195786e-001	9.938877e-001	-1.192374e-001	2.515287e-003	-9.185999e-003
6941843.302	3.043460e-003	-9.619862e-003	9.937933e-001	-1.207068e-001	9.937233e-001	-1.203122e-001	2.490257e-003	-9.184251e-003
7004382.386	2.839262e-003	-9.638305e-003	9.937517e-001	-1.216760e-001	9.935389e-001	-1.214238e-001	2.380433e-003	-9.243621e-003
7066921.470	2.909922e-003	-9.783355e-003	9.935159e-001	-1.229153e-001	9.934843e-001	-1.223674e-001	2.530730e-003	-9.497636e-003
7129460.553	2.802530e-003	-9.990624e-003	9.934788e-001	-1.237930e-001	9.933294e-001	-1.235170e-001	2.512212e-003	-9.529620e-003
7191999.637	2.762583e-003	-9.840508e-003	9.931471e-001	-1.250076e-001	9.930468e-001	-1.246405e-001	2.356053e-003	-9.609654e-003
7254538.721	2.797516e-003	-1.003961e-002	9.932920e-001	-1.261048e-001	9.930858e-001	-1.257776e-001	2.368183e-003	-9.691277e-003
7317077.805	2.960801e-003	-1.016895e-002	9.931018e-001	-1.270666e-001	9.929456e-001	-1.268039e-001	2.346995e-003	-9.886939e-003
7379616.889	2.794046e-003	-1.024699e-002	9.930859e-001	-1.283556e-001	9.927525e-001	-1.278836e-001	2.271041e-003	-9.958958e-003
7442155.972	2.628729e-003	-1.033821e-002	9.927974e-001	-1.292564e-001	9.926705e-001	-1.288969e-001	2.341531e-003	-9.830082e-003
7504695.056	2.651190e-003	-1.052772e-002	9.925438e-001	-1.302695e-001	9.923960e-001	-1.301547e-001	2.347027e-003	-9.852333e-003
7567234.140	2.806750e-003	-1.069561e-002	9.925596e-001	-1.313380e-001	9.922586e-001	-1.311720e-001	2.266834e-003	-1.005796e-002
7629773.224	2.679795e-003	-1.047139e-002	9.924610e-001	-1.326139e-001	9.922489e-001	-1.321839e-001	2.154717e-003	-1.018714e-002
7692312.308	2.512639e-003	-1.063198e-002	9.922851e-001	-1.336851e-001	9.920368e-001	-1.333563e-001	2.198457e-003	-1.035990e-002
7754851.391	2.486469e-003	-1.087437e-002	9.921229e-001	-1.347992e-001	9.917590e-001	-1.342660e-001	2.106778e-003	-1.032122e-002
7817390.475	2.545410e-003	-1.074652e-002	9.919752e-001	-1.359741e-001	9.916554e-001	-1.355852e-001	2.018624e-003	-1.029696e-002
7879929.559	2.434768e-003	-1.103324e-002	9.917260e-001	-1.370414e-001	9.914965e-001	-1.368364e-001	2.119476e-003	-1.039640e-002
7942468.643	2.357140e-003	-1.116598e-002	9.916981e-001	-1.380202e-001	9.914894e-001	-1.378178e-001	2.077888e-003	-1.064460e-002
8005007.727	2.434012e-003	-1.123056e-002	9.914441e-001	-1.391777e-001	9.913363e-001	-1.388829e-001	1.959975e-003	-1.051328e-002
8067546.811	2.267184e-003	-1.127469e-002	9.912959e-001	-1.402073e-001	9.910408e-001	-1.398813e-001	1.852411e-003	-1.081911e-002
8130085.894	2.305945e-003	-1.143574e-002	9.911422e-001	-1.412383e-001	9.909626e-001	-1.410289e-001	2.041404e-003	-1.094324e-002
8192624.978	2.115573e-003	-1.157880e-002	9.908422e-001	-1.424247e-001	9.907813e-001	-1.420761e-001	2.065462e-003	-1.104874e-002
8255164.062	2.221271e-003	-1.164554e-002	9.907695e-001	-1.434519e-001	9.906072e-001	-1.431837e-001	1.999462e-003	-1.117834e-002
8317703.146	2.054199e-003	-1.162048e-002	9.906604e-001	-1.445812e-001	9.905573e-001	-1.442331e-001	1.793384e-003	-1.120611e-002
8380242.230	2.152186e-003	-1.194025e-002	9.903606e-001	-1.457696e-001	9.902828e-001	-1.452362e-001	1.718700e-003	-1.136532e-002
8442781.313	2.097032e-003	-1.199277e-002	9.904651e-001	-1.466849e-001	9.901749e-001	-1.463010e-001	1.684465e-003	-1.153364e-002
8505320.397	2.053982e-003	-1.194414e-002	9.902467e-001	-1.478301e-001	9.899584e-001	-1.474266e-001	1.606317e-003	-1.156367e-002
8567859.481	1.975117e-003	-1.187689e-002	9.900265e-001	-1.487466e-001	9.899108e-001	-1.485043e-001	1.610711e-003	-1.147970e-002
8630398.565	2.024547e-003	-1.201002e-002	9.897041e-001	-1.498151e-001	9.897014e-001	-1.495263e-001	1.464041e-003	-1.182283e-002
8692937.649	1.939692e-003	-1.231022e-002	9.896134e-001	-1.509092e-001	9.894149e-001	-1.506789e-001	1.366957e-003	-1.181151e-002
8755476.732	1.928979e-003	-1.233694e-002	9.895066e-001	-1.520963e-001	9.892548e-001	-1.516373e-001	1.408561e-003	-1.188592e-002
8818015.816	1.770227e-003	-1.245307e-002	9.892447e-001	-1.531437e-001	9.889104e-001	-1.527646e-001	1.480062e-003	-1.206005e-002
8880554.900	1.953110e-003	-1.250916e-002	9.892187e-001	-1.542517e-001	9.890375e-001	-1.536994e-001	1.310088e-003	-1.231136e-002
8943093.984	1.746883e-003	-1.249427e-002	9.890120e-001	-1.552352e-001	9.888737e-001	-1.548202e-001	1.298155e-003	-1.234415e-002
9005633.068	1.784641e-003	-1.267225e-002	9.886950e-001	-1.563705e-001	9.887716e-001	-1.560171e-001	1.170691e-003	-1.255290e-002
9068172.151	1.593595e-003	-1.276147e-002	9.887115e-001	-1.574888e-001	9.884634e-001	-1.569559e-001	1.179986e-003	-1.258684e-002
9130711.235	1.773031e-003	-1.291731e-002	9.884144e-001	-1.585324e-001	9.883310e-001	-1.580155e-001	1.187379e-003	-1.287473e-002
9193250.319	1.722133e-003	-1.303085e-002	9.883783e-001	-1.594658e-001	9.881083e-001	-1.591571e-001	1.079319e-003	-1.288627e-002
9255789.403	1.589083e-003	-1.328367e-002	9.882238e-001	-1.604797e-001	9.879473e-001	-1.601546e-001	9.053669e-004	-1.292422e-002
9318328.487	1.502576e-003	-1.326533e-002	9.880034e-001	-1.617880e-001	9.878977e-001	-1.612352e-001	9.852565e-004	-1.300589e-002
9380867.570	1.477097e-003	-1.323314e-002	9.878819e-001	-1.628599e-001	9.875895e-001	-1.624783e-001	9.569556e-004	-1.311554e-002
9443406.654	1.492641e-003	-1.331896e-002	9.877053e-001	-1.638405e-001	9.875295e-001	-1.635856e-001	9.512959e-004	-1.328493e-002
9505945.738	1.436318e-003	-1.339391e-002	9.873631e-001	-1.650723e-001	9.874110e-001	-1.646157e-001	8.678398e-004	-1.337759e-002
9568484.822	1.430887e-003	-1.351638e-002	9.873303e-001	-1.660854e-001	9.869679e-001	-1.657112e-001	6.227251e-004	-1.321973e-002
