!Agilent Technologies,E5061B,MY49102235,A.02.00
!Date: Tue Jul 11 16:09:26 2023
!Data & Calibration Information:
!Freq	S11:SOLT2(ON)	S21:SOLT2(ON)	S12:SOLT2(ON)	S22:SOLT2(ON)
# Hz S RI R 50
5.000	-5.217772e-003	-5.661069e-003	1.001919e+000	8.083534e-003	1.000500e+000	1.018640e-002	-1.471868e-003	-7.551523e-003
62544.084	5.832321e-003	-9.576402e-005	1.001293e+000	3.163315e-004	1.000851e+000	7.493137e-004	7.702721e-003	-2.487281e-003
125083.168	5.714261e-003	2.933793e-004	1.000878e+000	-1.453537e-003	1.000800e+000	-1.610538e-003	7.513697e-003	-1.507248e-003
187622.251	5.484541e-003	8.603771e-004	1.000447e+000	-3.275380e-003	1.000967e+000	-2.140502e-003	7.409356e-003	-1.198542e-003
250161.335	5.350563e-003	1.378639e-003	1.000495e+000	-4.602258e-003	1.000635e+000	-4.752310e-003	7.298881e-003	-4.654141e-004
312700.419	5.483129e-003	2.483828e-003	1.000914e+000	-5.650455e-003	1.000612e+000	-5.554299e-003	7.813325e-003	-3.996913e-004
375239.503	5.394854e-003	1.365404e-003	1.000927e+000	-7.512579e-003	1.000486e+000	-7.278046e-003	7.315944e-003	-1.813676e-004
437778.587	5.244919e-003	2.143930e-003	1.001248e+000	-7.995817e-003	1.000995e+000	-8.929459e-003	6.690736e-003	5.109852e-004
500317.670	4.710327e-003	2.650607e-003	1.001176e+000	-1.080451e-002	1.001514e+000	-1.079768e-002	4.916628e-003	1.079463e-003
562856.754	6.042195e-003	2.722299e-003	1.001296e+000	-1.272903e-002	1.000991e+000	-1.263942e-002	6.145441e-003	1.941822e-003
625395.838	5.248432e-003	3.258339e-003	1.002040e+000	-1.425369e-002	1.002105e+000	-1.397489e-002	6.242833e-003	2.883906e-003
687934.922	5.327443e-003	3.302938e-003	1.001112e+000	-1.560110e-002	1.001130e+000	-1.583965e-002	5.915488e-003	2.798354e-003
750474.006	4.497930e-003	4.012588e-003	1.000672e+000	-1.545083e-002	1.000699e+000	-1.518482e-002	5.682137e-003	3.333914e-003
813013.089	4.696165e-003	4.406214e-003	1.000983e+000	-1.766530e-002	1.000513e+000	-1.724283e-002	5.063649e-003	3.900966e-003
875552.173	4.451454e-003	4.948970e-003	1.000876e+000	-1.887476e-002	1.000818e+000	-1.905130e-002	5.879688e-003	3.861712e-003
938091.257	4.569658e-003	5.414288e-003	1.001090e+000	-2.080699e-002	1.000824e+000	-2.048929e-002	6.132055e-003	4.815542e-003
1000630.341	4.050463e-003	5.444196e-003	1.000548e+000	-2.255600e-002	1.000800e+000	-2.228557e-002	5.398968e-003	4.517307e-003
1063169.425	4.424016e-003	5.678258e-003	1.000859e+000	-2.435112e-002	1.000453e+000	-2.348675e-002	4.594792e-003	4.584995e-003
1125708.508	4.340505e-003	6.105076e-003	1.000619e+000	-2.581242e-002	1.000403e+000	-2.527598e-002	4.157236e-003	5.257635e-003
1188247.592	4.895494e-003	6.028538e-003	1.000702e+000	-2.734034e-002	1.000686e+000	-2.680630e-002	3.088010e-003	5.092856e-003
1250786.676	4.764522e-003	5.688251e-003	1.000319e+000	-2.776054e-002	1.000341e+000	-2.782900e-002	2.353168e-003	3.843585e-003
1313325.760	4.919131e-003	5.987332e-003	1.000587e+000	-2.961184e-002	1.000538e+000	-2.988363e-002	3.118129e-003	4.418028e-003
1375864.844	4.682818e-003	6.178325e-003	1.000287e+000	-3.198321e-002	1.000091e+000	-3.202924e-002	3.019564e-003	5.101508e-003
1438403.927	4.617936e-003	6.416680e-003	1.000200e+000	-3.298966e-002	1.000466e+000	-3.227058e-002	3.139157e-003	5.758217e-003
1500943.011	4.885035e-003	6.882218e-003	1.000845e+000	-3.435953e-002	1.000870e+000	-3.421250e-002	3.527651e-003	5.751054e-003
1563482.095	4.905389e-003	6.911442e-003	1.000398e+000	-3.605337e-002	1.000078e+000	-3.536940e-002	3.707302e-003	6.346260e-003
1626021.179	4.753082e-003	7.443049e-003	1.000200e+000	-3.777594e-002	1.000473e+000	-3.820702e-002	4.027046e-003	6.709863e-003
1688560.263	4.511989e-003	7.924776e-003	9.998090e-001	-3.981401e-002	1.000688e+000	-3.998854e-002	4.240749e-003	7.086066e-003
1751099.346	4.684664e-003	8.425012e-003	1.000362e+000	-4.133598e-002	9.999889e-001	-4.091093e-002	4.124091e-003	8.337655e-003
1813638.430	4.389952e-003	8.798570e-003	1.000646e+000	-4.330935e-002	1.000256e+000	-4.305094e-002	4.334962e-003	8.365002e-003
1876177.514	4.489999e-003	9.510093e-003	1.000859e+000	-4.460460e-002	1.000525e+000	-4.516919e-002	4.078111e-003	9.463594e-003
1938716.598	3.999077e-003	1.002128e-002	1.000942e+000	-4.593934e-002	1.000480e+000	-4.546186e-002	4.313261e-003	1.026929e-002
2001255.682	3.965332e-003	9.969693e-003	1.000934e+000	-4.775125e-002	1.000371e+000	-4.751299e-002	4.126512e-003	1.024574e-002
2063794.765	4.126713e-003	1.078059e-002	1.000386e+000	-4.918494e-002	9.997232e-001	-4.959562e-002	4.566895e-003	1.057066e-002
2126333.849	3.742336e-003	1.069608e-002	9.997907e-001	-5.098415e-002	9.990662e-001	-5.040106e-002	4.903937e-003	1.124028e-002
2188872.933	4.291019e-003	1.112577e-002	9.994085e-001	-5.248345e-002	9.990397e-001	-5.181698e-002	4.866327e-003	1.164050e-002
2251412.017	4.458094e-003	1.118376e-002	9.991090e-001	-5.440584e-002	9.990322e-001	-5.323970e-002	4.933678e-003	1.195330e-002
2313951.101	4.885189e-003	1.204078e-002	9.984398e-001	-5.588617e-002	9.990429e-001	-5.466759e-002	5.330305e-003	1.233152e-002
2376490.184	4.739753e-003	1.246994e-002	9.983757e-001	-5.660212e-002	9.987932e-001	-5.694843e-002	5.391565e-003	1.277718e-002
2439029.268	5.281036e-003	1.287415e-002	9.982385e-001	-5.886898e-002	9.977905e-001	-5.848895e-002	5.169809e-003	1.333337e-002
2501568.352	5.382667e-003	1.331025e-002	9.979621e-001	-5.956781e-002	9.985787e-001	-5.958303e-002	5.571066e-003	1.374605e-002
2564107.436	5.404113e-003	1.362515e-002	9.980824e-001	-6.178331e-002	9.982955e-001	-6.156786e-002	4.981101e-003	1.384051e-002
2626646.520	5.992417e-003	1.387139e-002	9.977511e-001	-6.325607e-002	9.969212e-001	-6.310049e-002	5.354492e-003	1.420418e-002
2689185.604	6.078765e-003	1.447772e-002	9.979352e-001	-6.444709e-002	9.976049e-001	-6.435983e-002	5.609379e-003	1.471354e-002
2751724.687	6.324767e-003	1.483640e-002	9.977460e-001	-6.565835e-002	9.973773e-001	-6.564608e-002	5.361662e-003	1.514268e-002
2814263.771	6.435610e-003	1.522454e-002	9.966095e-001	-6.807063e-002	9.970418e-001	-6.742702e-002	5.481502e-003	1.546406e-002
2876802.855	6.530835e-003	1.547328e-002	9.965121e-001	-6.985686e-002	9.969036e-001	-6.899248e-002	5.737475e-003	1.604132e-002
2939341.939	6.820975e-003	1.600380e-002	9.969285e-001	-7.089636e-002	9.964965e-001	-7.100062e-002	5.802678e-003	1.640683e-002
3001881.023	6.923319e-003	1.646838e-002	9.965278e-001	-7.258529e-002	9.962582e-001	-7.238897e-002	6.048087e-003	1.672781e-002
3064420.106	7.152002e-003	1.687465e-002	9.968628e-001	-7.388496e-002	9.960142e-001	-7.394382e-002	6.050383e-003	1.705820e-002
3126959.190	7.536984e-003	1.722252e-002	9.962363e-001	-7.569339e-002	9.960130e-001	-7.562790e-002	6.428083e-003	1.743257e-002
3189498.274	7.728674e-003	1.770332e-002	9.959342e-001	-7.711990e-002	9.957613e-001	-7.718983e-002	6.627084e-003	1.782706e-002
3252037.358	7.817094e-003	1.779770e-002	9.958111e-001	-7.877869e-002	9.955810e-001	-7.864909e-002	6.784062e-003	1.833206e-002
3314576.442	8.069466e-003	1.841239e-002	9.954821e-001	-8.026826e-002	9.952276e-001	-8.028942e-002	7.058689e-003	1.867426e-002
3377115.525	8.269146e-003	1.886570e-002	9.950553e-001	-8.176046e-002	9.947669e-001	-8.200170e-002	7.130905e-003	1.899413e-002
3439654.609	8.523373e-003	1.924151e-002	9.946344e-001	-8.335866e-002	9.947486e-001	-8.344686e-002	7.389763e-003	1.961939e-002
3502193.693	8.722418e-003	1.937802e-002	9.943851e-001	-8.506080e-002	9.941701e-001	-8.488972e-002	7.814766e-003	2.000838e-002
3564732.777	9.027575e-003	1.995228e-002	9.940913e-001	-8.655927e-002	9.939175e-001	-8.656586e-002	8.174557e-003	2.044720e-002
3627271.861	9.163388e-003	2.024676e-002	9.938684e-001	-8.822702e-002	9.936780e-001	-8.802945e-002	8.206027e-003	2.068238e-002
3689810.944	9.339457e-003	2.056272e-002	9.934029e-001	-8.976478e-002	9.933144e-001	-8.953923e-002	8.657415e-003	2.112631e-002
3752350.028	9.753983e-003	2.099525e-002	9.930151e-001	-9.103335e-002	9.927896e-001	-9.109692e-002	8.891373e-003	2.148736e-002
3814889.112	1.017465e-002	2.152587e-002	9.925431e-001	-9.268223e-002	9.926613e-001	-9.290859e-002	9.103656e-003	2.176440e-002
3877428.196	1.044817e-002	2.193182e-002	9.923478e-001	-9.426105e-002	9.921964e-001	-9.421958e-002	9.750767e-003	2.215740e-002
3939967.280	1.072934e-002	2.203426e-002	9.919141e-001	-9.589874e-002	9.918612e-001	-9.579382e-002	1.006880e-002	2.264190e-002
4002506.363	1.113339e-002	2.256536e-002	9.915711e-001	-9.734462e-002	9.914085e-001	-9.717782e-002	1.034280e-002	2.294525e-002
4065045.447	1.130000e-002	2.285621e-002	9.909229e-001	-9.892528e-002	9.908630e-001	-9.883266e-002	1.077170e-002	2.321337e-002
4127584.531	1.164697e-002	2.320603e-002	9.904918e-001	-1.004357e-001	9.904955e-001	-1.002332e-001	1.115921e-002	2.369891e-002
4190123.615	1.206116e-002	2.357964e-002	9.901098e-001	-1.021186e-001	9.898844e-001	-1.018877e-001	1.142335e-002	2.382465e-002
4252662.699	1.238320e-002	2.384713e-002	9.897678e-001	-1.036255e-001	9.894110e-001	-1.035027e-001	1.191575e-002	2.419104e-002
4315201.782	1.291104e-002	2.411961e-002	9.892209e-001	-1.049055e-001	9.892243e-001	-1.050155e-001	1.210920e-002	2.434049e-002
4377740.866	1.320426e-002	2.444448e-002	9.888709e-001	-1.065607e-001	9.885079e-001	-1.064861e-001	1.270894e-002	2.494853e-002
4440279.950	1.350135e-002	2.461485e-002	9.883551e-001	-1.078350e-001	9.879172e-001	-1.078849e-001	1.299017e-002	2.510274e-002
4502819.034	1.392510e-002	2.504511e-002	9.876073e-001	-1.094246e-001	9.875770e-001	-1.093338e-001	1.349192e-002	2.554891e-002
4565358.118	1.424819e-002	2.530110e-002	9.871001e-001	-1.108424e-001	9.869112e-001	-1.105971e-001	1.391219e-002	2.573134e-002
4627897.201	1.485920e-002	2.569786e-002	9.867903e-001	-1.122782e-001	9.864660e-001	-1.120192e-001	1.445199e-002	2.610758e-002
4690436.285	1.512364e-002	2.585873e-002	9.862815e-001	-1.138089e-001	9.860146e-001	-1.138553e-001	1.486943e-002	2.618466e-002
4752975.369	1.556019e-002	2.610155e-002	9.854953e-001	-1.153061e-001	9.855716e-001	-1.151823e-001	1.512392e-002	2.640561e-002
4815514.453	1.611462e-002	2.634282e-002	9.851875e-001	-1.166073e-001	9.849982e-001	-1.166521e-001	1.579258e-002	2.672766e-002
4878053.537	1.665527e-002	2.648526e-002	9.846925e-001	-1.179586e-001	9.844086e-001	-1.178843e-001	1.620481e-002	2.689080e-002
4940592.620	1.686165e-002	2.677237e-002	9.839997e-001	-1.194104e-001	9.838995e-001	-1.193670e-001	1.642756e-002	2.709952e-002
5003131.704	1.736158e-002	2.682539e-002	9.834056e-001	-1.207725e-001	9.834199e-001	-1.205438e-001	1.701430e-002	2.724231e-002
5065670.788	1.777615e-002	2.722235e-002	9.828306e-001	-1.221952e-001	9.827528e-001	-1.219883e-001	1.743518e-002	2.748157e-002
5128209.872	1.835239e-002	2.728071e-002	9.824700e-001	-1.235314e-001	9.822017e-001	-1.233638e-001	1.786552e-002	2.746839e-002
5190748.956	1.872571e-002	2.744674e-002	9.817625e-001	-1.248864e-001	9.816947e-001	-1.248439e-001	1.831720e-002	2.776368e-002
5253288.039	1.924480e-002	2.757225e-002	9.812724e-001	-1.262261e-001	9.811001e-001	-1.261441e-001	1.872361e-002	2.801706e-002
5315827.123	1.967999e-002	2.765956e-002	9.805293e-001	-1.275434e-001	9.804889e-001	-1.274444e-001	1.917795e-002	2.806297e-002
5378366.207	2.024421e-002	2.783196e-002	9.801179e-001	-1.288654e-001	9.799473e-001	-1.289274e-001	1.963412e-002	2.812095e-002
5440905.291	2.055129e-002	2.805519e-002	9.795568e-001	-1.301783e-001	9.793708e-001	-1.301421e-001	1.999898e-002	2.828557e-002
5503444.375	2.121160e-002	2.799142e-002	9.789461e-001	-1.315213e-001	9.788599e-001	-1.312751e-001	2.066325e-002	2.831915e-002
5565983.458	2.135044e-002	2.824085e-002	9.783801e-001	-1.327168e-001	9.782666e-001	-1.325090e-001	2.107488e-002	2.858264e-002
5628522.542	2.207147e-002	2.824908e-002	9.778523e-001	-1.338949e-001	9.776732e-001	-1.339538e-001	2.158486e-002	2.853639e-002
5691061.626	2.259188e-002	2.813173e-002	9.771449e-001	-1.353688e-001	9.769885e-001	-1.352325e-001	2.196545e-002	2.866799e-002
5753600.710	2.293759e-002	2.830093e-002	9.764933e-001	-1.364722e-001	9.764399e-001	-1.364043e-001	2.248120e-002	2.860406e-002
5816139.794	2.351966e-002	2.852215e-002	9.759982e-001	-1.377371e-001	9.757070e-001	-1.378177e-001	2.282944e-002	2.870345e-002
5878678.877	2.388297e-002	2.835371e-002	9.753378e-001	-1.389931e-001	9.752016e-001	-1.389192e-001	2.341162e-002	2.861152e-002
5941217.961	2.432361e-002	2.829337e-002	9.747331e-001	-1.402788e-001	9.745936e-001	-1.399994e-001	2.369868e-002	2.874939e-002
6003757.045	2.466794e-002	2.854757e-002	9.740256e-001	-1.413066e-001	9.740197e-001	-1.411839e-001	2.427975e-002	2.874264e-002
6066296.129	2.522899e-002	2.838040e-002	9.736626e-001	-1.425648e-001	9.734530e-001	-1.423029e-001	2.471185e-002	2.871979e-002
6128835.213	2.577374e-002	2.838462e-002	9.730590e-001	-1.434464e-001	9.730319e-001	-1.436144e-001	2.526202e-002	2.870281e-002
6191374.296	2.617762e-002	2.836730e-002	9.724114e-001	-1.448119e-001	9.722278e-001	-1.449588e-001	2.555619e-002	2.880770e-002
6253913.380	2.654193e-002	2.846121e-002	9.718871e-001	-1.460764e-001	9.716897e-001	-1.459370e-001	2.591442e-002	2.888812e-002
6316452.464	2.696000e-002	2.850671e-002	9.713321e-001	-1.471072e-001	9.710165e-001	-1.472522e-001	2.636639e-002	2.864275e-002
6378991.548	2.735491e-002	2.833475e-002	9.706950e-001	-1.485804e-001	9.706628e-001	-1.483042e-001	2.686430e-002	2.849011e-002
6441530.632	2.772191e-002	2.821371e-002	9.700928e-001	-1.493998e-001	9.700100e-001	-1.495384e-001	2.733953e-002	2.854767e-002
6504069.715	2.814451e-002	2.815535e-002	9.695174e-001	-1.507963e-001	9.695771e-001	-1.506143e-001	2.777488e-002	2.848480e-002
6566608.799	2.869225e-002	2.801310e-002	9.690500e-001	-1.519405e-001	9.688688e-001	-1.517970e-001	2.812281e-002	2.861727e-002
6629147.883	2.907214e-002	2.809146e-002	9.684533e-001	-1.527438e-001	9.682926e-001	-1.528634e-001	2.860554e-002	2.841371e-002
6691686.967	2.936013e-002	2.803167e-002	9.677875e-001	-1.539586e-001	9.676812e-001	-1.539133e-001	2.904350e-002	2.841982e-002
6754226.051	2.972407e-002	2.794121e-002	9.672317e-001	-1.551840e-001	9.670623e-001	-1.552340e-001	2.925132e-002	2.815159e-002
6816765.134	3.020700e-002	2.784678e-002	9.668152e-001	-1.561743e-001	9.666214e-001	-1.561437e-001	2.970176e-002	2.824778e-002
6879304.218	3.048374e-002	2.760362e-002	9.661690e-001	-1.573000e-001	9.661578e-001	-1.572076e-001	3.009408e-002	2.809998e-002
6941843.302	3.095586e-002	2.766483e-002	9.656385e-001	-1.584009e-001	9.655950e-001	-1.582594e-001	3.047188e-002	2.808448e-002
7004382.386	3.116261e-002	2.764054e-002	9.651708e-001	-1.593938e-001	9.649916e-001	-1.593875e-001	3.078102e-002	2.802873e-002
7066921.470	3.163028e-002	2.748048e-002	9.645336e-001	-1.606086e-001	9.645530e-001	-1.602973e-001	3.130484e-002	2.776108e-002
7129460.553	3.187478e-002	2.727529e-002	9.641086e-001	-1.614971e-001	9.640063e-001	-1.614915e-001	3.168028e-002	2.771256e-002
7191999.637	3.225696e-002	2.739791e-002	9.633777e-001	-1.626187e-001	9.633271e-001	-1.625446e-001	3.189847e-002	2.759961e-002
7254538.721	3.264987e-002	2.716460e-002	9.631818e-001	-1.637489e-001	9.630227e-001	-1.636647e-001	3.228675e-002	2.750180e-002
7317077.805	3.316538e-002	2.700173e-002	9.626102e-001	-1.646797e-001	9.624687e-001	-1.646596e-001	3.262927e-002	2.727211e-002
7379616.889	3.338123e-002	2.689151e-002	9.622225e-001	-1.659727e-001	9.619114e-001	-1.657353e-001	3.292533e-002	2.718003e-002
7442155.972	3.357066e-002	2.678014e-002	9.615551e-001	-1.667951e-001	9.614409e-001	-1.667229e-001	3.336860e-002	2.726130e-002
7504695.056	3.394106e-002	2.655616e-002	9.609756e-001	-1.678087e-001	9.608234e-001	-1.679286e-001	3.374435e-002	2.718384e-002
7567234.140	3.443082e-002	2.635106e-002	9.606063e-001	-1.688139e-001	9.603580e-001	-1.689221e-001	3.398317e-002	2.696916e-002
7629773.224	3.469026e-002	2.650819e-002	9.601536e-001	-1.700194e-001	9.599730e-001	-1.699022e-001	3.423190e-002	2.679533e-002
7692312.308	3.487065e-002	2.631960e-002	9.596428e-001	-1.710633e-001	9.593655e-001	-1.710459e-001	3.461201e-002	2.656125e-002
7754851.391	3.516114e-002	2.603279e-002	9.591177e-001	-1.721141e-001	9.587973e-001	-1.718661e-001	3.487725e-002	2.656430e-002
7817390.475	3.556568e-002	2.608869e-002	9.586318e-001	-1.732834e-001	9.583929e-001	-1.731112e-001	3.512434e-002	2.653319e-002
7879929.559	3.576740e-002	2.578301e-002	9.580784e-001	-1.743090e-001	9.578640e-001	-1.742974e-001	3.553339e-002	2.637024e-002
7942468.643	3.601780e-002	2.559862e-002	9.577467e-001	-1.752497e-001	9.575000e-001	-1.752558e-001	3.580594e-002	2.607198e-002
8005007.727	3.640645e-002	2.547347e-002	9.571476e-001	-1.763261e-001	9.570635e-001	-1.762725e-001	3.604218e-002	2.615354e-002
8067546.811	3.654812e-002	2.538001e-002	9.567432e-001	-1.773187e-001	9.564356e-001	-1.772133e-001	3.623189e-002	2.581106e-002
8130085.894	3.690163e-002	2.516874e-002	9.562205e-001	-1.783063e-001	9.560623e-001	-1.783041e-001	3.670955e-002	2.560628e-002
8192624.978	3.701806e-002	2.497600e-002	9.556081e-001	-1.794589e-001	9.555960e-001	-1.792845e-001	3.702813e-002	2.544744e-002
8255164.062	3.741375e-002	2.485287e-002	9.553134e-001	-1.804239e-001	9.550882e-001	-1.803117e-001	3.727671e-002	2.525842e-002
8317703.146	3.757324e-002	2.480706e-002	9.548579e-001	-1.814533e-001	9.546948e-001	-1.813670e-001	3.737798e-002	2.517493e-002
8380242.230	3.794564e-002	2.441999e-002	9.542676e-001	-1.825968e-001	9.541635e-001	-1.823334e-001	3.761296e-002	2.497078e-002
8442781.313	3.817674e-002	2.431732e-002	9.540564e-001	-1.834799e-001	9.537457e-001	-1.833324e-001	3.785186e-002	2.474488e-002
8505320.397	3.844355e-002	2.429438e-002	9.535245e-001	-1.845363e-001	9.532809e-001	-1.843477e-001	3.807373e-002	2.463878e-002
8567859.481	3.866572e-002	2.427573e-002	9.530525e-001	-1.853651e-001	9.528773e-001	-1.853840e-001	3.837990e-002	2.463722e-002
8630398.565	3.898881e-002	2.405631e-002	9.524136e-001	-1.863441e-001	9.524650e-001	-1.863293e-001	3.849100e-002	2.424951e-002
8692937.649	3.917254e-002	2.371404e-002	9.521197e-001	-1.874010e-001	9.518701e-001	-1.874172e-001	3.869853e-002	2.419478e-002
8755476.732	3.942537e-002	2.362186e-002	9.516782e-001	-1.885074e-001	9.514565e-001	-1.883027e-001	3.900525e-002	2.404946e-002
8818015.816	3.954461e-002	2.344460e-002	9.511333e-001	-1.894812e-001	9.508382e-001	-1.893851e-001	3.931873e-002	2.380513e-002
8880554.900	3.999392e-002	2.330290e-002	9.508797e-001	-1.905413e-001	9.506769e-001	-1.902754e-001	3.943033e-002	2.350484e-002
8943093.984	4.006558e-002	2.326195e-002	9.503540e-001	-1.914804e-001	9.502343e-001	-1.912854e-001	3.967575e-002	2.338681e-002
9005633.068	4.034151e-002	2.301176e-002	9.498139e-001	-1.925142e-001	9.498773e-001	-1.924257e-001	3.979200e-002	2.313061e-002
9068172.151	4.042059e-002	2.286289e-002	9.495172e-001	-1.935420e-001	9.492819e-001	-1.933008e-001	4.007049e-002	2.300873e-002
9130711.235	4.085184e-002	2.260884e-002	9.490061e-001	-1.945425e-001	9.489284e-001	-1.943266e-001	4.032600e-002	2.267523e-002
9193250.319	4.104857e-002	2.243361e-002	9.487653e-001	-1.954117e-001	9.484510e-001	-1.954120e-001	4.048307e-002	2.257355e-002
9255789.403	4.114378e-002	2.213856e-002	9.483173e-001	-1.963437e-001	9.480231e-001	-1.963451e-001	4.057300e-002	2.247563e-002
9318328.487	4.132767e-002	2.206237e-002	9.478457e-001	-1.975614e-001	9.477558e-001	-1.973210e-001	4.089189e-002	2.231189e-002
9380867.570	4.156199e-002	2.201681e-002	9.474337e-001	-1.985782e-001	9.471474e-001	-1.984561e-001	4.108896e-002	2.212585e-002
9443406.654	4.181307e-002	2.184166e-002	9.470778e-001	-1.994950e-001	9.468658e-001	-1.994747e-001	4.132510e-002	2.188938e-002
9505945.738	4.199072e-002	2.169907e-002	9.464415e-001	-2.006252e-001	9.464693e-001	-2.004648e-001	4.147728e-002	2.170867e-002
9568484.822	4.222714e-002	2.150519e-002	9.461788e-001	-2.016356e-001	9.458130e-001	-2.014497e-001	4.151810e-002	2.179020e-002
9631023.906	4.240246e-002	2.135197e-002	9.457854e-001	-2.025771e-001	9.454160e-001	-2.024538e-001	4.186948e-002	2.132244e-002
9693562.989	4.262077e-002	2.115500e-002	9.452307e-001	-2.036013e-001	9.450772e-001	-2.034210e-001	4.183705e-002	2.128188e-002
9756102.073	4.279269e-002	2.094702e-002	9.450623e-001	-2.046332e-001	9.447049e-001	-2.043607e-001	4.205819e-002	2.099256e-002
