!Agilent Technologies,E5061B,MY49102235,A.02.00
!Date: Tue Jul 11 15:14:59 2023
!Data & Calibration Information:
!Freq	S11:SOLT2(ON)	S21:SOLT2(ON)	S12:SOLT2(ON)	S22:SOLT2(ON)
# Hz S RI R 50
5.000	-5.270969e-003	-5.635805e-003	1.001540e+000	8.005043e-003	1.000151e+000	1.022684e-002	-1.504850e-003	-7.551505e-003
62544.084	5.803616e-003	-1.064275e-004	1.001426e+000	1.160955e-004	1.000875e+000	7.922638e-004	7.706626e-003	-2.484657e-003
125083.168	5.693782e-003	2.832022e-004	1.000910e+000	-1.569612e-003	1.000823e+000	-1.650528e-003	7.491063e-003	-1.506333e-003
187622.251	5.473442e-003	8.482611e-004	1.000430e+000	-3.356204e-003	1.000909e+000	-2.165621e-003	7.399691e-003	-1.192713e-003
250161.335	5.304589e-003	1.364522e-003	1.000548e+000	-4.679877e-003	1.000661e+000	-4.712984e-003	7.291683e-003	-4.908093e-004
312700.419	5.463429e-003	2.489981e-003	1.000858e+000	-5.758701e-003	1.000571e+000	-5.596650e-003	7.813800e-003	-4.088306e-004
375239.503	5.353538e-003	1.343104e-003	1.000990e+000	-7.519907e-003	1.000531e+000	-7.143159e-003	7.310333e-003	-2.107250e-004
437778.587	5.206178e-003	2.126843e-003	1.001291e+000	-8.051601e-003	1.000887e+000	-8.863293e-003	6.693760e-003	4.805900e-004
500317.670	4.665105e-003	2.648823e-003	1.001195e+000	-1.090583e-002	1.001562e+000	-1.069442e-002	4.897586e-003	1.051060e-003
562856.754	5.997320e-003	2.699506e-003	1.001279e+000	-1.268397e-002	1.001070e+000	-1.255875e-002	6.118681e-003	1.905181e-003
625395.838	5.214258e-003	3.244911e-003	1.002087e+000	-1.435530e-002	1.001986e+000	-1.383736e-002	6.249683e-003	2.842825e-003
687934.922	5.283699e-003	3.279474e-003	1.001178e+000	-1.560977e-002	1.001165e+000	-1.577616e-002	5.896057e-003	2.753337e-003
750474.006	4.562992e-003	4.001706e-003	1.000668e+000	-1.561479e-002	1.000700e+000	-1.541534e-002	5.747628e-003	3.332769e-003
813013.089	4.767989e-003	4.408808e-003	1.000909e+000	-1.771180e-002	1.000515e+000	-1.725583e-002	5.124543e-003	3.904112e-003
875552.173	4.525340e-003	4.959955e-003	1.000947e+000	-1.892797e-002	1.000839e+000	-1.890387e-002	5.925536e-003	3.873644e-003
938091.257	4.629437e-003	5.407604e-003	1.001035e+000	-2.076027e-002	1.000981e+000	-2.052092e-002	6.192351e-003	4.817173e-003
1000630.341	4.091862e-003	5.431907e-003	1.000414e+000	-2.248581e-002	1.000907e+000	-2.233698e-002	5.467817e-003	4.513100e-003
1063169.425	4.479934e-003	5.665475e-003	1.000853e+000	-2.429076e-002	1.000528e+000	-2.352470e-002	4.657963e-003	4.572979e-003
1125708.508	4.396063e-003	6.107382e-003	1.000606e+000	-2.569606e-002	1.000555e+000	-2.519362e-002	4.203029e-003	5.258750e-003
1188247.592	4.957238e-003	6.031320e-003	1.000717e+000	-2.735409e-002	1.000770e+000	-2.679844e-002	3.134068e-003	5.084964e-003
1250786.676	4.826339e-003	5.681198e-003	1.000298e+000	-2.753862e-002	1.000418e+000	-2.781106e-002	2.398873e-003	3.825952e-003
1313325.760	4.989540e-003	5.977567e-003	1.000729e+000	-2.953964e-002	1.000720e+000	-2.982832e-002	3.175440e-003	4.418332e-003
1375864.844	4.740596e-003	6.167055e-003	1.000285e+000	-3.183711e-002	1.000237e+000	-3.201298e-002	3.070612e-003	5.085765e-003
1438403.927	4.664441e-003	6.403572e-003	1.000203e+000	-3.289545e-002	1.000491e+000	-3.228657e-002	3.191785e-003	5.753706e-003
1500943.011	4.933191e-003	6.870833e-003	1.000731e+000	-3.418465e-002	1.000957e+000	-3.426895e-002	3.578499e-003	5.717362e-003
1563482.095	4.959306e-003	6.882059e-003	1.000378e+000	-3.601873e-002	1.000123e+000	-3.529804e-002	3.757792e-003	6.324175e-003
1626021.179	4.825176e-003	7.429564e-003	1.000202e+000	-3.758506e-002	1.000491e+000	-3.825287e-002	4.076050e-003	6.684818e-003
1688560.263	4.568567e-003	7.897252e-003	9.999257e-001	-3.977488e-002	1.000774e+000	-3.989050e-002	4.285190e-003	7.065380e-003
1751099.346	4.743324e-003	8.398838e-003	1.000428e+000	-4.117148e-002	1.000072e+000	-4.090952e-002	4.162861e-003	8.304114e-003
1813638.430	4.444640e-003	8.775792e-003	1.000611e+000	-4.329956e-002	1.000384e+000	-4.304496e-002	4.386814e-003	8.348238e-003
1876177.514	4.534594e-003	9.486537e-003	1.000856e+000	-4.454479e-002	1.000450e+000	-4.508378e-002	4.116400e-003	9.438306e-003
1938716.598	4.043093e-003	9.986260e-003	1.000969e+000	-4.581912e-002	1.000615e+000	-4.536694e-002	4.355391e-003	1.024323e-002
2001255.682	4.004780e-003	9.935314e-003	1.000826e+000	-4.766816e-002	1.000389e+000	-4.745490e-002	4.165356e-003	1.020966e-002
2063794.765	4.190224e-003	1.074127e-002	1.000397e+000	-4.920784e-002	9.998315e-001	-4.949885e-002	4.610878e-003	1.054374e-002
2126333.849	3.780381e-003	1.066667e-002	9.998429e-001	-5.072213e-002	9.991546e-001	-5.027639e-002	4.954649e-003	1.120408e-002
2188872.933	4.352910e-003	1.109112e-002	9.994694e-001	-5.242679e-002	9.990767e-001	-5.178411e-002	4.914082e-003	1.160740e-002
2251412.017	4.505528e-003	1.115969e-002	9.993141e-001	-5.420778e-002	9.990676e-001	-5.325881e-002	4.972735e-003	1.191446e-002
2313951.101	4.947197e-003	1.200129e-002	9.986081e-001	-5.577880e-002	9.990286e-001	-5.455963e-002	5.369962e-003	1.228332e-002
2376490.184	4.764114e-003	1.241597e-002	9.984385e-001	-5.650684e-002	9.989307e-001	-5.685826e-002	5.431853e-003	1.272883e-002
2439029.268	5.333465e-003	1.281441e-002	9.981178e-001	-5.879710e-002	9.978006e-001	-5.840846e-002	5.211358e-003	1.328924e-002
2501568.352	5.404103e-003	1.324959e-002	9.977986e-001	-5.940338e-002	9.985121e-001	-5.944370e-002	5.618037e-003	1.369261e-002
2564107.436	5.434832e-003	1.355202e-002	9.979435e-001	-6.161201e-002	9.982895e-001	-6.150074e-002	5.016601e-003	1.377930e-002
2626646.520	6.040964e-003	1.379837e-002	9.977822e-001	-6.312241e-002	9.970526e-001	-6.294927e-002	5.398868e-003	1.414755e-002
2689185.604	6.124835e-003	1.442443e-002	9.981276e-001	-6.442149e-002	9.977176e-001	-6.426132e-002	5.660266e-003	1.465450e-002
2751724.687	6.372107e-003	1.477012e-002	9.978438e-001	-6.554587e-002	9.974485e-001	-6.558123e-002	5.399506e-003	1.509067e-002
2814263.771	6.460454e-003	1.514766e-002	9.967618e-001	-6.785721e-002	9.969327e-001	-6.726520e-002	5.511919e-003	1.539305e-002
2876802.855	6.565002e-003	1.541331e-002	9.966335e-001	-6.974846e-002	9.969276e-001	-6.887304e-002	5.770052e-003	1.598854e-002
2939341.939	6.857148e-003	1.594194e-002	9.970626e-001	-7.071928e-002	9.965954e-001	-7.080867e-002	5.820345e-003	1.633043e-002
3001881.023	6.936195e-003	1.640514e-002	9.965209e-001	-7.221996e-002	9.963579e-001	-7.234094e-002	6.075180e-003	1.663280e-002
3064420.106	7.177500e-003	1.679776e-002	9.969679e-001	-7.383180e-002	9.961544e-001	-7.378796e-002	6.080723e-003	1.698062e-002
3126959.190	7.560811e-003	1.712965e-002	9.962621e-001	-7.546123e-002	9.960970e-001	-7.538710e-002	6.443371e-003	1.734764e-002
3189498.274	7.732224e-003	1.761557e-002	9.959774e-001	-7.689316e-002	9.957772e-001	-7.696064e-002	6.646761e-003	1.773453e-002
3252037.358	7.833029e-003	1.769653e-002	9.958703e-001	-7.852046e-002	9.956338e-001	-7.842248e-002	6.793685e-003	1.823654e-002
3314576.442	8.073923e-003	1.831934e-002	9.955068e-001	-7.999803e-002	9.953242e-001	-8.004698e-002	7.066931e-003	1.857848e-002
3377115.525	8.264836e-003	1.876465e-002	9.951095e-001	-8.150283e-002	9.948313e-001	-8.175108e-002	7.133843e-003	1.888673e-002
3439654.609	8.501886e-003	1.913961e-002	9.946661e-001	-8.308141e-002	9.948594e-001	-8.322784e-002	7.407866e-003	1.951691e-002
3502193.693	8.696183e-003	1.926520e-002	9.944220e-001	-8.479897e-002	9.942780e-001	-8.461851e-002	7.814177e-003	1.989467e-002
3564732.777	9.010643e-003	1.982096e-002	9.942266e-001	-8.627374e-002	9.940296e-001	-8.630400e-002	8.162178e-003	2.034143e-002
3627271.861	9.131213e-003	2.012910e-002	9.939164e-001	-8.792592e-002	9.938339e-001	-8.775611e-002	8.204508e-003	2.056457e-002
3689810.944	9.317402e-003	2.043085e-002	9.935080e-001	-8.948225e-002	9.933655e-001	-8.928660e-002	8.646898e-003	2.098823e-002
3752350.028	9.712732e-003	2.087314e-002	9.931077e-001	-9.078734e-002	9.928757e-001	-9.076698e-002	8.865129e-003	2.135879e-002
3814889.112	1.013359e-002	2.139628e-002	9.926619e-001	-9.235316e-002	9.927777e-001	-9.261691e-002	9.078385e-003	2.164235e-002
3877428.196	1.039084e-002	2.181815e-002	9.924858e-001	-9.394621e-002	9.923064e-001	-9.390292e-002	9.710839e-003	2.202919e-002
3939967.280	1.066776e-002	2.190218e-002	9.920108e-001	-9.561660e-002	9.920172e-001	-9.547517e-002	1.002692e-002	2.250169e-002
4002506.363	1.107667e-002	2.242327e-002	9.917050e-001	-9.705463e-002	9.915289e-001	-9.686400e-002	1.029301e-002	2.280699e-002
4065045.447	1.122968e-002	2.271847e-002	9.910556e-001	-9.860673e-002	9.910146e-001	-9.852908e-002	1.072537e-002	2.307151e-002
4127584.531	1.156085e-002	2.307066e-002	9.906346e-001	-1.000870e-001	9.906245e-001	-9.990173e-002	1.109592e-002	2.353971e-002
4190123.615	1.196110e-002	2.343513e-002	9.902884e-001	-1.017883e-001	9.901008e-001	-1.015928e-001	1.135175e-002	2.367173e-002
4252662.699	1.228045e-002	2.369780e-002	9.899138e-001	-1.033310e-001	9.895903e-001	-1.031437e-001	1.183404e-002	2.404209e-002
4315201.782	1.279704e-002	2.397843e-002	9.894341e-001	-1.045412e-001	9.894033e-001	-1.046504e-001	1.201250e-002	2.418532e-002
4377740.866	1.308447e-002	2.429109e-002	9.890437e-001	-1.062102e-001	9.886836e-001	-1.061628e-001	1.260702e-002	2.478860e-002
4440279.950	1.336933e-002	2.447721e-002	9.885423e-001	-1.074727e-001	9.881631e-001	-1.074648e-001	1.288495e-002	2.495855e-002
4502819.034	1.377966e-002	2.491005e-002	9.878282e-001	-1.090785e-001	9.877832e-001	-1.089186e-001	1.337507e-002	2.539292e-002
4565358.118	1.409150e-002	2.515395e-002	9.873622e-001	-1.104750e-001	9.871433e-001	-1.101849e-001	1.377424e-002	2.557091e-002
4627897.201	1.468127e-002	2.554843e-002	9.870345e-001	-1.119088e-001	9.867080e-001	-1.116788e-001	1.430448e-002	2.594385e-002
4690436.285	1.493626e-002	2.571739e-002	9.864997e-001	-1.134427e-001	9.862502e-001	-1.134706e-001	1.471277e-002	2.602628e-002
4752975.369	1.536005e-002	2.596460e-002	9.857207e-001	-1.149408e-001	9.857916e-001	-1.147691e-001	1.495427e-002	2.624622e-002
4815514.453	1.591181e-002	2.619743e-002	9.854254e-001	-1.162425e-001	9.852397e-001	-1.162684e-001	1.561748e-002	2.657500e-002
4878053.537	1.644361e-002	2.634588e-002	9.849578e-001	-1.175918e-001	9.846756e-001	-1.175352e-001	1.602315e-002	2.673221e-002
4940592.620	1.663915e-002	2.663413e-002	9.842835e-001	-1.190338e-001	9.841661e-001	-1.190333e-001	1.623777e-002	2.694256e-002
5003131.704	1.712335e-002	2.669522e-002	9.837266e-001	-1.203564e-001	9.837028e-001	-1.201630e-001	1.679740e-002	2.710178e-002
5065670.788	1.751513e-002	2.709404e-002	9.831291e-001	-1.218045e-001	9.830543e-001	-1.216234e-001	1.722562e-002	2.733272e-002
5128209.872	1.808348e-002	2.715132e-002	9.828091e-001	-1.231381e-001	9.825209e-001	-1.229890e-001	1.763806e-002	2.732960e-002
5190748.956	1.846030e-002	2.732528e-002	9.820856e-001	-1.245370e-001	9.820091e-001	-1.244470e-001	1.807407e-002	2.763401e-002
5253288.039	1.896772e-002	2.744870e-002	9.816247e-001	-1.258540e-001	9.814353e-001	-1.257123e-001	1.847401e-002	2.787094e-002
5315827.123	1.937727e-002	2.754378e-002	9.808694e-001	-1.271551e-001	9.808741e-001	-1.270732e-001	1.891689e-002	2.794097e-002
5378366.207	1.993793e-002	2.772659e-002	9.804478e-001	-1.284988e-001	9.803001e-001	-1.285728e-001	1.936788e-002	2.797911e-002
5440905.291	2.023207e-002	2.795526e-002	9.799388e-001	-1.298152e-001	9.797392e-001	-1.297535e-001	1.972720e-002	2.817081e-002
5503444.375	2.088280e-002	2.789986e-002	9.793236e-001	-1.311691e-001	9.792301e-001	-1.308913e-001	2.037876e-002	2.820222e-002
5565983.458	2.101443e-002	2.815962e-002	9.787614e-001	-1.323576e-001	9.786437e-001	-1.321274e-001	2.078211e-002	2.846659e-002
5628522.542	2.173327e-002	2.815708e-002	9.782660e-001	-1.335237e-001	9.780791e-001	-1.335397e-001	2.128198e-002	2.843404e-002
5691061.626	2.224397e-002	2.805080e-002	9.775629e-001	-1.349819e-001	9.774171e-001	-1.348883e-001	2.165103e-002	2.856900e-002
5753600.710	2.255995e-002	2.822202e-002	9.769088e-001	-1.361186e-001	9.768630e-001	-1.360394e-001	2.216385e-002	2.850835e-002
5816139.794	2.313180e-002	2.846000e-002	9.764007e-001	-1.373774e-001	9.760973e-001	-1.374244e-001	2.248842e-002	2.861565e-002
5878678.877	2.348863e-002	2.829944e-002	9.758475e-001	-1.386499e-001	9.756502e-001	-1.385628e-001	2.305640e-002	2.853144e-002
5941217.961	2.392653e-002	2.826256e-002	9.751510e-001	-1.399311e-001	9.750887e-001	-1.396256e-001	2.332954e-002	2.867905e-002
6003757.045	2.425282e-002	2.852032e-002	9.744769e-001	-1.409588e-001	9.744819e-001	-1.408415e-001	2.390747e-002	2.868050e-002
6066296.129	2.480603e-002	2.834612e-002	9.741759e-001	-1.422008e-001	9.739500e-001	-1.419853e-001	2.433535e-002	2.866342e-002
6128835.213	2.534921e-002	2.836985e-002	9.735862e-001	-1.430690e-001	9.735112e-001	-1.433014e-001	2.486972e-002	2.866180e-002
6191374.296	2.572872e-002	2.836458e-002	9.729042e-001	-1.445347e-001	9.727169e-001	-1.446183e-001	2.516761e-002	2.876524e-002
6253913.380	2.610194e-002	2.846309e-002	9.723640e-001	-1.457460e-001	9.721892e-001	-1.456102e-001	2.551057e-002	2.886710e-002
6316452.464	2.650582e-002	2.852822e-002	9.718241e-001	-1.467640e-001	9.715186e-001	-1.469501e-001	2.596535e-002	2.862489e-002
6378991.548	2.689294e-002	2.835028e-002	9.712559e-001	-1.482853e-001	9.711734e-001	-1.479754e-001	2.644629e-002	2.848290e-002
6441530.632	2.725367e-002	2.824612e-002	9.705979e-001	-1.491024e-001	9.705140e-001	-1.492643e-001	2.691864e-002	2.853947e-002
6504069.715	2.766298e-002	2.818854e-002	9.700598e-001	-1.505192e-001	9.701242e-001	-1.502741e-001	2.735001e-002	2.850206e-002
6566608.799	2.820275e-002	2.807133e-002	9.696278e-001	-1.516781e-001	9.694548e-001	-1.514462e-001	2.768717e-002	2.864337e-002
6629147.883	2.858842e-002	2.814415e-002	9.689977e-001	-1.524618e-001	9.688692e-001	-1.525952e-001	2.817265e-002	2.844549e-002
6691686.967	2.887051e-002	2.809730e-002	9.683385e-001	-1.536697e-001	9.682901e-001	-1.536866e-001	2.861314e-002	2.846267e-002
6754226.051	2.921134e-002	2.801984e-002	9.678341e-001	-1.549446e-001	9.676241e-001	-1.549504e-001	2.880017e-002	2.820620e-002
6816765.134	2.969928e-002	2.794227e-002	9.673575e-001	-1.559417e-001	9.672361e-001	-1.558979e-001	2.925729e-002	2.831048e-002
6879304.218	2.997502e-002	2.770818e-002	9.667677e-001	-1.570750e-001	9.667176e-001	-1.569622e-001	2.963182e-002	2.817246e-002
6941843.302	3.043200e-002	2.778116e-002	9.662305e-001	-1.581976e-001	9.661321e-001	-1.580143e-001	3.000480e-002	2.815953e-002
7004382.386	3.063956e-002	2.776608e-002	9.657739e-001	-1.591765e-001	9.655713e-001	-1.591411e-001	3.030759e-002	2.812918e-002
7066921.470	3.109661e-002	2.761911e-002	9.651534e-001	-1.604089e-001	9.651251e-001	-1.600767e-001	3.083297e-002	2.785840e-002
7129460.553	3.133646e-002	2.741619e-002	9.647153e-001	-1.612995e-001	9.645930e-001	-1.612649e-001	3.120220e-002	2.781872e-002
7191999.637	3.171163e-002	2.755151e-002	9.639743e-001	-1.624645e-001	9.639288e-001	-1.623029e-001	3.141730e-002	2.772140e-002
7254538.721	3.211577e-002	2.733718e-002	9.638041e-001	-1.635923e-001	9.636156e-001	-1.634513e-001	3.180758e-002	2.763773e-002
7317077.805	3.262295e-002	2.717563e-002	9.632589e-001	-1.645150e-001	9.631189e-001	-1.644263e-001	3.215514e-002	2.742164e-002
7379616.889	3.283846e-002	2.708413e-002	9.628476e-001	-1.657984e-001	9.625400e-001	-1.655402e-001	3.243930e-002	2.733995e-002
7442155.972	3.303257e-002	2.698529e-002	9.621847e-001	-1.666597e-001	9.620556e-001	-1.665260e-001	3.288204e-002	2.743062e-002
7504695.056	3.338968e-002	2.677999e-002	9.615860e-001	-1.676382e-001	9.614328e-001	-1.677095e-001	3.324859e-002	2.736894e-002
7567234.140	3.387530e-002	2.657406e-002	9.612529e-001	-1.686868e-001	9.609457e-001	-1.687421e-001	3.349225e-002	2.714450e-002
7629773.224	3.412131e-002	2.673701e-002	9.607740e-001	-1.699122e-001	9.606042e-001	-1.697184e-001	3.373256e-002	2.698022e-002
7692312.308	3.429820e-002	2.656676e-002	9.602574e-001	-1.709246e-001	9.600166e-001	-1.708682e-001	3.410297e-002	2.677778e-002
7754851.391	3.460119e-002	2.629901e-002	9.597438e-001	-1.720279e-001	9.594255e-001	-1.717075e-001	3.437616e-002	2.677280e-002
7817390.475	3.499655e-002	2.635684e-002	9.592721e-001	-1.731656e-001	9.590057e-001	-1.729591e-001	3.462371e-002	2.676073e-002
7879929.559	3.519989e-002	2.605922e-002	9.587058e-001	-1.742037e-001	9.584998e-001	-1.741517e-001	3.503989e-002	2.660563e-002
7942468.643	3.544791e-002	2.588881e-002	9.583712e-001	-1.751262e-001	9.581323e-001	-1.751087e-001	3.530232e-002	2.632061e-002
8005007.727	3.583838e-002	2.577558e-002	9.577880e-001	-1.762559e-001	9.576713e-001	-1.761332e-001	3.553600e-002	2.640546e-002
8067546.811	3.598632e-002	2.568823e-002	9.573588e-001	-1.772295e-001	9.570655e-001	-1.771073e-001	3.573007e-002	2.608796e-002
8130085.894	3.633239e-002	2.548373e-002	9.568543e-001	-1.782068e-001	9.566924e-001	-1.781732e-001	3.621101e-002	2.588786e-002
8192624.978	3.643862e-002	2.530831e-002	9.562509e-001	-1.793737e-001	9.562419e-001	-1.791383e-001	3.652659e-002	2.573567e-002
8255164.062	3.683268e-002	2.517664e-002	9.559324e-001	-1.803395e-001	9.557283e-001	-1.801989e-001	3.676734e-002	2.555431e-002
8317703.146	3.700239e-002	2.515407e-002	9.554776e-001	-1.814050e-001	9.553589e-001	-1.812547e-001	3.687269e-002	2.547957e-002
8380242.230	3.737307e-002	2.477709e-002	9.549267e-001	-1.825246e-001	9.548125e-001	-1.822323e-001	3.711000e-002	2.527687e-002
8442781.313	3.760224e-002	2.468575e-002	9.547005e-001	-1.834159e-001	9.544111e-001	-1.832207e-001	3.734876e-002	2.506983e-002
8505320.397	3.785703e-002	2.466152e-002	9.541569e-001	-1.845056e-001	9.539356e-001	-1.842839e-001	3.756780e-002	2.498071e-002
8567859.481	3.808718e-002	2.466276e-002	9.536710e-001	-1.853240e-001	9.535508e-001	-1.852780e-001	3.787411e-002	2.497076e-002
8630398.565	3.841343e-002	2.446580e-002	9.530527e-001	-1.863240e-001	9.530763e-001	-1.862723e-001	3.799686e-002	2.459209e-002
8692937.649	3.858951e-002	2.411632e-002	9.527069e-001	-1.873537e-001	9.524912e-001	-1.873326e-001	3.819250e-002	2.455058e-002
8755476.732	3.885271e-002	2.403963e-002	9.523042e-001	-1.884731e-001	9.520888e-001	-1.882356e-001	3.849748e-002	2.441869e-002
8818015.816	3.897778e-002	2.386197e-002	9.518060e-001	-1.894635e-001	9.515110e-001	-1.893378e-001	3.883079e-002	2.416983e-002
8880554.900	3.941760e-002	2.375096e-002	9.515124e-001	-1.905272e-001	9.513334e-001	-1.902062e-001	3.893354e-002	2.388974e-002
8943093.984	3.950581e-002	2.369880e-002	9.509972e-001	-1.914765e-001	9.508819e-001	-1.912484e-001	3.918839e-002	2.378551e-002
9005633.068	3.977525e-002	2.345286e-002	9.504717e-001	-1.925077e-001	9.505151e-001	-1.924080e-001	3.930722e-002	2.352097e-002
9068172.151	3.986511e-002	2.331502e-002	9.501736e-001	-1.935512e-001	9.499407e-001	-1.932969e-001	3.958881e-002	2.340981e-002
9130711.235	4.027545e-002	2.307545e-002	9.496482e-001	-1.945333e-001	9.495708e-001	-1.942889e-001	3.983997e-002	2.307714e-002
9193250.319	4.047275e-002	2.291092e-002	9.493789e-001	-1.954175e-001	9.490774e-001	-1.953853e-001	3.999540e-002	2.299556e-002
9255789.403	4.057571e-002	2.262226e-002	9.489451e-001	-1.963454e-001	9.486715e-001	-1.963395e-001	4.009172e-002	2.290871e-002
9318328.487	4.076553e-002	2.255274e-002	9.484488e-001	-1.975902e-001	9.483977e-001	-1.973061e-001	4.040447e-002	2.274305e-002
9380867.570	4.099542e-002	2.250708e-002	9.480825e-001	-1.986218e-001	9.477968e-001	-1.984228e-001	4.060928e-002	2.256164e-002
9443406.654	4.124594e-002	2.235080e-002	9.476655e-001	-1.995062e-001	9.474928e-001	-1.994734e-001	4.084267e-002	2.234302e-002
9505945.738	4.142644e-002	2.221429e-002	9.470632e-001	-2.006881e-001	9.471198e-001	-2.004707e-001	4.100162e-002	2.218166e-002
9568484.822	4.165948e-002	2.201212e-002	9.467996e-001	-2.016280e-001	9.464596e-001	-2.014374e-001	4.104520e-002	2.226121e-002
9631023.906	4.184102e-002	2.187174e-002	9.463883e-001	-2.026379e-001	9.460445e-001	-2.024927e-001	4.139024e-002	2.178848e-002
9693562.989	4.206259e-002	2.169387e-002	9.458514e-001	-2.036353e-001	9.457421e-001	-2.034042e-001	4.135451e-002	2.176029e-002
9756102.073	4.224413e-002	2.150863e-002	9.456642e-001	-2.046525e-001	9.453493e-001	-2.043564e-001	4.158392e-002	2.148835e-002
