!Agilent Technologies,E5061B,MY49102235,A.02.00
!Date: Tue Jul 11 16:18:01 2023
!Data & Calibration Information:
!Freq	S11:SOLT2(ON)	S21:SOLT2(ON)	S12:SOLT2(ON)	S22:SOLT2(ON)
# Hz S RI R 50
5.000	-5.281725e-003	-5.638753e-003	1.001675e+000	8.068082e-003	1.000341e+000	1.022069e-002	-1.489702e-003	-7.552672e-003
62544.084	5.825866e-003	-1.417949e-004	1.001217e+000	3.232859e-004	1.000886e+000	8.182744e-004	7.705698e-003	-2.532630e-003
125083.168	5.698474e-003	2.105537e-004	1.000827e+000	-1.452518e-003	1.000839e+000	-1.594940e-003	7.489488e-003	-1.570119e-003
187622.251	5.474544e-003	7.187695e-004	1.000454e+000	-3.113289e-003	1.000948e+000	-1.972868e-003	7.397963e-003	-1.333067e-003
250161.335	5.313221e-003	1.209044e-003	1.000530e+000	-4.494734e-003	1.000646e+000	-4.560246e-003	7.293733e-003	-6.383972e-004
312700.419	5.470256e-003	2.270952e-003	1.000824e+000	-5.422531e-003	1.000602e+000	-5.259986e-003	7.818142e-003	-6.212822e-004
375239.503	5.358921e-003	1.103922e-003	1.000994e+000	-7.129783e-003	1.000562e+000	-7.030056e-003	7.290590e-003	-4.346821e-004
437778.587	5.210206e-003	1.836691e-003	1.001275e+000	-7.685598e-003	1.000849e+000	-8.524616e-003	6.676947e-003	2.005214e-004
500317.670	4.657460e-003	2.329244e-003	1.001186e+000	-1.052757e-002	1.001645e+000	-1.042825e-002	4.872225e-003	7.329200e-004
562856.754	5.987190e-003	2.344741e-003	1.001275e+000	-1.237762e-002	1.001156e+000	-1.228148e-002	6.093948e-003	1.551862e-003
625395.838	5.200867e-003	2.844483e-003	1.002088e+000	-1.385146e-002	1.002105e+000	-1.348440e-002	6.211042e-003	2.458315e-003
687934.922	5.260010e-003	2.849804e-003	1.001174e+000	-1.513127e-002	1.001172e+000	-1.532308e-002	5.863841e-003	2.328578e-003
750474.006	4.478799e-003	3.518442e-003	1.000667e+000	-1.499324e-002	1.000653e+000	-1.487847e-002	5.661117e-003	2.848665e-003
813013.089	4.668939e-003	3.880046e-003	1.000907e+000	-1.704699e-002	1.000499e+000	-1.683910e-002	5.035362e-003	3.367561e-003
875552.173	4.432339e-003	4.379655e-003	1.001016e+000	-1.838118e-002	1.000915e+000	-1.844593e-002	5.831788e-003	3.296253e-003
938091.257	4.516689e-003	4.790324e-003	1.001040e+000	-2.019936e-002	1.000960e+000	-1.986625e-002	6.087407e-003	4.193512e-003
1000630.341	3.983774e-003	4.769416e-003	1.000570e+000	-2.185543e-002	1.000869e+000	-2.171752e-002	5.359577e-003	3.842417e-003
1063169.425	4.362851e-003	4.947895e-003	1.000830e+000	-2.358062e-002	1.000664e+000	-2.277388e-002	4.544862e-003	3.878572e-003
1125708.508	4.267043e-003	5.352065e-003	1.000638e+000	-2.495915e-002	1.000591e+000	-2.450503e-002	4.085961e-003	4.496986e-003
1188247.592	4.834004e-003	5.217592e-003	1.000783e+000	-2.655611e-002	1.000748e+000	-2.595675e-002	2.996590e-003	4.282739e-003
1250786.676	4.680330e-003	4.812538e-003	1.000318e+000	-2.680053e-002	1.000645e+000	-2.693432e-002	2.273426e-003	2.986024e-003
1313325.760	4.818210e-003	5.050663e-003	1.000655e+000	-2.872772e-002	1.000647e+000	-2.893333e-002	3.027852e-003	3.506569e-003
1375864.844	4.585163e-003	5.209612e-003	1.000368e+000	-3.089739e-002	1.000347e+000	-3.110444e-002	2.920012e-003	4.136341e-003
1438403.927	4.487566e-003	5.390140e-003	1.000284e+000	-3.186057e-002	1.000704e+000	-3.128370e-002	3.030493e-003	4.730390e-003
1500943.011	4.758615e-003	5.791007e-003	1.000958e+000	-3.310003e-002	1.001064e+000	-3.310652e-002	3.397478e-003	4.659792e-003
1563482.095	4.775847e-003	5.751084e-003	1.000462e+000	-3.488150e-002	1.000274e+000	-3.414830e-002	3.576232e-003	5.196319e-003
1626021.179	4.618562e-003	6.230601e-003	1.000312e+000	-3.648275e-002	1.000738e+000	-3.705442e-002	3.869339e-003	5.495233e-003
1688560.263	4.341369e-003	6.631657e-003	9.999340e-001	-3.847037e-002	1.000946e+000	-3.867613e-002	4.080294e-003	5.802495e-003
1751099.346	4.510500e-003	7.067131e-003	1.000505e+000	-4.001505e-002	1.000355e+000	-3.952150e-002	3.933025e-003	6.985467e-003
1813638.430	4.194544e-003	7.367399e-003	1.000799e+000	-4.190593e-002	1.000526e+000	-4.172784e-002	4.125272e-003	6.941730e-003
1876177.514	4.271902e-003	8.014788e-003	1.001034e+000	-4.310320e-002	1.000861e+000	-4.369895e-002	3.871456e-003	7.958659e-003
1938716.598	3.758741e-003	8.440366e-003	1.001176e+000	-4.422771e-002	1.000828e+000	-4.395832e-002	4.072903e-003	8.684414e-003
2001255.682	3.697887e-003	8.296639e-003	1.001064e+000	-4.603468e-002	1.000764e+000	-4.581837e-002	3.857455e-003	8.572134e-003
2063794.765	3.837484e-003	9.024163e-003	1.000622e+000	-4.739453e-002	1.000139e+000	-4.776154e-002	4.271154e-003	8.828012e-003
2126333.849	3.405413e-003	8.854622e-003	1.000138e+000	-4.906410e-002	9.994682e-001	-4.849868e-002	4.570862e-003	9.400642e-003
2188872.933	3.937821e-003	9.180608e-003	9.997750e-001	-5.048411e-002	9.994632e-001	-4.985982e-002	4.502768e-003	9.698908e-003
2251412.017	4.070725e-003	9.157095e-003	9.996050e-001	-5.228168e-002	9.995066e-001	-5.133966e-002	4.516141e-003	9.927761e-003
2313951.101	4.446240e-003	9.911748e-003	9.989998e-001	-5.363578e-002	9.994634e-001	-5.261801e-002	4.863936e-003	1.019564e-002
2376490.184	4.227663e-003	1.022701e-002	9.988672e-001	-5.441328e-002	9.993890e-001	-5.487708e-002	4.883326e-003	1.053770e-002
2439029.268	4.724581e-003	1.052664e-002	9.987314e-001	-5.646972e-002	9.984720e-001	-5.622146e-002	4.593926e-003	1.098763e-002
2501568.352	4.747603e-003	1.086224e-002	9.983967e-001	-5.699430e-002	9.992273e-001	-5.718043e-002	4.930097e-003	1.129728e-002
2564107.436	4.704698e-003	1.106681e-002	9.987164e-001	-5.911089e-002	9.989943e-001	-5.897551e-002	4.258853e-003	1.128648e-002
2626646.520	5.232402e-003	1.121300e-002	9.985436e-001	-6.062679e-002	9.977279e-001	-6.049968e-002	4.575787e-003	1.155007e-002
2689185.604	5.242848e-003	1.170893e-002	9.988406e-001	-6.175857e-002	9.984665e-001	-6.165879e-002	4.754434e-003	1.194259e-002
2751724.687	5.397165e-003	1.196376e-002	9.986180e-001	-6.287491e-002	9.984681e-001	-6.284550e-002	4.402126e-003	1.227222e-002
2814263.771	5.392380e-003	1.224696e-002	9.976785e-001	-6.502601e-002	9.980244e-001	-6.446988e-002	4.428487e-003	1.247926e-002
2876802.855	5.390503e-003	1.239360e-002	9.976912e-001	-6.665998e-002	9.981112e-001	-6.589984e-002	4.571323e-003	1.295046e-002
2939341.939	5.584051e-003	1.281018e-002	9.981808e-001	-6.761897e-002	9.978302e-001	-6.781686e-002	4.532142e-003	1.320037e-002
3001881.023	5.559124e-003	1.316202e-002	9.978203e-001	-6.910416e-002	9.977210e-001	-6.911583e-002	4.661871e-003	1.341199e-002
3064420.106	5.655243e-003	1.345367e-002	9.983264e-001	-7.049605e-002	9.976331e-001	-7.053599e-002	4.553056e-003	1.362510e-002
3126959.190	5.916421e-003	1.368116e-002	9.978647e-001	-7.214546e-002	9.977310e-001	-7.208826e-002	4.783506e-003	1.390683e-002
3189498.274	5.965355e-003	1.405975e-002	9.976743e-001	-7.344782e-002	9.975564e-001	-7.354774e-002	4.842967e-003	1.418435e-002
3252037.358	5.923088e-003	1.404997e-002	9.976966e-001	-7.499002e-002	9.975545e-001	-7.491030e-002	4.841817e-003	1.457640e-002
3314576.442	6.009109e-003	1.455584e-002	9.975510e-001	-7.639444e-002	9.973884e-001	-7.646813e-002	4.973783e-003	1.480824e-002
3377115.525	6.044790e-003	1.489907e-002	9.972543e-001	-7.777569e-002	9.970674e-001	-7.806586e-002	4.870604e-003	1.502233e-002
3439654.609	6.110519e-003	1.516993e-002	9.969988e-001	-7.925958e-002	9.972564e-001	-7.937130e-002	4.969485e-003	1.555522e-002
3502193.693	6.126919e-003	1.520936e-002	9.969409e-001	-8.087211e-002	9.968612e-001	-8.077172e-002	5.194495e-003	1.584441e-002
3564732.777	6.263349e-003	1.567429e-002	9.968824e-001	-8.228276e-002	9.967993e-001	-8.231101e-002	5.360884e-003	1.620002e-002
3627271.861	6.173054e-003	1.589211e-002	9.968129e-001	-8.380594e-002	9.967586e-001	-8.366445e-002	5.195900e-003	1.633003e-002
3689810.944	6.142724e-003	1.610185e-002	9.965996e-001	-8.526807e-002	9.965868e-001	-8.512282e-002	5.429728e-003	1.668350e-002
3752350.028	6.333207e-003	1.646451e-002	9.964265e-001	-8.649605e-002	9.962833e-001	-8.655896e-002	5.434041e-003	1.696439e-002
3814889.112	6.539180e-003	1.692564e-002	9.961990e-001	-8.803286e-002	9.963742e-001	-8.831708e-002	5.427169e-003	1.716627e-002
3877428.196	6.551815e-003	1.726605e-002	9.962423e-001	-8.955281e-002	9.962059e-001	-8.954348e-002	5.820683e-003	1.749717e-002
3939967.280	6.601780e-003	1.730759e-002	9.960136e-001	-9.114406e-002	9.960981e-001	-9.105818e-002	5.888705e-003	1.791572e-002
4002506.363	6.747713e-003	1.777933e-002	9.959160e-001	-9.254773e-002	9.958981e-001	-9.236754e-002	5.914491e-003	1.818653e-002
4065045.447	6.650408e-003	1.802038e-002	9.956068e-001	-9.407269e-002	9.956001e-001	-9.399625e-002	6.088488e-003	1.839939e-002
4127584.531	6.720802e-003	1.833966e-002	9.954281e-001	-9.554368e-002	9.955058e-001	-9.537190e-002	6.192589e-003	1.883847e-002
4190123.615	6.857848e-003	1.867747e-002	9.953334e-001	-9.721539e-002	9.951834e-001	-9.703658e-002	6.183060e-003	1.894100e-002
4252662.699	6.900055e-003	1.893954e-002	9.952729e-001	-9.871137e-002	9.949974e-001	-9.862790e-002	6.376882e-003	1.929909e-002
4315201.782	7.128834e-003	1.921109e-002	9.950391e-001	-9.995365e-002	9.951233e-001	-1.001073e-001	6.283366e-003	1.944910e-002
4377740.866	7.122285e-003	1.952690e-002	9.949524e-001	-1.015625e-001	9.946863e-001	-1.015727e-001	6.572559e-003	2.005777e-002
4440279.950	7.133099e-003	1.972123e-002	9.947426e-001	-1.029419e-001	9.944373e-001	-1.029403e-001	6.551131e-003	2.022713e-002
4502819.034	7.230837e-003	2.018542e-002	9.942762e-001	-1.045187e-001	9.943482e-001	-1.044173e-001	6.743046e-003	2.070613e-002
4565358.118	7.259701e-003	2.048113e-002	9.941440e-001	-1.059735e-001	9.940059e-001	-1.057220e-001	6.852247e-003	2.092781e-002
4627897.201	7.538877e-003	2.092998e-002	9.941410e-001	-1.074386e-001	9.938871e-001	-1.072516e-001	7.077953e-003	2.135729e-002
4690436.285	7.476947e-003	2.115702e-002	9.939567e-001	-1.090453e-001	9.937507e-001	-1.091084e-001	7.181486e-003	2.149299e-002
4752975.369	7.597327e-003	2.146015e-002	9.934864e-001	-1.106349e-001	9.936083e-001	-1.105402e-001	7.105223e-003	2.178349e-002
4815514.453	7.841511e-003	2.179799e-002	9.934916e-001	-1.120277e-001	9.933585e-001	-1.120878e-001	7.446467e-003	2.221336e-002
4878053.537	8.064807e-003	2.204379e-002	9.933096e-001	-1.134716e-001	9.931329e-001	-1.134262e-001	7.538502e-003	2.247267e-002
4940592.620	7.928710e-003	2.242744e-002	9.929466e-001	-1.150597e-001	9.929250e-001	-1.150502e-001	7.432959e-003	2.278137e-002
5003131.704	8.120821e-003	2.262358e-002	9.926798e-001	-1.165054e-001	9.927810e-001	-1.163136e-001	7.690454e-003	2.306490e-002
5065670.788	8.182910e-003	2.315982e-002	9.924400e-001	-1.180811e-001	9.924954e-001	-1.179451e-001	7.798643e-003	2.344817e-002
5128209.872	8.451222e-003	2.335229e-002	9.924228e-001	-1.195462e-001	9.922180e-001	-1.194040e-001	7.902956e-003	2.358545e-002
5190748.956	8.495640e-003	2.369459e-002	9.920342e-001	-1.210772e-001	9.920530e-001	-1.210622e-001	8.025482e-003	2.404361e-002
5253288.039	8.694491e-003	2.398386e-002	9.918747e-001	-1.226201e-001	9.917988e-001	-1.225292e-001	8.097254e-003	2.445858e-002
5315827.123	8.814824e-003	2.427127e-002	9.914266e-001	-1.241188e-001	9.915061e-001	-1.241088e-001	8.230036e-003	2.470961e-002
5378366.207	9.071715e-003	2.465551e-002	9.913161e-001	-1.256575e-001	9.912838e-001	-1.257363e-001	8.370709e-003	2.496396e-002
5440905.291	9.056744e-003	2.509346e-002	9.911383e-001	-1.272032e-001	9.910034e-001	-1.271680e-001	8.432022e-003	2.537474e-002
5503444.375	9.418499e-003	2.525535e-002	9.907941e-001	-1.287538e-001	9.908141e-001	-1.285226e-001	8.795400e-003	2.561725e-002
5565983.458	9.252109e-003	2.574446e-002	9.905379e-001	-1.301675e-001	9.905175e-001	-1.300304e-001	8.910837e-003	2.612599e-002
5628522.542	9.676915e-003	2.600356e-002	9.902972e-001	-1.316037e-001	9.902051e-001	-1.316583e-001	9.112705e-003	2.633326e-002
5691061.626	9.922167e-003	2.615243e-002	9.899113e-001	-1.333945e-001	9.898502e-001	-1.332391e-001	9.205156e-003	2.673463e-002
5753600.710	9.969523e-003	2.658946e-002	9.895194e-001	-1.347537e-001	9.895757e-001	-1.346788e-001	9.450237e-003	2.693805e-002
5816139.794	1.028379e-002	2.711763e-002	9.892783e-001	-1.362963e-001	9.891040e-001	-1.363909e-001	9.496223e-003	2.733180e-002
5878678.877	1.036556e-002	2.722704e-002	9.889677e-001	-1.378365e-001	9.889118e-001	-1.377838e-001	9.803211e-003	2.754557e-002
5941217.961	1.056678e-002	2.749891e-002	9.885805e-001	-1.394390e-001	9.885311e-001	-1.392067e-001	9.847194e-003	2.798416e-002
6003757.045	1.065030e-002	2.806517e-002	9.881220e-001	-1.407660e-001	9.881908e-001	-1.407289e-001	1.016974e-002	2.830322e-002
6066296.129	1.098473e-002	2.820893e-002	9.880224e-001	-1.423904e-001	9.878918e-001	-1.421406e-001	1.037839e-002	2.861256e-002
6128835.213	1.130099e-002	2.856410e-002	9.876582e-001	-1.436058e-001	9.876719e-001	-1.438206e-001	1.069492e-002	2.893174e-002
6191374.296	1.149526e-002	2.888178e-002	9.871758e-001	-1.453321e-001	9.870896e-001	-1.455018e-001	1.076263e-002	2.938940e-002
6253913.380	1.164800e-002	2.934994e-002	9.868578e-001	-1.469136e-001	9.868417e-001	-1.468074e-001	1.090063e-002	2.983113e-002
6316452.464	1.186508e-002	2.975507e-002	9.865243e-001	-1.483168e-001	9.863081e-001	-1.485203e-001	1.117928e-002	2.994147e-002
6378991.548	1.207734e-002	2.993200e-002	9.860872e-001	-1.501838e-001	9.861175e-001	-1.499318e-001	1.147662e-002	3.013986e-002
6441530.632	1.227215e-002	3.018148e-002	9.856145e-001	-1.513917e-001	9.856551e-001	-1.515840e-001	1.178750e-002	3.057852e-002
6504069.715	1.253927e-002	3.048821e-002	9.851965e-001	-1.531572e-001	9.853713e-001	-1.529963e-001	1.206451e-002	3.089941e-002
6566608.799	1.294455e-002	3.073297e-002	9.849396e-001	-1.546878e-001	9.848074e-001	-1.545344e-001	1.227909e-002	3.142029e-002
6629147.883	1.319277e-002	3.119358e-002	9.844468e-001	-1.558456e-001	9.843821e-001	-1.560176e-001	1.261192e-002	3.158725e-002
6691686.967	1.336345e-002	3.152940e-002	9.839381e-001	-1.574564e-001	9.839243e-001	-1.574840e-001	1.294087e-002	3.199504e-002
6754226.051	1.359817e-002	3.181700e-002	9.834773e-001	-1.590726e-001	9.833901e-001	-1.591525e-001	1.301815e-002	3.212545e-002
6816765.134	1.398314e-002	3.211998e-002	9.831231e-001	-1.604702e-001	9.830528e-001	-1.604892e-001	1.338652e-002	3.261494e-002
6879304.218	1.417784e-002	3.226120e-002	9.826204e-001	-1.620066e-001	9.826511e-001	-1.619981e-001	1.367076e-002	3.285191e-002
6941843.302	1.456602e-002	3.273366e-002	9.821485e-001	-1.635090e-001	9.821604e-001	-1.634159e-001	1.398383e-002	3.323592e-002
7004382.386	1.470012e-002	3.311194e-002	9.817511e-001	-1.648894e-001	9.816516e-001	-1.649448e-001	1.422016e-002	3.357709e-002
7066921.470	1.511624e-002	3.333897e-002	9.811621e-001	-1.665266e-001	9.812498e-001	-1.662141e-001	1.467665e-002	3.369810e-002
7129460.553	1.531883e-002	3.352620e-002	9.807774e-001	-1.677627e-001	9.807380e-001	-1.678196e-001	1.501309e-002	3.405455e-002
7191999.637	1.566063e-002	3.404793e-002	9.800700e-001	-1.693546e-001	9.800952e-001	-1.692660e-001	1.520231e-002	3.434004e-002
7254538.721	1.604580e-002	3.420305e-002	9.799148e-001	-1.708415e-001	9.798036e-001	-1.707775e-001	1.558969e-002	3.463730e-002
7317077.805	1.655430e-002	3.442812e-002	9.793497e-001	-1.721418e-001	9.793075e-001	-1.721656e-001	1.591156e-002	3.479696e-002
7379616.889	1.675405e-002	3.471991e-002	9.789844e-001	-1.738202e-001	9.787153e-001	-1.736454e-001	1.619477e-002	3.510092e-002
7442155.972	1.695340e-002	3.499698e-002	9.782902e-001	-1.750869e-001	9.782820e-001	-1.750014e-001	1.664991e-002	3.557991e-002
7504695.056	1.733271e-002	3.514841e-002	9.776891e-001	-1.764307e-001	9.775754e-001	-1.765896e-001	1.703927e-002	3.589146e-002
7567234.140	1.786610e-002	3.531538e-002	9.773149e-001	-1.778491e-001	9.770753e-001	-1.779644e-001	1.731813e-002	3.605584e-002
7629773.224	1.816635e-002	3.586609e-002	9.768008e-001	-1.794919e-001	9.767216e-001	-1.793753e-001	1.759698e-002	3.625393e-002
7692312.308	1.838581e-002	3.605318e-002	9.762337e-001	-1.808537e-001	9.760730e-001	-1.808464e-001	1.801250e-002	3.640909e-002
7754851.391	1.871944e-002	3.614158e-002	9.756714e-001	-1.822974e-001	9.754378e-001	-1.820946e-001	1.834643e-002	3.678738e-002
7817390.475	1.919731e-002	3.655798e-002	9.751488e-001	-1.838636e-001	9.749203e-001	-1.837072e-001	1.864538e-002	3.713046e-002
7879929.559	1.946048e-002	3.661699e-002	9.744786e-001	-1.852562e-001	9.743647e-001	-1.852790e-001	1.914658e-002	3.734355e-002
7942468.643	1.977727e-002	3.679145e-002	9.740561e-001	-1.865478e-001	9.739088e-001	-1.866143e-001	1.948193e-002	3.740028e-002
8005007.727	2.025357e-002	3.703045e-002	9.734062e-001	-1.879830e-001	9.733429e-001	-1.879500e-001	1.979343e-002	3.784075e-002
8067546.811	2.049246e-002	3.728817e-002	9.728825e-001	-1.893216e-001	9.726584e-001	-1.892529e-001	2.007143e-002	3.785481e-002
8130085.894	2.094338e-002	3.742464e-002	9.722656e-001	-1.906658e-001	9.721545e-001	-1.906892e-001	2.065846e-002	3.799228e-002
8192624.978	2.117392e-002	3.757402e-002	9.715641e-001	-1.921322e-001	9.716207e-001	-1.920086e-001	2.109373e-002	3.818372e-002
8255164.062	2.167060e-002	3.777779e-002	9.711625e-001	-1.934646e-001	9.710048e-001	-1.934288e-001	2.145254e-002	3.833192e-002
8317703.146	2.196205e-002	3.808105e-002	9.705888e-001	-1.948583e-001	9.705069e-001	-1.947746e-001	2.166220e-002	3.859138e-002
8380242.230	2.244129e-002	3.801553e-002	9.698551e-001	-1.963201e-001	9.698270e-001	-1.960565e-001	2.201144e-002	3.871071e-002
8442781.313	2.279982e-002	3.823699e-002	9.695111e-001	-1.975328e-001	9.693331e-001	-1.974012e-001	2.238279e-002	3.881830e-002
8505320.397	2.320756e-002	3.853307e-002	9.688581e-001	-1.989439e-001	9.686860e-001	-1.987817e-001	2.273604e-002	3.904228e-002
8567859.481	2.357159e-002	3.885928e-002	9.682151e-001	-2.000493e-001	9.681851e-001	-2.000999e-001	2.318687e-002	3.936591e-002
8630398.565	2.405094e-002	3.895293e-002	9.674646e-001	-2.013688e-001	9.675923e-001	-2.013983e-001	2.344134e-002	3.929563e-002
8692937.649	2.436367e-002	3.890063e-002	9.669712e-001	-2.027009e-001	9.667816e-001	-2.027362e-001	2.379524e-002	3.954409e-002
8755476.732	2.478415e-002	3.912437e-002	9.663978e-001	-2.041340e-001	9.662605e-001	-2.039654e-001	2.425227e-002	3.970187e-002
8818015.816	2.506715e-002	3.923538e-002	9.657262e-001	-2.053930e-001	9.654781e-001	-2.053125e-001	2.474107e-002	3.973947e-002
8880554.900	2.567284e-002	3.936689e-002	9.652383e-001	-2.067457e-001	9.651938e-001	-2.065048e-001	2.499594e-002	3.974249e-002
8943093.984	2.591255e-002	3.962928e-002	9.645838e-001	-2.079860e-001	9.645676e-001	-2.078329e-001	2.541625e-002	3.992269e-002
9005633.068	2.637289e-002	3.965726e-002	9.639060e-001	-2.092994e-001	9.640376e-001	-2.092530e-001	2.571554e-002	3.993087e-002
9068172.151	2.662274e-002	3.978648e-002	9.634111e-001	-2.105948e-001	9.632764e-001	-2.104027e-001	2.616861e-002	4.008570e-002
9130711.235	2.723066e-002	3.980495e-002	9.627222e-001	-2.118873e-001	9.627221e-001	-2.116727e-001	2.660181e-002	4.002749e-002
9193250.319	2.760465e-002	3.988766e-002	9.622441e-001	-2.130220e-001	9.620497e-001	-2.130706e-001	2.694484e-002	4.020535e-002
9255789.403	2.787585e-002	3.985410e-002	9.616724e-001	-2.141959e-001	9.614203e-001	-2.142461e-001	2.721671e-002	4.038579e-002
9318328.487	2.826298e-002	4.003798e-002	9.609560e-001	-2.157192e-001	9.609696e-001	-2.154845e-001	2.772535e-002	4.046172e-002
9380867.570	2.868226e-002	4.025730e-002	9.603999e-001	-2.169620e-001	9.601733e-001	-2.168511e-001	2.811842e-002	4.053490e-002
9443406.654	2.914449e-002	4.031539e-002	9.597870e-001	-2.181085e-001	9.596998e-001	-2.181404e-001	2.855209e-002	4.053857e-002
9505945.738	2.952120e-002	4.041532e-002	9.589782e-001	-2.195096e-001	9.591070e-001	-2.194039e-001	2.889943e-002	4.061583e-002
9568484.822	2.995026e-002	4.043464e-002	9.584963e-001	-2.207353e-001	9.582373e-001	-2.206115e-001	2.913590e-002	4.095146e-002
9631023.906	3.033948e-002	4.053383e-002	9.578932e-001	-2.219171e-001	9.576009e-001	-2.218702e-001	2.968154e-002	4.068935e-002
9693562.989	3.075553e-002	4.056799e-002	9.571405e-001	-2.231779e-001	9.571105e-001	-2.230003e-001	2.985579e-002	4.089038e-002
9756102.073	3.113144e-002	4.058724e-002	9.567626e-001	-2.244112e-001	9.565129e-001	-2.241892e-001	3.029059e-002	4.081192e-002
