!Agilent Technologies,E5061B,MY49102235,A.02.00
!Date: Tue Jul 11 15:16:18 2023
!Data & Calibration Information:
!Freq	S11:SOLT2(ON)	S21:SOLT2(ON)	S12:SOLT2(ON)	S22:SOLT2(ON)
# Hz S RI R 50
5.000	-5.209802e-003	-5.625621e-003	1.001523e+000	7.982424e-003	1.000204e+000	1.022768e-002	-1.516300e-003	-7.563132e-003
62544.084	5.805831e-003	-4.560818e-004	1.001392e+000	5.113814e-004	1.001003e+000	1.152850e-003	7.691798e-003	-2.845260e-003
125083.168	5.668073e-003	-3.957701e-004	1.001010e+000	-8.888453e-004	1.000758e+000	-9.457320e-004	7.484836e-003	-2.177322e-003
187622.251	5.463016e-003	-1.452156e-004	1.000330e+000	-2.372632e-003	1.001052e+000	-1.071506e-003	7.378123e-003	-2.224248e-003
250161.335	5.268028e-003	1.963348e-005	1.000655e+000	-3.303108e-003	1.000730e+000	-3.336622e-003	7.250663e-003	-1.825767e-003
312700.419	5.413284e-003	8.251130e-004	1.000823e+000	-4.155483e-003	1.000647e+000	-3.854914e-003	7.769438e-003	-2.082267e-003
375239.503	5.296050e-003	-6.517335e-004	1.001036e+000	-5.467128e-003	1.000558e+000	-5.273105e-003	7.240718e-003	-2.196662e-003
437778.587	5.135953e-003	-2.125955e-004	1.001306e+000	-5.719203e-003	1.001140e+000	-6.434606e-003	6.598770e-003	-1.871245e-003
500317.670	4.578841e-003	-3.972982e-005	1.001262e+000	-8.189850e-003	1.001812e+000	-7.878527e-003	4.788485e-003	-1.662248e-003
562856.754	5.881403e-003	-2.822246e-004	1.001401e+000	-9.787144e-003	1.001197e+000	-9.493153e-003	6.010709e-003	-1.107956e-003
625395.838	5.080349e-003	-7.347225e-005	1.002171e+000	-1.103595e-002	1.002097e+000	-1.057677e-002	6.111557e-003	-4.701076e-004
687934.922	5.140771e-003	-3.831492e-004	1.001255e+000	-1.192632e-002	1.001303e+000	-1.213708e-002	5.745743e-003	-8.934997e-004
750474.006	4.387845e-003	9.932866e-006	1.000781e+000	-1.157882e-002	1.000976e+000	-1.132290e-002	5.560120e-003	-6.603342e-004
813013.089	4.560687e-003	6.717702e-005	1.001144e+000	-1.341036e-002	1.000746e+000	-1.317555e-002	4.912719e-003	-4.390161e-004
875552.173	4.297934e-003	2.918088e-004	1.001085e+000	-1.421042e-002	1.001034e+000	-1.436430e-002	5.702363e-003	-7.955696e-004
938091.257	4.358370e-003	3.951079e-004	1.001182e+000	-1.576492e-002	1.001271e+000	-1.544032e-002	5.934601e-003	-1.634482e-004
1000630.341	3.804160e-003	9.100257e-005	1.000701e+000	-1.724394e-002	1.001268e+000	-1.679581e-002	5.188479e-003	-8.213186e-004
1063169.425	4.167653e-003	-4.429623e-006	1.001173e+000	-1.853274e-002	1.000913e+000	-1.782928e-002	4.363060e-003	-1.107306e-003
1125708.508	4.055690e-003	8.196763e-005	1.000896e+000	-1.970879e-002	1.000961e+000	-1.920076e-002	3.879524e-003	-7.515296e-004
1188247.592	4.600421e-003	-3.233547e-004	1.001035e+000	-2.104276e-002	1.001084e+000	-2.037098e-002	2.771369e-003	-1.277720e-003
1250786.676	4.435619e-003	-1.022459e-003	1.000602e+000	-2.091474e-002	1.000803e+000	-2.110102e-002	2.041530e-003	-2.899376e-003
1313325.760	4.566192e-003	-1.058412e-003	1.001011e+000	-2.257961e-002	1.001158e+000	-2.274229e-002	2.774361e-003	-2.649890e-003
1375864.844	4.295320e-003	-1.206346e-003	1.000849e+000	-2.439600e-002	1.000640e+000	-2.462100e-002	2.621595e-003	-2.322685e-003
1438403.927	4.195174e-003	-1.326442e-003	1.000605e+000	-2.516447e-002	1.001023e+000	-2.456068e-002	2.713678e-003	-2.009192e-003
1500943.011	4.418051e-003	-1.204790e-003	1.001367e+000	-2.598660e-002	1.001393e+000	-2.608201e-002	3.057095e-003	-2.379436e-003
1563482.095	4.416567e-003	-1.542865e-003	1.000902e+000	-2.760239e-002	1.000721e+000	-2.674852e-002	3.207201e-003	-2.118977e-003
1626021.179	4.219921e-003	-1.360066e-003	1.000660e+000	-2.871947e-002	1.001066e+000	-2.935696e-002	3.484925e-003	-2.127978e-003
1688560.263	3.923007e-003	-1.245874e-003	1.000509e+000	-3.046629e-002	1.001407e+000	-3.073017e-002	3.654840e-003	-2.097950e-003
1751099.346	4.051976e-003	-1.110791e-003	1.001011e+000	-3.179449e-002	1.000777e+000	-3.128413e-002	3.470052e-003	-1.202777e-003
1813638.430	3.703506e-003	-1.121525e-003	1.001282e+000	-3.330998e-002	1.001049e+000	-3.304535e-002	3.654395e-003	-1.535487e-003
1876177.514	3.739667e-003	-7.808232e-004	1.001581e+000	-3.411577e-002	1.001313e+000	-3.483752e-002	3.320220e-003	-8.384929e-004
1938716.598	3.202772e-003	-6.557310e-004	1.001691e+000	-3.509242e-002	1.001410e+000	-3.467022e-002	3.492416e-003	-3.952341e-004
2001255.682	3.122157e-003	-1.086657e-003	1.001705e+000	-3.651356e-002	1.001322e+000	-3.627786e-002	3.254684e-003	-7.996790e-004
2063794.765	3.205811e-003	-6.579671e-004	1.001344e+000	-3.761751e-002	1.000720e+000	-3.800320e-002	3.640408e-003	-8.501935e-004
2126333.849	2.755667e-003	-1.120723e-003	1.000837e+000	-3.880319e-002	1.000203e+000	-3.851851e-002	3.911699e-003	-5.566930e-004
2188872.933	3.244028e-003	-1.088137e-003	1.000526e+000	-4.014659e-002	1.000071e+000	-3.944451e-002	3.777972e-003	-5.465491e-004
2251412.017	3.331231e-003	-1.404772e-003	1.000371e+000	-4.172017e-002	1.000270e+000	-4.063037e-002	3.774475e-003	-6.242962e-004
2313951.101	3.672318e-003	-9.379055e-004	9.997200e-001	-4.274414e-002	1.000176e+000	-4.157293e-002	4.088413e-003	-6.594821e-004
2376490.184	3.414229e-003	-9.304884e-004	9.997768e-001	-4.322457e-002	1.000309e+000	-4.337898e-002	4.056750e-003	-5.965116e-004
2439029.268	3.866113e-003	-9.200772e-004	9.995642e-001	-4.493789e-002	9.993571e-001	-4.451623e-002	3.718666e-003	-4.546960e-004
2501568.352	3.839380e-003	-8.853213e-004	9.993282e-001	-4.516021e-002	1.000270e+000	-4.519193e-002	4.007915e-003	-4.428254e-004
2564107.436	3.765510e-003	-9.914750e-004	9.997134e-001	-4.712489e-002	9.998714e-001	-4.688710e-002	3.320546e-003	-7.837156e-004
2626646.520	4.239016e-003	-1.132357e-003	9.995377e-001	-4.803211e-002	9.987416e-001	-4.798325e-002	3.580975e-003	-8.118470e-004
2689185.604	4.194686e-003	-9.237034e-004	9.999213e-001	-4.889743e-002	9.995218e-001	-4.882960e-002	3.705633e-003	-7.055334e-004
2751724.687	4.314108e-003	-9.716577e-004	9.998117e-001	-4.972831e-002	9.995917e-001	-4.962462e-002	3.319032e-003	-6.939961e-004
2814263.771	4.276484e-003	-1.010622e-003	9.989270e-001	-5.169959e-002	9.990905e-001	-5.100087e-002	3.293992e-003	-8.008012e-004
2876802.855	4.239567e-003	-1.183419e-003	9.989321e-001	-5.317748e-002	9.992959e-001	-5.221228e-002	3.388414e-003	-6.305327e-004
2939341.939	4.340925e-003	-1.066228e-003	9.995767e-001	-5.359750e-002	9.992054e-001	-5.366989e-002	3.284414e-003	-6.939370e-004
3001881.023	4.278980e-003	-1.027593e-003	9.991874e-001	-5.483765e-002	9.990210e-001	-5.478947e-002	3.376751e-003	-7.993165e-004
3064420.106	4.322883e-003	-1.041005e-003	9.996412e-001	-5.584318e-002	9.989105e-001	-5.578813e-002	3.217153e-003	-8.946530e-004
3126959.190	4.524739e-003	-1.098758e-003	9.992966e-001	-5.716355e-002	9.991282e-001	-5.703897e-002	3.401605e-003	-9.258551e-004
3189498.274	4.511886e-003	-1.054500e-003	9.991507e-001	-5.819551e-002	9.989942e-001	-5.817833e-002	3.388206e-003	-9.482434e-004
3252037.358	4.421425e-003	-1.378308e-003	9.992469e-001	-5.936636e-002	9.990437e-001	-5.923274e-002	3.338265e-003	-8.708212e-004
3314576.442	4.439348e-003	-1.185695e-003	9.991157e-001	-6.046592e-002	9.989247e-001	-6.043497e-002	3.401038e-003	-9.444899e-004
3377115.525	4.411215e-003	-1.152028e-003	9.989965e-001	-6.150854e-002	9.986875e-001	-6.170059e-002	3.255147e-003	-1.061070e-003
3439654.609	4.424168e-003	-1.203206e-003	9.987293e-001	-6.267578e-002	9.989233e-001	-6.273312e-002	3.267858e-003	-8.463992e-004
3502193.693	4.379729e-003	-1.486593e-003	9.987157e-001	-6.396926e-002	9.985829e-001	-6.377579e-002	3.444070e-003	-8.757814e-004
3564732.777	4.443344e-003	-1.333126e-003	9.987359e-001	-6.502896e-002	9.986074e-001	-6.501404e-002	3.541286e-003	-8.305532e-004
3627271.861	4.294605e-003	-1.444837e-003	9.987835e-001	-6.624875e-002	9.986391e-001	-6.604679e-002	3.301519e-003	-1.029636e-003
3689810.944	4.202706e-003	-1.553190e-003	9.985761e-001	-6.736173e-002	9.985376e-001	-6.718955e-002	3.473381e-003	-1.003797e-003
3752350.028	4.309926e-003	-1.513773e-003	9.984787e-001	-6.826670e-002	9.982989e-001	-6.829344e-002	3.405614e-003	-1.051569e-003
3814889.112	4.427905e-003	-1.385708e-003	9.983004e-001	-6.948201e-002	9.984846e-001	-6.966942e-002	3.333448e-003	-1.174472e-003
3877428.196	4.375846e-003	-1.359956e-003	9.984729e-001	-7.069146e-002	9.983529e-001	-7.060934e-002	3.666822e-003	-1.154508e-003
3939967.280	4.339349e-003	-1.655942e-003	9.983308e-001	-7.188840e-002	9.983699e-001	-7.174571e-002	3.636627e-003	-1.068680e-003
4002506.363	4.416300e-003	-1.515390e-003	9.983095e-001	-7.298734e-002	9.982119e-001	-7.277625e-002	3.585316e-003	-1.150864e-003
4065045.447	4.229534e-003	-1.613459e-003	9.980549e-001	-7.415124e-002	9.980182e-001	-7.403665e-002	3.673794e-003	-1.257381e-003
4127584.531	4.217003e-003	-1.622019e-003	9.979780e-001	-7.529113e-002	9.979600e-001	-7.507630e-002	3.699269e-003	-1.145113e-003
4190123.615	4.262323e-003	-1.612033e-003	9.979554e-001	-7.661721e-002	9.977795e-001	-7.637331e-002	3.597971e-003	-1.390871e-003
4252662.699	4.229862e-003	-1.706511e-003	9.980034e-001	-7.776545e-002	9.976380e-001	-7.763271e-002	3.715852e-003	-1.367279e-003
4315201.782	4.355964e-003	-1.754274e-003	9.978222e-001	-7.867983e-002	9.978203e-001	-7.874816e-002	3.528243e-003	-1.577159e-003
4377740.866	4.256736e-003	-1.791527e-003	9.978634e-001	-7.999218e-002	9.975422e-001	-7.986061e-002	3.719664e-003	-1.291333e-003
4440279.950	4.164170e-003	-1.947247e-003	9.977678e-001	-8.096332e-002	9.973741e-001	-8.091420e-002	3.616194e-003	-1.474350e-003
4502819.034	4.158360e-003	-1.830352e-003	9.974001e-001	-8.218275e-002	9.973913e-001	-8.203788e-002	3.691957e-003	-1.330112e-003
4565358.118	4.073809e-003	-1.892051e-003	9.973620e-001	-8.327669e-002	9.971437e-001	-8.302422e-002	3.697585e-003	-1.456527e-003
4627897.201	4.258595e-003	-1.780065e-003	9.974836e-001	-8.445466e-002	9.971509e-001	-8.415640e-002	3.807228e-003	-1.372618e-003
4690436.285	4.084610e-003	-1.925409e-003	9.973613e-001	-8.565603e-002	9.971300e-001	-8.568423e-002	3.804652e-003	-1.591778e-003
4752975.369	4.086398e-003	-1.950185e-003	9.970161e-001	-8.690398e-002	9.971195e-001	-8.668137e-002	3.626852e-003	-1.657235e-003
4815514.453	4.217532e-003	-1.967821e-003	9.971574e-001	-8.790922e-002	9.970046e-001	-8.791364e-002	3.851107e-003	-1.577920e-003
4878053.537	4.316926e-003	-2.077735e-003	9.970729e-001	-8.899820e-002	9.968707e-001	-8.890420e-002	3.819247e-003	-1.679448e-003
4940592.620	4.042815e-003	-2.056689e-003	9.968693e-001	-9.019724e-002	9.968101e-001	-9.015154e-002	3.580284e-003	-1.753638e-003
5003131.704	4.118851e-003	-2.225871e-003	9.967273e-001	-9.131329e-002	9.967676e-001	-9.102597e-002	3.717278e-003	-1.817949e-003
5065670.788	4.045540e-003	-2.052561e-003	9.966469e-001	-9.250797e-002	9.966100e-001	-9.226359e-002	3.695396e-003	-1.795312e-003
5128209.872	4.172911e-003	-2.208047e-003	9.967384e-001	-9.364565e-002	9.965136e-001	-9.341184e-002	3.665414e-003	-2.029113e-003
5190748.956	4.084867e-003	-2.236193e-003	9.965024e-001	-9.475591e-002	9.964563e-001	-9.466990e-002	3.638846e-003	-1.931000e-003
5253288.039	4.138085e-003	-2.320228e-003	9.964739e-001	-9.595091e-002	9.964059e-001	-9.577254e-002	3.564762e-003	-1.864860e-003
5315827.123	4.106787e-003	-2.400927e-003	9.961979e-001	-9.707647e-002	9.962350e-001	-9.693634e-002	3.552130e-003	-2.002442e-003
5378366.207	4.195035e-003	-2.375697e-003	9.962542e-001	-9.822198e-002	9.961463e-001	-9.825141e-002	3.547030e-003	-2.116802e-003
5440905.291	4.008049e-003	-2.321928e-003	9.962081e-001	-9.933802e-002	9.960490e-001	-9.929408e-002	3.436371e-003	-2.102642e-003
5503444.375	4.228816e-003	-2.509091e-003	9.960481e-001	-1.005821e-001	9.960072e-001	-1.002508e-001	3.629848e-003	-2.208801e-003
5565983.458	3.867422e-003	-2.408028e-003	9.959769e-001	-1.015909e-001	9.958834e-001	-1.013738e-001	3.562533e-003	-2.081037e-003
5628522.542	4.133826e-003	-2.525520e-003	9.958748e-001	-1.026573e-001	9.957652e-001	-1.026303e-001	3.596283e-003	-2.245598e-003
5691061.626	4.193214e-003	-2.730195e-003	9.956909e-001	-1.040507e-001	9.955709e-001	-1.037943e-001	3.504255e-003	-2.212337e-003
5753600.710	4.035391e-003	-2.681591e-003	9.954966e-001	-1.050662e-001	9.955147e-001	-1.048888e-001	3.554760e-003	-2.387033e-003
5816139.794	4.130764e-003	-2.522775e-003	9.955303e-001	-1.062400e-001	9.952203e-001	-1.062567e-001	3.417459e-003	-2.369649e-003
5878678.877	4.052690e-003	-2.789015e-003	9.953626e-001	-1.073874e-001	9.952138e-001	-1.072830e-001	3.527556e-003	-2.537369e-003
5941217.961	4.028881e-003	-2.900947e-003	9.951420e-001	-1.086192e-001	9.951183e-001	-1.082385e-001	3.338701e-003	-2.476977e-003
6003757.045	3.880669e-003	-2.705422e-003	9.949375e-001	-1.095897e-001	9.949790e-001	-1.094004e-001	3.456913e-003	-2.529136e-003
6066296.129	4.024329e-003	-2.925466e-003	9.950438e-001	-1.107717e-001	9.948929e-001	-1.105029e-001	3.437641e-003	-2.595304e-003
6128835.213	4.106928e-003	-2.936513e-003	9.948733e-001	-1.115950e-001	9.949034e-001	-1.117767e-001	3.533228e-003	-2.632593e-003
6191374.296	4.046142e-003	-2.999481e-003	9.947320e-001	-1.129961e-001	9.945752e-001	-1.130365e-001	3.374551e-003	-2.571501e-003
6253913.380	3.953946e-003	-2.906990e-003	9.946514e-001	-1.142242e-001	9.945049e-001	-1.139853e-001	3.255429e-003	-2.504749e-003
6316452.464	3.927879e-003	-2.872719e-003	9.945538e-001	-1.151968e-001	9.942613e-001	-1.153529e-001	3.303184e-003	-2.752102e-003
6378991.548	3.879751e-003	-3.044401e-003	9.943448e-001	-1.167050e-001	9.943439e-001	-1.163374e-001	3.360835e-003	-2.919177e-003
6441530.632	3.825272e-003	-3.176096e-003	9.941694e-001	-1.175557e-001	9.940914e-001	-1.175971e-001	3.390774e-003	-2.847269e-003
6504069.715	3.837316e-003	-3.229552e-003	9.939930e-001	-1.188759e-001	9.941219e-001	-1.186681e-001	3.405536e-003	-2.890484e-003
6566608.799	3.971262e-003	-3.327637e-003	9.940133e-001	-1.200899e-001	9.939039e-001	-1.198541e-001	3.315447e-003	-2.736404e-003
6629147.883	3.908525e-003	-3.239058e-003	9.938054e-001	-1.209160e-001	9.937059e-001	-1.209981e-001	3.409286e-003	-2.915694e-003
6691686.967	3.785829e-003	-3.249789e-003	9.935800e-001	-1.221573e-001	9.935074e-001	-1.221028e-001	3.419137e-003	-2.867140e-003
6754226.051	3.737365e-003	-3.301136e-003	9.934270e-001	-1.234148e-001	9.933195e-001	-1.234101e-001	3.212049e-003	-3.119517e-003
6816765.134	3.832542e-003	-3.354207e-003	9.933755e-001	-1.245000e-001	9.932951e-001	-1.244116e-001	3.263089e-003	-2.956702e-003
6879304.218	3.714648e-003	-3.548365e-003	9.931420e-001	-1.256585e-001	9.931431e-001	-1.255007e-001	3.253304e-003	-3.049001e-003
6941843.302	3.792297e-003	-3.419422e-003	9.930089e-001	-1.268288e-001	9.930302e-001	-1.266230e-001	3.242162e-003	-3.002614e-003
7004382.386	3.587313e-003	-3.392917e-003	9.929558e-001	-1.278153e-001	9.927958e-001	-1.278051e-001	3.158767e-003	-3.010855e-003
7066921.470	3.683553e-003	-3.485374e-003	9.927002e-001	-1.291641e-001	9.927366e-001	-1.287302e-001	3.316473e-003	-3.201420e-003
7129460.553	3.572521e-003	-3.633855e-003	9.926549e-001	-1.301049e-001	9.925958e-001	-1.300318e-001	3.319039e-003	-3.171500e-003
7191999.637	3.547583e-003	-3.424162e-003	9.922475e-001	-1.313303e-001	9.922559e-001	-1.311647e-001	3.168502e-003	-3.212246e-003
7254538.721	3.604496e-003	-3.575745e-003	9.924559e-001	-1.325077e-001	9.923204e-001	-1.323475e-001	3.200125e-003	-3.233233e-003
7317077.805	3.776082e-003	-3.635699e-003	9.922298e-001	-1.335010e-001	9.921638e-001	-1.334176e-001	3.187210e-003	-3.368927e-003
7379616.889	3.635894e-003	-3.671650e-003	9.922124e-001	-1.348719e-001	9.919252e-001	-1.345747e-001	3.123474e-003	-3.380592e-003
7442155.972	3.480522e-003	-3.704193e-003	9.918515e-001	-1.357976e-001	9.918245e-001	-1.356812e-001	3.213384e-003	-3.199162e-003
7504695.056	3.506203e-003	-3.830485e-003	9.916348e-001	-1.368830e-001	9.915017e-001	-1.369669e-001	3.236060e-003	-3.176899e-003
7567234.140	3.675524e-003	-3.942397e-003	9.916353e-001	-1.380035e-001	9.913742e-001	-1.380307e-001	3.157610e-003	-3.310267e-003
7629773.224	3.571427e-003	-3.664302e-003	9.915098e-001	-1.393181e-001	9.913738e-001	-1.391035e-001	3.074820e-003	-3.397846e-003
7692312.308	3.434087e-003	-3.774062e-003	9.913386e-001	-1.404464e-001	9.911134e-001	-1.403491e-001	3.117821e-003	-3.520491e-003
7754851.391	3.411104e-003	-3.966486e-003	9.911120e-001	-1.416089e-001	9.908579e-001	-1.412927e-001	3.052415e-003	-3.419371e-003
7817390.475	3.478254e-003	-3.786057e-003	9.909891e-001	-1.428658e-001	9.907285e-001	-1.426453e-001	2.967873e-003	-3.331913e-003
7879929.559	3.380190e-003	-4.007131e-003	9.906913e-001	-1.439825e-001	9.905426e-001	-1.439558e-001	3.088753e-003	-3.376579e-003
7942468.643	3.327877e-003	-4.091343e-003	9.906773e-001	-1.450283e-001	9.905320e-001	-1.450307e-001	3.055055e-003	-3.590715e-003
8005007.727	3.418909e-003	-4.096817e-003	9.903891e-001	-1.462154e-001	9.903673e-001	-1.461127e-001	2.958932e-003	-3.391107e-003
8067546.811	3.255704e-003	-4.090881e-003	9.902752e-001	-1.473421e-001	9.900281e-001	-1.471827e-001	2.860332e-003	-3.635954e-003
8130085.894	3.321435e-003	-4.178570e-003	9.900638e-001	-1.483908e-001	9.899499e-001	-1.483533e-001	3.070424e-003	-3.718205e-003
8192624.978	3.145354e-003	-4.279722e-003	9.897379e-001	-1.496876e-001	9.897537e-001	-1.494631e-001	3.105192e-003	-3.759333e-003
8255164.062	3.249781e-003	-4.286830e-003	9.896954e-001	-1.507809e-001	9.895486e-001	-1.505877e-001	3.061399e-003	-3.830464e-003
8317703.146	3.122212e-003	-4.212045e-003	9.895778e-001	-1.518983e-001	9.894899e-001	-1.517697e-001	2.871530e-003	-3.819351e-003
8380242.230	3.233301e-003	-4.477318e-003	9.892373e-001	-1.531257e-001	9.891959e-001	-1.528242e-001	2.827936e-003	-3.907733e-003
8442781.313	3.193214e-003	-4.479576e-003	9.893053e-001	-1.541856e-001	9.890961e-001	-1.539173e-001	2.789155e-003	-4.014522e-003
8505320.397	3.170494e-003	-4.378845e-003	9.890539e-001	-1.553549e-001	9.888944e-001	-1.551324e-001	2.727386e-003	-4.007684e-003
8567859.481	3.100498e-003	-4.256457e-003	9.888321e-001	-1.562826e-001	9.887764e-001	-1.562398e-001	2.751473e-003	-3.862965e-003
8630398.565	3.167180e-003	-4.331778e-003	9.884759e-001	-1.574078e-001	9.885754e-001	-1.573129e-001	2.614638e-003	-4.156529e-003
8692937.649	3.103971e-003	-4.579895e-003	9.884136e-001	-1.585341e-001	9.882263e-001	-1.585332e-001	2.541382e-003	-4.079990e-003
8755476.732	3.087059e-003	-4.542460e-003	9.882505e-001	-1.597908e-001	9.880816e-001	-1.595276e-001	2.593933e-003	-4.094813e-003
8818015.816	2.954066e-003	-4.614130e-003	9.880090e-001	-1.608902e-001	9.877245e-001	-1.607295e-001	2.687362e-003	-4.224536e-003
8880554.900	3.163179e-003	-4.602607e-003	9.879773e-001	-1.621047e-001	9.878361e-001	-1.616737e-001	2.526596e-003	-4.408381e-003
8943093.984	2.984062e-003	-4.535196e-003	9.877317e-001	-1.631445e-001	9.876537e-001	-1.628969e-001	2.538230e-003	-4.393227e-003
9005633.068	3.019007e-003	-4.663206e-003	9.874490e-001	-1.642990e-001	9.875374e-001	-1.641335e-001	2.418012e-003	-4.558291e-003
9068172.151	2.847564e-003	-4.692120e-003	9.873948e-001	-1.654603e-001	9.872010e-001	-1.651566e-001	2.456599e-003	-4.541144e-003
9130711.235	3.040887e-003	-4.803432e-003	9.870844e-001	-1.665748e-001	9.870624e-001	-1.662744e-001	2.486189e-003	-4.766803e-003
9193250.319	3.022136e-003	-4.852491e-003	9.870584e-001	-1.675469e-001	9.868163e-001	-1.674628e-001	2.384151e-003	-4.722091e-003
9255789.403	2.881798e-003	-5.042686e-003	9.868535e-001	-1.686009e-001	9.866287e-001	-1.685496e-001	2.228621e-003	-4.709977e-003
9318328.487	2.826258e-003	-4.980428e-003	9.866415e-001	-1.699621e-001	9.865753e-001	-1.696456e-001	2.336264e-003	-4.735821e-003
9380867.570	2.818122e-003	-4.896232e-003	9.864817e-001	-1.711041e-001	9.862155e-001	-1.709259e-001	2.304405e-003	-4.785852e-003
9443406.654	2.842026e-003	-4.932913e-003	9.862891e-001	-1.721306e-001	9.861668e-001	-1.720939e-001	2.315452e-003	-4.901143e-003
9505945.738	2.802250e-003	-4.943090e-003	9.858903e-001	-1.734862e-001	9.860307e-001	-1.732044e-001	2.254564e-003	-4.938748e-003
9568484.822	2.838612e-003	-5.019913e-003	9.858323e-001	-1.745392e-001	9.856273e-001	-1.743200e-001	2.031803e-003	-4.722622e-003
9631023.906	2.794467e-003	-5.026114e-003	9.856412e-001	-1.756390e-001	9.853937e-001	-1.754697e-001	2.194968e-003	-5.069189e-003
