!Agilent Technologies,E5061B,MY49102235,A.02.00
!Date: Tue Jul 11 16:19:04 2023
!Data & Calibration Information:
!Freq	S11:SOLT2(ON)	S21:SOLT2(ON)	S12:SOLT2(ON)	S22:SOLT2(ON)
# Hz S RI R 50
5.000	-5.254315e-003	-5.626189e-003	1.001625e+000	8.072815e-003	1.000326e+000	1.022570e-002	-1.489515e-003	-7.559758e-003
62544.084	5.828299e-003	-3.617726e-004	1.001345e+000	5.680151e-004	1.000861e+000	9.500652e-004	7.683785e-003	-2.742969e-003
125083.168	5.691020e-003	-2.328201e-004	1.000886e+000	-1.032656e-003	1.000761e+000	-1.055817e-003	7.503283e-003	-2.018489e-003
187622.251	5.466288e-003	7.085250e-005	1.000413e+000	-2.459459e-003	1.001008e+000	-1.343309e-003	7.377645e-003	-1.986096e-003
250161.335	5.287916e-003	3.425226e-004	1.000498e+000	-3.657803e-003	1.000715e+000	-3.649009e-003	7.266287e-003	-1.519390e-003
312700.419	5.429777e-003	1.193997e-003	1.000835e+000	-4.417257e-003	1.000585e+000	-4.209089e-003	7.789517e-003	-1.701814e-003
375239.503	5.315596e-003	-2.059026e-004	1.001016e+000	-5.886390e-003	1.000575e+000	-5.768138e-003	7.256170e-003	-1.728399e-003
437778.587	5.153461e-003	3.212521e-004	1.001352e+000	-6.140989e-003	1.001108e+000	-6.975478e-003	6.619758e-003	-1.329911e-003
500317.670	4.625046e-003	5.846918e-004	1.001086e+000	-8.659965e-003	1.001637e+000	-8.757083e-003	4.828959e-003	-1.008738e-003
562856.754	5.918954e-003	3.947012e-004	1.001357e+000	-1.039038e-002	1.001087e+000	-1.023313e-002	6.040565e-003	-4.038383e-004
625395.838	5.119930e-003	6.715191e-004	1.002192e+000	-1.167128e-002	1.002142e+000	-1.141260e-002	6.132374e-003	3.069632e-004
687934.922	5.166601e-003	4.830447e-004	1.001230e+000	-1.290714e-002	1.001322e+000	-1.305297e-002	5.773224e-003	-3.376338e-005
750474.006	4.362758e-003	9.239580e-004	1.000751e+000	-1.253503e-002	1.000850e+000	-1.230411e-002	5.548626e-003	2.454073e-004
813013.089	4.542052e-003	1.071857e-003	1.001139e+000	-1.424634e-002	1.000771e+000	-1.405626e-002	4.904389e-003	5.577383e-004
875552.173	4.288180e-003	1.359442e-003	1.001131e+000	-1.529198e-002	1.001041e+000	-1.541754e-002	5.697934e-003	2.776638e-004
938091.257	4.373240e-003	1.538558e-003	1.001071e+000	-1.693800e-002	1.001200e+000	-1.643519e-002	5.934302e-003	9.805361e-004
1000630.341	3.810122e-003	1.333942e-003	1.000661e+000	-1.841786e-002	1.001015e+000	-1.809387e-002	5.190876e-003	3.992478e-004
1063169.425	4.167839e-003	1.300158e-003	1.000998e+000	-1.985093e-002	1.000779e+000	-1.913904e-002	4.378023e-003	2.076577e-004
1125708.508	4.066704e-003	1.459163e-003	1.000788e+000	-2.118242e-002	1.000840e+000	-2.058986e-002	3.887531e-003	6.114986e-004
1188247.592	4.615756e-003	1.136662e-003	1.000966e+000	-2.246602e-002	1.001108e+000	-2.180847e-002	2.788423e-003	1.870939e-004
1250786.676	4.457116e-003	5.190843e-004	1.000600e+000	-2.252177e-002	1.000769e+000	-2.267813e-002	2.045217e-003	-1.354655e-003
1313325.760	4.572310e-003	5.514934e-004	1.000929e+000	-2.405745e-002	1.001133e+000	-2.448865e-002	2.800185e-003	-1.025789e-003
1375864.844	4.316889e-003	4.645220e-004	1.000701e+000	-2.623072e-002	1.000574e+000	-2.630383e-002	2.649531e-003	-6.124850e-004
1438403.927	4.208507e-003	4.368809e-004	1.000532e+000	-2.693048e-002	1.001020e+000	-2.632463e-002	2.754411e-003	-2.330019e-004
1500943.011	4.431509e-003	6.400100e-004	1.001066e+000	-2.787052e-002	1.001358e+000	-2.800393e-002	3.108952e-003	-5.284723e-004
1563482.095	4.450722e-003	3.731722e-004	1.000771e+000	-2.953778e-002	1.000652e+000	-2.875777e-002	3.238732e-003	-1.990623e-004
1626021.179	4.249706e-003	6.339165e-004	1.000585e+000	-3.076414e-002	1.001089e+000	-3.135272e-002	3.524924e-003	-1.169696e-004
1688560.263	3.967307e-003	8.168900e-004	1.000297e+000	-3.279944e-002	1.001373e+000	-3.291460e-002	3.712105e-003	-1.301797e-005
1751099.346	4.111884e-003	1.037468e-003	1.000941e+000	-3.380014e-002	1.000715e+000	-3.346452e-002	3.528250e-003	9.460085e-004
1813638.430	3.768511e-003	1.110840e-003	1.001126e+000	-3.559540e-002	1.000959e+000	-3.538103e-002	3.718511e-003	6.780550e-004
1876177.514	3.808524e-003	1.527782e-003	1.001437e+000	-3.655916e-002	1.001333e+000	-3.719265e-002	3.402045e-003	1.480602e-003
1938716.598	3.280695e-003	1.732225e-003	1.001641e+000	-3.760145e-002	1.001485e+000	-3.721928e-002	3.580664e-003	1.989025e-003
2001255.682	3.186881e-003	1.384450e-003	1.001669e+000	-3.906284e-002	1.001235e+000	-3.882871e-002	3.329233e-003	1.663148e-003
2063794.765	3.293841e-003	1.886638e-003	1.001220e+000	-4.029964e-002	1.000739e+000	-4.061541e-002	3.725661e-003	1.694548e-003
2126333.849	2.838393e-003	1.492730e-003	1.000577e+000	-4.154865e-002	1.000099e+000	-4.124306e-002	3.994492e-003	2.056679e-003
2188872.933	3.331070e-003	1.600623e-003	1.000312e+000	-4.282671e-002	1.000054e+000	-4.226172e-002	3.893515e-003	2.137274e-003
2251412.017	3.439579e-003	1.366615e-003	1.000149e+000	-4.444939e-002	1.000244e+000	-4.348223e-002	3.896772e-003	2.139873e-003
2313951.101	3.788455e-003	1.901897e-003	9.996918e-001	-4.564714e-002	1.000174e+000	-4.462599e-002	4.216519e-003	2.187397e-003
2376490.184	3.536072e-003	1.978608e-003	9.994810e-001	-4.618308e-002	1.000090e+000	-4.650272e-002	4.182126e-003	2.310786e-003
2439029.268	3.994926e-003	2.064804e-003	9.993232e-001	-4.806984e-002	9.992707e-001	-4.770125e-002	3.862517e-003	2.539370e-003
2501568.352	3.987785e-003	2.186829e-003	9.991512e-001	-4.833845e-002	1.000049e+000	-4.840514e-002	4.168216e-003	2.623738e-003
2564107.436	3.905980e-003	2.151869e-003	9.995541e-001	-5.014909e-002	9.998451e-001	-5.016497e-002	3.465427e-003	2.374043e-003
2626646.520	4.404442e-003	2.091324e-003	9.992676e-001	-5.140889e-002	9.985890e-001	-5.145928e-002	3.737894e-003	2.417177e-003
2689185.604	4.366721e-003	2.372345e-003	9.996859e-001	-5.236386e-002	9.994783e-001	-5.225891e-002	3.874829e-003	2.596819e-003
2751724.687	4.485153e-003	2.404136e-003	9.995120e-001	-5.312787e-002	9.993976e-001	-5.316491e-002	3.485500e-003	2.670356e-003
2814263.771	4.454033e-003	2.435973e-003	9.986134e-001	-5.518849e-002	9.990865e-001	-5.457621e-002	3.480535e-003	2.669097e-003
2876802.855	4.424152e-003	2.341455e-003	9.986802e-001	-5.671359e-002	9.989439e-001	-5.588676e-002	3.573126e-003	2.900036e-003
2939341.939	4.551360e-003	2.542486e-003	9.992512e-001	-5.736834e-002	9.988505e-001	-5.747624e-002	3.477770e-003	2.921760e-003
3001881.023	4.480207e-003	2.666338e-003	9.988876e-001	-5.844329e-002	9.988649e-001	-5.859545e-002	3.580617e-003	2.887929e-003
3064420.106	4.551746e-003	2.718586e-003	9.993751e-001	-5.966048e-002	9.986459e-001	-5.978665e-002	3.415758e-003	2.866068e-003
3126959.190	4.754132e-003	2.719365e-003	9.989740e-001	-6.111279e-002	9.988908e-001	-6.106405e-002	3.612352e-003	2.923242e-003
3189498.274	4.751396e-003	2.856910e-003	9.988694e-001	-6.219615e-002	9.987914e-001	-6.226676e-002	3.629400e-003	2.968411e-003
3252037.358	4.665641e-003	2.614946e-003	9.988846e-001	-6.351669e-002	9.988038e-001	-6.339633e-002	3.574607e-003	3.129650e-003
3314576.442	4.696794e-003	2.879927e-003	9.987797e-001	-6.464185e-002	9.986732e-001	-6.467247e-002	3.652235e-003	3.115163e-003
3377115.525	4.684370e-003	2.985100e-003	9.985638e-001	-6.581062e-002	9.984576e-001	-6.605050e-002	3.509682e-003	3.092453e-003
3439654.609	4.700975e-003	3.016353e-003	9.983456e-001	-6.703412e-002	9.986561e-001	-6.717521e-002	3.542612e-003	3.377042e-003
3502193.693	4.678915e-003	2.809015e-003	9.983368e-001	-6.837657e-002	9.983155e-001	-6.828915e-002	3.732388e-003	3.428817e-003
3564732.777	4.741297e-003	3.039191e-003	9.983423e-001	-6.950719e-002	9.983155e-001	-6.960040e-002	3.827400e-003	3.538213e-003
3627271.861	4.605210e-003	2.996458e-003	9.983797e-001	-7.086298e-002	9.983201e-001	-7.067182e-002	3.620693e-003	3.420529e-003
3689810.944	4.539351e-003	2.971305e-003	9.982008e-001	-7.206638e-002	9.982225e-001	-7.191170e-002	3.789458e-003	3.536183e-003
3752350.028	4.662370e-003	3.084015e-003	9.980584e-001	-7.303087e-002	9.979864e-001	-7.303287e-002	3.729265e-003	3.568331e-003
3814889.112	4.786080e-003	3.294015e-003	9.979033e-001	-7.431172e-002	9.981109e-001	-7.459763e-002	3.656831e-003	3.514571e-003
3877428.196	4.736535e-003	3.387301e-003	9.980197e-001	-7.561072e-002	9.979836e-001	-7.558534e-002	4.002760e-003	3.610171e-003
3939967.280	4.724913e-003	3.176433e-003	9.978939e-001	-7.689172e-002	9.980061e-001	-7.681580e-002	3.996800e-003	3.778406e-003
4002506.363	4.797158e-003	3.387448e-003	9.978591e-001	-7.808497e-002	9.977963e-001	-7.790785e-002	3.957566e-003	3.773311e-003
4065045.447	4.633833e-003	3.380080e-003	9.975597e-001	-7.934146e-002	9.976089e-001	-7.926927e-002	4.049436e-003	3.745384e-003
4127584.531	4.625566e-003	3.436484e-003	9.974858e-001	-8.051546e-002	9.975654e-001	-8.037826e-002	4.091615e-003	3.929213e-003
4190123.615	4.689039e-003	3.521741e-003	9.974644e-001	-8.196764e-002	9.973659e-001	-8.175610e-002	4.004869e-003	3.761842e-003
4252662.699	4.666447e-003	3.518707e-003	9.974710e-001	-8.316896e-002	9.972226e-001	-8.311917e-002	4.131726e-003	3.858478e-003
4315201.782	4.814709e-003	3.539870e-003	9.973049e-001	-8.414788e-002	9.974052e-001	-8.430077e-002	3.968841e-003	3.741331e-003
4377740.866	4.726291e-003	3.580990e-003	9.973090e-001	-8.556412e-002	9.970901e-001	-8.555158e-002	4.166141e-003	4.090661e-003
4440279.950	4.648229e-003	3.513767e-003	9.971818e-001	-8.660372e-002	9.968974e-001	-8.662415e-002	4.059612e-003	3.995737e-003
4502819.034	4.657424e-003	3.704388e-003	9.968598e-001	-8.791808e-002	9.969182e-001	-8.781669e-002	4.155312e-003	4.209938e-003
4565358.118	4.592446e-003	3.718075e-003	9.967751e-001	-8.912319e-002	9.966695e-001	-8.888317e-002	4.181227e-003	4.171472e-003
4627897.201	4.795275e-003	3.908779e-003	9.968585e-001	-9.033359e-002	9.966263e-001	-9.012433e-002	4.293821e-003	4.326405e-003
4690436.285	4.629167e-003	3.840824e-003	9.967488e-001	-9.164961e-002	9.966078e-001	-9.172283e-002	4.316902e-003	4.189942e-003
4752975.369	4.655124e-003	3.900386e-003	9.963736e-001	-9.295632e-002	9.965713e-001	-9.281732e-002	4.149060e-003	4.194416e-003
4815514.453	4.787911e-003	3.951080e-003	9.965199e-001	-9.406095e-002	9.964061e-001	-9.413295e-002	4.393117e-003	4.345666e-003
4878053.537	4.899335e-003	3.914169e-003	9.964201e-001	-9.524147e-002	9.962706e-001	-9.518885e-002	4.371888e-003	4.330614e-003
4940592.620	4.660409e-003	4.013837e-003	9.962090e-001	-9.651199e-002	9.962001e-001	-9.649379e-002	4.151014e-003	4.351173e-003
5003131.704	4.740124e-003	3.941326e-003	9.960286e-001	-9.768433e-002	9.961499e-001	-9.750152e-002	4.299908e-003	4.354534e-003
5065670.788	4.689157e-003	4.174549e-003	9.959128e-001	-9.899414e-002	9.959496e-001	-9.882357e-002	4.284738e-003	4.443235e-003
5128209.872	4.834361e-003	4.100398e-003	9.959899e-001	-1.002080e-001	9.958525e-001	-1.000383e-001	4.267650e-003	4.297282e-003
5190748.956	4.763621e-003	4.148419e-003	9.957906e-001	-1.014023e-001	9.957932e-001	-1.014041e-001	4.260136e-003	4.472512e-003
5253288.039	4.819369e-003	4.148785e-003	9.956727e-001	-1.026566e-001	9.956846e-001	-1.025471e-001	4.202916e-003	4.608826e-003
5315827.123	4.808178e-003	4.141386e-003	9.954289e-001	-1.038744e-001	9.955329e-001	-1.038330e-001	4.217550e-003	4.562417e-003
5378366.207	4.921644e-003	4.252254e-003	9.954372e-001	-1.051214e-001	9.954128e-001	-1.051952e-001	4.217069e-003	4.526983e-003
5440905.291	4.755022e-003	4.382207e-003	9.953767e-001	-1.063268e-001	9.953064e-001	-1.063051e-001	4.126427e-003	4.614985e-003
5503444.375	4.991139e-003	4.268633e-003	9.952090e-001	-1.076223e-001	9.952674e-001	-1.074019e-001	4.339312e-003	4.585171e-003
5565983.458	4.647920e-003	4.437962e-003	9.951089e-001	-1.087532e-001	9.950966e-001	-1.085802e-001	4.290377e-003	4.792836e-003
5628522.542	4.923101e-003	4.405958e-003	9.949908e-001	-1.098930e-001	9.949885e-001	-1.099397e-001	4.341134e-003	4.722920e-003
5691061.626	5.002857e-003	4.281113e-003	9.948288e-001	-1.113491e-001	9.948000e-001	-1.112219e-001	4.270817e-003	4.811715e-003
5753600.710	4.877072e-003	4.414859e-003	9.945963e-001	-1.124418e-001	9.946956e-001	-1.123709e-001	4.343956e-003	4.728818e-003
5816139.794	4.995638e-003	4.644808e-003	9.945894e-001	-1.137130e-001	9.943859e-001	-1.137861e-001	4.205480e-003	4.824894e-003
5878678.877	4.914182e-003	4.457311e-003	9.943825e-001	-1.149252e-001	9.943461e-001	-1.149043e-001	4.337274e-003	4.736820e-003
5941217.961	4.915883e-003	4.432505e-003	9.942217e-001	-1.162487e-001	9.942326e-001	-1.159455e-001	4.156431e-003	4.885854e-003
6003757.045	4.797698e-003	4.710413e-003	9.939574e-001	-1.172845e-001	9.940877e-001	-1.171737e-001	4.319722e-003	4.900878e-003
6066296.129	4.933578e-003	4.558350e-003	9.940307e-001	-1.185531e-001	9.939571e-001	-1.183733e-001	4.312330e-003	4.918773e-003
6128835.213	5.061568e-003	4.623860e-003	9.938776e-001	-1.194945e-001	9.939457e-001	-1.197235e-001	4.414923e-003	4.963994e-003
6191374.296	5.023761e-003	4.638458e-003	9.936617e-001	-1.209078e-001	9.936109e-001	-1.210736e-001	4.283817e-003	5.105405e-003
6253913.380	4.954459e-003	4.805164e-003	9.935511e-001	-1.222697e-001	9.935123e-001	-1.221507e-001	4.179077e-003	5.250309e-003
6316452.464	4.943839e-003	4.934392e-003	9.934390e-001	-1.233465e-001	9.932608e-001	-1.235437e-001	4.245481e-003	5.065270e-003
6378991.548	4.921812e-003	4.824015e-003	9.932187e-001	-1.249026e-001	9.932697e-001	-1.246542e-001	4.324844e-003	4.997874e-003
6441530.632	4.900636e-003	4.791147e-003	9.930051e-001	-1.258306e-001	9.930892e-001	-1.259942e-001	4.383474e-003	5.150987e-003
6504069.715	4.906361e-003	4.801215e-003	9.928623e-001	-1.273016e-001	9.930493e-001	-1.271424e-001	4.419069e-003	5.187314e-003
6566608.799	5.071829e-003	4.775704e-003	9.928439e-001	-1.285339e-001	9.927348e-001	-1.283859e-001	4.341299e-003	5.431088e-003
6629147.883	5.036808e-003	4.975416e-003	9.926086e-001	-1.294542e-001	9.925728e-001	-1.296209e-001	4.437947e-003	5.324443e-003
6691686.967	4.929283e-003	5.026254e-003	9.923165e-001	-1.308005e-001	9.923799e-001	-1.308218e-001	4.496072e-003	5.431987e-003
6754226.051	4.897986e-003	5.045734e-003	9.921953e-001	-1.321370e-001	9.921422e-001	-1.322127e-001	4.306537e-003	5.289252e-003
6816765.134	5.018469e-003	5.079296e-003	9.921239e-001	-1.332694e-001	9.920592e-001	-1.332627e-001	4.386289e-003	5.522043e-003
6879304.218	4.917589e-003	4.959976e-003	9.918469e-001	-1.345077e-001	9.919553e-001	-1.345000e-001	4.389551e-003	5.506454e-003
6941843.302	5.027901e-003	5.174449e-003	9.916919e-001	-1.357838e-001	9.917559e-001	-1.356670e-001	4.402754e-003	5.628833e-003
7004382.386	4.857698e-003	5.288085e-003	9.915878e-001	-1.368973e-001	9.915466e-001	-1.368816e-001	4.339727e-003	5.706475e-003
7066921.470	4.968771e-003	5.273688e-003	9.913399e-001	-1.382506e-001	9.914460e-001	-1.379557e-001	4.523630e-003	5.598735e-003
7129460.553	4.880245e-003	5.196426e-003	9.912551e-001	-1.392741e-001	9.912417e-001	-1.393340e-001	4.534028e-003	5.691854e-003
7191999.637	4.897727e-003	5.490744e-003	9.908268e-001	-1.406035e-001	9.909317e-001	-1.405319e-001	4.418106e-003	5.745837e-003
7254538.721	4.977455e-003	5.417755e-003	9.910116e-001	-1.418724e-001	9.909560e-001	-1.418088e-001	4.484356e-003	5.800461e-003
7317077.805	5.156826e-003	5.423372e-003	9.907613e-001	-1.429608e-001	9.907632e-001	-1.429822e-001	4.486017e-003	5.735451e-003
7379616.889	5.045844e-003	5.476849e-003	9.907179e-001	-1.443899e-001	9.905276e-001	-1.442034e-001	4.451360e-003	5.814810e-003
7442155.972	4.914658e-003	5.519881e-003	9.903576e-001	-1.454494e-001	9.903863e-001	-1.453775e-001	4.561585e-003	6.076088e-003
7504695.056	4.973925e-003	5.473226e-003	9.900466e-001	-1.465977e-001	9.900681e-001	-1.467734e-001	4.611836e-003	6.181396e-003
7567234.140	5.166316e-003	5.443292e-003	9.900313e-001	-1.478083e-001	9.898947e-001	-1.478974e-001	4.556786e-003	6.132625e-003
7629773.224	5.110730e-003	5.792047e-003	9.898952e-001	-1.491924e-001	9.898618e-001	-1.490686e-001	4.499835e-003	6.119440e-003
7692312.308	4.983592e-003	5.771919e-003	9.896923e-001	-1.503804e-001	9.895598e-001	-1.503797e-001	4.573475e-003	6.072309e-003
7754851.391	4.985991e-003	5.659812e-003	9.894756e-001	-1.516432e-001	9.892818e-001	-1.514110e-001	4.535724e-003	6.264568e-003
7817390.475	5.090419e-003	5.911781e-003	9.893018e-001	-1.530112e-001	9.891194e-001	-1.528701e-001	4.491460e-003	6.417216e-003
7879929.559	5.024075e-003	5.785724e-003	9.889975e-001	-1.542010e-001	9.889204e-001	-1.541890e-001	4.626829e-003	6.457839e-003
7942468.643	4.988759e-003	5.785487e-003	9.889448e-001	-1.553333e-001	9.888417e-001	-1.554088e-001	4.618897e-003	6.332513e-003
8005007.727	5.107964e-003	5.848649e-003	9.886305e-001	-1.566510e-001	9.886645e-001	-1.565878e-001	4.557010e-003	6.616323e-003
8067546.811	4.983156e-003	5.942351e-003	9.884367e-001	-1.578077e-001	9.883142e-001	-1.576985e-001	4.485619e-003	6.463146e-003
8130085.894	5.081080e-003	5.923543e-003	9.882305e-001	-1.589780e-001	9.881998e-001	-1.589835e-001	4.712278e-003	6.439375e-003
8192624.978	4.922113e-003	5.914781e-003	9.878685e-001	-1.603211e-001	9.879748e-001	-1.601989e-001	4.784881e-003	6.478457e-003
8255164.062	5.059820e-003	5.980486e-003	9.878000e-001	-1.614499e-001	9.877418e-001	-1.614108e-001	4.769309e-003	6.489722e-003
8317703.146	4.960028e-003	6.148171e-003	9.876338e-001	-1.626865e-001	9.876549e-001	-1.626427e-001	4.610447e-003	6.588147e-003
8380242.230	5.102391e-003	5.948911e-003	9.873021e-001	-1.640284e-001	9.873159e-001	-1.637854e-001	4.591129e-003	6.594194e-003
8442781.313	5.089793e-003	6.042227e-003	9.873338e-001	-1.650998e-001	9.871900e-001	-1.649991e-001	4.588666e-003	6.554830e-003
8505320.397	5.094539e-003	6.216952e-003	9.870511e-001	-1.663898e-001	9.869168e-001	-1.662323e-001	4.555248e-003	6.653969e-003
8567859.481	5.063581e-003	6.423342e-003	9.867859e-001	-1.674028e-001	9.867986e-001	-1.674501e-001	4.613141e-003	6.867571e-003
8630398.565	5.177624e-003	6.415807e-003	9.864076e-001	-1.686114e-001	9.865833e-001	-1.686192e-001	4.512982e-003	6.659305e-003
8692937.649	5.131989e-003	6.250492e-003	9.862702e-001	-1.698330e-001	9.861740e-001	-1.698759e-001	4.464274e-003	6.815361e-003
8755476.732	5.179472e-003	6.367244e-003	9.861054e-001	-1.711955e-001	9.860117e-001	-1.710094e-001	4.552604e-003	6.875150e-003
8818015.816	5.062217e-003	6.371878e-003	9.857820e-001	-1.723673e-001	9.856227e-001	-1.722664e-001	4.664762e-003	6.837812e-003
8880554.900	5.300774e-003	6.453887e-003	9.857546e-001	-1.736380e-001	9.856963e-001	-1.733561e-001	4.551968e-003	6.726738e-003
8943093.984	5.152652e-003	6.616400e-003	9.854528e-001	-1.747316e-001	9.854983e-001	-1.746143e-001	4.576488e-003	6.830489e-003
9005633.068	5.229558e-003	6.560755e-003	9.851424e-001	-1.760103e-001	9.853075e-001	-1.759580e-001	4.497992e-003	6.754658e-003
9068172.151	5.089785e-003	6.614206e-003	9.850455e-001	-1.772275e-001	9.849636e-001	-1.770564e-001	4.567662e-003	6.850070e-003
9130711.235	5.325047e-003	6.584235e-003	9.847160e-001	-1.784520e-001	9.847449e-001	-1.782525e-001	4.621731e-003	6.690366e-003
9193250.319	5.329218e-003	6.605715e-003	9.846206e-001	-1.795322e-001	9.844953e-001	-1.795611e-001	4.561276e-003	6.825240e-003
9255789.403	5.243898e-003	6.511044e-003	9.844445e-001	-1.806349e-001	9.842933e-001	-1.806606e-001	4.448841e-003	6.923310e-003
9318328.487	5.206149e-003	6.658767e-003	9.841510e-001	-1.821123e-001	9.841885e-001	-1.818666e-001	4.567026e-003	6.972762e-003
9380867.570	5.235404e-003	6.818333e-003	9.839648e-001	-1.833349e-001	9.837966e-001	-1.832338e-001	4.592363e-003	6.993090e-003
9443406.654	5.306112e-003	6.858900e-003	9.837325e-001	-1.844648e-001	9.836769e-001	-1.844392e-001	4.628022e-003	6.970294e-003
9505945.738	5.305182e-003	6.926304e-003	9.833089e-001	-1.858125e-001	9.835004e-001	-1.856324e-001	4.612540e-003	7.012977e-003
9568484.822	5.369440e-003	6.921660e-003	9.832175e-001	-1.870093e-001	9.830235e-001	-1.868558e-001	4.428528e-003	7.308865e-003
9631023.906	5.366211e-003	6.988625e-003	9.830137e-001	-1.882161e-001	9.827404e-001	-1.880636e-001	4.619300e-003	7.036460e-003
9693562.989	5.408095e-003	7.011008e-003	9.826222e-001	-1.894253e-001	9.826342e-001	-1.892365e-001	4.390890e-003	7.207283e-003
9756102.073	5.411422e-003	7.018301e-003	9.826385e-001	-1.906365e-001	9.824542e-001	-1.903754e-001	4.454696e-003	7.113787e-003
