!Agilent Technologies,E5061B,MY49102235,A.02.00
!Date: Tue Jul 11 16:36:44 2023
!Data & Calibration Information:
!Freq	S11:SOLT2(ON)	S21:SOLT2(ON)	S12:SOLT2(ON)	S22:SOLT2(ON)
# Hz S RI R 50
5.000	-5.109751e-003	-5.640953e-003	1.001631e+000	8.055571e-003	1.000332e+000	1.022772e-002	-1.476452e-003	-7.539712e-003
62544.084	5.822168e-003	-1.181734e-004	1.001400e+000	3.063700e-004	1.000954e+000	8.153740e-004	7.701030e-003	-2.519596e-003
125083.168	5.704975e-003	2.710998e-004	1.000836e+000	-1.538375e-003	1.000836e+000	-1.554548e-003	7.514872e-003	-1.532497e-003
187622.251	5.489655e-003	8.488998e-004	1.000326e+000	-3.324079e-003	1.000888e+000	-1.997791e-003	7.417528e-003	-1.245416e-003
250161.335	5.295647e-003	1.321088e-003	1.000696e+000	-4.607773e-003	1.000631e+000	-4.650274e-003	7.294216e-003	-5.309308e-004
312700.419	5.480784e-003	2.444732e-003	1.000720e+000	-5.686701e-003	1.000666e+000	-5.386105e-003	7.816597e-003	-4.699945e-004
375239.503	5.344160e-003	1.293013e-003	1.001029e+000	-7.470341e-003	1.000525e+000	-7.224666e-003	7.300777e-003	-2.529260e-004
437778.587	5.221985e-003	2.070821e-003	1.001254e+000	-7.999358e-003	1.000959e+000	-8.733975e-003	6.689444e-003	4.042753e-004
500317.670	4.660611e-003	2.556511e-003	1.001231e+000	-1.077743e-002	1.001622e+000	-1.065630e-002	4.887826e-003	9.648836e-004
562856.754	6.006696e-003	2.625050e-003	1.001318e+000	-1.267176e-002	1.001085e+000	-1.250463e-002	6.117424e-003	1.820583e-003
625395.838	5.209887e-003	3.140162e-003	1.002113e+000	-1.423046e-002	1.002118e+000	-1.384310e-002	6.225096e-003	2.748465e-003
687934.922	5.294943e-003	3.191243e-003	1.001111e+000	-1.556580e-002	1.001006e+000	-1.571167e-002	5.905785e-003	2.654551e-003
750474.006	4.524599e-003	3.867545e-003	1.000618e+000	-1.527895e-002	1.000779e+000	-1.523844e-002	5.710002e-003	3.201342e-003
813013.089	4.726743e-003	4.266590e-003	1.001008e+000	-1.749618e-002	1.000447e+000	-1.719204e-002	5.084935e-003	3.754553e-003
875552.173	4.482342e-003	4.803167e-003	1.000900e+000	-1.880181e-002	1.000910e+000	-1.891134e-002	5.890682e-003	3.710291e-003
938091.257	4.581853e-003	5.238594e-003	1.000876e+000	-2.064831e-002	1.001002e+000	-2.033679e-002	6.152672e-003	4.643295e-003
1000630.341	4.047527e-003	5.235312e-003	1.000488e+000	-2.241820e-002	1.000775e+000	-2.215788e-002	5.418365e-003	4.316707e-003
1063169.425	4.432404e-003	5.459251e-003	1.000857e+000	-2.417581e-002	1.000461e+000	-2.340619e-002	4.620190e-003	4.370037e-003
1125708.508	4.341353e-003	5.867578e-003	1.000693e+000	-2.564716e-002	1.000625e+000	-2.502252e-002	4.154822e-003	5.029820e-003
1188247.592	4.909486e-003	5.781939e-003	1.000781e+000	-2.715206e-002	1.000835e+000	-2.659707e-002	3.084184e-003	4.845620e-003
1250786.676	4.757218e-003	5.414804e-003	1.000303e+000	-2.739565e-002	1.000499e+000	-2.753729e-002	2.343252e-003	3.556206e-003
1313325.760	4.903810e-003	5.682145e-003	1.000615e+000	-2.925911e-002	1.000684e+000	-2.960991e-002	3.110797e-003	4.121146e-003
1375864.844	4.680714e-003	5.855792e-003	1.000303e+000	-3.170096e-002	1.000309e+000	-3.179015e-002	3.005659e-003	4.777968e-003
1438403.927	4.584318e-003	6.074933e-003	1.000292e+000	-3.265148e-002	1.000650e+000	-3.201760e-002	3.121552e-003	5.403198e-003
1500943.011	4.864138e-003	6.484906e-003	1.000783e+000	-3.387528e-002	1.001087e+000	-3.386149e-002	3.495154e-003	5.345571e-003
1563482.095	4.874232e-003	6.487578e-003	1.000408e+000	-3.562929e-002	1.000255e+000	-3.499751e-002	3.669968e-003	5.913613e-003
1626021.179	4.714924e-003	6.988364e-003	1.000277e+000	-3.728306e-002	1.000562e+000	-3.783942e-002	3.979779e-003	6.221970e-003
1688560.263	4.454014e-003	7.425324e-003	1.000031e+000	-3.935371e-002	1.000822e+000	-3.942411e-002	4.181899e-003	6.585405e-003
1751099.346	4.624574e-003	7.887170e-003	1.000510e+000	-4.087805e-002	1.000123e+000	-4.044065e-002	4.055822e-003	7.786412e-003
1813638.430	4.309110e-003	8.212974e-003	1.000740e+000	-4.280145e-002	1.000454e+000	-4.260193e-002	4.264221e-003	7.790522e-003
1876177.514	4.393596e-003	8.866391e-003	1.000935e+000	-4.401114e-002	1.000706e+000	-4.458818e-002	3.992025e-003	8.821648e-003
1938716.598	3.890618e-003	9.324031e-003	1.001109e+000	-4.535105e-002	1.000631e+000	-4.483423e-002	4.200092e-003	9.581211e-003
2001255.682	3.840535e-003	9.215570e-003	1.000960e+000	-4.717381e-002	1.000561e+000	-4.682002e-002	3.994072e-003	9.508448e-003
2063794.765	3.959128e-003	9.970885e-003	1.000602e+000	-4.846936e-002	9.999571e-001	-4.874431e-002	4.414199e-003	9.767783e-003
2126333.849	3.537991e-003	9.841061e-003	1.000101e+000	-4.997685e-002	9.994721e-001	-4.962502e-002	4.722124e-003	1.038270e-002
2188872.933	4.081449e-003	1.018735e-002	9.996257e-001	-5.159616e-002	9.992210e-001	-5.093302e-002	4.643354e-003	1.070470e-002
2251412.017	4.208896e-003	1.019706e-002	9.994516e-001	-5.339678e-002	9.993359e-001	-5.246254e-002	4.678864e-003	1.096343e-002
2313951.101	4.594632e-003	1.097817e-002	9.988832e-001	-5.471321e-002	9.994504e-001	-5.356454e-002	5.027301e-003	1.126425e-002
2376490.184	4.388952e-003	1.132378e-002	9.987375e-001	-5.557901e-002	9.991438e-001	-5.589941e-002	5.049267e-003	1.162745e-002
2439029.268	4.897726e-003	1.164102e-002	9.985359e-001	-5.776332e-002	9.981879e-001	-5.730317e-002	4.772550e-003	1.211569e-002
2501568.352	4.936687e-003	1.201614e-002	9.983082e-001	-5.821642e-002	9.991204e-001	-5.841554e-002	5.134963e-003	1.245142e-002
2564107.436	4.899762e-003	1.224482e-002	9.985603e-001	-6.042585e-002	9.986991e-001	-6.026194e-002	4.449860e-003	1.246874e-002
2626646.520	5.416152e-003	1.240897e-002	9.983295e-001	-6.199633e-002	9.975394e-001	-6.179707e-002	4.786444e-003	1.276805e-002
2689185.604	5.434944e-003	1.295010e-002	9.986598e-001	-6.306934e-002	9.982285e-001	-6.285490e-002	4.951902e-003	1.319103e-002
2751724.687	5.605107e-003	1.322645e-002	9.983996e-001	-6.426624e-002	9.981917e-001	-6.410130e-002	4.613314e-003	1.354437e-002
2814263.771	5.603117e-003	1.353989e-002	9.975124e-001	-6.634517e-002	9.978603e-001	-6.574193e-002	4.659262e-003	1.378023e-002
2876802.855	5.618658e-003	1.371210e-002	9.975647e-001	-6.829647e-002	9.978771e-001	-6.725940e-002	4.809493e-003	1.428547e-002
2939341.939	5.792440e-003	1.416393e-002	9.979812e-001	-6.905582e-002	9.976404e-001	-6.924042e-002	4.768005e-003	1.455504e-002
3001881.023	5.781041e-003	1.454220e-002	9.976089e-001	-7.061033e-002	9.974472e-001	-7.061574e-002	4.911333e-003	1.479757e-002
3064420.106	5.904958e-003	1.487045e-002	9.981824e-001	-7.206660e-002	9.973786e-001	-7.193615e-002	4.807318e-003	1.504903e-002
3126959.190	6.168996e-003	1.513308e-002	9.976196e-001	-7.365483e-002	9.974572e-001	-7.357971e-002	5.051786e-003	1.535211e-002
3189498.274	6.209203e-003	1.553253e-002	9.974307e-001	-7.501362e-002	9.973084e-001	-7.505288e-002	5.112523e-003	1.566287e-002
3252037.358	6.179782e-003	1.554691e-002	9.974866e-001	-7.658927e-002	9.972999e-001	-7.648078e-002	5.125753e-003	1.608921e-002
3314576.442	6.275208e-003	1.609415e-002	9.973056e-001	-7.796186e-002	9.971115e-001	-7.799979e-002	5.259068e-003	1.634338e-002
3377115.525	6.315152e-003	1.646926e-002	9.970027e-001	-7.942703e-002	9.967587e-001	-7.965515e-002	5.173387e-003	1.659111e-002
3439654.609	6.398842e-003	1.677394e-002	9.967326e-001	-8.094839e-002	9.969653e-001	-8.101496e-002	5.276039e-003	1.715393e-002
3502193.693	6.430954e-003	1.683820e-002	9.966818e-001	-8.257874e-002	9.965332e-001	-8.240282e-002	5.521773e-003	1.746800e-002
3564732.777	6.563729e-003	1.734492e-002	9.966282e-001	-8.397321e-002	9.964500e-001	-8.399844e-002	5.686283e-003	1.785315e-002
3627271.861	6.500737e-003	1.757804e-002	9.965679e-001	-8.560414e-002	9.964691e-001	-8.542822e-002	5.525063e-003	1.803699e-002
3689810.944	6.476235e-003	1.782719e-002	9.963104e-001	-8.708161e-002	9.962323e-001	-8.688162e-002	5.783880e-003	1.839758e-002
3752350.028	6.675215e-003	1.822855e-002	9.961557e-001	-8.836325e-002	9.959635e-001	-8.835285e-002	5.803124e-003	1.872134e-002
3814889.112	6.881094e-003	1.871161e-002	9.959080e-001	-8.991795e-002	9.960314e-001	-9.014773e-002	5.803968e-003	1.895385e-002
3877428.196	6.908463e-003	1.908612e-002	9.958591e-001	-9.146248e-002	9.958443e-001	-9.137364e-002	6.213845e-003	1.931545e-002
3939967.280	6.971855e-003	1.917087e-002	9.957200e-001	-9.303729e-002	9.957041e-001	-9.294286e-002	6.297210e-003	1.977175e-002
4002506.363	7.134779e-003	1.965846e-002	9.955680e-001	-9.451807e-002	9.955027e-001	-9.429990e-002	6.333760e-003	2.005735e-002
4065045.447	7.056111e-003	1.993681e-002	9.952328e-001	-9.606359e-002	9.951751e-001	-9.593960e-002	6.507868e-003	2.030174e-002
4127584.531	7.109560e-003	2.029007e-002	9.950526e-001	-9.755507e-002	9.950807e-001	-9.735111e-002	6.640956e-003	2.078221e-002
4190123.615	7.280817e-003	2.067073e-002	9.949599e-001	-9.924744e-002	9.947793e-001	-9.903627e-002	6.628306e-003	2.092163e-002
4252662.699	7.321792e-003	2.095003e-002	9.948256e-001	-1.007932e-001	9.945372e-001	-1.006303e-001	6.837640e-003	2.130123e-002
4315201.782	7.579697e-003	2.127471e-002	9.946330e-001	-1.020985e-001	9.946331e-001	-1.021517e-001	6.763957e-003	2.147673e-002
4377740.866	7.582446e-003	2.161507e-002	9.945414e-001	-1.037752e-001	9.942440e-001	-1.036679e-001	7.074117e-003	2.213137e-002
4440279.950	7.600822e-003	2.184418e-002	9.943065e-001	-1.051324e-001	9.939200e-001	-1.050821e-001	7.069101e-003	2.234100e-002
4502819.034	7.711510e-003	2.233491e-002	9.938345e-001	-1.067415e-001	9.938660e-001	-1.066168e-001	7.273091e-003	2.284411e-002
4565358.118	7.743967e-003	2.265167e-002	9.936468e-001	-1.082135e-001	9.934758e-001	-1.079226e-001	7.390135e-003	2.309651e-002
4627897.201	8.062235e-003	2.313344e-002	9.936278e-001	-1.098170e-001	9.933522e-001	-1.094971e-001	7.651855e-003	2.356280e-002
4690436.285	8.011494e-003	2.339988e-002	9.934202e-001	-1.113770e-001	9.931867e-001	-1.113903e-001	7.761580e-003	2.373562e-002
4752975.369	8.156942e-003	2.374727e-002	9.929314e-001	-1.130247e-001	9.930539e-001	-1.128287e-001	7.703528e-003	2.406124e-002
4815514.453	8.419242e-003	2.412287e-002	9.929070e-001	-1.144526e-001	9.927629e-001	-1.144742e-001	8.078239e-003	2.450850e-002
4878053.537	8.641639e-003	2.440726e-002	9.927461e-001	-1.159245e-001	9.925138e-001	-1.157822e-001	8.177092e-003	2.481617e-002
4940592.620	8.527342e-003	2.481348e-002	9.923304e-001	-1.175069e-001	9.922894e-001	-1.174824e-001	8.092302e-003	2.515664e-002
5003131.704	8.748381e-003	2.504782e-002	9.921468e-001	-1.190005e-001	9.921307e-001	-1.187821e-001	8.368484e-003	2.546392e-002
5065670.788	8.845839e-003	2.562010e-002	9.918375e-001	-1.206153e-001	9.917707e-001	-1.203993e-001	8.496761e-003	2.587300e-002
5128209.872	9.112243e-003	2.584166e-002	9.917621e-001	-1.221313e-001	9.915039e-001	-1.219557e-001	8.617979e-003	2.604561e-002
5190748.956	9.185137e-003	2.622120e-002	9.913626e-001	-1.236753e-001	9.912943e-001	-1.236333e-001	8.765959e-003	2.654821e-002
5253288.039	9.413557e-003	2.654735e-002	9.911974e-001	-1.252660e-001	9.910070e-001	-1.251204e-001	8.864536e-003	2.699541e-002
5315827.123	9.543064e-003	2.685666e-002	9.907130e-001	-1.268217e-001	9.907382e-001	-1.267125e-001	9.021166e-003	2.727843e-002
5378366.207	9.816794e-003	2.727776e-002	9.906074e-001	-1.283466e-001	9.904647e-001	-1.284508e-001	9.182718e-003	2.756366e-002
5440905.291	9.835056e-003	2.774320e-002	9.903136e-001	-1.299174e-001	9.901693e-001	-1.298627e-001	9.271523e-003	2.800154e-002
5503444.375	1.022919e-002	2.794687e-002	9.900047e-001	-1.315509e-001	9.899225e-001	-1.312643e-001	9.656230e-003	2.827489e-002
5565983.458	1.007696e-002	2.847122e-002	9.896882e-001	-1.329916e-001	9.896006e-001	-1.327609e-001	9.801113e-003	2.882408e-002
5628522.542	1.054137e-002	2.875144e-002	9.894284e-001	-1.344729e-001	9.893175e-001	-1.344978e-001	1.003795e-002	2.905669e-002
5691061.626	1.081016e-002	2.894932e-002	9.890226e-001	-1.362247e-001	9.889001e-001	-1.361061e-001	1.015698e-002	2.949075e-002
5753600.710	1.087986e-002	2.941162e-002	9.886129e-001	-1.376620e-001	9.886265e-001	-1.375608e-001	1.042570e-002	2.974395e-002
5816139.794	1.121833e-002	2.996456e-002	9.883307e-001	-1.392525e-001	9.880632e-001	-1.393396e-001	1.050741e-002	3.016502e-002
5878678.877	1.133445e-002	3.011501e-002	9.879885e-001	-1.408186e-001	9.878470e-001	-1.407217e-001	1.084123e-002	3.039764e-002
5941217.961	1.156783e-002	3.041685e-002	9.875383e-001	-1.424539e-001	9.875127e-001	-1.421185e-001	1.090185e-002	3.088398e-002
6003757.045	1.169137e-002	3.102948e-002	9.870679e-001	-1.438565e-001	9.871394e-001	-1.436872e-001	1.126302e-002	3.122209e-002
6066296.129	1.205376e-002	3.119273e-002	9.869113e-001	-1.454346e-001	9.867662e-001	-1.452547e-001	1.150986e-002	3.156883e-002
6128835.213	1.240484e-002	3.157313e-002	9.865394e-001	-1.467046e-001	9.865179e-001	-1.469072e-001	1.186691e-002	3.192664e-002
6191374.296	1.262257e-002	3.193085e-002	9.860356e-001	-1.484467e-001	9.859366e-001	-1.485604e-001	1.197759e-002	3.238811e-002
6253913.380	1.280441e-002	3.241150e-002	9.856740e-001	-1.501120e-001	9.855598e-001	-1.499747e-001	1.215506e-002	3.287196e-002
6316452.464	1.307171e-002	3.285755e-002	9.853014e-001	-1.515283e-001	9.850214e-001	-1.516599e-001	1.244605e-002	3.300834e-002
6378991.548	1.331702e-002	3.306075e-002	9.848062e-001	-1.533704e-001	9.848259e-001	-1.530855e-001	1.279054e-002	3.323946e-002
6441530.632	1.354617e-002	3.334283e-002	9.843490e-001	-1.546214e-001	9.843135e-001	-1.547519e-001	1.313572e-002	3.371015e-002
6504069.715	1.385047e-002	3.367724e-002	9.838774e-001	-1.564204e-001	9.840439e-001	-1.562010e-001	1.346875e-002	3.405389e-002
6566608.799	1.430157e-002	3.394148e-002	9.835738e-001	-1.579865e-001	9.834101e-001	-1.577727e-001	1.368486e-002	3.460038e-002
6629147.883	1.457996e-002	3.443210e-002	9.830317e-001	-1.591998e-001	9.829064e-001	-1.592943e-001	1.408968e-002	3.479136e-002
6691686.967	1.479268e-002	3.478319e-002	9.824523e-001	-1.608159e-001	9.824077e-001	-1.608080e-001	1.444652e-002	3.520970e-002
6754226.051	1.505436e-002	3.511089e-002	9.820194e-001	-1.624509e-001	9.818686e-001	-1.624882e-001	1.457373e-002	3.536187e-002
6816765.134	1.549608e-002	3.542400e-002	9.816046e-001	-1.638977e-001	9.814508e-001	-1.638669e-001	1.496244e-002	3.588009e-002
6879304.218	1.572377e-002	3.560759e-002	9.810651e-001	-1.654282e-001	9.809984e-001	-1.653265e-001	1.531086e-002	3.614611e-002
6941843.302	1.616153e-002	3.607008e-002	9.805094e-001	-1.669726e-001	9.804869e-001	-1.668328e-001	1.564643e-002	3.653969e-002
7004382.386	1.633193e-002	3.648230e-002	9.800830e-001	-1.683715e-001	9.799511e-001	-1.683066e-001	1.592562e-002	3.691038e-002
7066921.470	1.678503e-002	3.672325e-002	9.795020e-001	-1.700130e-001	9.795070e-001	-1.696588e-001	1.645322e-002	3.705129e-002
7129460.553	1.704156e-002	3.692418e-002	9.790270e-001	-1.712941e-001	9.789735e-001	-1.712588e-001	1.682707e-002	3.741464e-002
7191999.637	1.743633e-002	3.746398e-002	9.782572e-001	-1.728464e-001	9.782993e-001	-1.727236e-001	1.705428e-002	3.771227e-002
7254538.721	1.785092e-002	3.764453e-002	9.780752e-001	-1.743804e-001	9.779148e-001	-1.742410e-001	1.747473e-002	3.803774e-002
7317077.805	1.839922e-002	3.788415e-002	9.774717e-001	-1.757447e-001	9.773921e-001	-1.756469e-001	1.784088e-002	3.820442e-002
7379616.889	1.865085e-002	3.817429e-002	9.770523e-001	-1.774196e-001	9.767853e-001	-1.771595e-001	1.818122e-002	3.851059e-002
7442155.972	1.888812e-002	3.847224e-002	9.763464e-001	-1.786702e-001	9.762225e-001	-1.785411e-001	1.867804e-002	3.901063e-002
7504695.056	1.932515e-002	3.865069e-002	9.757048e-001	-1.800087e-001	9.755184e-001	-1.801221e-001	1.912001e-002	3.933596e-002
7567234.140	1.987969e-002	3.881233e-002	9.752495e-001	-1.814118e-001	9.749812e-001	-1.815602e-001	1.943717e-002	3.950211e-002
7629773.224	2.022852e-002	3.937421e-002	9.746864e-001	-1.831003e-001	9.745459e-001	-1.828978e-001	1.976039e-002	3.971235e-002
7692312.308	2.048984e-002	3.957278e-002	9.740940e-001	-1.844703e-001	9.738956e-001	-1.844144e-001	2.020647e-002	3.987549e-002
7754851.391	2.086435e-002	3.966198e-002	9.734907e-001	-1.859477e-001	9.731796e-001	-1.856371e-001	2.058311e-002	4.026139e-002
7817390.475	2.138945e-002	4.010136e-002	9.728486e-001	-1.874700e-001	9.726917e-001	-1.873057e-001	2.093044e-002	4.060717e-002
7879929.559	2.169393e-002	4.015972e-002	9.722234e-001	-1.888459e-001	9.720371e-001	-1.888383e-001	2.146908e-002	4.082757e-002
7942468.643	2.205608e-002	4.034465e-002	9.717749e-001	-1.901831e-001	9.715500e-001	-1.901574e-001	2.184272e-002	4.088562e-002
8005007.727	2.257067e-002	4.057149e-002	9.710365e-001	-1.916093e-001	9.709402e-001	-1.915691e-001	2.220534e-002	4.133118e-002
8067546.811	2.284936e-002	4.084037e-002	9.704899e-001	-1.930016e-001	9.702473e-001	-1.928420e-001	2.251873e-002	4.134736e-002
8130085.894	2.333632e-002	4.097156e-002	9.698145e-001	-1.943137e-001	9.696897e-001	-1.943073e-001	2.315046e-002	4.148791e-002
8192624.978	2.359362e-002	4.113618e-002	9.690663e-001	-1.958081e-001	9.691155e-001	-1.956157e-001	2.361931e-002	4.167760e-002
8255164.062	2.414363e-002	4.133545e-002	9.686122e-001	-1.971531e-001	9.684375e-001	-1.970093e-001	2.400983e-002	4.182598e-002
8317703.146	2.446214e-002	4.165190e-002	9.680198e-001	-1.985244e-001	9.679208e-001	-1.983729e-001	2.427064e-002	4.209430e-002
8380242.230	2.498793e-002	4.157738e-002	9.672285e-001	-1.999261e-001	9.671963e-001	-1.996854e-001	2.466782e-002	4.220593e-002
8442781.313	2.540308e-002	4.180105e-002	9.668567e-001	-2.011923e-001	9.666314e-001	-2.010085e-001	2.507545e-002	4.232661e-002
8505320.397	2.583056e-002	4.210051e-002	9.661832e-001	-2.025892e-001	9.659452e-001	-2.023888e-001	2.545083e-002	4.252566e-002
8567859.481	2.624726e-002	4.241624e-002	9.654606e-001	-2.037444e-001	9.654019e-001	-2.036973e-001	2.595251e-002	4.286009e-002
8630398.565	2.674313e-002	4.250863e-002	9.646767e-001	-2.050451e-001	9.647758e-001	-2.049687e-001	2.624079e-002	4.278084e-002
8692937.649	2.709928e-002	4.245913e-002	9.641684e-001	-2.063726e-001	9.639494e-001	-2.063390e-001	2.663667e-002	4.304050e-002
8755476.732	2.757016e-002	4.267101e-002	9.635402e-001	-2.077666e-001	9.633612e-001	-2.075505e-001	2.713371e-002	4.319049e-002
8818015.816	2.787016e-002	4.278253e-002	9.628534e-001	-2.090475e-001	9.625601e-001	-2.089036e-001	2.766295e-002	4.321977e-002
8880554.900	2.852333e-002	4.292939e-002	9.623554e-001	-2.104192e-001	9.622447e-001	-2.100991e-001	2.794398e-002	4.322359e-002
8943093.984	2.879347e-002	4.317818e-002	9.616512e-001	-2.116119e-001	9.615736e-001	-2.114144e-001	2.841143e-002	4.340440e-002
9005633.068	2.928453e-002	4.319181e-002	9.609018e-001	-2.129508e-001	9.609899e-001	-2.128821e-001	2.873371e-002	4.341255e-002
9068172.151	2.956637e-002	4.332890e-002	9.603892e-001	-2.142572e-001	9.602020e-001	-2.139869e-001	2.922896e-002	4.355453e-002
9130711.235	3.021123e-002	4.333527e-002	9.596409e-001	-2.155150e-001	9.596559e-001	-2.152562e-001	2.968050e-002	4.348842e-002
9193250.319	3.063363e-002	4.341162e-002	9.591922e-001	-2.166512e-001	9.589326e-001	-2.166170e-001	3.006692e-002	4.366987e-002
9255789.403	3.093730e-002	4.338220e-002	9.585467e-001	-2.178390e-001	9.582812e-001	-2.178192e-001	3.036557e-002	4.383326e-002
9318328.487	3.134021e-002	4.357487e-002	9.578162e-001	-2.193219e-001	9.578024e-001	-2.190411e-001	3.091481e-002	4.391549e-002
9380867.570	3.179814e-002	4.376242e-002	9.572154e-001	-2.205706e-001	9.569465e-001	-2.204223e-001	3.134824e-002	4.397244e-002
9443406.654	3.227823e-002	4.383415e-002	9.565729e-001	-2.217350e-001	9.564197e-001	-2.216837e-001	3.179686e-002	4.397043e-002
9505945.738	3.269990e-002	4.392046e-002	9.557292e-001	-2.231206e-001	9.557889e-001	-2.229158e-001	3.218303e-002	4.403819e-002
9568484.822	3.316076e-002	4.394370e-002	9.552214e-001	-2.242884e-001	9.548845e-001	-2.241587e-001	3.245776e-002	4.437070e-002
9631023.906	3.357223e-002	4.401778e-002	9.545502e-001	-2.255576e-001	9.542852e-001	-2.254049e-001	3.303790e-002	4.410630e-002
9693562.989	3.403420e-002	4.405233e-002	9.538364e-001	-2.267515e-001	9.537096e-001	-2.265729e-001	3.322922e-002	4.429695e-002
9756102.073	3.442937e-002	4.405804e-002	9.533457e-001	-2.279916e-001	9.530847e-001	-2.276907e-001	3.369153e-002	4.420924e-002
