!Agilent Technologies,E5061B,MY49102235,A.02.00
!Date: Tue Jul 11 16:42:11 2023
!Data & Calibration Information:
!Freq	S11:SOLT2(ON)	S21:SOLT2(ON)	S12:SOLT2(ON)	S22:SOLT2(ON)
# Hz S RI R 50
5.000	-5.325829e-003	-5.641021e-003	1.001699e+000	8.002277e-003	1.000217e+000	1.026148e-002	-1.421967e-003	-7.546843e-003
62544.084	5.811409e-003	-4.940132e-004	1.001256e+000	4.957048e-004	1.000858e+000	1.257668e-003	7.710643e-003	-2.875141e-003
125083.168	5.669122e-003	-4.955771e-004	1.000965e+000	-8.007198e-004	1.000882e+000	-8.731123e-004	7.485710e-003	-2.270381e-003
187622.251	5.443658e-003	-3.238872e-004	1.000414e+000	-2.208974e-003	1.000986e+000	-8.525791e-004	7.383365e-003	-2.371116e-003
250161.335	5.278972e-003	-1.971948e-004	1.000537e+000	-3.110015e-003	1.000646e+000	-3.054888e-003	7.265762e-003	-2.038108e-003
312700.419	5.413789e-003	5.662532e-004	1.000834e+000	-3.872849e-003	1.000615e+000	-3.654173e-003	7.770362e-003	-2.339377e-003
375239.503	5.296787e-003	-9.738717e-004	1.001106e+000	-5.198268e-003	1.000563e+000	-4.771760e-003	7.262668e-003	-2.527949e-003
437778.587	5.126971e-003	-6.003432e-004	1.001404e+000	-5.348970e-003	1.000999e+000	-6.088763e-003	6.615782e-003	-2.212944e-003
500317.670	4.576226e-003	-4.554597e-004	1.001322e+000	-7.770656e-003	1.001743e+000	-7.627986e-003	4.789114e-003	-2.057896e-003
562856.754	5.905255e-003	-7.433135e-004	1.001258e+000	-9.354453e-003	1.001215e+000	-9.048325e-003	6.013523e-003	-1.560462e-003
625395.838	5.054032e-003	-5.994613e-004	1.002315e+000	-1.058035e-002	1.002271e+000	-1.007893e-002	6.093514e-003	-9.880257e-004
687934.922	5.113235e-003	-9.596813e-004	1.001347e+000	-1.139026e-002	1.001353e+000	-1.151889e-002	5.740712e-003	-1.468926e-003
750474.006	4.349757e-003	-6.239129e-004	1.000777e+000	-1.087601e-002	1.000974e+000	-1.083664e-002	5.552600e-003	-1.284658e-003
813013.089	4.525748e-003	-5.933353e-004	1.001152e+000	-1.268166e-002	1.000676e+000	-1.239434e-002	4.896799e-003	-1.119365e-003
875552.173	4.275057e-003	-4.566061e-004	1.001056e+000	-1.369427e-002	1.001078e+000	-1.353495e-002	5.675758e-003	-1.506960e-003
938091.257	4.340129e-003	-3.928621e-004	1.001147e+000	-1.516652e-002	1.001213e+000	-1.468004e-002	5.920899e-003	-9.396071e-004
1000630.341	3.785103e-003	-7.451079e-004	1.000825e+000	-1.655163e-002	1.001119e+000	-1.622937e-002	5.168684e-003	-1.657180e-003
1063169.425	4.132933e-003	-8.922968e-004	1.001221e+000	-1.774888e-002	1.000840e+000	-1.688787e-002	4.333764e-003	-1.988045e-003
1125708.508	4.018086e-003	-8.618293e-004	1.000874e+000	-1.892863e-002	1.000855e+000	-1.822127e-002	3.850914e-003	-1.702874e-003
1188247.592	4.569376e-003	-1.317396e-003	1.001042e+000	-2.014714e-002	1.001061e+000	-1.935867e-002	2.739183e-003	-2.277656e-003
1250786.676	4.405245e-003	-2.039572e-003	1.000753e+000	-1.998894e-002	1.000877e+000	-2.010094e-002	2.021893e-003	-3.949565e-003
1313325.760	4.531739e-003	-2.170748e-003	1.000983e+000	-2.152081e-002	1.001055e+000	-2.168294e-002	2.752661e-003	-3.744935e-003
1375864.844	4.250775e-003	-2.349172e-003	1.000720e+000	-2.340992e-002	1.000708e+000	-2.341538e-002	2.603277e-003	-3.469172e-003
1438403.927	4.151095e-003	-2.529193e-003	1.000673e+000	-2.406807e-002	1.000992e+000	-2.332721e-002	2.691662e-003	-3.211112e-003
1500943.011	4.368714e-003	-2.474462e-003	1.001252e+000	-2.491630e-002	1.001609e+000	-2.477816e-002	3.050582e-003	-3.624402e-003
1563482.095	4.367597e-003	-2.847677e-003	1.000968e+000	-2.631347e-002	1.000665e+000	-2.549813e-002	3.165515e-003	-3.420809e-003
1626021.179	4.177541e-003	-2.720965e-003	1.000874e+000	-2.758490e-002	1.001121e+000	-2.805668e-002	3.438676e-003	-3.473958e-003
1688560.263	3.865986e-003	-2.654124e-003	1.000434e+000	-2.929549e-002	1.001313e+000	-2.937568e-002	3.609558e-003	-3.503847e-003
1751099.346	3.998171e-003	-2.575147e-003	1.001117e+000	-3.036664e-002	1.000721e+000	-2.989826e-002	3.426123e-003	-2.667178e-003
1813638.430	3.656632e-003	-2.619075e-003	1.001456e+000	-3.192789e-002	1.001166e+000	-3.169339e-002	3.612944e-003	-3.059036e-003
1876177.514	3.677897e-003	-2.353113e-003	1.001509e+000	-3.284912e-002	1.001360e+000	-3.326488e-002	3.276460e-003	-2.391396e-003
1938716.598	3.143674e-003	-2.276048e-003	1.001883e+000	-3.375532e-002	1.001427e+000	-3.317060e-002	3.442529e-003	-2.013751e-003
2001255.682	3.055487e-003	-2.758333e-003	1.001845e+000	-3.503069e-002	1.001436e+000	-3.476441e-002	3.188715e-003	-2.478783e-003
2063794.765	3.126350e-003	-2.382618e-003	1.001461e+000	-3.606841e-002	1.000773e+000	-3.634162e-002	3.571930e-003	-2.576115e-003
2126333.849	2.665612e-003	-2.904533e-003	1.000847e+000	-3.741674e-002	1.000315e+000	-3.671595e-002	3.828044e-003	-2.324628e-003
2188872.933	3.158033e-003	-2.914803e-003	1.000585e+000	-3.843724e-002	1.000247e+000	-3.779467e-002	3.718324e-003	-2.385009e-003
2251412.017	3.254079e-003	-3.292480e-003	1.000300e+000	-3.994663e-002	1.000343e+000	-3.882926e-002	3.703629e-003	-2.505505e-003
2313951.101	3.569111e-003	-2.863210e-003	9.998148e-001	-4.095409e-002	1.000368e+000	-3.971151e-002	4.009036e-003	-2.575165e-003
2376490.184	3.319707e-003	-2.917636e-003	9.998239e-001	-4.139688e-002	1.000464e+000	-4.160331e-002	3.977456e-003	-2.582667e-003
2439029.268	3.772760e-003	-2.957904e-003	9.996708e-001	-4.308360e-002	9.994196e-001	-4.271890e-002	3.637893e-003	-2.497508e-003
2501568.352	3.736945e-003	-2.969366e-003	9.994238e-001	-4.342831e-002	1.000283e+000	-4.318795e-002	3.921624e-003	-2.533688e-003
2564107.436	3.650980e-003	-3.129264e-003	9.997487e-001	-4.502799e-002	9.999958e-001	-4.486639e-002	3.233902e-003	-2.923480e-003
2626646.520	4.139722e-003	-3.316972e-003	9.995832e-001	-4.619598e-002	9.988254e-001	-4.596812e-002	3.478937e-003	-3.003282e-003
2689185.604	4.084872e-003	-3.177067e-003	9.999864e-001	-4.678327e-002	9.995657e-001	-4.661915e-002	3.595896e-003	-2.959984e-003
2751724.687	4.203113e-003	-3.282038e-003	9.999730e-001	-4.765729e-002	9.995753e-001	-4.741671e-002	3.203804e-003	-3.003036e-003
2814263.771	4.143155e-003	-3.350092e-003	9.989205e-001	-4.944246e-002	9.993335e-001	-4.890239e-002	3.186289e-003	-3.149509e-003
2876802.855	4.100341e-003	-3.588540e-003	9.990821e-001	-5.087053e-002	9.994736e-001	-4.986856e-002	3.265838e-003	-3.027040e-003
2939341.939	4.212530e-003	-3.521820e-003	9.995012e-001	-5.134308e-002	9.991781e-001	-5.132387e-002	3.154551e-003	-3.166812e-003
3001881.023	4.129014e-003	-3.527002e-003	9.993128e-001	-5.257297e-002	9.991923e-001	-5.243090e-002	3.244901e-003	-3.306614e-003
3064420.106	4.182358e-003	-3.594540e-003	9.998160e-001	-5.356141e-002	9.991012e-001	-5.349906e-002	3.074611e-003	-3.453523e-003
3126959.190	4.368164e-003	-3.709959e-003	9.993864e-001	-5.475003e-002	9.992386e-001	-5.458535e-002	3.245947e-003	-3.533539e-003
3189498.274	4.351184e-003	-3.698969e-003	9.992828e-001	-5.573459e-002	9.991451e-001	-5.568798e-002	3.239558e-003	-3.623731e-003
3252037.358	4.254578e-003	-4.086356e-003	9.993661e-001	-5.688828e-002	9.992093e-001	-5.666717e-002	3.184177e-003	-3.587920e-003
3314576.442	4.274701e-003	-3.949520e-003	9.992613e-001	-5.790532e-002	9.990946e-001	-5.785608e-002	3.243216e-003	-3.732311e-003
3377115.525	4.226043e-003	-3.966248e-003	9.990332e-001	-5.889524e-002	9.988375e-001	-5.908534e-002	3.066347e-003	-3.888207e-003
3439654.609	4.228693e-003	-4.071308e-003	9.988643e-001	-6.006313e-002	9.991179e-001	-6.005505e-002	3.094522e-003	-3.727521e-003
3502193.693	4.195903e-003	-4.405683e-003	9.988569e-001	-6.132257e-002	9.987982e-001	-6.102994e-002	3.265097e-003	-3.801940e-003
3564732.777	4.237821e-003	-4.291453e-003	9.989127e-001	-6.226251e-002	9.987701e-001	-6.222320e-002	3.344397e-003	-3.815177e-003
3627271.861	4.091574e-003	-4.474080e-003	9.988957e-001	-6.347895e-002	9.988428e-001	-6.318615e-002	3.128744e-003	-4.075513e-003
3689810.944	3.980176e-003	-4.635855e-003	9.987299e-001	-6.457059e-002	9.987570e-001	-6.425541e-002	3.275857e-003	-4.097734e-003
3752350.028	4.093937e-003	-4.655177e-003	9.986858e-001	-6.542718e-002	9.984873e-001	-6.530417e-002	3.203350e-003	-4.193847e-003
3814889.112	4.216230e-003	-4.570278e-003	9.984879e-001	-6.658617e-002	9.986986e-001	-6.668224e-002	3.108991e-003	-4.370736e-003
3877428.196	4.129718e-003	-4.596262e-003	9.986393e-001	-6.772564e-002	9.985364e-001	-6.758546e-002	3.443239e-003	-4.390479e-003
3939967.280	4.096415e-003	-4.945596e-003	9.984821e-001	-6.891363e-002	9.985616e-001	-6.867656e-002	3.404749e-003	-4.358345e-003
4002506.363	4.162382e-003	-4.842687e-003	9.985277e-001	-6.994134e-002	9.984433e-001	-6.964670e-002	3.339626e-003	-4.498792e-003
4065045.447	3.975129e-003	-4.996805e-003	9.982294e-001	-7.104335e-002	9.982562e-001	-7.086140e-002	3.431362e-003	-4.661402e-003
4127584.531	3.937873e-003	-5.074300e-003	9.981911e-001	-7.211219e-002	9.982563e-001	-7.182930e-002	3.443405e-003	-4.605853e-003
4190123.615	3.986345e-003	-5.107800e-003	9.981850e-001	-7.340591e-002	9.980244e-001	-7.310576e-002	3.332041e-003	-4.879630e-003
4252662.699	3.933081e-003	-5.248070e-003	9.981874e-001	-7.451465e-002	9.979367e-001	-7.426753e-002	3.451536e-003	-4.918874e-003
4315201.782	4.077673e-003	-5.335025e-003	9.980903e-001	-7.537156e-002	9.981127e-001	-7.536460e-002	3.256784e-003	-5.175997e-003
4377740.866	3.961199e-003	-5.433380e-003	9.981069e-001	-7.661834e-002	9.977750e-001	-7.648743e-002	3.437208e-003	-4.943855e-003
4440279.950	3.862707e-003	-5.637682e-003	9.979911e-001	-7.754998e-002	9.976405e-001	-7.747116e-002	3.323369e-003	-5.183335e-003
4502819.034	3.855319e-003	-5.576755e-003	9.976280e-001	-7.872834e-002	9.976842e-001	-7.856224e-002	3.387436e-003	-5.096748e-003
4565358.118	3.760825e-003	-5.690733e-003	9.976032e-001	-7.981165e-002	9.974473e-001	-7.942813e-002	3.389879e-003	-5.260162e-003
4627897.201	3.922561e-003	-5.628288e-003	9.977075e-001	-8.089788e-002	9.974744e-001	-8.051607e-002	3.499375e-003	-5.231069e-003
4690436.285	3.754145e-003	-5.821952e-003	9.976712e-001	-8.206465e-002	9.974246e-001	-8.202898e-002	3.479998e-003	-5.503806e-003
4752975.369	3.744318e-003	-5.908493e-003	9.973003e-001	-8.323520e-002	9.974269e-001	-8.299041e-002	3.297735e-003	-5.625862e-003
4815514.453	3.858317e-003	-5.972407e-003	9.974396e-001	-8.422016e-002	9.972904e-001	-8.414476e-002	3.507001e-003	-5.588705e-003
4878053.537	3.955829e-003	-6.136167e-003	9.973769e-001	-8.526805e-002	9.971633e-001	-8.508324e-002	3.470971e-003	-5.756567e-003
4940592.620	3.683383e-003	-6.167524e-003	9.971810e-001	-8.646665e-002	9.971365e-001	-8.629230e-002	3.221114e-003	-5.867006e-003
5003131.704	3.753653e-003	-6.379917e-003	9.970543e-001	-8.750653e-002	9.970999e-001	-8.713839e-002	3.348120e-003	-5.983778e-003
5065670.788	3.663735e-003	-6.263413e-003	9.969355e-001	-8.861229e-002	9.969303e-001	-8.835757e-002	3.320843e-003	-6.022531e-003
5128209.872	3.786633e-003	-6.476136e-003	9.970278e-001	-8.970170e-002	9.968373e-001	-8.938582e-002	3.270422e-003	-6.305560e-003
5190748.956	3.677175e-003	-6.554889e-003	9.968377e-001	-9.079985e-002	9.968339e-001	-9.062964e-002	3.241900e-003	-6.252424e-003
5253288.039	3.722491e-003	-6.676921e-003	9.968058e-001	-9.188746e-002	9.967271e-001	-9.165902e-002	3.157753e-003	-6.256260e-003
5315827.123	3.671376e-003	-6.822223e-003	9.965542e-001	-9.300315e-002	9.966027e-001	-9.284561e-002	3.143706e-003	-6.429412e-003
5378366.207	3.752529e-003	-6.838062e-003	9.965951e-001	-9.408246e-002	9.965754e-001	-9.406507e-002	3.114345e-003	-6.610186e-003
5440905.291	3.569199e-003	-6.837982e-003	9.965607e-001	-9.519494e-002	9.964360e-001	-9.504546e-002	2.998485e-003	-6.640349e-003
5503444.375	3.770996e-003	-7.080240e-003	9.964231e-001	-9.635484e-002	9.964351e-001	-9.597432e-002	3.193618e-003	-6.797434e-003
5565983.458	3.407420e-003	-7.038191e-003	9.963192e-001	-9.734515e-002	9.963036e-001	-9.704815e-002	3.103629e-003	-6.716146e-003
5628522.542	3.663600e-003	-7.196201e-003	9.962809e-001	-9.834812e-002	9.961594e-001	-9.830621e-002	3.133278e-003	-6.924239e-003
5691061.626	3.718360e-003	-7.460583e-003	9.960943e-001	-9.966966e-002	9.960081e-001	-9.937167e-002	3.034421e-003	-6.957614e-003
5753600.710	3.548413e-003	-7.446614e-003	9.959453e-001	-1.006288e-001	9.959585e-001	-1.004369e-001	3.071961e-003	-7.173478e-003
5816139.794	3.632555e-003	-7.360884e-003	9.959284e-001	-1.017523e-001	9.956753e-001	-1.017220e-001	2.923425e-003	-7.211741e-003
5878678.877	3.534244e-003	-7.659348e-003	9.957744e-001	-1.028995e-001	9.956802e-001	-1.026885e-001	3.017395e-003	-7.433469e-003
5941217.961	3.519140e-003	-7.821559e-003	9.956162e-001	-1.040621e-001	9.955714e-001	-1.036422e-001	2.829377e-003	-7.430036e-003
6003757.045	3.351292e-003	-7.689331e-003	9.953541e-001	-1.049481e-001	9.954651e-001	-1.047247e-001	2.934593e-003	-7.528920e-003
6066296.129	3.461284e-003	-7.962356e-003	9.955378e-001	-1.060860e-001	9.953204e-001	-1.057853e-001	2.914215e-003	-7.642296e-003
6128835.213	3.548056e-003	-8.026666e-003	9.953668e-001	-1.068914e-001	9.953516e-001	-1.070499e-001	3.006583e-003	-7.736754e-003
6191374.296	3.490354e-003	-8.122978e-003	9.951556e-001	-1.082437e-001	9.951018e-001	-1.082240e-001	2.820624e-003	-7.734593e-003
6253913.380	3.374853e-003	-8.096806e-003	9.950926e-001	-1.094176e-001	9.950372e-001	-1.091317e-001	2.680310e-003	-7.704134e-003
6316452.464	3.337757e-003	-8.104854e-003	9.950307e-001	-1.103868e-001	9.947810e-001	-1.104413e-001	2.735865e-003	-8.011111e-003
6378991.548	3.292052e-003	-8.342763e-003	9.948741e-001	-1.117946e-001	9.949060e-001	-1.113928e-001	2.766733e-003	-8.214662e-003
6441530.632	3.223073e-003	-8.512962e-003	9.946295e-001	-1.125481e-001	9.946886e-001	-1.126459e-001	2.792470e-003	-8.193470e-003
6504069.715	3.200825e-003	-8.625020e-003	9.945503e-001	-1.139264e-001	9.946724e-001	-1.136115e-001	2.792393e-003	-8.293165e-003
6566608.799	3.329916e-003	-8.768439e-003	9.945936e-001	-1.150695e-001	9.944234e-001	-1.147552e-001	2.683047e-003	-8.190678e-003
6629147.883	3.273316e-003	-8.719965e-003	9.943157e-001	-1.158180e-001	9.942516e-001	-1.158597e-001	2.750714e-003	-8.423076e-003
6691686.967	3.128036e-003	-8.788832e-003	9.941373e-001	-1.170299e-001	9.941219e-001	-1.169147e-001	2.766113e-003	-8.417924e-003
6754226.051	3.053281e-003	-8.897651e-003	9.940086e-001	-1.182164e-001	9.939081e-001	-1.181575e-001	2.555432e-003	-8.722181e-003
6816765.134	3.153754e-003	-9.001751e-003	9.939588e-001	-1.192433e-001	9.939013e-001	-1.191008e-001	2.590209e-003	-8.616387e-003
6879304.218	3.023076e-003	-9.254358e-003	9.937607e-001	-1.203438e-001	9.937888e-001	-1.202073e-001	2.579054e-003	-8.772165e-003
6941843.302	3.088798e-003	-9.181345e-003	9.936230e-001	-1.215207e-001	9.936241e-001	-1.212511e-001	2.546016e-003	-8.773700e-003
7004382.386	2.869883e-003	-9.196550e-003	9.935677e-001	-1.224985e-001	9.934640e-001	-1.223492e-001	2.452163e-003	-8.825870e-003
7066921.470	2.949547e-003	-9.337412e-003	9.933706e-001	-1.237433e-001	9.933872e-001	-1.232857e-001	2.593740e-003	-9.076492e-003
7129460.553	2.826791e-003	-9.533657e-003	9.932590e-001	-1.246012e-001	9.932378e-001	-1.245041e-001	2.577922e-003	-9.096725e-003
7191999.637	2.803865e-003	-9.380743e-003	9.929685e-001	-1.258112e-001	9.929706e-001	-1.255912e-001	2.417900e-003	-9.186831e-003
7254538.721	2.839204e-003	-9.590770e-003	9.930838e-001	-1.269457e-001	9.929987e-001	-1.267234e-001	2.444620e-003	-9.267008e-003
7317077.805	2.987570e-003	-9.699087e-003	9.928860e-001	-1.279128e-001	9.928334e-001	-1.277564e-001	2.413217e-003	-9.451439e-003
7379616.889	2.838529e-003	-9.789715e-003	9.929171e-001	-1.291929e-001	9.926597e-001	-1.288665e-001	2.343296e-003	-9.506106e-003
7442155.972	2.658579e-003	-9.864795e-003	9.925814e-001	-1.301204e-001	9.925542e-001	-1.298951e-001	2.401207e-003	-9.380540e-003
7504695.056	2.682335e-003	-1.004055e-002	9.923293e-001	-1.311281e-001	9.922612e-001	-1.311719e-001	2.415215e-003	-9.407683e-003
7567234.140	2.851820e-003	-1.021496e-002	9.923350e-001	-1.321903e-001	9.921351e-001	-1.321911e-001	2.329333e-003	-9.599667e-003
7629773.224	2.718305e-003	-9.986050e-003	9.922074e-001	-1.334974e-001	9.921444e-001	-1.332141e-001	2.234511e-003	-9.737866e-003
7692312.308	2.568368e-003	-1.013566e-002	9.920454e-001	-1.345746e-001	9.919050e-001	-1.343961e-001	2.270141e-003	-9.903715e-003
7754851.391	2.527774e-003	-1.038241e-002	9.918655e-001	-1.356634e-001	9.916511e-001	-1.352756e-001	2.181284e-003	-9.857951e-003
7817390.475	2.593136e-003	-1.025830e-002	9.917514e-001	-1.368842e-001	9.915589e-001	-1.366032e-001	2.101329e-003	-9.826139e-003
7879929.559	2.480237e-003	-1.052161e-002	9.915300e-001	-1.379541e-001	9.913864e-001	-1.378449e-001	2.186985e-003	-9.914810e-003
7942468.643	2.410750e-003	-1.065302e-002	9.914698e-001	-1.389207e-001	9.913199e-001	-1.388745e-001	2.151607e-003	-1.017484e-002
8005007.727	2.485203e-003	-1.070693e-002	9.912027e-001	-1.400908e-001	9.911492e-001	-1.399243e-001	2.030463e-003	-1.002934e-002
8067546.811	2.309379e-003	-1.075417e-002	9.910721e-001	-1.411371e-001	9.909032e-001	-1.409439e-001	1.930307e-003	-1.032927e-002
8130085.894	2.363321e-003	-1.090675e-002	9.908941e-001	-1.421724e-001	9.908213e-001	-1.420787e-001	2.121399e-003	-1.046510e-002
8192624.978	2.165615e-003	-1.105335e-002	9.905634e-001	-1.433928e-001	9.906572e-001	-1.431388e-001	2.136855e-003	-1.055196e-002
8255164.062	2.279036e-003	-1.111190e-002	9.905317e-001	-1.444154e-001	9.904600e-001	-1.442307e-001	2.082465e-003	-1.066838e-002
8317703.146	2.112581e-003	-1.108340e-002	9.904721e-001	-1.455649e-001	9.903868e-001	-1.452807e-001	1.871387e-003	-1.071169e-002
8380242.230	2.211932e-003	-1.140119e-002	9.901459e-001	-1.467106e-001	9.901137e-001	-1.463443e-001	1.816754e-003	-1.085831e-002
8442781.313	2.153601e-003	-1.144884e-002	9.902321e-001	-1.477023e-001	9.900197e-001	-1.474251e-001	1.763692e-003	-1.102057e-002
8505320.397	2.118635e-003	-1.140163e-002	9.899951e-001	-1.488515e-001	9.898138e-001	-1.485071e-001	1.685749e-003	-1.105412e-002
8567859.481	2.037915e-003	-1.132759e-002	9.897442e-001	-1.497612e-001	9.897838e-001	-1.496062e-001	1.691453e-003	-1.096687e-002
8630398.565	2.080873e-003	-1.145504e-002	9.894318e-001	-1.508012e-001	9.895560e-001	-1.506443e-001	1.539639e-003	-1.131542e-002
8692937.649	2.003807e-003	-1.175301e-002	9.893721e-001	-1.518973e-001	9.892561e-001	-1.518151e-001	1.457087e-003	-1.128361e-002
8755476.732	1.985256e-003	-1.177154e-002	9.892103e-001	-1.530928e-001	9.891173e-001	-1.527577e-001	1.483904e-003	-1.135615e-002
8818015.816	1.828613e-003	-1.190946e-002	9.890087e-001	-1.541375e-001	9.887753e-001	-1.539365e-001	1.566548e-003	-1.153287e-002
8880554.900	2.017327e-003	-1.192950e-002	9.889829e-001	-1.552822e-001	9.889106e-001	-1.548476e-001	1.399127e-003	-1.176980e-002
8943093.984	1.814791e-003	-1.191978e-002	9.887169e-001	-1.562492e-001	9.887078e-001	-1.559730e-001	1.385521e-003	-1.179649e-002
9005633.068	1.844530e-003	-1.209886e-002	9.884817e-001	-1.574144e-001	9.885676e-001	-1.571921e-001	1.259519e-003	-1.201699e-002
9068172.151	1.658185e-003	-1.219153e-002	9.884013e-001	-1.585043e-001	9.882644e-001	-1.581452e-001	1.271669e-003	-1.205748e-002
9130711.235	1.845646e-003	-1.232487e-002	9.881534e-001	-1.595531e-001	9.881321e-001	-1.591942e-001	1.287097e-003	-1.232296e-002
9193250.319	1.793066e-003	-1.243141e-002	9.881312e-001	-1.605328e-001	9.879328e-001	-1.604078e-001	1.172941e-003	-1.232140e-002
9255789.403	1.645535e-003	-1.266894e-002	9.879807e-001	-1.615131e-001	9.877593e-001	-1.614103e-001	1.009363e-003	-1.237580e-002
9318328.487	1.577138e-003	-1.267463e-002	9.877215e-001	-1.628667e-001	9.877045e-001	-1.624562e-001	1.080494e-003	-1.245242e-002
9380867.570	1.550714e-003	-1.263103e-002	9.876017e-001	-1.639483e-001	9.873754e-001	-1.636605e-001	1.052315e-003	-1.254618e-002
9443406.654	1.554923e-003	-1.272129e-002	9.873926e-001	-1.649333e-001	9.873266e-001	-1.647762e-001	1.045989e-003	-1.270725e-002
9505945.738	1.510028e-003	-1.277504e-002	9.870361e-001	-1.661794e-001	9.872267e-001	-1.658533e-001	9.642706e-004	-1.279400e-002
9568484.822	1.518212e-003	-1.290419e-002	9.870121e-001	-1.672169e-001	9.867922e-001	-1.669591e-001	7.229955e-004	-1.265914e-002
