!Agilent Technologies,E5061B,MY49102235,A.02.00
!Date: Tue Jul 11 16:34:33 2023
!Data & Calibration Information:
!Freq	S11:SOLT2(ON)	S21:SOLT2(ON)	S12:SOLT2(ON)	S22:SOLT2(ON)
# Hz S RI R 50
5.000	-5.231056e-003	-5.634131e-003	1.001709e+000	8.009664e-003	1.000340e+000	1.020005e-002	-1.494102e-003	-7.526706e-003
62544.084	5.816386e-003	-6.233680e-005	1.001407e+000	8.031910e-005	1.000768e+000	6.859156e-004	7.703684e-003	-2.438600e-003
125083.168	5.706219e-003	3.570111e-004	1.000882e+000	-1.600475e-003	1.000727e+000	-1.619518e-003	7.514646e-003	-1.431460e-003
187622.251	5.484687e-003	9.487437e-004	1.000393e+000	-3.439905e-003	1.000943e+000	-2.315781e-003	7.400526e-003	-1.098470e-003
250161.335	5.325494e-003	1.494638e-003	1.000568e+000	-4.820982e-003	1.000717e+000	-4.826341e-003	7.305323e-003	-3.552751e-004
312700.419	5.479454e-003	2.634352e-003	1.000781e+000	-5.789003e-003	1.000648e+000	-5.732106e-003	7.819984e-003	-2.518039e-004
375239.503	5.374773e-003	1.560809e-003	1.000956e+000	-7.797815e-003	1.000468e+000	-7.465764e-003	7.334290e-003	4.212390e-006
437778.587	5.235304e-003	2.350930e-003	1.001293e+000	-8.255044e-003	1.000932e+000	-9.050166e-003	6.709918e-003	7.050254e-004
500317.670	4.708090e-003	2.893647e-003	1.001158e+000	-1.111959e-002	1.001468e+000	-1.098271e-002	4.949787e-003	1.303326e-003
562856.754	6.054798e-003	2.994213e-003	1.001241e+000	-1.302550e-002	1.001018e+000	-1.293571e-002	6.162754e-003	2.198424e-003
625395.838	5.245574e-003	3.568411e-003	1.002101e+000	-1.466849e-002	1.001987e+000	-1.432676e-002	6.271484e-003	3.168439e-003
687934.922	5.323749e-003	3.614864e-003	1.001187e+000	-1.588308e-002	1.001076e+000	-1.613135e-002	5.951086e-003	3.109998e-003
750474.006	4.574693e-003	4.373720e-003	1.000477e+000	-1.593742e-002	1.000731e+000	-1.559620e-002	5.767822e-003	3.705241e-003
813013.089	4.781521e-003	4.815870e-003	1.000855e+000	-1.805969e-002	1.000580e+000	-1.785893e-002	5.149285e-003	4.295410e-003
875552.173	4.546217e-003	5.393412e-003	1.000724e+000	-1.949004e-002	1.000743e+000	-1.943246e-002	5.954061e-003	4.301564e-003
938091.257	4.650272e-003	5.862438e-003	1.000829e+000	-2.128004e-002	1.000894e+000	-2.107057e-002	6.232849e-003	5.276886e-003
1000630.341	4.142772e-003	5.932529e-003	1.000454e+000	-2.300831e-002	1.000769e+000	-2.275198e-002	5.502446e-003	4.992451e-003
1063169.425	4.531641e-003	6.182390e-003	1.000692e+000	-2.492949e-002	1.000433e+000	-2.412800e-002	4.701858e-003	5.095283e-003
1125708.508	4.445288e-003	6.646846e-003	1.000475e+000	-2.633055e-002	1.000486e+000	-2.588255e-002	4.255903e-003	5.798504e-003
1188247.592	5.008464e-003	6.598928e-003	1.000604e+000	-2.800176e-002	1.000762e+000	-2.745161e-002	3.184046e-003	5.659316e-003
1250786.676	4.880957e-003	6.270582e-003	1.000089e+000	-2.825466e-002	1.000394e+000	-2.842175e-002	2.459505e-003	4.432431e-003
1313325.760	5.034439e-003	6.604509e-003	1.000588e+000	-3.023609e-002	1.000611e+000	-3.047877e-002	3.229175e-003	5.050323e-003
1375864.844	4.795554e-003	6.822511e-003	1.000111e+000	-3.259263e-002	1.000121e+000	-3.281232e-002	3.140537e-003	5.744431e-003
1438403.927	4.734543e-003	7.089355e-003	1.000013e+000	-3.373508e-002	1.000522e+000	-3.303769e-002	3.270376e-003	6.434048e-003
1500943.011	5.004954e-003	7.576354e-003	1.000590e+000	-3.495470e-002	1.000821e+000	-3.502427e-002	3.654333e-003	6.433817e-003
1563482.095	5.048678e-003	7.633502e-003	1.000238e+000	-3.687573e-002	1.000087e+000	-3.609850e-002	3.828799e-003	7.073222e-003
1626021.179	4.912976e-003	8.207545e-003	1.000141e+000	-3.845754e-002	1.000320e+000	-3.915583e-002	4.150208e-003	7.446622e-003
1688560.263	4.652349e-003	8.700824e-003	9.997498e-001	-4.061959e-002	1.000713e+000	-4.080568e-002	4.373490e-003	7.864337e-003
1751099.346	4.834255e-003	9.220284e-003	1.000208e+000	-4.214705e-002	9.999436e-001	-4.171901e-002	4.259723e-003	9.143523e-003
1813638.430	4.548106e-003	9.616289e-003	1.000325e+000	-4.413363e-002	1.000128e+000	-4.402041e-002	4.481521e-003	9.192007e-003
1876177.514	4.639742e-003	1.035878e-002	1.000764e+000	-4.549120e-002	1.000418e+000	-4.610819e-002	4.243188e-003	1.031009e-002
1938716.598	4.168515e-003	1.089353e-002	1.000875e+000	-4.673289e-002	1.000407e+000	-4.643636e-002	4.468511e-003	1.113191e-002
2001255.682	4.120012e-003	1.087465e-002	1.000763e+000	-4.867214e-002	1.000312e+000	-4.855622e-002	4.286367e-003	1.114514e-002
2063794.765	4.302767e-003	1.170590e-002	1.000223e+000	-5.013459e-002	9.996509e-001	-5.054428e-002	4.738236e-003	1.149995e-002
2126333.849	3.896384e-003	1.166463e-002	9.997512e-001	-5.187174e-002	9.990592e-001	-5.135552e-002	5.067018e-003	1.218934e-002
2188872.933	4.464616e-003	1.210748e-002	9.992392e-001	-5.351280e-002	9.988916e-001	-5.296236e-002	5.035122e-003	1.261163e-002
2251412.017	4.628404e-003	1.219024e-002	9.990762e-001	-5.545175e-002	9.988535e-001	-5.432413e-002	5.092135e-003	1.295933e-002
2313951.101	5.060908e-003	1.308181e-002	9.983564e-001	-5.682796e-002	9.988938e-001	-5.590283e-002	5.502932e-003	1.335649e-002
2376490.184	4.906063e-003	1.352654e-002	9.983058e-001	-5.775406e-002	9.986950e-001	-5.815218e-002	5.559652e-003	1.383625e-002
2439029.268	5.468978e-003	1.396282e-002	9.980207e-001	-6.021920e-002	9.978012e-001	-5.957994e-002	5.337679e-003	1.443060e-002
2501568.352	5.538224e-003	1.444473e-002	9.977445e-001	-6.060990e-002	9.986862e-001	-6.083120e-002	5.737581e-003	1.486673e-002
2564107.436	5.559213e-003	1.477627e-002	9.977020e-001	-6.296750e-002	9.982399e-001	-6.281657e-002	5.157641e-003	1.499926e-002
2626646.520	6.157230e-003	1.504788e-002	9.974227e-001	-6.455054e-002	9.968711e-001	-6.435399e-002	5.535504e-003	1.539479e-002
2689185.604	6.255388e-003	1.570991e-002	9.977272e-001	-6.581230e-002	9.975945e-001	-6.577995e-002	5.798679e-003	1.592909e-002
2751724.687	6.505419e-003	1.609225e-002	9.975535e-001	-6.705890e-002	9.972823e-001	-6.698685e-002	5.542718e-003	1.641611e-002
2814263.771	6.609163e-003	1.651853e-002	9.964982e-001	-6.936602e-002	9.968777e-001	-6.876931e-002	5.659547e-003	1.676132e-002
2876802.855	6.712338e-003	1.680391e-002	9.964361e-001	-7.140278e-002	9.968311e-001	-7.037850e-002	5.921873e-003	1.739962e-002
2939341.939	7.013957e-003	1.739330e-002	9.968330e-001	-7.229871e-002	9.962915e-001	-7.244442e-002	5.983664e-003	1.778048e-002
3001881.023	7.116860e-003	1.788945e-002	9.963201e-001	-7.393721e-002	9.961374e-001	-7.401179e-002	6.241240e-003	1.812296e-002
3064420.106	7.350848e-003	1.831551e-002	9.966645e-001	-7.541804e-002	9.958293e-001	-7.546237e-002	6.249773e-003	1.848999e-002
3126959.190	7.759054e-003	1.870384e-002	9.960366e-001	-7.723901e-002	9.958894e-001	-7.720404e-002	6.644353e-003	1.892275e-002
3189498.274	7.939366e-003	1.922597e-002	9.957014e-001	-7.871055e-002	9.955693e-001	-7.877644e-002	6.843315e-003	1.935053e-002
3252037.358	8.055640e-003	1.936244e-002	9.955958e-001	-8.041007e-002	9.954286e-001	-8.029446e-002	7.001852e-003	1.989213e-002
3314576.442	8.302369e-003	2.000526e-002	9.952467e-001	-8.192106e-002	9.950554e-001	-8.196195e-002	7.296505e-003	2.026802e-002
3377115.525	8.515527e-003	2.050124e-002	9.947760e-001	-8.346452e-002	9.945674e-001	-8.373647e-002	7.384070e-003	2.063211e-002
3439654.609	8.778809e-003	2.093004e-002	9.942983e-001	-8.509937e-002	9.945797e-001	-8.524599e-002	7.659129e-003	2.130937e-002
3502193.693	8.989074e-003	2.109200e-002	9.940814e-001	-8.683808e-002	9.939945e-001	-8.668137e-002	8.101754e-003	2.174260e-002
3564732.777	9.325316e-003	2.168804e-002	9.938551e-001	-8.836631e-002	9.936872e-001	-8.842183e-002	8.462289e-003	2.220800e-002
3627271.861	9.463951e-003	2.204001e-002	9.935340e-001	-9.006215e-002	9.934486e-001	-8.989395e-002	8.533402e-003	2.248764e-002
3689810.944	9.661900e-003	2.238654e-002	9.930892e-001	-9.169111e-002	9.930353e-001	-9.145851e-002	9.000954e-003	2.295013e-002
3752350.028	1.008714e-002	2.286560e-002	9.926713e-001	-9.300509e-002	9.924831e-001	-9.303832e-002	9.240744e-003	2.335398e-002
3814889.112	1.054998e-002	2.343272e-002	9.921611e-001	-9.465418e-002	9.923658e-001	-9.489281e-002	9.485248e-003	2.368017e-002
3877428.196	1.082179e-002	2.389321e-002	9.919769e-001	-9.627585e-002	9.918913e-001	-9.623921e-002	1.015056e-002	2.411418e-002
3939967.280	1.113137e-002	2.401536e-002	9.915089e-001	-9.795711e-002	9.915080e-001	-9.785288e-002	1.048486e-002	2.462821e-002
4002506.363	1.155910e-002	2.458503e-002	9.911449e-001	-9.943521e-002	9.910648e-001	-9.929777e-002	1.079344e-002	2.497334e-002
4065045.447	1.175262e-002	2.490307e-002	9.904788e-001	-1.010747e-001	9.904497e-001	-1.009628e-001	1.124122e-002	2.527189e-002
4127584.531	1.211078e-002	2.528389e-002	9.899982e-001	-1.025950e-001	9.900641e-001	-1.024152e-001	1.163683e-002	2.577457e-002
4190123.615	1.255079e-002	2.569281e-002	9.896028e-001	-1.042774e-001	9.894466e-001	-1.041037e-001	1.192935e-002	2.594027e-002
4252662.699	1.290972e-002	2.600497e-002	9.891960e-001	-1.058882e-001	9.889276e-001	-1.057706e-001	1.245265e-002	2.634013e-002
4315201.782	1.344803e-002	2.630567e-002	9.887049e-001	-1.071393e-001	9.886808e-001	-1.072748e-001	1.266185e-002	2.652954e-002
4377740.866	1.377864e-002	2.665965e-002	9.883033e-001	-1.088673e-001	9.879930e-001	-1.087981e-001	1.329132e-002	2.715784e-002
4440279.950	1.409862e-002	2.686338e-002	9.877301e-001	-1.101931e-001	9.873890e-001	-1.101501e-001	1.360341e-002	2.734756e-002
4502819.034	1.453962e-002	2.732756e-002	9.870035e-001	-1.117705e-001	9.869885e-001	-1.116692e-001	1.413097e-002	2.782184e-002
4565358.118	1.489417e-002	2.760408e-002	9.865108e-001	-1.132196e-001	9.863343e-001	-1.129508e-001	1.456651e-002	2.803315e-002
4627897.201	1.552802e-002	2.801809e-002	9.860980e-001	-1.146801e-001	9.858327e-001	-1.144216e-001	1.513141e-002	2.843291e-002
4690436.285	1.579783e-002	2.821777e-002	9.855724e-001	-1.162349e-001	9.853228e-001	-1.162837e-001	1.557871e-002	2.853236e-002
4752975.369	1.627281e-002	2.847787e-002	9.847336e-001	-1.177344e-001	9.848759e-001	-1.176340e-001	1.586168e-002	2.877726e-002
4815514.453	1.686818e-002	2.873957e-002	9.844368e-001	-1.190834e-001	9.842513e-001	-1.191367e-001	1.654591e-002	2.912484e-002
4878053.537	1.742309e-002	2.891682e-002	9.838792e-001	-1.204844e-001	9.836750e-001	-1.203786e-001	1.698981e-002	2.930766e-002
4940592.620	1.764942e-002	2.921988e-002	9.831657e-001	-1.219387e-001	9.831336e-001	-1.219097e-001	1.724403e-002	2.953860e-002
5003131.704	1.819262e-002	2.932250e-002	9.825822e-001	-1.233569e-001	9.826078e-001	-1.231033e-001	1.784674e-002	2.971196e-002
5065670.788	1.861837e-002	2.973193e-002	9.819885e-001	-1.247626e-001	9.819670e-001	-1.245949e-001	1.830938e-002	2.996784e-002
5128209.872	1.922225e-002	2.978868e-002	9.815786e-001	-1.261095e-001	9.813539e-001	-1.259261e-001	1.875093e-002	2.998433e-002
5190748.956	1.962855e-002	2.998375e-002	9.808496e-001	-1.274966e-001	9.808304e-001	-1.274311e-001	1.922862e-002	3.030217e-002
5253288.039	2.016838e-002	3.012414e-002	9.803294e-001	-1.288497e-001	9.801979e-001	-1.287597e-001	1.966897e-002	3.057345e-002
5315827.123	2.061823e-002	3.025204e-002	9.795730e-001	-1.301776e-001	9.795967e-001	-1.301371e-001	2.014168e-002	3.063798e-002
5378366.207	2.120898e-002	3.043426e-002	9.791353e-001	-1.315569e-001	9.790209e-001	-1.316231e-001	2.061261e-002	3.071671e-002
5440905.291	2.152961e-002	3.068470e-002	9.785427e-001	-1.328766e-001	9.784158e-001	-1.328219e-001	2.099958e-002	3.091370e-002
5503444.375	2.222412e-002	3.063005e-002	9.779177e-001	-1.342249e-001	9.778459e-001	-1.340026e-001	2.169440e-002	3.095575e-002
5565983.458	2.237836e-002	3.090510e-002	9.773168e-001	-1.354490e-001	9.772441e-001	-1.352314e-001	2.214655e-002	3.123284e-002
5628522.542	2.312612e-002	3.092097e-002	9.767393e-001	-1.366519e-001	9.766653e-001	-1.367053e-001	2.266923e-002	3.120648e-002
5691061.626	2.366952e-002	3.083577e-002	9.760587e-001	-1.381261e-001	9.759432e-001	-1.379803e-001	2.308157e-002	3.135918e-002
5753600.710	2.404370e-002	3.101296e-002	9.753683e-001	-1.392787e-001	9.753727e-001	-1.392095e-001	2.361457e-002	3.131808e-002
5816139.794	2.463574e-002	3.126599e-002	9.748046e-001	-1.405246e-001	9.745963e-001	-1.406573e-001	2.397529e-002	3.143762e-002
5878678.877	2.502158e-002	3.109694e-002	9.742203e-001	-1.417931e-001	9.740997e-001	-1.417894e-001	2.458119e-002	3.135477e-002
5941217.961	2.548234e-002	3.108685e-002	9.735418e-001	-1.431688e-001	9.734543e-001	-1.428652e-001	2.487564e-002	3.150444e-002
6003757.045	2.583931e-002	3.134444e-002	9.728119e-001	-1.441743e-001	9.728526e-001	-1.440590e-001	2.547975e-002	3.152316e-002
6066296.129	2.643476e-002	3.119545e-002	9.724151e-001	-1.454471e-001	9.722926e-001	-1.452223e-001	2.594061e-002	3.151115e-002
6128835.213	2.699592e-002	3.121936e-002	9.717800e-001	-1.463075e-001	9.718216e-001	-1.465545e-001	2.650351e-002	3.152452e-002
6191374.296	2.741182e-002	3.122049e-002	9.711571e-001	-1.477368e-001	9.709991e-001	-1.479111e-001	2.683810e-002	3.163821e-002
6253913.380	2.781607e-002	3.133113e-002	9.705658e-001	-1.490226e-001	9.704520e-001	-1.488807e-001	2.720037e-002	3.175377e-002
6316452.464	2.824805e-002	3.140607e-002	9.699950e-001	-1.500359e-001	9.697424e-001	-1.502348e-001	2.769430e-002	3.151435e-002
6378991.548	2.866809e-002	3.123384e-002	9.693301e-001	-1.515510e-001	9.693745e-001	-1.513060e-001	2.819523e-002	3.137737e-002
6441530.632	2.905260e-002	3.114099e-002	9.687263e-001	-1.524041e-001	9.687138e-001	-1.525785e-001	2.870038e-002	3.146085e-002
6504069.715	2.949715e-002	3.109362e-002	9.681241e-001	-1.538473e-001	9.682451e-001	-1.536724e-001	2.915167e-002	3.142330e-002
6566608.799	3.005720e-002	3.097911e-002	9.676616e-001	-1.549911e-001	9.674992e-001	-1.548145e-001	2.952544e-002	3.156478e-002
6629147.883	3.046480e-002	3.106631e-002	9.670605e-001	-1.557814e-001	9.669279e-001	-1.559125e-001	3.003543e-002	3.137820e-002
6691686.967	3.078759e-002	3.102764e-002	9.663574e-001	-1.570253e-001	9.662816e-001	-1.570284e-001	3.049831e-002	3.139639e-002
6754226.051	3.116605e-002	3.095921e-002	9.657929e-001	-1.582805e-001	9.656408e-001	-1.583239e-001	3.072586e-002	3.115586e-002
6816765.134	3.167584e-002	3.087308e-002	9.652816e-001	-1.592824e-001	9.651744e-001	-1.593379e-001	3.121654e-002	3.126712e-002
6879304.218	3.196591e-002	3.065669e-002	9.646378e-001	-1.604594e-001	9.646372e-001	-1.603699e-001	3.160697e-002	3.113461e-002
6941843.302	3.246551e-002	3.074143e-002	9.640820e-001	-1.615769e-001	9.640589e-001	-1.614431e-001	3.201801e-002	3.112955e-002
7004382.386	3.269954e-002	3.073051e-002	9.635904e-001	-1.625844e-001	9.634594e-001	-1.625397e-001	3.235355e-002	3.110316e-002
7066921.470	3.318280e-002	3.058620e-002	9.629484e-001	-1.638099e-001	9.629716e-001	-1.634711e-001	3.288758e-002	3.084615e-002
7129460.553	3.345742e-002	3.039090e-002	9.625006e-001	-1.646840e-001	9.624446e-001	-1.646988e-001	3.329670e-002	3.081091e-002
7191999.637	3.385149e-002	3.052079e-002	9.617306e-001	-1.658548e-001	9.617272e-001	-1.657672e-001	3.353657e-002	3.072541e-002
7254538.721	3.428265e-002	3.030414e-002	9.615194e-001	-1.670109e-001	9.613938e-001	-1.668864e-001	3.396963e-002	3.063879e-002
7317077.805	3.482090e-002	3.015872e-002	9.609270e-001	-1.679144e-001	9.608113e-001	-1.679233e-001	3.432820e-002	3.042737e-002
7379616.889	3.506692e-002	3.007754e-002	9.604669e-001	-1.692448e-001	9.602302e-001	-1.690113e-001	3.464046e-002	3.035731e-002
7442155.972	3.528473e-002	2.998594e-002	9.597824e-001	-1.700931e-001	9.597193e-001	-1.699983e-001	3.511720e-002	3.044463e-002
7504695.056	3.566984e-002	2.977650e-002	9.591859e-001	-1.711110e-001	9.590810e-001	-1.712228e-001	3.550758e-002	3.038265e-002
7567234.140	3.618237e-002	2.957690e-002	9.587853e-001	-1.721356e-001	9.585594e-001	-1.722382e-001	3.577435e-002	3.017404e-002
7629773.224	3.647710e-002	2.974859e-002	9.582772e-001	-1.734106e-001	9.581928e-001	-1.732303e-001	3.605502e-002	3.001561e-002
7692312.308	3.668017e-002	2.957886e-002	9.577687e-001	-1.744234e-001	9.575717e-001	-1.744027e-001	3.645081e-002	2.980156e-002
7754851.391	3.699993e-002	2.931135e-002	9.572350e-001	-1.755091e-001	9.569444e-001	-1.752429e-001	3.675370e-002	2.980709e-002
7817390.475	3.742277e-002	2.936753e-002	9.567412e-001	-1.766741e-001	9.564721e-001	-1.765034e-001	3.702843e-002	2.980034e-002
7879929.559	3.766265e-002	2.907870e-002	9.561272e-001	-1.776963e-001	9.559602e-001	-1.776663e-001	3.747543e-002	2.964773e-002
7942468.643	3.792164e-002	2.891502e-002	9.557621e-001	-1.786883e-001	9.555692e-001	-1.786479e-001	3.776746e-002	2.936628e-002
8005007.727	3.834650e-002	2.880037e-002	9.551626e-001	-1.797691e-001	9.550375e-001	-1.796638e-001	3.801555e-002	2.944664e-002
8067546.811	3.851694e-002	2.871855e-002	9.546756e-001	-1.807447e-001	9.544438e-001	-1.806270e-001	3.823611e-002	2.912493e-002
8130085.894	3.889893e-002	2.850862e-002	9.541435e-001	-1.817412e-001	9.540139e-001	-1.817301e-001	3.874980e-002	2.892701e-002
8192624.978	3.903867e-002	2.832431e-002	9.535112e-001	-1.829198e-001	9.535560e-001	-1.827229e-001	3.909714e-002	2.877869e-002
8255164.062	3.945902e-002	2.820280e-002	9.531600e-001	-1.838875e-001	9.529984e-001	-1.837804e-001	3.938009e-002	2.860033e-002
8317703.146	3.965060e-002	2.817616e-002	9.527050e-001	-1.849257e-001	9.526115e-001	-1.847810e-001	3.950009e-002	2.852474e-002
8380242.230	4.005038e-002	2.779769e-002	9.520821e-001	-1.860470e-001	9.520503e-001	-1.857936e-001	3.977373e-002	2.833666e-002
8442781.313	4.030278e-002	2.769993e-002	9.518329e-001	-1.869637e-001	9.516336e-001	-1.868250e-001	4.003656e-002	2.811767e-002
8505320.397	4.058753e-002	2.768980e-002	9.512969e-001	-1.880286e-001	9.510989e-001	-1.878712e-001	4.027625e-002	2.801144e-002
8567859.481	4.085188e-002	2.768816e-002	9.507977e-001	-1.888791e-001	9.507230e-001	-1.888673e-001	4.060338e-002	2.800644e-002
8630398.565	4.119759e-002	2.749871e-002	9.501656e-001	-1.898939e-001	9.501909e-001	-1.898500e-001	4.074113e-002	2.764600e-002
8692937.649	4.139499e-002	2.713203e-002	9.497825e-001	-1.909468e-001	9.495767e-001	-1.909099e-001	4.097172e-002	2.759634e-002
8755476.732	4.168529e-002	2.705407e-002	9.493397e-001	-1.920634e-001	9.491489e-001	-1.918231e-001	4.130752e-002	2.746024e-002
8818015.816	4.184058e-002	2.688841e-002	9.487844e-001	-1.930231e-001	9.485248e-001	-1.929265e-001	4.166215e-002	2.721693e-002
8880554.900	4.230472e-002	2.675638e-002	9.484603e-001	-1.940787e-001	9.483588e-001	-1.937763e-001	4.178547e-002	2.692437e-002
8943093.984	4.241990e-002	2.672027e-002	9.479396e-001	-1.950254e-001	9.478938e-001	-1.948535e-001	4.207498e-002	2.682735e-002
9005633.068	4.270788e-002	2.648000e-002	9.474154e-001	-1.960738e-001	9.474973e-001	-1.960009e-001	4.221140e-002	2.656967e-002
9068172.151	4.281515e-002	2.632182e-002	9.470819e-001	-1.970986e-001	9.468703e-001	-1.968808e-001	4.251786e-002	2.644143e-002
9130711.235	4.326247e-002	2.608525e-002	9.465467e-001	-1.980844e-001	9.464733e-001	-1.979015e-001	4.278285e-002	2.611541e-002
9193250.319	4.348784e-002	2.590399e-002	9.462005e-001	-1.989768e-001	9.459789e-001	-1.989778e-001	4.298039e-002	2.602328e-002
9255789.403	4.361237e-002	2.563090e-002	9.458267e-001	-1.999126e-001	9.455338e-001	-1.999021e-001	4.309889e-002	2.594343e-002
9318328.487	4.381673e-002	2.556061e-002	9.452781e-001	-2.011696e-001	9.452124e-001	-2.009377e-001	4.342801e-002	2.576900e-002
9380867.570	4.407727e-002	2.550479e-002	9.448574e-001	-2.021886e-001	9.446041e-001	-2.020338e-001	4.365542e-002	2.559597e-002
9443406.654	4.434437e-002	2.533202e-002	9.444007e-001	-2.030905e-001	9.443106e-001	-2.030680e-001	4.391201e-002	2.535483e-002
9505945.738	4.456472e-002	2.519881e-002	9.437827e-001	-2.042774e-001	9.438966e-001	-2.040778e-001	4.410181e-002	2.518742e-002
9568484.822	4.481306e-002	2.499912e-002	9.434692e-001	-2.052080e-001	9.431862e-001	-2.050595e-001	4.416385e-002	2.526918e-002
9631023.906	4.502474e-002	2.484877e-002	9.430954e-001	-2.061946e-001	9.427519e-001	-2.060906e-001	4.452320e-002	2.480036e-002
9693562.989	4.526896e-002	2.467036e-002	9.424965e-001	-2.072158e-001	9.423985e-001	-2.069984e-001	4.452606e-002	2.476523e-002
9756102.073	4.545152e-002	2.446870e-002	9.422785e-001	-2.082402e-001	9.419744e-001	-2.079941e-001	4.478113e-002	2.447999e-002
