!Agilent Technologies,E5061B,MY49102235,A.02.00
!Date: Tue Jul 11 15:28:02 2023
!Data & Calibration Information:
!Freq	S11:SOLT2(ON)	S21:SOLT2(ON)	S12:SOLT2(ON)	S22:SOLT2(ON)
# Hz S RI R 50
5.000	-5.183481e-003	-5.652922e-003	1.001584e+000	7.992823e-003	1.000266e+000	1.022885e-002	-1.470313e-003	-7.534397e-003
62544.084	5.815009e-003	-6.548536e-005	1.001349e+000	9.296009e-005	1.000833e+000	7.664866e-004	7.712636e-003	-2.435408e-003
125083.168	5.693748e-003	3.815272e-004	1.000946e+000	-1.662730e-003	1.000713e+000	-1.724719e-003	7.511937e-003	-1.403052e-003
187622.251	5.494022e-003	9.851395e-004	1.000398e+000	-3.481603e-003	1.000971e+000	-2.323546e-003	7.391283e-003	-1.064117e-003
250161.335	5.322976e-003	1.551672e-003	1.000521e+000	-4.880285e-003	1.000674e+000	-4.943702e-003	7.300295e-003	-3.004147e-004
312700.419	5.489875e-003	2.702181e-003	1.000746e+000	-5.993097e-003	1.000602e+000	-5.775419e-003	7.816960e-003	-1.886412e-004
375239.503	5.379715e-003	1.627619e-003	1.000987e+000	-7.866055e-003	1.000535e+000	-7.563821e-003	7.313072e-003	6.915800e-005
437778.587	5.222976e-003	2.441075e-003	1.001282e+000	-8.446754e-003	1.000946e+000	-9.143632e-003	6.711653e-003	7.866648e-004
500317.670	4.701568e-003	3.001842e-003	1.001176e+000	-1.127622e-002	1.001562e+000	-1.103034e-002	4.927092e-003	1.392267e-003
562856.754	6.041548e-003	3.090422e-003	1.001167e+000	-1.311764e-002	1.001011e+000	-1.305703e-002	6.148541e-003	2.307540e-003
625395.838	5.258668e-003	3.669279e-003	1.002063e+000	-1.480018e-002	1.002026e+000	-1.433378e-002	6.269230e-003	3.278994e-003
687934.922	5.323951e-003	3.765207e-003	1.001116e+000	-1.625013e-002	1.001191e+000	-1.639439e-002	5.916015e-003	3.248563e-003
750474.006	4.584740e-003	4.520663e-003	1.000652e+000	-1.597642e-002	1.000710e+000	-1.593001e-002	5.764653e-003	3.831958e-003
813013.089	4.786142e-003	4.947510e-003	1.000922e+000	-1.823093e-002	1.000430e+000	-1.793168e-002	5.133663e-003	4.436983e-003
875552.173	4.554607e-003	5.537328e-003	1.000842e+000	-1.953829e-002	1.000724e+000	-1.962355e-002	5.953491e-003	4.437912e-003
938091.257	4.668328e-003	6.022095e-003	1.000975e+000	-2.158269e-002	1.000933e+000	-2.115271e-002	6.229346e-003	5.436072e-003
1000630.341	4.143604e-003	6.091502e-003	1.000445e+000	-2.340276e-002	1.000759e+000	-2.295963e-002	5.499860e-003	5.153001e-003
1063169.425	4.515045e-003	6.362777e-003	1.000805e+000	-2.495404e-002	1.000413e+000	-2.427704e-002	4.688551e-003	5.251179e-003
1125708.508	4.441360e-003	6.824260e-003	1.000601e+000	-2.681023e-002	1.000393e+000	-2.597705e-002	4.245912e-003	5.988032e-003
1188247.592	5.019211e-003	6.777792e-003	1.000665e+000	-2.823115e-002	1.000637e+000	-2.757720e-002	3.172939e-003	5.856965e-003
1250786.676	4.871236e-003	6.461241e-003	1.000135e+000	-2.847133e-002	1.000335e+000	-2.867027e-002	2.437631e-003	4.616680e-003
1313325.760	5.028402e-003	6.789461e-003	1.000586e+000	-3.049627e-002	1.000651e+000	-3.069973e-002	3.224466e-003	5.238760e-003
1375864.844	4.791078e-003	7.028048e-003	1.000161e+000	-3.275617e-002	1.000015e+000	-3.290903e-002	3.112234e-003	5.941320e-003
1438403.927	4.708964e-003	7.300828e-003	1.000046e+000	-3.386498e-002	1.000512e+000	-3.334046e-002	3.264302e-003	6.630001e-003
1500943.011	5.001586e-003	7.782076e-003	1.000714e+000	-3.524084e-002	1.000825e+000	-3.517030e-002	3.630166e-003	6.646822e-003
1563482.095	5.030711e-003	7.833811e-003	1.000225e+000	-3.698470e-002	1.000045e+000	-3.631248e-002	3.815990e-003	7.272068e-003
1626021.179	4.894862e-003	8.401668e-003	1.000172e+000	-3.878476e-002	1.000407e+000	-3.928646e-002	4.138853e-003	7.649838e-003
1688560.263	4.632211e-003	8.896058e-003	9.997810e-001	-4.089339e-002	1.000699e+000	-4.104742e-002	4.357036e-003	8.055099e-003
1751099.346	4.840340e-003	9.417861e-003	1.000282e+000	-4.246813e-002	9.998558e-001	-4.195249e-002	4.240472e-003	9.338158e-003
1813638.430	4.516466e-003	9.817954e-003	1.000486e+000	-4.452631e-002	1.000162e+000	-4.420821e-002	4.456717e-003	9.396066e-003
1876177.514	4.596885e-003	1.054137e-002	1.000766e+000	-4.579013e-002	1.000564e+000	-4.626113e-002	4.204149e-003	1.051012e-002
1938716.598	4.124805e-003	1.107638e-002	1.000957e+000	-4.711315e-002	1.000371e+000	-4.661840e-002	4.428557e-003	1.132812e-002
2001255.682	4.092303e-003	1.103627e-002	1.000864e+000	-4.899632e-002	1.000264e+000	-4.863571e-002	4.230940e-003	1.131983e-002
2063794.765	4.256680e-003	1.186295e-002	1.000189e+000	-5.033836e-002	9.996158e-001	-5.078431e-002	4.672587e-003	1.165281e-002
2126333.849	3.829999e-003	1.179697e-002	9.997188e-001	-5.210547e-002	9.989814e-001	-5.154661e-002	4.998814e-003	1.233277e-002
2188872.933	4.387178e-003	1.221166e-002	9.993862e-001	-5.364766e-002	9.989724e-001	-5.299255e-002	4.953269e-003	1.274544e-002
2251412.017	4.548006e-003	1.229764e-002	9.991756e-001	-5.559994e-002	9.989692e-001	-5.465302e-002	5.000157e-003	1.307041e-002
2313951.101	4.958817e-003	1.315648e-002	9.984886e-001	-5.702249e-002	9.988770e-001	-5.590311e-002	5.372852e-003	1.343840e-002
2376490.184	4.767437e-003	1.357539e-002	9.982658e-001	-5.785422e-002	9.987639e-001	-5.826126e-002	5.428272e-003	1.388707e-002
2439029.268	5.296243e-003	1.399838e-002	9.981601e-001	-6.019365e-002	9.979004e-001	-5.974531e-002	5.178903e-003	1.447304e-002
2501568.352	5.362424e-003	1.444161e-002	9.978631e-001	-6.074415e-002	9.986930e-001	-6.078592e-002	5.550232e-003	1.488891e-002
2564107.436	5.347079e-003	1.476088e-002	9.981743e-001	-6.300707e-002	9.983301e-001	-6.285780e-002	4.913861e-003	1.498103e-002
2626646.520	5.922530e-003	1.502023e-002	9.978589e-001	-6.456447e-002	9.970190e-001	-6.436998e-002	5.269551e-003	1.535922e-002
2689185.604	5.962852e-003	1.565034e-002	9.981365e-001	-6.578935e-002	9.976985e-001	-6.566760e-002	5.480813e-003	1.588134e-002
2751724.687	6.172814e-003	1.601429e-002	9.980605e-001	-6.700138e-002	9.976469e-001	-6.696844e-002	5.187795e-003	1.632891e-002
2814263.771	6.225555e-003	1.640116e-002	9.968793e-001	-6.933697e-002	9.972360e-001	-6.873084e-002	5.266547e-003	1.665894e-002
2876802.855	6.289774e-003	1.666348e-002	9.967640e-001	-7.136122e-002	9.970736e-001	-7.043628e-002	5.473096e-003	1.724446e-002
2939341.939	6.522018e-003	1.722234e-002	9.974226e-001	-7.220169e-002	9.970057e-001	-7.243640e-002	5.482896e-003	1.761949e-002
3001881.023	6.556694e-003	1.769365e-002	9.967993e-001	-7.381509e-002	9.966381e-001	-7.394035e-002	5.684289e-003	1.793054e-002
3064420.106	6.741609e-003	1.811439e-002	9.972994e-001	-7.533747e-002	9.965168e-001	-7.531073e-002	5.615356e-003	1.830367e-002
3126959.190	7.051113e-003	1.846861e-002	9.967521e-001	-7.709532e-002	9.965787e-001	-7.702340e-002	5.930134e-003	1.868944e-002
3189498.274	7.169893e-003	1.896579e-002	9.965197e-001	-7.855346e-002	9.963265e-001	-7.857639e-002	6.058249e-003	1.910930e-002
3252037.358	7.205062e-003	1.909060e-002	9.964510e-001	-8.024646e-002	9.962711e-001	-8.012989e-002	6.142815e-003	1.963870e-002
3314576.442	7.368651e-003	1.972392e-002	9.961869e-001	-8.172486e-002	9.960040e-001	-8.176944e-002	6.343193e-003	1.999358e-002
3377115.525	7.480088e-003	2.019931e-002	9.958363e-001	-8.326442e-002	9.955855e-001	-8.348370e-002	6.329642e-003	2.034263e-002
3439654.609	7.640913e-003	2.060374e-002	9.954655e-001	-8.486449e-002	9.956862e-001	-8.499614e-002	6.513286e-003	2.100164e-002
3502193.693	7.753354e-003	2.077753e-002	9.953322e-001	-8.662170e-002	9.951853e-001	-8.648593e-002	6.842995e-003	2.141901e-002
3564732.777	7.988837e-003	2.138554e-002	9.951843e-001	-8.815615e-002	9.950453e-001	-8.818579e-002	7.113683e-003	2.190065e-002
3627271.861	7.997206e-003	2.171949e-002	9.950292e-001	-8.985050e-002	9.949067e-001	-8.967598e-002	7.045116e-003	2.217247e-002
3689810.944	8.092819e-003	2.208245e-002	9.946707e-001	-9.150203e-002	9.946083e-001	-9.124809e-002	7.407645e-003	2.265616e-002
3752350.028	8.390037e-003	2.257082e-002	9.944206e-001	-9.283274e-002	9.942047e-001	-9.280895e-002	7.524336e-003	2.307895e-002
3814889.112	8.724538e-003	2.316207e-002	9.940483e-001	-9.450423e-002	9.941716e-001	-9.472623e-002	7.628153e-003	2.340979e-002
3877428.196	8.859401e-003	2.365481e-002	9.939832e-001	-9.614354e-002	9.938439e-001	-9.611037e-002	8.164288e-003	2.388041e-002
3939967.280	9.036393e-003	2.382267e-002	9.936207e-001	-9.784079e-002	9.936217e-001	-9.773208e-002	8.366804e-003	2.443015e-002
4002506.363	9.322961e-003	2.441092e-002	9.933603e-001	-9.940741e-002	9.932704e-001	-9.921974e-002	8.525984e-003	2.481137e-002
4065045.447	9.383137e-003	2.479025e-002	9.928851e-001	-1.010571e-001	9.928358e-001	-1.009402e-001	8.847684e-003	2.516686e-002
4127584.531	9.598126e-003	2.523129e-002	9.925595e-001	-1.026669e-001	9.925745e-001	-1.024663e-001	9.118208e-003	2.573429e-002
4190123.615	9.899311e-003	2.570768e-002	9.923018e-001	-1.044385e-001	9.921034e-001	-1.042367e-001	9.259760e-003	2.596359e-002
4252662.699	1.010929e-002	2.608264e-002	9.920974e-001	-1.060973e-001	9.917213e-001	-1.059529e-001	9.629937e-003	2.644347e-002
4315201.782	1.051221e-002	2.649353e-002	9.916873e-001	-1.074318e-001	9.916869e-001	-1.075368e-001	9.707310e-003	2.671376e-002
4377740.866	1.068757e-002	2.692304e-002	9.914075e-001	-1.092598e-001	9.910511e-001	-1.091403e-001	1.018353e-002	2.744390e-002
4440279.950	1.087652e-002	2.722537e-002	9.910135e-001	-1.106745e-001	9.906110e-001	-1.106555e-001	1.035089e-002	2.773928e-002
4502819.034	1.117039e-002	2.780182e-002	9.903571e-001	-1.123660e-001	9.903538e-001	-1.122717e-001	1.074329e-002	2.831918e-002
4565358.118	1.139087e-002	2.818734e-002	9.899943e-001	-1.139358e-001	9.898022e-001	-1.136593e-001	1.104140e-002	2.864152e-002
4627897.201	1.189768e-002	2.874372e-002	9.897856e-001	-1.155182e-001	9.895025e-001	-1.152563e-001	1.147382e-002	2.916614e-002
4690436.285	1.204682e-002	2.906765e-002	9.893828e-001	-1.172506e-001	9.891132e-001	-1.172441e-001	1.178994e-002	2.940595e-002
4752975.369	1.239297e-002	2.947882e-002	9.887236e-001	-1.188954e-001	9.887583e-001	-1.187077e-001	1.194684e-002	2.978900e-002
4815514.453	1.285509e-002	2.989300e-002	9.884712e-001	-1.203805e-001	9.882864e-001	-1.203949e-001	1.252527e-002	3.029262e-002
4878053.537	1.329971e-002	3.021254e-002	9.880646e-001	-1.219198e-001	9.878068e-001	-1.218060e-001	1.283254e-002	3.063323e-002
4940592.620	1.342169e-002	3.068188e-002	9.875039e-001	-1.235683e-001	9.873840e-001	-1.235147e-001	1.296875e-002	3.102905e-002
5003131.704	1.384133e-002	3.093395e-002	9.869815e-001	-1.250720e-001	9.869739e-001	-1.248452e-001	1.347479e-002	3.136716e-002
5065670.788	1.416582e-002	3.154593e-002	9.864684e-001	-1.266809e-001	9.863968e-001	-1.264933e-001	1.383360e-002	3.179800e-002
5128209.872	1.467231e-002	3.177553e-002	9.861432e-001	-1.282301e-001	9.859072e-001	-1.281005e-001	1.418721e-002	3.198767e-002
5190748.956	1.498769e-002	3.215902e-002	9.855406e-001	-1.298481e-001	9.854853e-001	-1.297734e-001	1.456569e-002	3.250180e-002
5253288.039	1.544827e-002	3.249544e-002	9.850857e-001	-1.313969e-001	9.849655e-001	-1.312677e-001	1.491295e-002	3.295559e-002
5315827.123	1.583169e-002	3.279994e-002	9.843896e-001	-1.329067e-001	9.843752e-001	-1.328262e-001	1.532073e-002	3.322385e-002
5378366.207	1.636559e-002	3.320459e-002	9.840023e-001	-1.344896e-001	9.838520e-001	-1.345484e-001	1.574026e-002	3.349687e-002
5440905.291	1.662335e-002	3.364048e-002	9.835107e-001	-1.360572e-001	9.833471e-001	-1.359634e-001	1.606580e-002	3.391152e-002
5503444.375	1.726089e-002	3.381610e-002	9.829106e-001	-1.376114e-001	9.828690e-001	-1.373474e-001	1.670882e-002	3.415612e-002
5565983.458	1.738412e-002	3.430846e-002	9.823916e-001	-1.390405e-001	9.823081e-001	-1.388011e-001	1.711509e-002	3.465365e-002
5628522.542	1.809534e-002	3.452076e-002	9.818207e-001	-1.404482e-001	9.817075e-001	-1.404306e-001	1.760152e-002	3.484417e-002
5691061.626	1.862005e-002	3.465709e-002	9.811609e-001	-1.421564e-001	9.810226e-001	-1.419946e-001	1.799236e-002	3.520205e-002
5753600.710	1.896507e-002	3.505539e-002	9.804714e-001	-1.435282e-001	9.804680e-001	-1.434124e-001	1.851027e-002	3.537694e-002
5816139.794	1.956603e-002	3.551194e-002	9.799600e-001	-1.450110e-001	9.796733e-001	-1.450654e-001	1.885356e-002	3.572890e-002
5878678.877	1.994071e-002	3.557902e-002	9.793348e-001	-1.464885e-001	9.791908e-001	-1.464170e-001	1.946604e-002	3.586707e-002
5941217.961	2.043618e-002	3.577944e-002	9.786406e-001	-1.480400e-001	9.785849e-001	-1.477198e-001	1.977837e-002	3.624728e-002
6003757.045	2.080977e-002	3.626786e-002	9.779078e-001	-1.493504e-001	9.779405e-001	-1.491435e-001	2.041030e-002	3.646926e-002
6066296.129	2.142763e-002	3.631740e-002	9.774977e-001	-1.507438e-001	9.773310e-001	-1.505591e-001	2.090220e-002	3.668806e-002
6128835.213	2.203583e-002	3.656913e-002	9.768344e-001	-1.518382e-001	9.768071e-001	-1.520993e-001	2.149699e-002	3.690277e-002
6191374.296	2.247941e-002	3.677680e-002	9.761188e-001	-1.535596e-001	9.759184e-001	-1.536247e-001	2.187577e-002	3.723538e-002
6253913.380	2.293678e-002	3.710547e-002	9.754704e-001	-1.550042e-001	9.753638e-001	-1.548302e-001	2.229437e-002	3.755932e-002
6316452.464	2.343496e-002	3.737741e-002	9.748551e-001	-1.562380e-001	9.745924e-001	-1.564128e-001	2.283787e-002	3.752641e-002
6378991.548	2.391655e-002	3.741081e-002	9.741497e-001	-1.579567e-001	9.741415e-001	-1.576893e-001	2.341688e-002	3.759396e-002
6441530.632	2.437993e-002	3.751114e-002	9.734390e-001	-1.590227e-001	9.734215e-001	-1.591267e-001	2.399270e-002	3.787344e-002
6504069.715	2.490173e-002	3.764828e-002	9.727662e-001	-1.606323e-001	9.728675e-001	-1.604175e-001	2.453255e-002	3.801398e-002
6566608.799	2.556416e-002	3.772464e-002	9.722242e-001	-1.619866e-001	9.720157e-001	-1.617408e-001	2.498807e-002	3.835883e-002
6629147.883	2.605061e-002	3.799731e-002	9.714657e-001	-1.629435e-001	9.713387e-001	-1.631072e-001	2.558589e-002	3.835423e-002
6691686.967	2.647531e-002	3.814101e-002	9.707068e-001	-1.643963e-001	9.706296e-001	-1.643634e-001	2.614830e-002	3.855205e-002
6754226.051	2.694554e-002	3.824786e-002	9.700038e-001	-1.658145e-001	9.698663e-001	-1.658285e-001	2.647485e-002	3.848658e-002
6816765.134	2.755945e-002	3.832588e-002	9.694686e-001	-1.669953e-001	9.693194e-001	-1.669640e-001	2.706558e-002	3.876985e-002
6879304.218	2.797819e-002	3.827400e-002	9.686927e-001	-1.682992e-001	9.687011e-001	-1.681850e-001	2.757345e-002	3.879047e-002
6941843.302	2.857761e-002	3.850863e-002	9.680096e-001	-1.696064e-001	9.679785e-001	-1.694546e-001	2.809949e-002	3.895000e-002
7004382.386	2.893335e-002	3.866468e-002	9.674327e-001	-1.707638e-001	9.672330e-001	-1.707337e-001	2.855096e-002	3.906640e-002
7066921.470	2.953610e-002	3.866875e-002	9.666494e-001	-1.721644e-001	9.666613e-001	-1.717805e-001	2.920735e-002	3.896508e-002
7129460.553	2.992393e-002	3.860503e-002	9.660457e-001	-1.732011e-001	9.659401e-001	-1.731719e-001	2.972550e-002	3.907047e-002
7191999.637	3.045155e-002	3.889829e-002	9.651467e-001	-1.745167e-001	9.651308e-001	-1.743555e-001	3.009936e-002	3.912333e-002
7254538.721	3.100695e-002	3.879993e-002	9.648577e-001	-1.757784e-001	9.646585e-001	-1.756621e-001	3.064961e-002	3.917706e-002
7317077.805	3.167218e-002	3.878767e-002	9.641004e-001	-1.768461e-001	9.640097e-001	-1.767933e-001	3.113982e-002	3.908596e-002
7379616.889	3.204747e-002	3.882451e-002	9.635687e-001	-1.782603e-001	9.632990e-001	-1.779946e-001	3.158691e-002	3.913702e-002
7442155.972	3.239230e-002	3.885218e-002	9.627180e-001	-1.792715e-001	9.626187e-001	-1.791347e-001	3.218569e-002	3.934199e-002
7504695.056	3.290454e-002	3.875940e-002	9.620070e-001	-1.803485e-001	9.618399e-001	-1.804695e-001	3.271092e-002	3.939987e-002
7567234.140	3.355403e-002	3.867251e-002	9.615067e-001	-1.815175e-001	9.611725e-001	-1.815961e-001	3.311159e-002	3.930596e-002
7629773.224	3.396596e-002	3.894216e-002	9.608420e-001	-1.828435e-001	9.607010e-001	-1.826866e-001	3.351552e-002	3.925731e-002
7692312.308	3.431282e-002	3.886218e-002	9.601871e-001	-1.839811e-001	9.599512e-001	-1.839529e-001	3.404404e-002	3.914123e-002
7754851.391	3.474512e-002	3.870205e-002	9.595014e-001	-1.851548e-001	9.591918e-001	-1.848770e-001	3.448352e-002	3.924530e-002
7817390.475	3.532257e-002	3.885128e-002	9.588608e-001	-1.864417e-001	9.585999e-001	-1.862616e-001	3.488951e-002	3.933200e-002
7879929.559	3.567397e-002	3.865531e-002	9.581467e-001	-1.875468e-001	9.579405e-001	-1.875105e-001	3.547126e-002	3.926692e-002
7942468.643	3.608544e-002	3.857276e-002	9.576213e-001	-1.886136e-001	9.574027e-001	-1.886435e-001	3.589200e-002	3.906350e-002
8005007.727	3.663408e-002	3.853349e-002	9.568869e-001	-1.897952e-001	9.567979e-001	-1.897277e-001	3.628091e-002	3.924146e-002
8067546.811	3.693995e-002	3.853991e-002	9.563038e-001	-1.908943e-001	9.560467e-001	-1.907391e-001	3.662098e-002	3.899470e-002
8130085.894	3.744738e-002	3.841027e-002	9.556295e-001	-1.919207e-001	9.554845e-001	-1.919254e-001	3.727107e-002	3.886761e-002
8192624.978	3.772022e-002	3.829999e-002	9.548637e-001	-1.931730e-001	9.548544e-001	-1.929943e-001	3.774684e-002	3.879507e-002
8255164.062	3.827325e-002	3.823930e-002	9.543762e-001	-1.942316e-001	9.542047e-001	-1.940876e-001	3.815032e-002	3.868713e-002
8317703.146	3.859993e-002	3.829185e-002	9.538244e-001	-1.953679e-001	9.536796e-001	-1.951963e-001	3.840947e-002	3.868658e-002
8380242.230	3.910614e-002	3.796818e-002	9.530157e-001	-1.965444e-001	9.529227e-001	-1.962410e-001	3.879432e-002	3.854998e-002
8442781.313	3.949792e-002	3.793419e-002	9.526436e-001	-1.975124e-001	9.523905e-001	-1.973024e-001	3.919433e-002	3.840119e-002
8505320.397	3.991692e-002	3.797968e-002	9.519709e-001	-1.986434e-001	9.517569e-001	-1.984194e-001	3.956909e-002	3.836519e-002
8567859.481	4.031089e-002	3.803553e-002	9.513148e-001	-1.995351e-001	9.512428e-001	-1.995090e-001	4.003928e-002	3.841037e-002
8630398.565	4.078629e-002	3.789303e-002	9.505871e-001	-2.005810e-001	9.506305e-001	-2.005306e-001	4.030377e-002	3.810444e-002
8692937.649	4.111025e-002	3.758889e-002	9.500843e-001	-2.016723e-001	9.498537e-001	-2.016526e-001	4.065839e-002	3.810628e-002
8755476.732	4.152183e-002	3.755457e-002	9.494966e-001	-2.028905e-001	9.492947e-001	-2.026449e-001	4.111477e-002	3.801081e-002
8818015.816	4.179259e-002	3.743014e-002	9.488660e-001	-2.039197e-001	9.485534e-001	-2.037516e-001	4.158717e-002	3.781328e-002
8880554.900	4.239432e-002	3.733092e-002	9.483798e-001	-2.050179e-001	9.482462e-001	-2.046918e-001	4.184177e-002	3.757994e-002
8943093.984	4.261741e-002	3.733999e-002	9.477445e-001	-2.060117e-001	9.476507e-001	-2.058036e-001	4.224274e-002	3.750478e-002
9005633.068	4.305003e-002	3.713791e-002	9.470764e-001	-2.070828e-001	9.471255e-001	-2.069841e-001	4.251008e-002	3.728173e-002
9068172.151	4.327881e-002	3.703286e-002	9.466200e-001	-2.081621e-001	9.463856e-001	-2.078917e-001	4.293949e-002	3.720345e-002
9130711.235	4.384548e-002	3.681203e-002	9.459621e-001	-2.091815e-001	9.458717e-001	-2.089639e-001	4.333556e-002	3.691050e-002
9193250.319	4.419120e-002	3.667189e-002	9.455328e-001	-2.100794e-001	9.452468e-001	-2.100445e-001	4.363641e-002	3.685285e-002
9255789.403	4.442916e-002	3.641897e-002	9.449975e-001	-2.110619e-001	9.446648e-001	-2.110495e-001	4.387596e-002	3.679950e-002
9318328.487	4.474955e-002	3.637736e-002	9.443082e-001	-2.123198e-001	9.442650e-001	-2.120451e-001	4.433770e-002	3.665994e-002
9380867.570	4.513818e-002	3.636237e-002	9.437716e-001	-2.133856e-001	9.434951e-001	-2.131959e-001	4.468259e-002	3.650328e-002
9443406.654	4.552677e-002	3.621313e-002	9.432423e-001	-2.143189e-001	9.430635e-001	-2.142741e-001	4.506822e-002	3.629470e-002
9505945.738	4.584929e-002	3.609988e-002	9.425001e-001	-2.155022e-001	9.425614e-001	-2.152660e-001	4.535893e-002	3.615546e-002
9568484.822	4.621830e-002	3.591521e-002	9.420663e-001	-2.164786e-001	9.417478e-001	-2.162999e-001	4.553747e-002	3.626685e-002
9631023.906	4.653781e-002	3.579004e-002	9.415234e-001	-2.174660e-001	9.412098e-001	-2.173298e-001	4.601373e-002	3.580282e-002
9693562.989	4.690086e-002	3.563138e-002	9.408854e-001	-2.185305e-001	9.407350e-001	-2.182983e-001	4.611529e-002	3.579686e-002
9756102.073	4.720283e-002	3.543216e-002	9.405226e-001	-2.195562e-001	9.402203e-001	-2.192837e-001	4.647900e-002	3.552537e-002
