!Agilent Technologies,E5061B,MY49102235,A.02.00
!Date: Tue Jul 11 16:42:38 2023
!Data & Calibration Information:
!Freq	S11:SOLT2(ON)	S21:SOLT2(ON)	S12:SOLT2(ON)	S22:SOLT2(ON)
# Hz S RI R 50
5.000	-5.169878e-003	-5.630872e-003	1.001782e+000	8.013945e-003	1.000335e+000	1.026158e-002	-1.504679e-003	-7.563155e-003
62544.084	5.801987e-003	-4.929136e-004	1.001344e+000	5.164840e-004	1.000827e+000	1.227675e-003	7.704481e-003	-2.878889e-003
125083.168	5.680515e-003	-5.045204e-004	1.000971e+000	-7.999783e-004	1.000752e+000	-8.780301e-004	7.487792e-003	-2.283377e-003
187622.251	5.443322e-003	-3.310131e-004	1.000487e+000	-2.176578e-003	1.001066e+000	-9.678523e-004	7.356149e-003	-2.378415e-003
250161.335	5.263635e-003	-1.875745e-004	1.000698e+000	-3.245015e-003	1.000615e+000	-3.112523e-003	7.265024e-003	-2.020689e-003
312700.419	5.424853e-003	5.591619e-004	1.000782e+000	-3.930574e-003	1.000663e+000	-3.615753e-003	7.762736e-003	-2.332229e-003
375239.503	5.309442e-003	-9.637698e-004	1.001003e+000	-5.267894e-003	1.000599e+000	-4.892973e-003	7.255743e-003	-2.514258e-003
437778.587	5.128605e-003	-5.785200e-004	1.001410e+000	-5.482834e-003	1.001040e+000	-6.126571e-003	6.610503e-003	-2.205125e-003
500317.670	4.584852e-003	-4.918847e-004	1.001334e+000	-7.652640e-003	1.001715e+000	-7.523048e-003	4.807836e-003	-2.060154e-003
562856.754	5.914523e-003	-7.672707e-004	1.001335e+000	-9.260441e-003	1.001176e+000	-9.050936e-003	6.003206e-003	-1.557480e-003
625395.838	5.077039e-003	-6.237359e-004	1.002237e+000	-1.051995e-002	1.002156e+000	-1.010724e-002	6.094491e-003	-9.888951e-004
687934.922	5.134074e-003	-9.628471e-004	1.001348e+000	-1.147480e-002	1.001217e+000	-1.153282e-002	5.753729e-003	-1.480512e-003
750474.006	4.360038e-003	-6.371799e-004	1.000845e+000	-1.094891e-002	1.000842e+000	-1.056457e-002	5.541903e-003	-1.294391e-003
813013.089	4.526674e-003	-6.315727e-004	1.001161e+000	-1.271504e-002	1.000812e+000	-1.232426e-002	4.912058e-003	-1.119333e-003
875552.173	4.263929e-003	-4.587168e-004	1.001046e+000	-1.366635e-002	1.001090e+000	-1.355533e-002	5.687776e-003	-1.529746e-003
938091.257	4.335388e-003	-3.949862e-004	1.001184e+000	-1.507238e-002	1.001236e+000	-1.465590e-002	5.919086e-003	-9.663406e-004
1000630.341	3.781323e-003	-7.549434e-004	1.000830e+000	-1.644093e-002	1.001004e+000	-1.611005e-002	5.158674e-003	-1.679503e-003
1063169.425	4.144796e-003	-9.335778e-004	1.001117e+000	-1.781420e-002	1.000873e+000	-1.693897e-002	4.342971e-003	-2.004118e-003
1125708.508	4.036213e-003	-8.818238e-004	1.000899e+000	-1.899966e-002	1.000796e+000	-1.829189e-002	3.849764e-003	-1.726694e-003
1188247.592	4.559832e-003	-1.328841e-003	1.001189e+000	-2.000720e-002	1.001008e+000	-1.931112e-002	2.752917e-003	-2.305836e-003
1250786.676	4.406725e-003	-2.087268e-003	1.000564e+000	-1.999003e-002	1.000828e+000	-2.004528e-002	2.017907e-003	-3.974965e-003
1313325.760	4.529426e-003	-2.179265e-003	1.001009e+000	-2.143535e-002	1.001123e+000	-2.163713e-002	2.752323e-003	-3.779596e-003
1375864.844	4.240324e-003	-2.398258e-003	1.000672e+000	-2.348581e-002	1.000601e+000	-2.331691e-002	2.601718e-003	-3.489320e-003
1438403.927	4.145210e-003	-2.545961e-003	1.000805e+000	-2.408390e-002	1.001000e+000	-2.326798e-002	2.677724e-003	-3.247117e-003
1500943.011	4.374602e-003	-2.502394e-003	1.001237e+000	-2.495647e-002	1.001380e+000	-2.490665e-002	3.050851e-003	-3.661470e-003
1563482.095	4.368457e-003	-2.877547e-003	1.000974e+000	-2.634496e-002	1.000677e+000	-2.548336e-002	3.174182e-003	-3.468546e-003
1626021.179	4.168342e-003	-2.747777e-003	1.000859e+000	-2.747468e-002	1.001121e+000	-2.791057e-002	3.434045e-003	-3.517128e-003
1688560.263	3.871264e-003	-2.704704e-003	1.000609e+000	-2.930653e-002	1.001470e+000	-2.934435e-002	3.609443e-003	-3.547077e-003
1751099.346	4.015006e-003	-2.608471e-003	1.001142e+000	-3.041712e-002	1.000837e+000	-2.993386e-002	3.417395e-003	-2.701500e-003
1813638.430	3.637236e-003	-2.657116e-003	1.001396e+000	-3.199104e-002	1.001130e+000	-3.157782e-002	3.609967e-003	-3.097926e-003
1876177.514	3.686240e-003	-2.372413e-003	1.001695e+000	-3.275714e-002	1.001366e+000	-3.324237e-002	3.275698e-003	-2.432450e-003
1938716.598	3.127755e-003	-2.305971e-003	1.001807e+000	-3.365934e-002	1.001469e+000	-3.298674e-002	3.442113e-003	-2.042892e-003
2001255.682	3.049345e-003	-2.791461e-003	1.001827e+000	-3.501520e-002	1.001325e+000	-3.470600e-002	3.198506e-003	-2.511024e-003
2063794.765	3.124074e-003	-2.419066e-003	1.001432e+000	-3.593033e-002	1.000799e+000	-3.634084e-002	3.576969e-003	-2.620420e-003
2126333.849	2.671300e-003	-2.950579e-003	1.000889e+000	-3.730198e-002	1.000258e+000	-3.676548e-002	3.845931e-003	-2.373726e-003
2188872.933	3.157821e-003	-2.976733e-003	1.000582e+000	-3.845620e-002	1.000222e+000	-3.771846e-002	3.712848e-003	-2.428589e-003
2251412.017	3.267341e-003	-3.338285e-003	1.000422e+000	-3.998430e-002	1.000265e+000	-3.879078e-002	3.706461e-003	-2.554299e-003
2313951.101	3.574667e-003	-2.913215e-003	9.999977e-001	-4.100395e-002	1.000305e+000	-3.979139e-002	4.006245e-003	-2.617868e-003
2376490.184	3.311481e-003	-2.971530e-003	9.997540e-001	-4.125498e-002	1.000280e+000	-4.156398e-002	3.976452e-003	-2.634108e-003
2439029.268	3.772092e-003	-3.008298e-003	9.997605e-001	-4.310446e-002	9.993668e-001	-4.263042e-002	3.631223e-003	-2.532334e-003
2501568.352	3.745697e-003	-3.030213e-003	9.993744e-001	-4.318453e-002	1.000150e+000	-4.315041e-002	3.924126e-003	-2.591261e-003
2564107.436	3.654027e-003	-3.184134e-003	9.997996e-001	-4.512367e-002	9.999482e-001	-4.480572e-002	3.228775e-003	-2.974719e-003
2626646.520	4.138727e-003	-3.368138e-003	9.996268e-001	-4.616273e-002	9.989498e-001	-4.580880e-002	3.488912e-003	-3.055076e-003
2689185.604	4.093502e-003	-3.225486e-003	1.000029e+000	-4.687494e-002	9.996695e-001	-4.656886e-002	3.592975e-003	-3.008913e-003
2751724.687	4.202063e-003	-3.337617e-003	9.997951e-001	-4.769257e-002	9.995485e-001	-4.742907e-002	3.210076e-003	-3.075579e-003
2814263.771	4.141277e-003	-3.410301e-003	9.990007e-001	-4.944796e-002	9.992796e-001	-4.882221e-002	3.182901e-003	-3.209024e-003
2876802.855	4.087966e-003	-3.639505e-003	9.990441e-001	-5.084850e-002	9.992845e-001	-4.984212e-002	3.262013e-003	-3.099514e-003
2939341.939	4.207251e-003	-3.578360e-003	9.996583e-001	-5.140580e-002	9.991159e-001	-5.138339e-002	3.159250e-003	-3.206691e-003
3001881.023	4.126556e-003	-3.591952e-003	9.993654e-001	-5.251149e-002	9.991230e-001	-5.247925e-002	3.236358e-003	-3.365596e-003
3064420.106	4.178993e-003	-3.656569e-003	9.998372e-001	-5.347581e-002	9.989739e-001	-5.334069e-002	3.068849e-003	-3.521546e-003
3126959.190	4.366608e-003	-3.777114e-003	9.994700e-001	-5.473355e-002	9.992570e-001	-5.451979e-002	3.247272e-003	-3.597056e-003
3189498.274	4.344779e-003	-3.762466e-003	9.993143e-001	-5.562865e-002	9.991395e-001	-5.561373e-002	3.235732e-003	-3.673433e-003
3252037.358	4.260468e-003	-4.158394e-003	9.993959e-001	-5.685620e-002	9.991965e-001	-5.662928e-002	3.173705e-003	-3.654603e-003
3314576.442	4.270021e-003	-4.022654e-003	9.992815e-001	-5.786835e-002	9.990752e-001	-5.775167e-002	3.232758e-003	-3.786696e-003
3377115.525	4.240442e-003	-4.038101e-003	9.990849e-001	-5.887905e-002	9.988472e-001	-5.898061e-002	3.074437e-003	-3.947338e-003
3439654.609	4.225763e-003	-4.142296e-003	9.989356e-001	-6.000064e-002	9.990737e-001	-5.997045e-002	3.101533e-003	-3.794077e-003
3502193.693	4.184645e-003	-4.471031e-003	9.988537e-001	-6.121394e-002	9.987702e-001	-6.093730e-002	3.240188e-003	-3.877116e-003
3564732.777	4.238495e-003	-4.362545e-003	9.989249e-001	-6.226419e-002	9.987718e-001	-6.215043e-002	3.341669e-003	-3.892708e-003
3627271.861	4.080961e-003	-4.547263e-003	9.989445e-001	-6.342599e-002	9.988164e-001	-6.313964e-002	3.118764e-003	-4.149878e-003
3689810.944	3.985579e-003	-4.709173e-003	9.987686e-001	-6.453482e-002	9.987095e-001	-6.420123e-002	3.263536e-003	-4.168833e-003
3752350.028	4.090483e-003	-4.710618e-003	9.986781e-001	-6.538120e-002	9.984817e-001	-6.525255e-002	3.199363e-003	-4.268416e-003
3814889.112	4.203450e-003	-4.632434e-003	9.985134e-001	-6.652115e-002	9.987185e-001	-6.663632e-002	3.109013e-003	-4.442169e-003
3877428.196	4.136365e-003	-4.668655e-003	9.986602e-001	-6.768316e-002	9.985421e-001	-6.745934e-002	3.432070e-003	-4.487358e-003
3939967.280	4.103600e-003	-5.008603e-003	9.985325e-001	-6.883795e-002	9.985776e-001	-6.857369e-002	3.407291e-003	-4.439487e-003
4002506.363	4.164148e-003	-4.922192e-003	9.985481e-001	-6.990848e-002	9.984435e-001	-6.957035e-002	3.344337e-003	-4.570049e-003
4065045.447	3.967300e-003	-5.069773e-003	9.982915e-001	-7.101481e-002	9.982327e-001	-7.077530e-002	3.422668e-003	-4.734777e-003
4127584.531	3.954941e-003	-5.145625e-003	9.981871e-001	-7.208024e-002	9.982207e-001	-7.174891e-002	3.434665e-003	-4.678286e-003
4190123.615	3.979620e-003	-5.186097e-003	9.982055e-001	-7.334408e-002	9.980191e-001	-7.300089e-002	3.342876e-003	-4.979254e-003
4252662.699	3.936393e-003	-5.329701e-003	9.982405e-001	-7.445546e-002	9.979054e-001	-7.417651e-002	3.442854e-003	-5.001613e-003
4315201.782	4.061718e-003	-5.432932e-003	9.981070e-001	-7.529828e-002	9.980947e-001	-7.527120e-002	3.251698e-003	-5.257164e-003
4377740.866	3.956768e-003	-5.517578e-003	9.981413e-001	-7.657908e-002	9.977988e-001	-7.634292e-002	3.422670e-003	-5.023606e-003
4440279.950	3.852338e-003	-5.729115e-003	9.979943e-001	-7.748200e-002	9.976534e-001	-7.730630e-002	3.294577e-003	-5.260873e-003
4502819.034	3.827613e-003	-5.669160e-003	9.977077e-001	-7.864273e-002	9.976594e-001	-7.845832e-002	3.388016e-003	-5.187049e-003
4565358.118	3.743660e-003	-5.779953e-003	9.976497e-001	-7.976625e-002	9.974184e-001	-7.935238e-002	3.388254e-003	-5.363652e-003
4627897.201	3.925535e-003	-5.723184e-003	9.977543e-001	-8.082983e-002	9.974130e-001	-8.041809e-002	3.473938e-003	-5.319328e-003
4690436.285	3.738691e-003	-5.913392e-003	9.976544e-001	-8.200199e-002	9.974438e-001	-8.189823e-002	3.473832e-003	-5.588282e-003
4752975.369	3.741203e-003	-5.992177e-003	9.973473e-001	-8.316398e-002	9.974140e-001	-8.288512e-002	3.288852e-003	-5.718984e-003
4815514.453	3.839204e-003	-6.063996e-003	9.974840e-001	-8.416303e-002	9.972682e-001	-8.407648e-002	3.497880e-003	-5.689447e-003
4878053.537	3.952182e-003	-6.229569e-003	9.974319e-001	-8.520152e-002	9.971673e-001	-8.493638e-002	3.460649e-003	-5.835825e-003
4940592.620	3.662705e-003	-6.266242e-003	9.972279e-001	-8.637295e-002	9.971283e-001	-8.616000e-002	3.220911e-003	-5.970296e-003
5003131.704	3.737187e-003	-6.474677e-003	9.971036e-001	-8.740738e-002	9.970847e-001	-8.702867e-002	3.338001e-003	-6.086232e-003
5065670.788	3.661684e-003	-6.362847e-003	9.969547e-001	-8.855695e-002	9.969414e-001	-8.822017e-002	3.303888e-003	-6.113989e-003
5128209.872	3.778235e-003	-6.569345e-003	9.970580e-001	-8.963038e-002	9.968448e-001	-8.932033e-002	3.279275e-003	-6.407173e-003
5190748.956	3.671783e-003	-6.658607e-003	9.968567e-001	-9.072320e-002	9.968126e-001	-9.057987e-002	3.238210e-003	-6.354424e-003
5253288.039	3.704653e-003	-6.777257e-003	9.968312e-001	-9.182413e-002	9.967130e-001	-9.157454e-002	3.153338e-003	-6.361829e-003
5315827.123	3.667723e-003	-6.916345e-003	9.965909e-001	-9.289956e-002	9.965954e-001	-9.270591e-002	3.133841e-003	-6.543430e-003
5378366.207	3.750680e-003	-6.947312e-003	9.966601e-001	-9.402678e-002	9.965184e-001	-9.394004e-002	3.114203e-003	-6.710141e-003
5440905.291	3.558527e-003	-6.951166e-003	9.966070e-001	-9.512035e-002	9.964453e-001	-9.490735e-002	2.990622e-003	-6.745059e-003
5503444.375	3.755627e-003	-7.187522e-003	9.964406e-001	-9.623958e-002	9.964120e-001	-9.587770e-002	3.188564e-003	-6.904370e-003
5565983.458	3.409738e-003	-7.145708e-003	9.963798e-001	-9.724543e-002	9.963254e-001	-9.689723e-002	3.099621e-003	-6.829941e-003
5628522.542	3.652899e-003	-7.308064e-003	9.963178e-001	-9.827889e-002	9.961985e-001	-9.817915e-002	3.135034e-003	-7.043526e-003
5691061.626	3.707409e-003	-7.569089e-003	9.961330e-001	-9.957885e-002	9.960173e-001	-9.931713e-002	3.025851e-003	-7.074180e-003
5753600.710	3.534808e-003	-7.569371e-003	9.959396e-001	-1.005681e-001	9.959609e-001	-1.003151e-001	3.078702e-003	-7.283012e-003
5816139.794	3.628574e-003	-7.465365e-003	9.959405e-001	-1.016771e-001	9.956474e-001	-1.016357e-001	2.910177e-003	-7.336700e-003
5878678.877	3.517817e-003	-7.778353e-003	9.957847e-001	-1.027986e-001	9.956779e-001	-1.025767e-001	3.009826e-003	-7.551294e-003
5941217.961	3.499491e-003	-7.934850e-003	9.956533e-001	-1.039417e-001	9.955590e-001	-1.035359e-001	2.823402e-003	-7.538092e-003
6003757.045	3.321915e-003	-7.802335e-003	9.953981e-001	-1.048568e-001	9.954275e-001	-1.046163e-001	2.935309e-003	-7.651364e-003
6066296.129	3.455186e-003	-8.068061e-003	9.955327e-001	-1.060232e-001	9.953757e-001	-1.055986e-001	2.887257e-003	-7.768768e-003
6128835.213	3.545015e-003	-8.135046e-003	9.953750e-001	-1.068385e-001	9.953995e-001	-1.068437e-001	2.977266e-003	-7.864875e-003
6191374.296	3.478336e-003	-8.253510e-003	9.952134e-001	-1.081458e-001	9.950716e-001	-1.081297e-001	2.808314e-003	-7.836381e-003
6253913.380	3.369395e-003	-8.225538e-003	9.951475e-001	-1.093035e-001	9.950279e-001	-1.090303e-001	2.680957e-003	-7.834165e-003
6316452.464	3.316903e-003	-8.231538e-003	9.950774e-001	-1.102334e-001	9.947949e-001	-1.103150e-001	2.700965e-003	-8.138253e-003
6378991.548	3.281779e-003	-8.470674e-003	9.948687e-001	-1.117028e-001	9.949138e-001	-1.112855e-001	2.762368e-003	-8.345229e-003
6441530.632	3.200260e-003	-8.626474e-003	9.947198e-001	-1.125244e-001	9.946837e-001	-1.124751e-001	2.778119e-003	-8.338369e-003
6504069.715	3.180222e-003	-8.753116e-003	9.946075e-001	-1.138247e-001	9.946653e-001	-1.134676e-001	2.788130e-003	-8.413844e-003
6566608.799	3.324788e-003	-8.899624e-003	9.946032e-001	-1.149946e-001	9.944191e-001	-1.146250e-001	2.664497e-003	-8.318425e-003
6629147.883	3.247090e-003	-8.855869e-003	9.943992e-001	-1.157073e-001	9.942875e-001	-1.156995e-001	2.742319e-003	-8.557092e-003
6691686.967	3.119925e-003	-8.931569e-003	9.942028e-001	-1.169457e-001	9.941295e-001	-1.167543e-001	2.758279e-003	-8.558190e-003
6754226.051	3.047733e-003	-9.045528e-003	9.940217e-001	-1.181549e-001	9.939129e-001	-1.180157e-001	2.544801e-003	-8.856473e-003
6816765.134	3.126914e-003	-9.126785e-003	9.940199e-001	-1.191247e-001	9.939155e-001	-1.189618e-001	2.586287e-003	-8.737766e-003
6879304.218	3.006364e-003	-9.379314e-003	9.938241e-001	-1.202582e-001	9.938190e-001	-1.200330e-001	2.559923e-003	-8.908671e-003
6941843.302	3.059423e-003	-9.309574e-003	9.936803e-001	-1.214177e-001	9.936410e-001	-1.211183e-001	2.528460e-003	-8.918436e-003
7004382.386	2.845394e-003	-9.334313e-003	9.936054e-001	-1.223729e-001	9.934531e-001	-1.221852e-001	2.432878e-003	-8.967208e-003
7066921.470	2.934709e-003	-9.461152e-003	9.933867e-001	-1.236050e-001	9.933772e-001	-1.231151e-001	2.574196e-003	-9.202871e-003
7129460.553	2.810066e-003	-9.676185e-003	9.932955e-001	-1.245202e-001	9.932576e-001	-1.243767e-001	2.554938e-003	-9.247426e-003
7191999.637	2.780361e-003	-9.518074e-003	9.929551e-001	-1.256864e-001	9.929918e-001	-1.254223e-001	2.399405e-003	-9.323677e-003
7254538.721	2.821116e-003	-9.728428e-003	9.931416e-001	-1.268455e-001	9.929955e-001	-1.265594e-001	2.426305e-003	-9.390239e-003
7317077.805	2.973511e-003	-9.843803e-003	9.929356e-001	-1.278084e-001	9.928625e-001	-1.275776e-001	2.403687e-003	-9.599624e-003
7379616.889	2.823056e-003	-9.923356e-003	9.929322e-001	-1.291038e-001	9.926618e-001	-1.286933e-001	2.320587e-003	-9.650673e-003
7442155.972	2.648204e-003	-1.000766e-002	9.926344e-001	-1.299954e-001	9.925626e-001	-1.297202e-001	2.391158e-003	-9.524649e-003
7504695.056	2.658114e-003	-1.019588e-002	9.923677e-001	-1.309875e-001	9.922870e-001	-1.309805e-001	2.400352e-003	-9.550377e-003
7567234.140	2.827631e-003	-1.035493e-002	9.923685e-001	-1.321016e-001	9.921486e-001	-1.320426e-001	2.310105e-003	-9.742914e-003
7629773.224	2.708774e-003	-1.013396e-002	9.922386e-001	-1.333495e-001	9.921485e-001	-1.330704e-001	2.207321e-003	-9.880204e-003
7692312.308	2.545759e-003	-1.028779e-002	9.921238e-001	-1.344115e-001	9.919132e-001	-1.342115e-001	2.254349e-003	-1.004951e-002
7754851.391	2.515391e-003	-1.053404e-002	9.919189e-001	-1.355180e-001	9.916302e-001	-1.351207e-001	2.161667e-003	-1.000048e-002
7817390.475	2.564664e-003	-1.041061e-002	9.918175e-001	-1.367518e-001	9.915515e-001	-1.364519e-001	2.069204e-003	-9.979442e-003
7879929.559	2.453639e-003	-1.068455e-002	9.915714e-001	-1.378136e-001	9.913971e-001	-1.377042e-001	2.173465e-003	-1.007258e-002
7942468.643	2.377067e-003	-1.081360e-002	9.915061e-001	-1.388164e-001	9.913432e-001	-1.386848e-001	2.121954e-003	-1.033857e-002
8005007.727	2.472472e-003	-1.087886e-002	9.912511e-001	-1.399638e-001	9.912213e-001	-1.397635e-001	2.021502e-003	-1.018677e-002
8067546.811	2.281843e-003	-1.091781e-002	9.911131e-001	-1.410234e-001	9.909040e-001	-1.407643e-001	1.904309e-003	-1.049554e-002
8130085.894	2.336349e-003	-1.106849e-002	9.909198e-001	-1.420178e-001	9.908423e-001	-1.419090e-001	2.095300e-003	-1.061364e-002
8192624.978	2.146353e-003	-1.121603e-002	9.906373e-001	-1.432467e-001	9.906663e-001	-1.429453e-001	2.118473e-003	-1.071510e-002
8255164.062	2.248081e-003	-1.127303e-002	9.906117e-001	-1.442973e-001	9.904683e-001	-1.440876e-001	2.054201e-003	-1.083724e-002
8317703.146	2.093190e-003	-1.125914e-002	9.905103e-001	-1.453785e-001	9.903943e-001	-1.451554e-001	1.851529e-003	-1.087373e-002
8380242.230	2.188510e-003	-1.156910e-002	9.901852e-001	-1.465839e-001	9.901429e-001	-1.461988e-001	1.790370e-003	-1.102849e-002
8442781.313	2.134390e-003	-1.162228e-002	9.902801e-001	-1.475483e-001	9.900411e-001	-1.472419e-001	1.747813e-003	-1.119445e-002
8505320.397	2.081389e-003	-1.157163e-002	9.900369e-001	-1.486890e-001	9.898189e-001	-1.483900e-001	1.672870e-003	-1.122423e-002
8567859.481	2.004295e-003	-1.149577e-002	9.898169e-001	-1.495925e-001	9.897548e-001	-1.494558e-001	1.671002e-003	-1.113443e-002
8630398.565	2.065509e-003	-1.164007e-002	9.895034e-001	-1.506711e-001	9.896135e-001	-1.504744e-001	1.521530e-003	-1.147691e-002
8692937.649	1.975062e-003	-1.191843e-002	9.893894e-001	-1.517556e-001	9.892583e-001	-1.516471e-001	1.434941e-003	-1.146436e-002
8755476.732	1.962960e-003	-1.193907e-002	9.892838e-001	-1.529299e-001	9.891161e-001	-1.526021e-001	1.467555e-003	-1.152049e-002
8818015.816	1.810140e-003	-1.206499e-002	9.890371e-001	-1.539904e-001	9.888025e-001	-1.537534e-001	1.548743e-003	-1.170141e-002
8880554.900	1.994562e-003	-1.210360e-002	9.890196e-001	-1.551351e-001	9.889541e-001	-1.546603e-001	1.384200e-003	-1.194689e-002
8943093.984	1.793892e-003	-1.208265e-002	9.887776e-001	-1.561016e-001	9.887026e-001	-1.557852e-001	1.351657e-003	-1.197767e-002
9005633.068	1.813798e-003	-1.226441e-002	9.885088e-001	-1.572505e-001	9.886066e-001	-1.570174e-001	1.237586e-003	-1.219991e-002
9068172.151	1.625407e-003	-1.235696e-002	9.884782e-001	-1.583764e-001	9.882702e-001	-1.579476e-001	1.250127e-003	-1.222995e-002
9130711.235	1.819155e-003	-1.249941e-002	9.882047e-001	-1.594227e-001	9.881695e-001	-1.590439e-001	1.260925e-003	-1.250798e-002
9193250.319	1.756443e-003	-1.261244e-002	9.881962e-001	-1.603830e-001	9.879317e-001	-1.602263e-001	1.163438e-003	-1.251521e-002
9255789.403	1.614455e-003	-1.285769e-002	9.879865e-001	-1.613623e-001	9.877199e-001	-1.611802e-001	9.807945e-004	-1.254305e-002
9318328.487	1.544839e-003	-1.283860e-002	9.877485e-001	-1.626767e-001	9.877466e-001	-1.622635e-001	1.053112e-003	-1.262391e-002
9380867.570	1.525774e-003	-1.281071e-002	9.876354e-001	-1.637531e-001	9.873911e-001	-1.634756e-001	1.015504e-003	-1.272609e-002
9443406.654	1.531214e-003	-1.291735e-002	9.874769e-001	-1.647438e-001	9.873565e-001	-1.645905e-001	1.011397e-003	-1.290135e-002
9505945.738	1.470797e-003	-1.296416e-002	9.871007e-001	-1.660411e-001	9.872368e-001	-1.656519e-001	9.297316e-004	-1.299015e-002
9568484.822	1.473308e-003	-1.309226e-002	9.870454e-001	-1.670370e-001	9.868100e-001	-1.667499e-001	6.904711e-004	-1.284106e-002
