!Agilent Technologies,E5061B,MY49102235,A.02.00
!Date: Tue Jul 11 15:05:07 2023
!Data & Calibration Information:
!Freq	S11:SOLT2(ON)	S21:SOLT2(ON)	S12:SOLT2(ON)	S22:SOLT2(ON)
# Hz S RI R 50
5.000	-5.250655e-003	-5.645752e-003	1.001475e+000	8.032618e-003	1.000094e+000	1.024711e-002	-1.512073e-003	-7.542523e-003
62544.084	5.803135e-003	-5.024764e-004	1.001389e+000	5.882857e-004	1.000901e+000	1.208078e-003	7.712376e-003	-2.889677e-003
125083.168	5.683862e-003	-4.946660e-004	1.000925e+000	-7.571669e-004	1.000731e+000	-9.230557e-004	7.487545e-003	-2.281194e-003
187622.251	5.447702e-003	-3.257274e-004	1.000412e+000	-2.186950e-003	1.000973e+000	-9.912238e-004	7.381841e-003	-2.381679e-003
250161.335	5.269251e-003	-2.036683e-004	1.000575e+000	-3.138139e-003	1.000754e+000	-3.122248e-003	7.267516e-003	-2.046453e-003
312700.419	5.414000e-003	5.348364e-004	1.000828e+000	-3.873417e-003	1.000628e+000	-3.511225e-003	7.776337e-003	-2.365210e-003
375239.503	5.292061e-003	-9.623576e-004	1.000994e+000	-5.263748e-003	1.000555e+000	-4.828090e-003	7.270640e-003	-2.541257e-003
437778.587	5.113126e-003	-6.122578e-004	1.001359e+000	-5.285739e-003	1.001050e+000	-6.028025e-003	6.610402e-003	-2.254081e-003
500317.670	4.571239e-003	-4.624948e-004	1.001232e+000	-7.806761e-003	1.001695e+000	-7.577030e-003	4.803449e-003	-2.077294e-003
562856.754	5.886857e-003	-7.936521e-004	1.001379e+000	-9.283003e-003	1.001274e+000	-9.138806e-003	5.994518e-003	-1.599385e-003
625395.838	5.072362e-003	-6.365348e-004	1.002118e+000	-1.043697e-002	1.002167e+000	-1.004936e-002	6.101503e-003	-1.033452e-003
687934.922	5.130817e-003	-1.005065e-003	1.001189e+000	-1.125909e-002	1.001296e+000	-1.146486e-002	5.743172e-003	-1.517900e-003
750474.006	4.367807e-003	-6.521368e-004	1.000867e+000	-1.085930e-002	1.001038e+000	-1.064151e-002	5.547452e-003	-1.306788e-003
813013.089	4.532155e-003	-6.426314e-004	1.001154e+000	-1.263977e-002	1.000783e+000	-1.236564e-002	4.897751e-003	-1.153682e-003
875552.173	4.281055e-003	-4.838279e-004	1.001064e+000	-1.358361e-002	1.001118e+000	-1.366606e-002	5.688230e-003	-1.562608e-003
938091.257	4.355993e-003	-4.276064e-004	1.001216e+000	-1.501707e-002	1.001188e+000	-1.471632e-002	5.908961e-003	-1.004526e-003
1000630.341	3.802536e-003	-7.868334e-004	1.000778e+000	-1.641227e-002	1.001124e+000	-1.610225e-002	5.162975e-003	-1.700043e-003
1063169.425	4.141535e-003	-9.574420e-004	1.000908e+000	-1.776065e-002	1.000890e+000	-1.691826e-002	4.342804e-003	-2.030183e-003
1125708.508	4.038247e-003	-8.979462e-004	1.000933e+000	-1.885157e-002	1.000893e+000	-1.823384e-002	3.848753e-003	-1.742867e-003
1188247.592	4.565938e-003	-1.359993e-003	1.001116e+000	-1.990791e-002	1.001205e+000	-1.947087e-002	2.745990e-003	-2.330015e-003
1250786.676	4.418677e-003	-2.119164e-003	1.000596e+000	-1.977355e-002	1.000829e+000	-2.004868e-002	2.006686e-003	-4.004205e-003
1313325.760	4.541404e-003	-2.225917e-003	1.000979e+000	-2.141913e-002	1.001065e+000	-2.158491e-002	2.729504e-003	-3.796952e-003
1375864.844	4.254710e-003	-2.436816e-003	1.000730e+000	-2.328836e-002	1.000629e+000	-2.337390e-002	2.591462e-003	-3.534473e-003
1438403.927	4.137799e-003	-2.593273e-003	1.000535e+000	-2.398745e-002	1.001085e+000	-2.324169e-002	2.669216e-003	-3.267196e-003
1500943.011	4.374689e-003	-2.536011e-003	1.001184e+000	-2.488038e-002	1.001527e+000	-2.469974e-002	3.024298e-003	-3.682655e-003
1563482.095	4.360349e-003	-2.916433e-003	1.000888e+000	-2.618500e-002	1.000651e+000	-2.548755e-002	3.160351e-003	-3.495605e-003
1626021.179	4.175415e-003	-2.784305e-003	1.000796e+000	-2.731472e-002	1.001136e+000	-2.796008e-002	3.437016e-003	-3.549640e-003
1688560.263	3.874881e-003	-2.728067e-003	1.000440e+000	-2.911119e-002	1.001400e+000	-2.940803e-002	3.596946e-003	-3.574619e-003
1751099.346	4.006578e-003	-2.644041e-003	1.001025e+000	-3.028182e-002	1.000794e+000	-2.974453e-002	3.415091e-003	-2.732891e-003
1813638.430	3.647871e-003	-2.701715e-003	1.001337e+000	-3.173402e-002	1.001182e+000	-3.159277e-002	3.595533e-003	-3.132424e-003
1876177.514	3.673602e-003	-2.407280e-003	1.001799e+000	-3.262861e-002	1.001536e+000	-3.324861e-002	3.245686e-003	-2.469360e-003
1938716.598	3.136093e-003	-2.353939e-003	1.001754e+000	-3.350540e-002	1.001466e+000	-3.310093e-002	3.423872e-003	-2.091164e-003
2001255.682	3.038956e-003	-2.854123e-003	1.001758e+000	-3.486758e-002	1.001341e+000	-3.457119e-002	3.171114e-003	-2.559585e-003
2063794.765	3.131047e-003	-2.458615e-003	1.001387e+000	-3.582024e-002	1.000831e+000	-3.632893e-002	3.558999e-003	-2.656529e-003
2126333.849	2.667991e-003	-2.996586e-003	1.000768e+000	-3.716014e-002	1.000263e+000	-3.666581e-002	3.811394e-003	-2.411947e-003
2188872.933	3.150233e-003	-3.003924e-003	1.000645e+000	-3.821172e-002	1.000229e+000	-3.759112e-002	3.696251e-003	-2.462575e-003
2251412.017	3.252020e-003	-3.383423e-003	1.000442e+000	-3.980791e-002	1.000273e+000	-3.865336e-002	3.684419e-003	-2.600448e-003
2313951.101	3.580055e-003	-2.963025e-003	9.998048e-001	-4.083373e-002	1.000477e+000	-3.972575e-002	3.985491e-003	-2.665802e-003
2376490.184	3.324233e-003	-3.011534e-003	9.998203e-001	-4.116841e-002	1.000378e+000	-4.152493e-002	3.943214e-003	-2.680309e-003
2439029.268	3.763411e-003	-3.065006e-003	9.995950e-001	-4.300861e-002	9.995342e-001	-4.256019e-002	3.614406e-003	-2.585339e-003
2501568.352	3.741995e-003	-3.072959e-003	9.995060e-001	-4.325135e-002	1.000401e+000	-4.320201e-002	3.906539e-003	-2.633841e-003
2564107.436	3.634339e-003	-3.229538e-003	9.997734e-001	-4.477481e-002	1.000159e+000	-4.475983e-002	3.211749e-003	-3.026508e-003
2626646.520	4.132941e-003	-3.412614e-003	9.995714e-001	-4.585136e-002	9.989309e-001	-4.579315e-002	3.456318e-003	-3.105911e-003
2689185.604	4.078563e-003	-3.289080e-003	9.999516e-001	-4.675965e-002	9.996559e-001	-4.659323e-002	3.584261e-003	-3.055902e-003
2751724.687	4.190911e-003	-3.386037e-003	9.997880e-001	-4.738281e-002	9.995965e-001	-4.735709e-002	3.177122e-003	-3.122523e-003
2814263.771	4.138763e-003	-3.460422e-003	9.989621e-001	-4.918764e-002	9.992837e-001	-4.870085e-002	3.152859e-003	-3.267013e-003
2876802.855	4.080066e-003	-3.704634e-003	9.990198e-001	-5.063351e-002	9.992626e-001	-4.975786e-002	3.223756e-003	-3.145218e-003
2939341.939	4.200177e-003	-3.638979e-003	9.995259e-001	-5.107790e-002	9.992068e-001	-5.119445e-002	3.118686e-003	-3.264136e-003
3001881.023	4.115601e-003	-3.650115e-003	9.993288e-001	-5.235561e-002	9.992316e-001	-5.231327e-002	3.208052e-003	-3.410494e-003
3064420.106	4.164725e-003	-3.732178e-003	9.997893e-001	-5.346961e-002	9.990990e-001	-5.322283e-002	3.051525e-003	-3.570222e-003
3126959.190	4.374450e-003	-3.838569e-003	9.993826e-001	-5.453289e-002	9.992565e-001	-5.442559e-002	3.224123e-003	-3.658526e-003
3189498.274	4.334498e-003	-3.832958e-003	9.992775e-001	-5.548655e-002	9.991882e-001	-5.552284e-002	3.202878e-003	-3.736985e-003
3252037.358	4.247998e-003	-4.225447e-003	9.993678e-001	-5.666901e-002	9.992282e-001	-5.649639e-002	3.151507e-003	-3.711192e-003
3314576.442	4.261828e-003	-4.078345e-003	9.992490e-001	-5.766039e-002	9.991410e-001	-5.766075e-002	3.211948e-003	-3.839395e-003
3377115.525	4.216740e-003	-4.106999e-003	9.990838e-001	-5.865486e-002	9.988618e-001	-5.888991e-002	3.046412e-003	-4.011017e-003
3439654.609	4.221096e-003	-4.200998e-003	9.988819e-001	-5.980451e-002	9.991373e-001	-5.987065e-002	3.046053e-003	-3.849946e-003
3502193.693	4.182410e-003	-4.542322e-003	9.988723e-001	-6.102377e-002	9.988412e-001	-6.084663e-002	3.218162e-003	-3.925928e-003
3564732.777	4.223591e-003	-4.428183e-003	9.989170e-001	-6.201750e-002	9.988215e-001	-6.204036e-002	3.310204e-003	-3.943587e-003
3627271.861	4.078234e-003	-4.600420e-003	9.989035e-001	-6.317052e-002	9.989078e-001	-6.298902e-002	3.083588e-003	-4.203134e-003
3689810.944	3.975800e-003	-4.781533e-003	9.987759e-001	-6.426595e-002	9.987861e-001	-6.406748e-002	3.240103e-003	-4.218266e-003
3752350.028	4.073183e-003	-4.801698e-003	9.986674e-001	-6.512400e-002	9.985475e-001	-6.515159e-002	3.156869e-003	-4.321399e-003
3814889.112	4.192367e-003	-4.709912e-003	9.985591e-001	-6.630079e-002	9.987423e-001	-6.647434e-002	3.079290e-003	-4.496105e-003
3877428.196	4.118452e-003	-4.741473e-003	9.986875e-001	-6.742468e-002	9.986171e-001	-6.735968e-002	3.385099e-003	-4.532883e-003
3939967.280	4.091851e-003	-5.095624e-003	9.985405e-001	-6.861031e-002	9.985997e-001	-6.845551e-002	3.356509e-003	-4.495358e-003
4002506.363	4.148810e-003	-4.993286e-003	9.985682e-001	-6.962784e-002	9.985104e-001	-6.939988e-002	3.302997e-003	-4.625205e-003
4065045.447	3.967352e-003	-5.143292e-003	9.982860e-001	-7.077776e-002	9.983144e-001	-7.062015e-002	3.384748e-003	-4.802139e-003
4127584.531	3.943580e-003	-5.226588e-003	9.981795e-001	-7.184994e-002	9.982784e-001	-7.165213e-002	3.400867e-003	-4.749325e-003
4190123.615	3.967334e-003	-5.263992e-003	9.981653e-001	-7.306082e-002	9.980960e-001	-7.284581e-002	3.301756e-003	-5.029607e-003
4252662.699	3.926890e-003	-5.412085e-003	9.982311e-001	-7.422929e-002	9.979738e-001	-7.404256e-002	3.397683e-003	-5.071836e-003
4315201.782	4.052771e-003	-5.506655e-003	9.980903e-001	-7.509145e-002	9.981629e-001	-7.515116e-002	3.215062e-003	-5.329667e-003
4377740.866	3.941352e-003	-5.602177e-003	9.981254e-001	-7.629338e-002	9.978622e-001	-7.621856e-002	3.379139e-003	-5.096258e-003
4440279.950	3.846079e-003	-5.812009e-003	9.979995e-001	-7.721007e-002	9.976915e-001	-7.719066e-002	3.255083e-003	-5.328999e-003
4502819.034	3.820956e-003	-5.750599e-003	9.976281e-001	-7.840684e-002	9.977557e-001	-7.828713e-002	3.333173e-003	-5.238210e-003
4565358.118	3.749119e-003	-5.871137e-003	9.976311e-001	-7.950055e-002	9.975148e-001	-7.922511e-002	3.339610e-003	-5.428134e-003
4627897.201	3.907756e-003	-5.804485e-003	9.977449e-001	-8.055681e-002	9.974960e-001	-8.028694e-002	3.428742e-003	-5.392166e-003
4690436.285	3.727984e-003	-6.011498e-003	9.976719e-001	-8.170756e-002	9.974671e-001	-8.174966e-002	3.427566e-003	-5.658289e-003
4752975.369	3.723269e-003	-6.085540e-003	9.973073e-001	-8.288659e-002	9.975144e-001	-8.272987e-002	3.249595e-003	-5.794658e-003
4815514.453	3.830524e-003	-6.147098e-003	9.974813e-001	-8.389618e-002	9.973540e-001	-8.390465e-002	3.450469e-003	-5.762523e-003
4878053.537	3.940542e-003	-6.318126e-003	9.973794e-001	-8.490838e-002	9.972574e-001	-8.481690e-002	3.402391e-003	-5.920533e-003
4940592.620	3.667920e-003	-6.363040e-003	9.972387e-001	-8.608866e-002	9.971995e-001	-8.598472e-002	3.178146e-003	-6.030244e-003
5003131.704	3.731090e-003	-6.575734e-003	9.971116e-001	-8.715015e-002	9.971869e-001	-8.686172e-002	3.294386e-003	-6.164274e-003
5065670.788	3.647988e-003	-6.443365e-003	9.970041e-001	-8.826106e-002	9.969936e-001	-8.803493e-002	3.260965e-003	-6.199911e-003
5128209.872	3.761400e-003	-6.664291e-003	9.970737e-001	-8.933404e-002	9.968695e-001	-8.913660e-002	3.218177e-003	-6.476911e-003
5190748.956	3.656203e-003	-6.762274e-003	9.968718e-001	-9.047759e-002	9.968322e-001	-9.037606e-002	3.169390e-003	-6.434197e-003
5253288.039	3.708983e-003	-6.879615e-003	9.968873e-001	-9.156432e-002	9.967857e-001	-9.137925e-002	3.094506e-003	-6.430894e-003
5315827.123	3.660613e-003	-7.011742e-003	9.965705e-001	-9.259208e-002	9.966647e-001	-9.254103e-002	3.076930e-003	-6.611128e-003
5378366.207	3.745262e-003	-7.043793e-003	9.966639e-001	-9.375427e-002	9.965957e-001	-9.378656e-002	3.052074e-003	-6.783939e-003
5440905.291	3.551791e-003	-7.051487e-003	9.966045e-001	-9.484597e-002	9.965017e-001	-9.473672e-002	2.938864e-003	-6.809165e-003
5503444.375	3.756857e-003	-7.291848e-003	9.964825e-001	-9.598296e-002	9.965005e-001	-9.567871e-002	3.121530e-003	-6.981568e-003
5565983.458	3.392209e-003	-7.253912e-003	9.963992e-001	-9.697700e-002	9.963796e-001	-9.674996e-002	3.042508e-003	-6.913160e-003
5628522.542	3.642906e-003	-7.417528e-003	9.963088e-001	-9.797871e-002	9.962754e-001	-9.799649e-002	3.069660e-003	-7.112554e-003
5691061.626	3.688360e-003	-7.674069e-003	9.961305e-001	-9.928700e-002	9.961217e-001	-9.909755e-002	2.958159e-003	-7.153687e-003
5753600.710	3.536147e-003	-7.674859e-003	9.959655e-001	-1.002593e-001	9.960507e-001	-1.001132e-001	3.005751e-003	-7.364292e-003
5816139.794	3.613233e-003	-7.566430e-003	9.959673e-001	-1.013874e-001	9.957331e-001	-1.013948e-001	2.856395e-003	-7.405303e-003
5878678.877	3.510705e-003	-7.890726e-003	9.958241e-001	-1.024799e-001	9.957606e-001	-1.023824e-001	2.954737e-003	-7.628311e-003
5941217.961	3.490848e-003	-8.053648e-003	9.956439e-001	-1.036332e-001	9.956524e-001	-1.032831e-001	2.749166e-003	-7.628594e-003
6003757.045	3.328543e-003	-7.920682e-003	9.954286e-001	-1.045758e-001	9.955531e-001	-1.043937e-001	2.871788e-003	-7.725863e-003
6066296.129	3.450479e-003	-8.195032e-003	9.955372e-001	-1.057030e-001	9.954267e-001	-1.054882e-001	2.827669e-003	-7.839873e-003
6128835.213	3.533122e-003	-8.256626e-003	9.953727e-001	-1.064976e-001	9.954928e-001	-1.066928e-001	2.906730e-003	-7.916818e-003
6191374.296	3.451417e-003	-8.364770e-003	9.952523e-001	-1.078267e-001	9.951495e-001	-1.078907e-001	2.733910e-003	-7.949921e-003
6253913.380	3.353456e-003	-8.329809e-003	9.951866e-001	-1.090173e-001	9.950701e-001	-1.087868e-001	2.609913e-003	-7.914752e-003
6316452.464	3.297800e-003	-8.351102e-003	9.951057e-001	-1.099132e-001	9.948490e-001	-1.101022e-001	2.640592e-003	-8.227120e-003
6378991.548	3.263041e-003	-8.589695e-003	9.949510e-001	-1.114241e-001	9.949791e-001	-1.110567e-001	2.700281e-003	-8.451313e-003
6441530.632	3.195609e-003	-8.753725e-003	9.947558e-001	-1.121901e-001	9.947965e-001	-1.122415e-001	2.706644e-003	-8.424101e-003
6504069.715	3.171985e-003	-8.880537e-003	9.945770e-001	-1.135258e-001	9.947899e-001	-1.132943e-001	2.701300e-003	-8.507171e-003
6566608.799	3.311825e-003	-9.013321e-003	9.946187e-001	-1.146528e-001	9.945227e-001	-1.144369e-001	2.605098e-003	-8.410926e-003
6629147.883	3.243948e-003	-8.979313e-003	9.944477e-001	-1.153907e-001	9.943817e-001	-1.154800e-001	2.680938e-003	-8.643406e-003
6691686.967	3.107563e-003	-9.051858e-003	9.942044e-001	-1.166267e-001	9.941983e-001	-1.165372e-001	2.686234e-003	-8.647844e-003
6754226.051	3.032231e-003	-9.157649e-003	9.940703e-001	-1.178142e-001	9.940203e-001	-1.177920e-001	2.478553e-003	-8.947337e-003
6816765.134	3.123835e-003	-9.263450e-003	9.940444e-001	-1.188059e-001	9.940036e-001	-1.187435e-001	2.508494e-003	-8.836819e-003
6879304.218	2.997023e-003	-9.506277e-003	9.938404e-001	-1.199389e-001	9.939201e-001	-1.198023e-001	2.482974e-003	-8.991924e-003
6941843.302	3.057941e-003	-9.429201e-003	9.936971e-001	-1.210475e-001	9.937644e-001	-1.208764e-001	2.448108e-003	-9.014600e-003
7004382.386	2.829815e-003	-9.461927e-003	9.936436e-001	-1.220318e-001	9.935615e-001	-1.219705e-001	2.349042e-003	-9.054303e-003
7066921.470	2.925674e-003	-9.596250e-003	9.934151e-001	-1.233128e-001	9.935209e-001	-1.228973e-001	2.509918e-003	-9.305000e-003
7129460.553	2.796922e-003	-9.799017e-003	9.933434e-001	-1.241554e-001	9.933458e-001	-1.241042e-001	2.478303e-003	-9.327835e-003
7191999.637	2.759885e-003	-9.657103e-003	9.930143e-001	-1.253201e-001	9.930554e-001	-1.251938e-001	2.308356e-003	-9.419616e-003
7254538.721	2.796611e-003	-9.858943e-003	9.931858e-001	-1.264875e-001	9.931247e-001	-1.263373e-001	2.348750e-003	-9.493101e-003
7317077.805	2.961043e-003	-9.969034e-003	9.929668e-001	-1.274152e-001	9.929656e-001	-1.273664e-001	2.310261e-003	-9.681193e-003
7379616.889	2.803850e-003	-1.005556e-002	9.929631e-001	-1.287602e-001	9.927751e-001	-1.284779e-001	2.237905e-003	-9.752981e-003
7442155.972	2.640627e-003	-1.014783e-002	9.926795e-001	-1.296381e-001	9.926682e-001	-1.294846e-001	2.302900e-003	-9.627810e-003
7504695.056	2.648335e-003	-1.033252e-002	9.924332e-001	-1.306323e-001	9.924172e-001	-1.307545e-001	2.319128e-003	-9.645174e-003
7567234.140	2.806399e-003	-1.049395e-002	9.924148e-001	-1.317357e-001	9.922607e-001	-1.317696e-001	2.229833e-003	-9.825885e-003
7629773.224	2.684428e-003	-1.028436e-002	9.923352e-001	-1.329783e-001	9.922771e-001	-1.327883e-001	2.120505e-003	-9.973556e-003
7692312.308	2.533517e-003	-1.043275e-002	9.921542e-001	-1.340657e-001	9.920480e-001	-1.339877e-001	2.169963e-003	-1.014739e-002
7754851.391	2.494894e-003	-1.066736e-002	9.919549e-001	-1.351546e-001	9.917708e-001	-1.348617e-001	2.096084e-003	-1.009400e-002
7817390.475	2.548178e-003	-1.054627e-002	9.918452e-001	-1.363763e-001	9.916701e-001	-1.361860e-001	1.990037e-003	-1.006466e-002
7879929.559	2.442756e-003	-1.082106e-002	9.916028e-001	-1.374693e-001	9.915114e-001	-1.374253e-001	2.077672e-003	-1.016868e-002
7942468.643	2.373783e-003	-1.096164e-002	9.915573e-001	-1.384650e-001	9.914733e-001	-1.384464e-001	2.036451e-003	-1.042114e-002
8005007.727	2.447351e-003	-1.102276e-002	9.912937e-001	-1.395730e-001	9.913561e-001	-1.395327e-001	1.916286e-003	-1.029016e-002
8067546.811	2.272275e-003	-1.105920e-002	9.911635e-001	-1.406517e-001	9.910195e-001	-1.405072e-001	1.808614e-003	-1.058444e-002
8130085.894	2.324204e-003	-1.122932e-002	9.909858e-001	-1.416885e-001	9.909599e-001	-1.416356e-001	1.999432e-003	-1.071266e-002
8192624.978	2.140052e-003	-1.136151e-002	9.906895e-001	-1.429022e-001	9.907809e-001	-1.426764e-001	2.030016e-003	-1.081147e-002
8255164.062	2.217191e-003	-1.142391e-002	9.906719e-001	-1.439218e-001	9.905789e-001	-1.437930e-001	1.976690e-003	-1.094514e-002
8317703.146	2.077175e-003	-1.139471e-002	9.905472e-001	-1.450540e-001	9.905406e-001	-1.448424e-001	1.763900e-003	-1.096095e-002
8380242.230	2.175343e-003	-1.171897e-002	9.902107e-001	-1.462044e-001	9.902482e-001	-1.459050e-001	1.698428e-003	-1.111098e-002
8442781.313	2.115742e-003	-1.176678e-002	9.903039e-001	-1.471591e-001	9.901502e-001	-1.469534e-001	1.654577e-003	-1.129296e-002
8505320.397	2.075017e-003	-1.171601e-002	9.900962e-001	-1.483247e-001	9.899646e-001	-1.480892e-001	1.574265e-003	-1.132017e-002
8567859.481	1.988302e-003	-1.164213e-002	9.898850e-001	-1.492081e-001	9.898959e-001	-1.491746e-001	1.576724e-003	-1.122337e-002
8630398.565	2.049828e-003	-1.178768e-002	9.895462e-001	-1.502644e-001	9.896884e-001	-1.502012e-001	1.429053e-003	-1.158357e-002
8692937.649	1.959976e-003	-1.208848e-002	9.894821e-001	-1.513740e-001	9.894059e-001	-1.513279e-001	1.337187e-003	-1.155685e-002
8755476.732	1.941310e-003	-1.209608e-002	9.893634e-001	-1.525539e-001	9.892006e-001	-1.523163e-001	1.377937e-003	-1.163608e-002
8818015.816	1.791832e-003	-1.223049e-002	9.891123e-001	-1.536099e-001	9.889244e-001	-1.534550e-001	1.457817e-003	-1.180688e-002
8880554.900	1.976444e-003	-1.227122e-002	9.890755e-001	-1.547822e-001	9.890293e-001	-1.543879e-001	1.280275e-003	-1.206010e-002
8943093.984	1.769912e-003	-1.224702e-002	9.888864e-001	-1.557375e-001	9.888480e-001	-1.555294e-001	1.262075e-003	-1.208100e-002
9005633.068	1.794859e-003	-1.243257e-002	9.885979e-001	-1.568481e-001	9.887166e-001	-1.566847e-001	1.131599e-003	-1.229252e-002
9068172.151	1.622198e-003	-1.251797e-002	9.885636e-001	-1.579789e-001	9.884261e-001	-1.576617e-001	1.139528e-003	-1.233121e-002
9130711.235	1.801471e-003	-1.268164e-002	9.882521e-001	-1.590400e-001	9.883103e-001	-1.587071e-001	1.157447e-003	-1.260696e-002
9193250.319	1.750317e-003	-1.279046e-002	9.882263e-001	-1.599528e-001	9.880713e-001	-1.599075e-001	1.041891e-003	-1.262644e-002
9255789.403	1.606183e-003	-1.303528e-002	9.880642e-001	-1.609327e-001	9.878973e-001	-1.609133e-001	8.764675e-004	-1.265200e-002
9318328.487	1.528588e-003	-1.301265e-002	9.878465e-001	-1.622667e-001	9.878716e-001	-1.619522e-001	9.543301e-004	-1.273549e-002
9380867.570	1.502618e-003	-1.298460e-002	9.877203e-001	-1.633653e-001	9.875410e-001	-1.631791e-001	9.231114e-004	-1.284609e-002
9443406.654	1.519469e-003	-1.307817e-002	9.875401e-001	-1.643792e-001	9.875270e-001	-1.642783e-001	9.050806e-004	-1.301434e-002
9505945.738	1.452749e-003	-1.313447e-002	9.871828e-001	-1.656002e-001	9.873651e-001	-1.653889e-001	8.320520e-004	-1.309292e-002
9568484.822	1.471761e-003	-1.327394e-002	9.871334e-001	-1.666590e-001	9.869259e-001	-1.664175e-001	5.816136e-004	-1.293866e-002
