!Agilent Technologies,E5061B,MY49102235,A.02.00
!Date: Tue Jul 11 15:03:20 2023
!Data & Calibration Information:
!Freq	S11:SOLT2(ON)	S21:SOLT2(ON)	S12:SOLT2(ON)	S22:SOLT2(ON)
# Hz S RI R 50
5.000	-5.206709e-003	-5.626765e-003	1.001606e+000	7.996929e-003	1.000198e+000	1.023347e-002	-1.530252e-003	-7.535271e-003
62544.084	5.822041e-003	-2.326112e-005	1.001370e+000	1.836944e-004	1.000850e+000	6.901512e-004	7.697748e-003	-2.411550e-003
125083.168	5.707926e-003	4.543419e-004	1.000935e+000	-1.789998e-003	1.000675e+000	-1.820997e-003	7.510737e-003	-1.340386e-003
187622.251	5.475963e-003	1.100960e-003	1.000404e+000	-3.596208e-003	1.000984e+000	-2.239673e-003	7.415872e-003	-9.960681e-004
250161.335	5.307885e-003	1.695233e-003	1.000624e+000	-5.077190e-003	1.000710e+000	-4.996466e-003	7.288381e-003	-1.818740e-004
312700.419	5.489178e-003	2.890004e-003	1.000778e+000	-6.260367e-003	1.000597e+000	-5.982509e-003	7.828555e-003	-2.155516e-005
375239.503	5.372757e-003	1.832800e-003	1.001005e+000	-8.067370e-003	1.000549e+000	-7.795593e-003	7.313900e-003	2.528853e-004
437778.587	5.234442e-003	2.673121e-003	1.001305e+000	-8.624968e-003	1.000991e+000	-9.408671e-003	6.687545e-003	1.017527e-003
500317.670	4.718206e-003	3.250819e-003	1.001213e+000	-1.144365e-002	1.001520e+000	-1.128100e-002	4.935991e-003	1.653455e-003
562856.754	6.050535e-003	3.398623e-003	1.001208e+000	-1.345361e-002	1.000977e+000	-1.345842e-002	6.162629e-003	2.614666e-003
625395.838	5.268636e-003	4.016836e-003	1.002059e+000	-1.514812e-002	1.001998e+000	-1.457514e-002	6.280489e-003	3.597862e-003
687934.922	5.340379e-003	4.133175e-003	1.001095e+000	-1.657695e-002	1.001047e+000	-1.665602e-002	5.945177e-003	3.611271e-003
750474.006	4.622711e-003	4.933078e-003	1.000585e+000	-1.648859e-002	1.000699e+000	-1.639321e-002	5.805502e-003	4.249473e-003
813013.089	4.824918e-003	5.409207e-003	1.000967e+000	-1.870364e-002	1.000507e+000	-1.837851e-002	5.182352e-003	4.896628e-003
875552.173	4.597933e-003	6.022455e-003	1.000866e+000	-1.997586e-002	1.000807e+000	-2.011392e-002	5.990800e-003	4.929122e-003
938091.257	4.694864e-003	6.543405e-003	1.001018e+000	-2.208805e-002	1.000988e+000	-2.172134e-002	6.271311e-003	5.952758e-003
1000630.341	4.168657e-003	6.640627e-003	1.000368e+000	-2.383393e-002	1.000722e+000	-2.357415e-002	5.539956e-003	5.710104e-003
1063169.425	4.568566e-003	6.946859e-003	1.000696e+000	-2.561146e-002	1.000408e+000	-2.487972e-002	4.753257e-003	5.850093e-003
1125708.508	4.501473e-003	7.441571e-003	1.000550e+000	-2.730992e-002	1.000400e+000	-2.656116e-002	4.295831e-003	6.603660e-003
1188247.592	5.073296e-003	7.450840e-003	1.000683e+000	-2.881222e-002	1.000595e+000	-2.824467e-002	3.221617e-003	6.503385e-003
1250786.676	4.941122e-003	7.167334e-003	1.000156e+000	-2.914574e-002	1.000319e+000	-2.938722e-002	2.488939e-003	5.323515e-003
1313325.760	5.095953e-003	7.521128e-003	1.000564e+000	-3.128487e-002	1.000484e+000	-3.155311e-002	3.277015e-003	5.972885e-003
1375864.844	4.858057e-003	7.801310e-003	1.000202e+000	-3.352894e-002	1.000188e+000	-3.374323e-002	3.178916e-003	6.723237e-003
1438403.927	4.803010e-003	8.106120e-003	1.000131e+000	-3.466675e-002	1.000479e+000	-3.402396e-002	3.320402e-003	7.446655e-003
1500943.011	5.078459e-003	8.612430e-003	1.000763e+000	-3.610859e-002	1.000684e+000	-3.593973e-002	3.699855e-003	7.478529e-003
1563482.095	5.105703e-003	8.702208e-003	1.000284e+000	-3.788790e-002	1.000079e+000	-3.711222e-002	3.894907e-003	8.169476e-003
1626021.179	4.961787e-003	9.315296e-003	1.000087e+000	-3.956938e-002	1.000258e+000	-4.024547e-002	4.214336e-003	8.562348e-003
1688560.263	4.722441e-003	9.839182e-003	9.997926e-001	-4.182157e-002	1.000533e+000	-4.200899e-002	4.445964e-003	9.025092e-003
1751099.346	4.908160e-003	1.041341e-002	1.000102e+000	-4.336542e-002	9.999411e-001	-4.294847e-002	4.327128e-003	1.034924e-002
1813638.430	4.617049e-003	1.085659e-002	1.000470e+000	-4.538858e-002	1.000015e+000	-4.515540e-002	4.539470e-003	1.042812e-002
1876177.514	4.709541e-003	1.162890e-002	1.000681e+000	-4.672108e-002	1.000400e+000	-4.729831e-002	4.300499e-003	1.156707e-002
1938716.598	4.241887e-003	1.219233e-002	1.000763e+000	-4.815777e-002	1.000325e+000	-4.769331e-002	4.533523e-003	1.242665e-002
2001255.682	4.198192e-003	1.220129e-002	1.000665e+000	-5.000947e-002	1.000255e+000	-4.982053e-002	4.351966e-003	1.247150e-002
2063794.765	4.370299e-003	1.305390e-002	1.000223e+000	-5.149155e-002	9.996555e-001	-5.195866e-002	4.791486e-003	1.284633e-002
2126333.849	3.969378e-003	1.303030e-002	9.996063e-001	-5.339762e-002	9.990020e-001	-5.266635e-002	5.132694e-003	1.357431e-002
2188872.933	4.531357e-003	1.349237e-002	9.993112e-001	-5.478144e-002	9.988133e-001	-5.414601e-002	5.082586e-003	1.401328e-002
2251412.017	4.693599e-003	1.362806e-002	9.990340e-001	-5.681476e-002	9.988801e-001	-5.579231e-002	5.149070e-003	1.439876e-002
2313951.101	5.124268e-003	1.452317e-002	9.984730e-001	-5.837802e-002	9.988001e-001	-5.726217e-002	5.532586e-003	1.480899e-002
2376490.184	4.942341e-003	1.498900e-002	9.982682e-001	-5.916405e-002	9.985898e-001	-5.953975e-002	5.571638e-003	1.529956e-002
2439029.268	5.485620e-003	1.544312e-002	9.979432e-001	-6.155553e-002	9.976617e-001	-6.108824e-002	5.349772e-003	1.592534e-002
2501568.352	5.562460e-003	1.592906e-002	9.977553e-001	-6.230181e-002	9.984278e-001	-6.221144e-002	5.738119e-003	1.637378e-002
2564107.436	5.566700e-003	1.631869e-002	9.979839e-001	-6.442870e-002	9.981569e-001	-6.434692e-002	5.116964e-003	1.652231e-002
2626646.520	6.126598e-003	1.661049e-002	9.976685e-001	-6.597389e-002	9.969759e-001	-6.584282e-002	5.496127e-003	1.696003e-002
2689185.604	6.200815e-003	1.727127e-002	9.979089e-001	-6.733094e-002	9.976092e-001	-6.729106e-002	5.726696e-003	1.751248e-002
2751724.687	6.419021e-003	1.768347e-002	9.977050e-001	-6.865832e-002	9.973526e-001	-6.852091e-002	5.426771e-003	1.801543e-002
2814263.771	6.500334e-003	1.812079e-002	9.966698e-001	-7.100584e-002	9.968633e-001	-7.036219e-002	5.532013e-003	1.837309e-002
2876802.855	6.567644e-003	1.843796e-002	9.965582e-001	-7.280959e-002	9.968163e-001	-7.201095e-002	5.749147e-003	1.901359e-002
2939341.939	6.832119e-003	1.904184e-002	9.970902e-001	-7.392459e-002	9.966008e-001	-7.414034e-002	5.773315e-003	1.944073e-002
3001881.023	6.886394e-003	1.956868e-002	9.965923e-001	-7.553290e-002	9.964294e-001	-7.551853e-002	6.009353e-003	1.981782e-002
3064420.106	7.092000e-003	2.002880e-002	9.970742e-001	-7.724891e-002	9.961706e-001	-7.704883e-002	5.960144e-003	2.020946e-002
3126959.190	7.432320e-003	2.043127e-002	9.964181e-001	-7.894258e-002	9.961973e-001	-7.882909e-002	6.293370e-003	2.067113e-002
3189498.274	7.568542e-003	2.098462e-002	9.961382e-001	-8.044455e-002	9.959607e-001	-8.049348e-002	6.451422e-003	2.113180e-002
3252037.358	7.627786e-003	2.114778e-002	9.960969e-001	-8.217996e-002	9.958705e-001	-8.201950e-002	6.562431e-003	2.170134e-002
3314576.442	7.827357e-003	2.182987e-002	9.957906e-001	-8.369215e-002	9.955533e-001	-8.372627e-002	6.802483e-003	2.211469e-002
3377115.525	7.976273e-003	2.237104e-002	9.954230e-001	-8.529998e-002	9.951330e-001	-8.552927e-002	6.819155e-003	2.250464e-002
3439654.609	8.167388e-003	2.281352e-002	9.950078e-001	-8.693215e-002	9.951946e-001	-8.705640e-002	7.021098e-003	2.321753e-002
3502193.693	8.310636e-003	2.304381e-002	9.948172e-001	-8.875106e-002	9.946842e-001	-8.859251e-002	7.398933e-003	2.367060e-002
3564732.777	8.581397e-003	2.368629e-002	9.946493e-001	-9.030327e-002	9.944540e-001	-9.029207e-002	7.691584e-003	2.421750e-002
3627271.861	8.636632e-003	2.407945e-002	9.944955e-001	-9.205906e-002	9.942958e-001	-9.188252e-002	7.661594e-003	2.454112e-002
3689810.944	8.747916e-003	2.448420e-002	9.940689e-001	-9.372449e-002	9.939559e-001	-9.347912e-002	8.064594e-003	2.506564e-002
3752350.028	9.094109e-003	2.501057e-002	9.937627e-001	-9.512816e-002	9.935151e-001	-9.506756e-002	8.220313e-003	2.553742e-002
3814889.112	9.468567e-003	2.565965e-002	9.933297e-001	-9.684578e-002	9.934271e-001	-9.704854e-002	8.365848e-003	2.592135e-002
3877428.196	9.670913e-003	2.618024e-002	9.932306e-001	-9.855110e-002	9.930814e-001	-9.845655e-002	8.948240e-003	2.642880e-002
3939967.280	9.884539e-003	2.639806e-002	9.928374e-001	-1.002793e-001	9.927964e-001	-1.001504e-001	9.203798e-003	2.702254e-002
4002506.363	1.021850e-002	2.704194e-002	9.925129e-001	-1.018520e-001	9.924000e-001	-1.016511e-001	9.404546e-003	2.746665e-002
4065045.447	1.033271e-002	2.746229e-002	9.919879e-001	-1.035685e-001	9.919043e-001	-1.034193e-001	9.772593e-003	2.785102e-002
4127584.531	1.060658e-002	2.794504e-002	9.916186e-001	-1.052208e-001	9.916140e-001	-1.050126e-001	1.010139e-002	2.845247e-002
4190123.615	1.095735e-002	2.845632e-002	9.913137e-001	-1.070173e-001	9.910825e-001	-1.067953e-001	1.029491e-002	2.871954e-002
4252662.699	1.121193e-002	2.888896e-002	9.910197e-001	-1.087031e-001	9.906581e-001	-1.085293e-001	1.071670e-002	2.924539e-002
4315201.782	1.168231e-002	2.930384e-002	9.905485e-001	-1.101045e-001	9.905030e-001	-1.102133e-001	1.085329e-002	2.954753e-002
4377740.866	1.192028e-002	2.977533e-002	9.902638e-001	-1.119207e-001	9.898810e-001	-1.118208e-001	1.139166e-002	3.031657e-002
4440279.950	1.216808e-002	3.012540e-002	9.897376e-001	-1.133858e-001	9.893757e-001	-1.133248e-001	1.161945e-002	3.064642e-002
4502819.034	1.253086e-002	3.070906e-002	9.891025e-001	-1.151139e-001	9.890777e-001	-1.149786e-001	1.206501e-002	3.124983e-002
4565358.118	1.280603e-002	3.113973e-002	9.886613e-001	-1.166784e-001	9.884496e-001	-1.164126e-001	1.244482e-002	3.160733e-002
4627897.201	1.337885e-002	3.172025e-002	9.884093e-001	-1.183078e-001	9.880465e-001	-1.180436e-001	1.294246e-002	3.214996e-002
4690436.285	1.359010e-002	3.206018e-002	9.878462e-001	-1.200145e-001	9.876071e-001	-1.200455e-001	1.331052e-002	3.242358e-002
4752975.369	1.399042e-002	3.249101e-002	9.871548e-001	-1.216951e-001	9.872035e-001	-1.215319e-001	1.352682e-002	3.282124e-002
4815514.453	1.452784e-002	3.292745e-002	9.868834e-001	-1.232441e-001	9.866578e-001	-1.232219e-001	1.415996e-002	3.334086e-002
4878053.537	1.503521e-002	3.326002e-002	9.863497e-001	-1.247506e-001	9.861251e-001	-1.246492e-001	1.454841e-002	3.369309e-002
4940592.620	1.522394e-002	3.374907e-002	9.856884e-001	-1.264465e-001	9.856323e-001	-1.263614e-001	1.475978e-002	3.410761e-002
5003131.704	1.571714e-002	3.401339e-002	9.851601e-001	-1.279834e-001	9.851662e-001	-1.277330e-001	1.533219e-002	3.446925e-002
5065670.788	1.612529e-002	3.462075e-002	9.845783e-001	-1.296079e-001	9.845226e-001	-1.294020e-001	1.575728e-002	3.490787e-002
5128209.872	1.668843e-002	3.486804e-002	9.842196e-001	-1.311454e-001	9.839549e-001	-1.309494e-001	1.618223e-002	3.511304e-002
5190748.956	1.706683e-002	3.526987e-002	9.835074e-001	-1.327139e-001	9.834310e-001	-1.326589e-001	1.662513e-002	3.561692e-002
5253288.039	1.759863e-002	3.559332e-002	9.830054e-001	-1.343007e-001	9.828259e-001	-1.341384e-001	1.704868e-002	3.608671e-002
5315827.123	1.803862e-002	3.591218e-002	9.822723e-001	-1.358465e-001	9.822286e-001	-1.357349e-001	1.752226e-002	3.634812e-002
5378366.207	1.864561e-002	3.630083e-002	9.817802e-001	-1.373867e-001	9.816248e-001	-1.374360e-001	1.800135e-002	3.662372e-002
5440905.291	1.897642e-002	3.674642e-002	9.812066e-001	-1.389174e-001	9.809968e-001	-1.388243e-001	1.840534e-002	3.702858e-002
5503444.375	1.967576e-002	3.690332e-002	9.805608e-001	-1.404654e-001	9.804830e-001	-1.401793e-001	1.910460e-002	3.727433e-002
5565983.458	1.986199e-002	3.738952e-002	9.799613e-001	-1.418988e-001	9.798170e-001	-1.416368e-001	1.958242e-002	3.775641e-002
5628522.542	2.065099e-002	3.760256e-002	9.793370e-001	-1.432573e-001	9.791761e-001	-1.433176e-001	2.013941e-002	3.793251e-002
5691061.626	2.122880e-002	3.771309e-002	9.785859e-001	-1.449820e-001	9.784762e-001	-1.447842e-001	2.058217e-002	3.829511e-002
5753600.710	2.165001e-002	3.810637e-002	9.778903e-001	-1.463000e-001	9.778371e-001	-1.462080e-001	2.115911e-002	3.843998e-002
5816139.794	2.230475e-002	3.853676e-002	9.772852e-001	-1.477876e-001	9.769697e-001	-1.478392e-001	2.157881e-002	3.877941e-002
5878678.877	2.275165e-002	3.857966e-002	9.765827e-001	-1.492372e-001	9.764468e-001	-1.491546e-001	2.224066e-002	3.887897e-002
5941217.961	2.329440e-002	3.875113e-002	9.758382e-001	-1.507537e-001	9.757259e-001	-1.504725e-001	2.261831e-002	3.924973e-002
6003757.045	2.372855e-002	3.922220e-002	9.750461e-001	-1.520028e-001	9.750684e-001	-1.518782e-001	2.330286e-002	3.944743e-002
6066296.129	2.439046e-002	3.923803e-002	9.746237e-001	-1.534671e-001	9.743909e-001	-1.531737e-001	2.385097e-002	3.964172e-002
6128835.213	2.504747e-002	3.946894e-002	9.739310e-001	-1.545263e-001	9.738146e-001	-1.547178e-001	2.451846e-002	3.983100e-002
6191374.296	2.556873e-002	3.964445e-002	9.730930e-001	-1.561565e-001	9.729333e-001	-1.562877e-001	2.491509e-002	4.013153e-002
6253913.380	2.605885e-002	3.994804e-002	9.724392e-001	-1.575915e-001	9.722671e-001	-1.574342e-001	2.539404e-002	4.043217e-002
6316452.464	2.661352e-002	4.019213e-002	9.717688e-001	-1.588070e-001	9.714498e-001	-1.589846e-001	2.598902e-002	4.036924e-002
6378991.548	2.713028e-002	4.019086e-002	9.710326e-001	-1.604759e-001	9.709440e-001	-1.601762e-001	2.660469e-002	4.040791e-002
6441530.632	2.763401e-002	4.026202e-002	9.702629e-001	-1.615048e-001	9.701669e-001	-1.616103e-001	2.722828e-002	4.065347e-002
6504069.715	2.819777e-002	4.037742e-002	9.695398e-001	-1.630909e-001	9.696247e-001	-1.627999e-001	2.780689e-002	4.078017e-002
6566608.799	2.889159e-002	4.041812e-002	9.689485e-001	-1.644362e-001	9.687429e-001	-1.641872e-001	2.831351e-002	4.107721e-002
6629147.883	2.942286e-002	4.065604e-002	9.681744e-001	-1.653486e-001	9.680312e-001	-1.654847e-001	2.894073e-002	4.104555e-002
6691686.967	2.986984e-002	4.076982e-002	9.674031e-001	-1.667578e-001	9.672505e-001	-1.666979e-001	2.953979e-002	4.121549e-002
6754226.051	3.038570e-002	4.083680e-002	9.666769e-001	-1.681391e-001	9.664802e-001	-1.681525e-001	2.989764e-002	4.112167e-002
6816765.134	3.102636e-002	4.090459e-002	9.660486e-001	-1.693125e-001	9.659124e-001	-1.692547e-001	3.052450e-002	4.136204e-002
6879304.218	3.148204e-002	4.081093e-002	9.652710e-001	-1.705607e-001	9.651950e-001	-1.704375e-001	3.106179e-002	4.135872e-002
6941843.302	3.212058e-002	4.100939e-002	9.645557e-001	-1.718440e-001	9.644549e-001	-1.716702e-001	3.162436e-002	4.148505e-002
7004382.386	3.249993e-002	4.112738e-002	9.639561e-001	-1.729616e-001	9.636952e-001	-1.728757e-001	3.209312e-002	4.158571e-002
7066921.470	3.311638e-002	4.109492e-002	9.631158e-001	-1.742945e-001	9.631034e-001	-1.739355e-001	3.278131e-002	4.144802e-002
7129460.553	3.354594e-002	4.102145e-002	9.625169e-001	-1.752787e-001	9.623944e-001	-1.752649e-001	3.333303e-002	4.151480e-002
7191999.637	3.410818e-002	4.126068e-002	9.615832e-001	-1.765952e-001	9.615638e-001	-1.764275e-001	3.372811e-002	4.153300e-002
7254538.721	3.465859e-002	4.114889e-002	9.612413e-001	-1.778230e-001	9.610185e-001	-1.776521e-001	3.429639e-002	4.156462e-002
7317077.805	3.535334e-002	4.110675e-002	9.604927e-001	-1.788813e-001	9.603555e-001	-1.787732e-001	3.481052e-002	4.145356e-002
7379616.889	3.575250e-002	4.110093e-002	9.599360e-001	-1.802678e-001	9.596545e-001	-1.799712e-001	3.528355e-002	4.145933e-002
7442155.972	3.611908e-002	4.109878e-002	9.590591e-001	-1.812068e-001	9.589709e-001	-1.810906e-001	3.591011e-002	4.164754e-002
7504695.056	3.665938e-002	4.098164e-002	9.583179e-001	-1.822774e-001	9.581148e-001	-1.823603e-001	3.645213e-002	4.166595e-002
7567234.140	3.732030e-002	4.087185e-002	9.578022e-001	-1.834174e-001	9.574796e-001	-1.834198e-001	3.687621e-002	4.154874e-002
7629773.224	3.776620e-002	4.111458e-002	9.571269e-001	-1.847288e-001	9.569646e-001	-1.845356e-001	3.730106e-002	4.147063e-002
7692312.308	3.812742e-002	4.100153e-002	9.564220e-001	-1.858039e-001	9.562073e-001	-1.857537e-001	3.785001e-002	4.133605e-002
7754851.391	3.859578e-002	4.081890e-002	9.557496e-001	-1.869905e-001	9.554442e-001	-1.866816e-001	3.829718e-002	4.140634e-002
7817390.475	3.917347e-002	4.094522e-002	9.551017e-001	-1.881862e-001	9.547842e-001	-1.879800e-001	3.872887e-002	4.146346e-002
7879929.559	3.954929e-002	4.071032e-002	9.543578e-001	-1.893220e-001	9.540978e-001	-1.892320e-001	3.932490e-002	4.137446e-002
7942468.643	3.997005e-002	4.060930e-002	9.538408e-001	-1.903516e-001	9.535660e-001	-1.902919e-001	3.976039e-002	4.113876e-002
8005007.727	4.053744e-002	4.054600e-002	9.530450e-001	-1.914615e-001	9.529213e-001	-1.913466e-001	4.016641e-002	4.129120e-002
8067546.811	4.085866e-002	4.052006e-002	9.524418e-001	-1.925597e-001	9.521605e-001	-1.923303e-001	4.053188e-002	4.104027e-002
8130085.894	4.137298e-002	4.036770e-002	9.518069e-001	-1.935624e-001	9.515550e-001	-1.935257e-001	4.117772e-002	4.087466e-002
8192624.978	4.167526e-002	4.024696e-002	9.509821e-001	-1.947723e-001	9.509763e-001	-1.945410e-001	4.167178e-002	4.078286e-002
8255164.062	4.223577e-002	4.016007e-002	9.505230e-001	-1.957769e-001	9.503039e-001	-1.956762e-001	4.209819e-002	4.063874e-002
8317703.146	4.257999e-002	4.017604e-002	9.499183e-001	-1.968897e-001	9.498045e-001	-1.967288e-001	4.237871e-002	4.061422e-002
8380242.230	4.309827e-002	3.983387e-002	9.491565e-001	-1.980425e-001	9.489999e-001	-1.977672e-001	4.278101e-002	4.044978e-002
8442781.313	4.351288e-002	3.977649e-002	9.487425e-001	-1.990092e-001	9.484600e-001	-1.987888e-001	4.318193e-002	4.028642e-002
8505320.397	4.392731e-002	3.978534e-002	9.480593e-001	-2.000890e-001	9.478227e-001	-1.998727e-001	4.357239e-002	4.021283e-002
8567859.481	4.433825e-002	3.982574e-002	9.473955e-001	-2.009603e-001	9.472744e-001	-2.009092e-001	4.405321e-002	4.025191e-002
8630398.565	4.482470e-002	3.965011e-002	9.466059e-001	-2.019958e-001	9.466523e-001	-2.019187e-001	4.432391e-002	3.990245e-002
8692937.649	4.516474e-002	3.932458e-002	9.461267e-001	-2.030676e-001	9.458649e-001	-2.029740e-001	4.469469e-002	3.989065e-002
8755476.732	4.558410e-002	3.926071e-002	9.455435e-001	-2.042150e-001	9.453079e-001	-2.039728e-001	4.516378e-002	3.978397e-002
8818015.816	4.586605e-002	3.911420e-002	9.448535e-001	-2.052655e-001	9.445399e-001	-2.050624e-001	4.564390e-002	3.955372e-002
8880554.900	4.647636e-002	3.900155e-002	9.443990e-001	-2.063032e-001	9.442346e-001	-2.059630e-001	4.590288e-002	3.928817e-002
8943093.984	4.671535e-002	3.899631e-002	9.437710e-001	-2.072397e-001	9.436159e-001	-2.070460e-001	4.632360e-002	3.920768e-002
9005633.068	4.714394e-002	3.874822e-002	9.430168e-001	-2.083338e-001	9.430968e-001	-2.081949e-001	4.659017e-002	3.896118e-002
9068172.151	4.739438e-002	3.863452e-002	9.425834e-001	-2.093733e-001	9.423809e-001	-2.091017e-001	4.703700e-002	3.886068e-002
9130711.235	4.796356e-002	3.838534e-002	9.419332e-001	-2.103561e-001	9.418301e-001	-2.101186e-001	4.743172e-002	3.854008e-002
9193250.319	4.831762e-002	3.822209e-002	9.414924e-001	-2.112798e-001	9.412214e-001	-2.111957e-001	4.776038e-002	3.847019e-002
9255789.403	4.856426e-002	3.795081e-002	9.409532e-001	-2.122276e-001	9.405916e-001	-2.121499e-001	4.800280e-002	3.838798e-002
9318328.487	4.888080e-002	3.789343e-002	9.402462e-001	-2.134623e-001	9.401698e-001	-2.131553e-001	4.846041e-002	3.822316e-002
9380867.570	4.928752e-002	3.785307e-002	9.397362e-001	-2.144268e-001	9.394438e-001	-2.142623e-001	4.882459e-002	3.804935e-002
9443406.654	4.968430e-002	3.767785e-002	9.391608e-001	-2.153616e-001	9.390035e-001	-2.153181e-001	4.920120e-002	3.782271e-002
9505945.738	5.002480e-002	3.754652e-002	9.384331e-001	-2.165350e-001	9.384665e-001	-2.163083e-001	4.950309e-002	3.765869e-002
9568484.822	5.039333e-002	3.734092e-002	9.380270e-001	-2.174855e-001	9.376403e-001	-2.173128e-001	4.969280e-002	3.774447e-002
9631023.906	5.071992e-002	3.720499e-002	9.374578e-001	-2.184852e-001	9.371089e-001	-2.183551e-001	5.017921e-002	3.727006e-002
9693562.989	5.107859e-002	3.702781e-002	9.368160e-001	-2.194754e-001	9.366135e-001	-2.192340e-001	5.028755e-002	3.724437e-002
9756102.073	5.139387e-002	3.681285e-002	9.364696e-001	-2.205155e-001	9.361214e-001	-2.202119e-001	5.065527e-002	3.695350e-002
