!Agilent Technologies,E5061B,MY49102235,A.02.00
!Date: Tue Jul 11 16:38:54 2023
!Data & Calibration Information:
!Freq	S11:SOLT2(ON)	S21:SOLT2(ON)	S12:SOLT2(ON)	S22:SOLT2(ON)
# Hz S RI R 50
5.000	-5.290188e-003	-5.663364e-003	1.001831e+000	7.979631e-003	1.000491e+000	1.023717e-002	-1.589419e-003	-7.549527e-003
62544.084	5.821299e-003	-4.846115e-004	1.001415e+000	5.282786e-004	1.000709e+000	1.258306e-003	7.709707e-003	-2.854897e-003
125083.168	5.683384e-003	-4.331140e-004	1.000979e+000	-9.231838e-004	1.000644e+000	-8.720003e-004	7.496518e-003	-2.226891e-003
187622.251	5.460780e-003	-2.447733e-004	1.000478e+000	-2.274309e-003	1.001003e+000	-9.535281e-004	7.384193e-003	-2.310028e-003
250161.335	5.274244e-003	-8.385717e-005	1.000563e+000	-3.304850e-003	1.000679e+000	-3.232088e-003	7.263421e-003	-1.938038e-003
312700.419	5.425767e-003	6.600306e-004	1.000925e+000	-3.918883e-003	1.000580e+000	-3.735134e-003	7.774168e-003	-2.206481e-003
375239.503	5.315311e-003	-8.197409e-004	1.001015e+000	-5.348689e-003	1.000482e+000	-5.131988e-003	7.269621e-003	-2.348578e-003
437778.587	5.144770e-003	-4.118833e-004	1.001441e+000	-5.518879e-003	1.000992e+000	-6.168325e-003	6.620480e-003	-2.059544e-003
500317.670	4.586977e-003	-2.725878e-004	1.001323e+000	-7.961603e-003	1.001593e+000	-7.791264e-003	4.807671e-003	-1.853934e-003
562856.754	5.892006e-003	-5.490110e-004	1.001472e+000	-9.442681e-003	1.001110e+000	-9.239076e-003	6.015205e-003	-1.339746e-003
625395.838	5.087157e-003	-3.773983e-004	1.002341e+000	-1.070677e-002	1.002193e+000	-1.021735e-002	6.100638e-003	-7.470422e-004
687934.922	5.147729e-003	-6.885600e-004	1.001372e+000	-1.168762e-002	1.001293e+000	-1.187125e-002	5.738546e-003	-1.182321e-003
750474.006	4.352849e-003	-3.366606e-004	1.000881e+000	-1.116311e-002	1.000806e+000	-1.100007e-002	5.548909e-003	-1.013722e-003
813013.089	4.533344e-003	-2.943844e-004	1.001225e+000	-1.300975e-002	1.000528e+000	-1.257273e-002	4.902414e-003	-8.054213e-004
875552.173	4.273380e-003	-1.072089e-004	1.001162e+000	-1.384704e-002	1.001102e+000	-1.389040e-002	5.687985e-003	-1.178860e-003
938091.257	4.347932e-003	-1.520676e-005	1.001185e+000	-1.547166e-002	1.001094e+000	-1.496612e-002	5.927604e-003	-6.004580e-004
1000630.341	3.792063e-003	-3.526684e-004	1.000813e+000	-1.679335e-002	1.001009e+000	-1.656407e-002	5.167944e-003	-1.268465e-003
1063169.425	4.152049e-003	-5.015042e-004	1.001083e+000	-1.826311e-002	1.000554e+000	-1.743100e-002	4.352892e-003	-1.587550e-003
1125708.508	4.020387e-003	-4.197208e-004	1.000922e+000	-1.930705e-002	1.000862e+000	-1.874760e-002	3.859267e-003	-1.272971e-003
1188247.592	4.564546e-003	-8.601582e-004	1.001141e+000	-2.057386e-002	1.001029e+000	-1.977952e-002	2.754993e-003	-1.820146e-003
1250786.676	4.421060e-003	-1.580934e-003	1.000768e+000	-2.051171e-002	1.000743e+000	-2.044661e-002	2.009035e-003	-3.465374e-003
1313325.760	4.531408e-003	-1.662988e-003	1.001041e+000	-2.206556e-002	1.001053e+000	-2.215025e-002	2.767099e-003	-3.240243e-003
1375864.844	4.260141e-003	-1.826419e-003	1.000680e+000	-2.393938e-002	1.000530e+000	-2.391706e-002	2.622525e-003	-2.947265e-003
1438403.927	4.148470e-003	-1.986549e-003	1.000659e+000	-2.461561e-002	1.000977e+000	-2.394631e-002	2.704702e-003	-2.670247e-003
1500943.011	4.383861e-003	-1.875385e-003	1.001348e+000	-2.556790e-002	1.001441e+000	-2.545271e-002	3.052191e-003	-3.045827e-003
1563482.095	4.379074e-003	-2.247320e-003	1.001048e+000	-2.695694e-002	1.000624e+000	-2.599800e-002	3.175311e-003	-2.822330e-003
1626021.179	4.200518e-003	-2.108857e-003	1.000861e+000	-2.825274e-002	1.000997e+000	-2.852575e-002	3.450268e-003	-2.859953e-003
1688560.263	3.885831e-003	-2.019228e-003	1.000621e+000	-3.005432e-002	1.001364e+000	-3.005921e-002	3.628647e-003	-2.862853e-003
1751099.346	4.019307e-003	-1.899572e-003	1.001180e+000	-3.100833e-002	1.000834e+000	-3.057729e-002	3.444958e-003	-2.007083e-003
1813638.430	3.666052e-003	-1.931142e-003	1.001477e+000	-3.261741e-002	1.001010e+000	-3.229272e-002	3.619842e-003	-2.363242e-003
1876177.514	3.720752e-003	-1.626487e-003	1.001701e+000	-3.357280e-002	1.001363e+000	-3.400405e-002	3.285773e-003	-1.676960e-003
1938716.598	3.155668e-003	-1.519772e-003	1.001790e+000	-3.442215e-002	1.001331e+000	-3.382080e-002	3.470830e-003	-1.269027e-003
2001255.682	3.066839e-003	-1.991007e-003	1.001811e+000	-3.582709e-002	1.001361e+000	-3.541263e-002	3.217758e-003	-1.705984e-003
2063794.765	3.165081e-003	-1.589336e-003	1.001454e+000	-3.696941e-002	1.000691e+000	-3.713117e-002	3.609677e-003	-1.784191e-003
2126333.849	2.707918e-003	-2.108488e-003	1.000873e+000	-3.823119e-002	1.000185e+000	-3.744020e-002	3.867752e-003	-1.511559e-003
2188872.933	3.188088e-003	-2.078643e-003	1.000690e+000	-3.928166e-002	1.000217e+000	-3.858342e-002	3.745846e-003	-1.546769e-003
2251412.017	3.292841e-003	-2.437216e-003	1.000431e+000	-4.084021e-002	1.000248e+000	-3.972709e-002	3.741818e-003	-1.656489e-003
2313951.101	3.611517e-003	-1.988390e-003	9.999164e-001	-4.193306e-002	1.000229e+000	-4.061930e-002	4.043393e-003	-1.696314e-003
2376490.184	3.353901e-003	-2.011072e-003	9.998549e-001	-4.227968e-002	1.000221e+000	-4.244656e-002	3.999733e-003	-1.676054e-003
2439029.268	3.803851e-003	-2.021396e-003	9.997677e-001	-4.406855e-002	9.993734e-001	-4.351013e-002	3.671687e-003	-1.553295e-003
2501568.352	3.768602e-003	-2.025830e-003	9.994168e-001	-4.429237e-002	1.000268e+000	-4.420170e-002	3.968075e-003	-1.591148e-003
2564107.436	3.691929e-003	-2.159970e-003	9.998207e-001	-4.604553e-002	9.999874e-001	-4.573075e-002	3.265758e-003	-1.945132e-003
2626646.520	4.170931e-003	-2.316381e-003	9.996519e-001	-4.721125e-002	9.989165e-001	-4.684740e-002	3.518917e-003	-1.996188e-003
2689185.604	4.128987e-003	-2.165394e-003	1.000043e+000	-4.798072e-002	9.994609e-001	-4.778388e-002	3.644116e-003	-1.941320e-003
2751724.687	4.243921e-003	-2.231071e-003	9.999138e-001	-4.871499e-002	9.995131e-001	-4.858803e-002	3.248687e-003	-1.963784e-003
2814263.771	4.192349e-003	-2.282842e-003	9.990061e-001	-5.060838e-002	9.991628e-001	-4.987882e-002	3.239460e-003	-2.080712e-003
2876802.855	4.146954e-003	-2.488916e-003	9.990632e-001	-5.198773e-002	9.992022e-001	-5.106047e-002	3.320282e-003	-1.948740e-003
2939341.939	4.258037e-003	-2.400723e-003	9.995895e-001	-5.246957e-002	9.990629e-001	-5.252204e-002	3.211324e-003	-2.043433e-003
3001881.023	4.182075e-003	-2.386865e-003	9.992509e-001	-5.368276e-002	9.990674e-001	-5.357593e-002	3.302669e-003	-2.176118e-003
3064420.106	4.241086e-003	-2.429157e-003	9.999036e-001	-5.476463e-002	9.989509e-001	-5.455028e-002	3.140837e-003	-2.289367e-003
3126959.190	4.428595e-003	-2.524736e-003	9.994045e-001	-5.601096e-002	9.991367e-001	-5.576491e-002	3.313423e-003	-2.350387e-003
3189498.274	4.409572e-003	-2.492277e-003	9.992711e-001	-5.692479e-002	9.990471e-001	-5.689687e-002	3.309307e-003	-2.404435e-003
3252037.358	4.319267e-003	-2.845931e-003	9.993503e-001	-5.815323e-002	9.990988e-001	-5.787890e-002	3.250870e-003	-2.353309e-003
3314576.442	4.342036e-003	-2.684048e-003	9.992366e-001	-5.920099e-002	9.989875e-001	-5.907913e-002	3.306756e-003	-2.455888e-003
3377115.525	4.310785e-003	-2.695282e-003	9.990485e-001	-6.020262e-002	9.987171e-001	-6.029484e-002	3.157446e-003	-2.604118e-003
3439654.609	4.307992e-003	-2.747257e-003	9.988817e-001	-6.136835e-002	9.989619e-001	-6.136132e-002	3.170587e-003	-2.416621e-003
3502193.693	4.280680e-003	-3.078114e-003	9.988665e-001	-6.262081e-002	9.986476e-001	-6.235194e-002	3.331307e-003	-2.481814e-003
3564732.777	4.314031e-003	-2.948910e-003	9.988826e-001	-6.365805e-002	9.986831e-001	-6.355229e-002	3.432690e-003	-2.459079e-003
3627271.861	4.179248e-003	-3.081985e-003	9.988844e-001	-6.487231e-002	9.987222e-001	-6.454949e-002	3.196825e-003	-2.692858e-003
3689810.944	4.075643e-003	-3.228036e-003	9.987158e-001	-6.599464e-002	9.986070e-001	-6.562678e-002	3.369580e-003	-2.686912e-003
3752350.028	4.186034e-003	-3.226117e-003	9.986399e-001	-6.686684e-002	9.983807e-001	-6.673014e-002	3.293424e-003	-2.748675e-003
3814889.112	4.286462e-003	-3.108641e-003	9.984396e-001	-6.803144e-002	9.985690e-001	-6.813547e-002	3.207838e-003	-2.910801e-003
3877428.196	4.233242e-003	-3.115712e-003	9.986340e-001	-6.920865e-002	9.984281e-001	-6.901189e-002	3.533763e-003	-2.924348e-003
3939967.280	4.200098e-003	-3.438948e-003	9.984449e-001	-7.039842e-002	9.984557e-001	-7.015419e-002	3.512351e-003	-2.869814e-003
4002506.363	4.261955e-003	-3.325003e-003	9.984751e-001	-7.148391e-002	9.983122e-001	-7.115002e-002	3.447668e-003	-2.981735e-003
4065045.447	4.065583e-003	-3.457059e-003	9.981922e-001	-7.263205e-002	9.980739e-001	-7.240564e-002	3.532053e-003	-3.115567e-003
4127584.531	4.058487e-003	-3.500428e-003	9.980842e-001	-7.372483e-002	9.980810e-001	-7.339820e-002	3.556983e-003	-3.031798e-003
4190123.615	4.104077e-003	-3.508382e-003	9.981169e-001	-7.504587e-002	9.979073e-001	-7.467872e-002	3.460850e-003	-3.295710e-003
4252662.699	4.050561e-003	-3.643050e-003	9.981498e-001	-7.615356e-002	9.977425e-001	-7.588420e-002	3.564701e-003	-3.307499e-003
4315201.782	4.190521e-003	-3.711782e-003	9.980155e-001	-7.701029e-002	9.979660e-001	-7.701223e-002	3.385599e-003	-3.540107e-003
4377740.866	4.083277e-003	-3.760266e-003	9.980049e-001	-7.831032e-002	9.976635e-001	-7.812049e-002	3.547538e-003	-3.289613e-003
4440279.950	3.992315e-003	-3.960058e-003	9.979342e-001	-7.925740e-002	9.974782e-001	-7.913250e-002	3.445913e-003	-3.496430e-003
4502819.034	3.971238e-003	-3.865606e-003	9.975843e-001	-8.049173e-002	9.975499e-001	-8.023907e-002	3.511958e-003	-3.389679e-003
4565358.118	3.885036e-003	-3.958231e-003	9.975163e-001	-8.157380e-002	9.972989e-001	-8.115535e-002	3.529770e-003	-3.527907e-003
4627897.201	4.076586e-003	-3.881166e-003	9.976419e-001	-8.270185e-002	9.972902e-001	-8.226549e-002	3.630524e-003	-3.479355e-003
4690436.285	3.895137e-003	-4.034156e-003	9.975607e-001	-8.388863e-002	9.972561e-001	-8.380923e-002	3.630581e-003	-3.721325e-003
4752975.369	3.895633e-003	-4.102522e-003	9.972168e-001	-8.506476e-002	9.972551e-001	-8.479115e-002	3.448225e-003	-3.807763e-003
4815514.453	4.010778e-003	-4.142395e-003	9.973322e-001	-8.604735e-002	9.971231e-001	-8.596754e-002	3.659818e-003	-3.783838e-003
4878053.537	4.109028e-003	-4.284521e-003	9.973007e-001	-8.714949e-002	9.970279e-001	-8.693221e-002	3.622015e-003	-3.893875e-003
4940592.620	3.840264e-003	-4.293078e-003	9.970719e-001	-8.833897e-002	9.969624e-001	-8.813787e-002	3.384912e-003	-3.991281e-003
5003131.704	3.898212e-003	-4.477980e-003	9.969424e-001	-8.941753e-002	9.969352e-001	-8.904010e-002	3.524174e-003	-4.083876e-003
5065670.788	3.818330e-003	-4.342727e-003	9.968376e-001	-9.054734e-002	9.967389e-001	-9.024222e-002	3.487126e-003	-4.108942e-003
5128209.872	3.951889e-003	-4.525472e-003	9.969372e-001	-9.169986e-002	9.966284e-001	-9.134954e-002	3.453635e-003	-4.358417e-003
5190748.956	3.847885e-003	-4.589838e-003	9.967216e-001	-9.277942e-002	9.966313e-001	-9.256606e-002	3.407867e-003	-4.286860e-003
5253288.039	3.885184e-003	-4.680070e-003	9.967064e-001	-9.392578e-002	9.965013e-001	-9.367754e-002	3.341468e-003	-4.267152e-003
5315827.123	3.860487e-003	-4.799286e-003	9.964214e-001	-9.501700e-002	9.964190e-001	-9.481441e-002	3.321842e-003	-4.419400e-003
5378366.207	3.937742e-003	-4.804028e-003	9.964715e-001	-9.617380e-002	9.963363e-001	-9.607973e-002	3.302832e-003	-4.567197e-003
5440905.291	3.760381e-003	-4.785591e-003	9.964097e-001	-9.731936e-002	9.962251e-001	-9.709393e-002	3.186922e-003	-4.566704e-003
5503444.375	3.956084e-003	-4.994551e-003	9.963080e-001	-9.848833e-002	9.962071e-001	-9.805849e-002	3.386047e-003	-4.710210e-003
5565983.458	3.606512e-003	-4.936953e-003	9.962379e-001	-9.949828e-002	9.960536e-001	-9.914566e-002	3.308788e-003	-4.609463e-003
5628522.542	3.852923e-003	-5.063430e-003	9.961049e-001	-1.005020e-001	9.959589e-001	-1.004231e-001	3.344140e-003	-4.794392e-003
5691061.626	3.928452e-003	-5.295264e-003	9.959480e-001	-1.018819e-001	9.957771e-001	-1.015779e-001	3.242051e-003	-4.804496e-003
5753600.710	3.750896e-003	-5.269673e-003	9.957638e-001	-1.028578e-001	9.956998e-001	-1.026112e-001	3.288163e-003	-4.994432e-003
5816139.794	3.860868e-003	-5.154111e-003	9.957415e-001	-1.040152e-001	9.954177e-001	-1.039237e-001	3.139543e-003	-5.022049e-003
5878678.877	3.755724e-003	-5.441080e-003	9.956504e-001	-1.051062e-001	9.954375e-001	-1.049123e-001	3.253037e-003	-5.210940e-003
5941217.961	3.734804e-003	-5.581487e-003	9.954283e-001	-1.063079e-001	9.953033e-001	-1.058620e-001	3.052692e-003	-5.177792e-003
6003757.045	3.565686e-003	-5.417327e-003	9.952009e-001	-1.072750e-001	9.951437e-001	-1.069879e-001	3.172331e-003	-5.257446e-003
6066296.129	3.695510e-003	-5.660534e-003	9.953304e-001	-1.084640e-001	9.950947e-001	-1.080521e-001	3.137754e-003	-5.357363e-003
6128835.213	3.782935e-003	-5.690240e-003	9.951770e-001	-1.092627e-001	9.951554e-001	-1.093316e-001	3.234876e-003	-5.421895e-003
6191374.296	3.725552e-003	-5.793875e-003	9.950077e-001	-1.105873e-001	9.948067e-001	-1.106173e-001	3.062810e-003	-5.386547e-003
6253913.380	3.623872e-003	-5.743674e-003	9.948959e-001	-1.118149e-001	9.947309e-001	-1.115269e-001	2.944844e-003	-5.348482e-003
6316452.464	3.591318e-003	-5.716165e-003	9.948174e-001	-1.127856e-001	9.944890e-001	-1.128713e-001	2.971421e-003	-5.628774e-003
6378991.548	3.543431e-003	-5.931682e-003	9.946541e-001	-1.142501e-001	9.946084e-001	-1.138043e-001	3.038058e-003	-5.814934e-003
6441530.632	3.482541e-003	-6.072546e-003	9.944778e-001	-1.150470e-001	9.943706e-001	-1.150579e-001	3.062794e-003	-5.774234e-003
6504069.715	3.469045e-003	-6.173363e-003	9.943305e-001	-1.164489e-001	9.944088e-001	-1.161025e-001	3.072011e-003	-5.838508e-003
6566608.799	3.599374e-003	-6.281573e-003	9.943578e-001	-1.175878e-001	9.941158e-001	-1.172362e-001	2.969674e-003	-5.708117e-003
6629147.883	3.542366e-003	-6.229586e-003	9.941052e-001	-1.183873e-001	9.939753e-001	-1.183397e-001	3.038198e-003	-5.920138e-003
6691686.967	3.411597e-003	-6.266719e-003	9.939101e-001	-1.196292e-001	9.937895e-001	-1.194646e-001	3.056659e-003	-5.890109e-003
6754226.051	3.350355e-003	-6.351734e-003	9.937574e-001	-1.207979e-001	9.935646e-001	-1.207391e-001	2.858803e-003	-6.181950e-003
6816765.134	3.440091e-003	-6.422182e-003	9.937304e-001	-1.218257e-001	9.936096e-001	-1.216918e-001	2.899225e-003	-6.047738e-003
6879304.218	3.328591e-003	-6.652826e-003	9.935254e-001	-1.230064e-001	9.934794e-001	-1.227913e-001	2.869586e-003	-6.173175e-003
6941843.302	3.390243e-003	-6.542868e-003	9.933560e-001	-1.241653e-001	9.932747e-001	-1.238378e-001	2.850756e-003	-6.152944e-003
7004382.386	3.174119e-003	-6.551053e-003	9.933107e-001	-1.251487e-001	9.931337e-001	-1.250073e-001	2.749330e-003	-6.179904e-003
7066921.470	3.259799e-003	-6.663025e-003	9.930714e-001	-1.264461e-001	9.930442e-001	-1.259717e-001	2.908234e-003	-6.392592e-003
7129460.553	3.151206e-003	-6.842383e-003	9.930041e-001	-1.273618e-001	9.928765e-001	-1.271629e-001	2.898685e-003	-6.411757e-003
7191999.637	3.131332e-003	-6.679775e-003	9.926638e-001	-1.285884e-001	9.925929e-001	-1.282907e-001	2.744509e-003	-6.475383e-003
7254538.721	3.174414e-003	-6.845254e-003	9.928457e-001	-1.297221e-001	9.926198e-001	-1.294981e-001	2.772042e-003	-6.521453e-003
7317077.805	3.326465e-003	-6.941200e-003	9.926041e-001	-1.307297e-001	9.924842e-001	-1.305139e-001	2.749895e-003	-6.681928e-003
7379616.889	3.172251e-003	-6.978599e-003	9.925845e-001	-1.320333e-001	9.922774e-001	-1.316810e-001	2.701467e-003	-6.729059e-003
7442155.972	3.015970e-003	-7.055366e-003	9.922589e-001	-1.329416e-001	9.922012e-001	-1.327243e-001	2.765804e-003	-6.582547e-003
7504695.056	3.035035e-003	-7.209628e-003	9.920413e-001	-1.339626e-001	9.918798e-001	-1.339806e-001	2.780313e-003	-6.574669e-003
7567234.140	3.199477e-003	-7.339000e-003	9.920618e-001	-1.351151e-001	9.917629e-001	-1.350387e-001	2.702463e-003	-6.740148e-003
7629773.224	3.085752e-003	-7.107502e-003	9.919085e-001	-1.363508e-001	9.917308e-001	-1.360935e-001	2.600722e-003	-6.859482e-003
7692312.308	2.935678e-003	-7.241390e-003	9.917234e-001	-1.375025e-001	9.914934e-001	-1.373035e-001	2.643377e-003	-7.004049e-003
7754851.391	2.901232e-003	-7.450154e-003	9.915282e-001	-1.386395e-001	9.911885e-001	-1.381977e-001	2.575833e-003	-6.934352e-003
7817390.475	2.966910e-003	-7.316045e-003	9.914100e-001	-1.398364e-001	9.911320e-001	-1.395515e-001	2.485263e-003	-6.875126e-003
7879929.559	2.869251e-003	-7.554614e-003	9.911478e-001	-1.409844e-001	9.909290e-001	-1.408125e-001	2.587601e-003	-6.944170e-003
7942468.643	2.796071e-003	-7.675414e-003	9.911218e-001	-1.419606e-001	9.908905e-001	-1.418668e-001	2.547519e-003	-7.179280e-003
8005007.727	2.889234e-003	-7.692562e-003	9.908124e-001	-1.431406e-001	9.907899e-001	-1.429630e-001	2.444720e-003	-7.016942e-003
8067546.811	2.719244e-003	-7.720609e-003	9.907327e-001	-1.442374e-001	9.904189e-001	-1.439706e-001	2.343355e-003	-7.289759e-003
8130085.894	2.775726e-003	-7.843430e-003	9.905181e-001	-1.452899e-001	9.903678e-001	-1.451762e-001	2.538876e-003	-7.397598e-003
8192624.978	2.593684e-003	-7.965593e-003	9.902223e-001	-1.465369e-001	9.902004e-001	-1.462422e-001	2.582885e-003	-7.466885e-003
8255164.062	2.695295e-003	-8.007904e-003	9.901846e-001	-1.475603e-001	9.899932e-001	-1.473689e-001	2.519944e-003	-7.568947e-003
8317703.146	2.540098e-003	-7.946246e-003	9.900475e-001	-1.486927e-001	9.899355e-001	-1.484671e-001	2.323123e-003	-7.576100e-003
8380242.230	2.653000e-003	-8.243119e-003	9.897540e-001	-1.498982e-001	9.896783e-001	-1.495281e-001	2.259237e-003	-7.697691e-003
8442781.313	2.606352e-003	-8.278499e-003	9.898029e-001	-1.509023e-001	9.895429e-001	-1.506040e-001	2.218818e-003	-7.860127e-003
8505320.397	2.568355e-003	-8.198018e-003	9.895795e-001	-1.520838e-001	9.893374e-001	-1.517679e-001	2.143569e-003	-7.858644e-003
8567859.481	2.502381e-003	-8.100670e-003	9.893753e-001	-1.529830e-001	9.892649e-001	-1.528795e-001	2.167224e-003	-7.744941e-003
8630398.565	2.559290e-003	-8.207657e-003	9.890264e-001	-1.541021e-001	9.890738e-001	-1.538546e-001	2.032260e-003	-8.054987e-003
8692937.649	2.472453e-003	-8.477528e-003	9.889656e-001	-1.552339e-001	9.887162e-001	-1.550680e-001	1.939643e-003	-8.011678e-003
8755476.732	2.467186e-003	-8.476266e-003	9.887992e-001	-1.564419e-001	9.885501e-001	-1.560703e-001	1.978822e-003	-8.057749e-003
8818015.816	2.319184e-003	-8.580024e-003	9.885470e-001	-1.574874e-001	9.882595e-001	-1.572409e-001	2.061972e-003	-8.224210e-003
8880554.900	2.512445e-003	-8.592602e-003	9.885187e-001	-1.586992e-001	9.883737e-001	-1.581719e-001	1.901508e-003	-8.434255e-003
8943093.984	2.327178e-003	-8.549037e-003	9.882580e-001	-1.597013e-001	9.881685e-001	-1.593952e-001	1.901306e-003	-8.435283e-003
9005633.068	2.344357e-003	-8.705821e-003	9.879523e-001	-1.608371e-001	9.880501e-001	-1.605875e-001	1.778807e-003	-8.626980e-003
9068172.151	2.180436e-003	-8.766804e-003	9.879647e-001	-1.619888e-001	9.877221e-001	-1.615557e-001	1.800095e-003	-8.641766e-003
9130711.235	2.371521e-003	-8.904178e-003	9.876719e-001	-1.630674e-001	9.876163e-001	-1.626533e-001	1.811137e-003	-8.890602e-003
9193250.319	2.320200e-003	-8.980034e-003	9.876405e-001	-1.640212e-001	9.873455e-001	-1.638805e-001	1.718526e-003	-8.880559e-003
9255789.403	2.186636e-003	-9.194295e-003	9.874534e-001	-1.650267e-001	9.871663e-001	-1.649051e-001	1.558497e-003	-8.882284e-003
9318328.487	2.119783e-003	-9.157622e-003	9.871869e-001	-1.663851e-001	9.871252e-001	-1.659558e-001	1.638952e-003	-8.948857e-003
9380867.570	2.105683e-003	-9.097675e-003	9.871178e-001	-1.675130e-001	9.867759e-001	-1.671893e-001	1.604749e-003	-9.026501e-003
9443406.654	2.118266e-003	-9.166336e-003	9.869180e-001	-1.685201e-001	9.867674e-001	-1.683523e-001	1.606350e-003	-9.165404e-003
9505945.738	2.067550e-003	-9.207661e-003	9.865281e-001	-1.697964e-001	9.866305e-001	-1.693938e-001	1.526142e-003	-9.222423e-003
9568484.822	2.085366e-003	-9.305305e-003	9.864918e-001	-1.708594e-001	9.861742e-001	-1.705418e-001	1.308516e-003	-9.055716e-003
