!Agilent Technologies,E5061B,MY49102235,A.02.00
!Date: Tue Jul 11 16:41:47 2023
!Data & Calibration Information:
!Freq	S11:SOLT2(ON)	S21:SOLT2(ON)	S12:SOLT2(ON)	S22:SOLT2(ON)
# Hz S RI R 50
5.000	-5.202355e-003	-5.649331e-003	1.001660e+000	7.987713e-003	1.000414e+000	1.025476e-002	-1.577951e-003	-7.557865e-003
62544.084	5.823355e-003	-4.933737e-004	1.001299e+000	6.347074e-004	1.000891e+000	1.235938e-003	7.702565e-003	-2.883793e-003
125083.168	5.702110e-003	-4.826344e-004	1.000805e+000	-7.599092e-004	1.000684e+000	-8.738627e-004	7.491887e-003	-2.262674e-003
187622.251	5.460637e-003	-3.238054e-004	1.000440e+000	-2.120520e-003	1.001096e+000	-8.610848e-004	7.379414e-003	-2.383078e-003
250161.335	5.276080e-003	-1.801759e-004	1.000651e+000	-3.169548e-003	1.000644e+000	-3.206499e-003	7.254509e-003	-2.007408e-003
312700.419	5.416900e-003	5.654734e-004	1.000772e+000	-3.843338e-003	1.000665e+000	-3.576139e-003	7.772374e-003	-2.331462e-003
375239.503	5.303545e-003	-9.679117e-004	1.000972e+000	-5.158890e-003	1.000542e+000	-4.805235e-003	7.267971e-003	-2.517790e-003
437778.587	5.147788e-003	-5.601584e-004	1.001266e+000	-5.460686e-003	1.001096e+000	-6.078366e-003	6.612531e-003	-2.211095e-003
500317.670	4.590500e-003	-4.445390e-004	1.001270e+000	-7.715273e-003	1.001658e+000	-7.663871e-003	4.805905e-003	-2.020299e-003
562856.754	5.881430e-003	-7.557946e-004	1.001407e+000	-9.271600e-003	1.001117e+000	-9.085210e-003	6.009750e-003	-1.541309e-003
625395.838	5.075381e-003	-6.106548e-004	1.002258e+000	-1.040721e-002	1.002170e+000	-9.945236e-003	6.103860e-003	-9.898366e-004
687934.922	5.122429e-003	-9.287138e-004	1.001297e+000	-1.145930e-002	1.001286e+000	-1.153164e-002	5.735481e-003	-1.462539e-003
750474.006	4.350035e-003	-6.027071e-004	1.000862e+000	-1.097145e-002	1.000904e+000	-1.070276e-002	5.543481e-003	-1.273045e-003
813013.089	4.536318e-003	-5.787792e-004	1.001119e+000	-1.267064e-002	1.000584e+000	-1.229720e-002	4.888867e-003	-1.103217e-003
875552.173	4.271012e-003	-4.371172e-004	1.001042e+000	-1.366460e-002	1.001011e+000	-1.361775e-002	5.683619e-003	-1.506189e-003
938091.257	4.353893e-003	-3.528764e-004	1.001227e+000	-1.501681e-002	1.001184e+000	-1.467904e-002	5.916997e-003	-9.207645e-004
1000630.341	3.795015e-003	-7.273816e-004	1.000766e+000	-1.647910e-002	1.001153e+000	-1.615972e-002	5.167061e-003	-1.624520e-003
1063169.425	4.135175e-003	-8.689486e-004	1.001059e+000	-1.780837e-002	1.000908e+000	-1.698150e-002	4.351506e-003	-1.967448e-003
1125708.508	4.023397e-003	-8.246963e-004	1.000842e+000	-1.887389e-002	1.000907e+000	-1.844143e-002	3.857404e-003	-1.682645e-003
1188247.592	4.563336e-003	-1.286113e-003	1.000975e+000	-2.014295e-002	1.001189e+000	-1.948691e-002	2.757492e-003	-2.252120e-003
1250786.676	4.403635e-003	-2.034873e-003	1.000658e+000	-1.995260e-002	1.000867e+000	-2.004085e-002	2.014592e-003	-3.911261e-003
1313325.760	4.529661e-003	-2.130580e-003	1.001004e+000	-2.166991e-002	1.001134e+000	-2.176595e-002	2.759864e-003	-3.714958e-003
1375864.844	4.251778e-003	-2.334913e-003	1.000749e+000	-2.349710e-002	1.000609e+000	-2.351077e-002	2.595844e-003	-3.431917e-003
1438403.927	4.148281e-003	-2.490130e-003	1.000707e+000	-2.406940e-002	1.001168e+000	-2.330810e-002	2.689641e-003	-3.189539e-003
1500943.011	4.380297e-003	-2.419253e-003	1.001408e+000	-2.510646e-002	1.001525e+000	-2.492227e-002	3.037697e-003	-3.573615e-003
1563482.095	4.365396e-003	-2.810168e-003	1.000858e+000	-2.635168e-002	1.000770e+000	-2.548701e-002	3.181241e-003	-3.398082e-003
1626021.179	4.178332e-003	-2.686226e-003	1.000776e+000	-2.765308e-002	1.001096e+000	-2.817154e-002	3.445553e-003	-3.440377e-003
1688560.263	3.888517e-003	-2.620849e-003	1.000563e+000	-2.930784e-002	1.001379e+000	-2.937661e-002	3.613884e-003	-3.464234e-003
1751099.346	4.003144e-003	-2.527906e-003	1.001043e+000	-3.040515e-002	1.000766e+000	-2.991097e-002	3.429236e-003	-2.621408e-003
1813638.430	3.647049e-003	-2.584230e-003	1.001286e+000	-3.194951e-002	1.001111e+000	-3.172475e-002	3.604264e-003	-3.020018e-003
1876177.514	3.687450e-003	-2.294335e-003	1.001639e+000	-3.281778e-002	1.001514e+000	-3.322174e-002	3.268758e-003	-2.348352e-003
1938716.598	3.142015e-003	-2.227958e-003	1.001778e+000	-3.372963e-002	1.001271e+000	-3.324836e-002	3.440617e-003	-1.970235e-003
2001255.682	3.040695e-003	-2.714124e-003	1.001774e+000	-3.505655e-002	1.001309e+000	-3.470707e-002	3.179023e-003	-2.440514e-003
2063794.765	3.131494e-003	-2.330992e-003	1.001302e+000	-3.601611e-002	1.000803e+000	-3.652023e-002	3.586586e-003	-2.519822e-003
2126333.849	2.659985e-003	-2.853038e-003	1.000815e+000	-3.732194e-002	1.000182e+000	-3.683955e-002	3.833073e-003	-2.293106e-003
2188872.933	3.164812e-003	-2.868507e-003	1.000591e+000	-3.851685e-002	1.000052e+000	-3.770848e-002	3.706284e-003	-2.333042e-003
2251412.017	3.270055e-003	-3.253359e-003	1.000366e+000	-4.007101e-002	1.000352e+000	-3.889478e-002	3.717164e-003	-2.453533e-003
2313951.101	3.585940e-003	-2.823750e-003	9.999255e-001	-4.097314e-002	1.000255e+000	-3.968578e-002	4.010238e-003	-2.524081e-003
2376490.184	3.331602e-003	-2.865928e-003	9.997318e-001	-4.144898e-002	1.000214e+000	-4.170737e-002	3.972920e-003	-2.535094e-003
2439029.268	3.776933e-003	-2.911946e-003	9.997189e-001	-4.320479e-002	9.996248e-001	-4.275897e-002	3.634914e-003	-2.433719e-003
2501568.352	3.740859e-003	-2.908007e-003	9.994163e-001	-4.334535e-002	1.000348e+000	-4.330441e-002	3.927764e-003	-2.482025e-003
2564107.436	3.646093e-003	-3.087822e-003	9.996591e-001	-4.511509e-002	1.000095e+000	-4.493759e-002	3.233821e-003	-2.863160e-003
2626646.520	4.146770e-003	-3.268501e-003	9.997620e-001	-4.623151e-002	9.988710e-001	-4.590848e-002	3.476496e-003	-2.935239e-003
2689185.604	4.089019e-003	-3.099404e-003	1.000087e+000	-4.686224e-002	9.997034e-001	-4.678047e-002	3.617127e-003	-2.901486e-003
2751724.687	4.190161e-003	-3.213238e-003	9.997893e-001	-4.766996e-002	9.996121e-001	-4.760271e-002	3.216758e-003	-2.946377e-003
2814263.771	4.150825e-003	-3.295747e-003	9.989388e-001	-4.952164e-002	9.992564e-001	-4.890418e-002	3.176756e-003	-3.084544e-003
2876802.855	4.083619e-003	-3.523332e-003	9.989676e-001	-5.087314e-002	9.994047e-001	-4.993215e-002	3.259409e-003	-2.974243e-003
2939341.939	4.215754e-003	-3.461025e-003	9.996126e-001	-5.148621e-002	9.992769e-001	-5.138987e-002	3.153615e-003	-3.087643e-003
3001881.023	4.138255e-003	-3.454848e-003	9.992943e-001	-5.258340e-002	9.991926e-001	-5.239134e-002	3.233801e-003	-3.247329e-003
3064420.106	4.172761e-003	-3.528358e-003	9.997818e-001	-5.348112e-002	9.990262e-001	-5.346520e-002	3.076380e-003	-3.384422e-003
3126959.190	4.374003e-003	-3.643658e-003	9.993797e-001	-5.481007e-002	9.992369e-001	-5.466857e-002	3.245502e-003	-3.455284e-003
3189498.274	4.352562e-003	-3.629575e-003	9.992642e-001	-5.577212e-002	9.991245e-001	-5.575959e-002	3.246330e-003	-3.546846e-003
3252037.358	4.261746e-003	-4.011869e-003	9.993961e-001	-5.693274e-002	9.992174e-001	-5.679837e-002	3.186034e-003	-3.526383e-003
3314576.442	4.263143e-003	-3.873883e-003	9.992262e-001	-5.792940e-002	9.990917e-001	-5.792125e-002	3.247008e-003	-3.650193e-003
3377115.525	4.244947e-003	-3.885115e-003	9.990767e-001	-5.896362e-002	9.988604e-001	-5.917718e-002	3.085818e-003	-3.815355e-003
3439654.609	4.246721e-003	-3.971769e-003	9.988849e-001	-6.012898e-002	9.991112e-001	-6.013705e-002	3.112306e-003	-3.650974e-003
3502193.693	4.202301e-003	-4.311776e-003	9.988748e-001	-6.137250e-002	9.987828e-001	-6.110351e-002	3.268293e-003	-3.716222e-003
3564732.777	4.233057e-003	-4.216238e-003	9.988808e-001	-6.234818e-002	9.987524e-001	-6.232411e-002	3.356767e-003	-3.728133e-003
3627271.861	4.085569e-003	-4.401428e-003	9.989071e-001	-6.352323e-002	9.987785e-001	-6.326759e-002	3.122892e-003	-3.987314e-003
3689810.944	3.999824e-003	-4.546963e-003	9.987365e-001	-6.458642e-002	9.987092e-001	-6.434471e-002	3.271371e-003	-4.010871e-003
3752350.028	4.098341e-003	-4.561619e-003	9.986606e-001	-6.547010e-002	9.984692e-001	-6.543325e-002	3.198008e-003	-4.110767e-003
3814889.112	4.209317e-003	-4.485871e-003	9.984790e-001	-6.665004e-002	9.986737e-001	-6.680872e-002	3.122825e-003	-4.284081e-003
3877428.196	4.146052e-003	-4.505158e-003	9.986250e-001	-6.780130e-002	9.985709e-001	-6.771661e-002	3.445115e-003	-4.308772e-003
3939967.280	4.102352e-003	-4.851060e-003	9.984891e-001	-6.897285e-002	9.985546e-001	-6.874472e-002	3.410442e-003	-4.280706e-003
4002506.363	4.175282e-003	-4.754949e-003	9.985067e-001	-7.000338e-002	9.984320e-001	-6.974380e-002	3.351622e-003	-4.396834e-003
4065045.447	3.983107e-003	-4.898680e-003	9.982378e-001	-7.113440e-002	9.982174e-001	-7.093461e-002	3.442923e-003	-4.555671e-003
4127584.531	3.944468e-003	-4.975270e-003	9.981651e-001	-7.222856e-002	9.982107e-001	-7.190874e-002	3.447912e-003	-4.508579e-003
4190123.615	3.992719e-003	-5.005916e-003	9.981202e-001	-7.346395e-002	9.980328e-001	-7.318723e-002	3.348857e-003	-4.795485e-003
4252662.699	3.940854e-003	-5.154346e-003	9.981651e-001	-7.458865e-002	9.978947e-001	-7.443315e-002	3.453091e-003	-4.824083e-003
4315201.782	4.077611e-003	-5.254605e-003	9.980557e-001	-7.542762e-002	9.981663e-001	-7.545655e-002	3.274606e-003	-5.077083e-003
4377740.866	3.967134e-003	-5.335953e-003	9.980858e-001	-7.670494e-002	9.978193e-001	-7.659058e-002	3.433084e-003	-4.845470e-003
4440279.950	3.856157e-003	-5.538730e-003	9.979611e-001	-7.763292e-002	9.976279e-001	-7.748991e-002	3.330204e-003	-5.072663e-003
4502819.034	3.849463e-003	-5.470941e-003	9.976560e-001	-7.881647e-002	9.977191e-001	-7.864668e-002	3.399783e-003	-4.994218e-003
4565358.118	3.765712e-003	-5.587772e-003	9.975805e-001	-7.986043e-002	9.974655e-001	-7.955121e-002	3.401964e-003	-5.161528e-003
4627897.201	3.937396e-003	-5.521477e-003	9.976913e-001	-8.095703e-002	9.974300e-001	-8.065084e-002	3.499958e-003	-5.123587e-003
4690436.285	3.755761e-003	-5.718620e-003	9.976085e-001	-8.215324e-002	9.974326e-001	-8.212172e-002	3.487690e-003	-5.384115e-003
4752975.369	3.758137e-003	-5.801873e-003	9.972891e-001	-8.332766e-002	9.974065e-001	-8.310531e-002	3.296368e-003	-5.523497e-003
4815514.453	3.861039e-003	-5.865167e-003	9.974261e-001	-8.430871e-002	9.972986e-001	-8.431628e-002	3.527858e-003	-5.492329e-003
4878053.537	3.970271e-003	-6.024464e-003	9.973460e-001	-8.543953e-002	9.972217e-001	-8.518477e-002	3.469293e-003	-5.652765e-003
4940592.620	3.693142e-003	-6.053650e-003	9.971434e-001	-8.649390e-002	9.971325e-001	-8.638127e-002	3.240636e-003	-5.759985e-003
5003131.704	3.756911e-003	-6.264688e-003	9.970393e-001	-8.756230e-002	9.971256e-001	-8.727149e-002	3.364929e-003	-5.880882e-003
5065670.788	3.666149e-003	-6.138251e-003	9.969389e-001	-8.871037e-002	9.969321e-001	-8.844110e-002	3.319210e-003	-5.909396e-003
5128209.872	3.781876e-003	-6.346033e-003	9.970197e-001	-8.977205e-002	9.968446e-001	-8.956244e-002	3.284928e-003	-6.185821e-003
5190748.956	3.698048e-003	-6.426434e-003	9.968290e-001	-9.092283e-002	9.968163e-001	-9.077784e-002	3.249643e-003	-6.132606e-003
5253288.039	3.743128e-003	-6.556549e-003	9.968033e-001	-9.199168e-002	9.967263e-001	-9.182088e-002	3.167761e-003	-6.138600e-003
5315827.123	3.685413e-003	-6.692548e-003	9.964990e-001	-9.308199e-002	9.965818e-001	-9.296688e-002	3.154726e-003	-6.320506e-003
5378366.207	3.765159e-003	-6.724864e-003	9.965993e-001	-9.418550e-002	9.965196e-001	-9.418460e-002	3.139527e-003	-6.483573e-003
5440905.291	3.583775e-003	-6.714818e-003	9.965530e-001	-9.529286e-002	9.964406e-001	-9.517996e-002	3.005845e-003	-6.515509e-003
5503444.375	3.787266e-003	-6.955774e-003	9.963513e-001	-9.649773e-002	9.964025e-001	-9.612949e-002	3.196900e-003	-6.674655e-003
5565983.458	3.416295e-003	-6.905835e-003	9.963390e-001	-9.744399e-002	9.963015e-001	-9.715132e-002	3.122582e-003	-6.596994e-003
5628522.542	3.676419e-003	-7.060536e-003	9.962537e-001	-9.844310e-002	9.961824e-001	-9.844544e-002	3.158877e-003	-6.797801e-003
5691061.626	3.725416e-003	-7.327786e-003	9.960824e-001	-9.978427e-002	9.960142e-001	-9.955631e-002	3.041068e-003	-6.823204e-003
5753600.710	3.563990e-003	-7.331539e-003	9.959042e-001	-1.007382e-001	9.959576e-001	-1.005613e-001	3.100764e-003	-7.035007e-003
5816139.794	3.636615e-003	-7.214885e-003	9.959037e-001	-1.019093e-001	9.956574e-001	-1.018522e-001	2.936505e-003	-7.081387e-003
5878678.877	3.552070e-003	-7.528377e-003	9.957675e-001	-1.030095e-001	9.956723e-001	-1.028231e-001	3.034084e-003	-7.300480e-003
5941217.961	3.532350e-003	-7.687858e-003	9.955467e-001	-1.041850e-001	9.955830e-001	-1.037971e-001	2.828787e-003	-7.282655e-003
6003757.045	3.356049e-003	-7.548337e-003	9.953667e-001	-1.051007e-001	9.954559e-001	-1.048767e-001	2.958541e-003	-7.387896e-003
6066296.129	3.476366e-003	-7.826378e-003	9.955136e-001	-1.061991e-001	9.953252e-001	-1.059338e-001	2.918123e-003	-7.497121e-003
6128835.213	3.560587e-003	-7.885505e-003	9.953550e-001	-1.069784e-001	9.953731e-001	-1.071570e-001	3.004861e-003	-7.587770e-003
6191374.296	3.497916e-003	-7.976747e-003	9.951176e-001	-1.083805e-001	9.951071e-001	-1.083963e-001	2.828470e-003	-7.583241e-003
6253913.380	3.386881e-003	-7.954771e-003	9.950719e-001	-1.095264e-001	9.949780e-001	-1.092983e-001	2.700688e-003	-7.563366e-003
6316452.464	3.349544e-003	-7.951535e-003	9.949785e-001	-1.104602e-001	9.947865e-001	-1.105881e-001	2.729300e-003	-7.876907e-003
6378991.548	3.301669e-003	-8.191152e-003	9.948610e-001	-1.119314e-001	9.948535e-001	-1.115814e-001	2.791373e-003	-8.076859e-003
6441530.632	3.234663e-003	-8.366363e-003	9.946348e-001	-1.126945e-001	9.946826e-001	-1.127909e-001	2.812831e-003	-8.048821e-003
6504069.715	3.213471e-003	-8.468174e-003	9.945236e-001	-1.140753e-001	9.946792e-001	-1.137372e-001	2.810386e-003	-8.139542e-003
6566608.799	3.358673e-003	-8.614974e-003	9.945346e-001	-1.152397e-001	9.944180e-001	-1.148995e-001	2.704130e-003	-8.034164e-003
6629147.883	3.285471e-003	-8.576276e-003	9.943132e-001	-1.159667e-001	9.942707e-001	-1.160545e-001	2.769868e-003	-8.282598e-003
6691686.967	3.154999e-003	-8.639867e-003	9.940871e-001	-1.171757e-001	9.941111e-001	-1.171023e-001	2.789599e-003	-8.270920e-003
6754226.051	3.082838e-003	-8.750506e-003	9.939829e-001	-1.183834e-001	9.938945e-001	-1.183089e-001	2.573106e-003	-8.576182e-003
6816765.134	3.163766e-003	-8.834364e-003	9.939619e-001	-1.193885e-001	9.939170e-001	-1.192492e-001	2.618811e-003	-8.455334e-003
6879304.218	3.043452e-003	-9.100261e-003	9.937402e-001	-1.205127e-001	9.937602e-001	-1.203393e-001	2.589805e-003	-8.605205e-003
6941843.302	3.094353e-003	-9.011409e-003	9.935862e-001	-1.216611e-001	9.936507e-001	-1.213869e-001	2.566953e-003	-8.619727e-003
7004382.386	2.888252e-003	-9.031265e-003	9.935483e-001	-1.225977e-001	9.934455e-001	-1.225463e-001	2.460930e-003	-8.663816e-003
7066921.470	2.971625e-003	-9.165700e-003	9.933157e-001	-1.238738e-001	9.933627e-001	-1.234422e-001	2.613229e-003	-8.904383e-003
7129460.553	2.848829e-003	-9.376412e-003	9.932486e-001	-1.247692e-001	9.932009e-001	-1.246806e-001	2.592917e-003	-8.935179e-003
7191999.637	2.822216e-003	-9.219870e-003	9.929302e-001	-1.259959e-001	9.929399e-001	-1.257653e-001	2.443657e-003	-9.019679e-003
7254538.721	2.854826e-003	-9.412857e-003	9.930537e-001	-1.271104e-001	9.929870e-001	-1.268900e-001	2.461046e-003	-9.095165e-003
7317077.805	3.002155e-003	-9.535822e-003	9.928468e-001	-1.280612e-001	9.928403e-001	-1.279195e-001	2.428430e-003	-9.288928e-003
7379616.889	2.854405e-003	-9.613092e-003	9.928989e-001	-1.293467e-001	9.926618e-001	-1.290559e-001	2.356069e-003	-9.344592e-003
7442155.972	2.681246e-003	-9.688565e-003	9.925510e-001	-1.302692e-001	9.925297e-001	-1.300789e-001	2.423652e-003	-9.214853e-003
7504695.056	2.716553e-003	-9.872867e-003	9.923186e-001	-1.312809e-001	9.922771e-001	-1.313216e-001	2.436973e-003	-9.230277e-003
7567234.140	2.865634e-003	-1.003058e-002	9.922995e-001	-1.323556e-001	9.921299e-001	-1.323567e-001	2.340162e-003	-9.420295e-003
7629773.224	2.751068e-003	-9.815879e-003	9.921832e-001	-1.336274e-001	9.921264e-001	-1.333894e-001	2.260679e-003	-9.552572e-003
7692312.308	2.584576e-003	-9.964403e-003	9.920034e-001	-1.346814e-001	9.918917e-001	-1.345681e-001	2.303201e-003	-9.723789e-003
7754851.391	2.551865e-003	-1.020081e-002	9.918418e-001	-1.357857e-001	9.916278e-001	-1.354748e-001	2.212043e-003	-9.678846e-003
7817390.475	2.613385e-003	-1.007591e-002	9.917378e-001	-1.370564e-001	9.915474e-001	-1.368105e-001	2.117721e-003	-9.655094e-003
7879929.559	2.505748e-003	-1.034636e-002	9.914702e-001	-1.381237e-001	9.913705e-001	-1.380505e-001	2.214310e-003	-9.736784e-003
7942468.643	2.425579e-003	-1.048538e-002	9.914152e-001	-1.391144e-001	9.913255e-001	-1.390876e-001	2.167932e-003	-9.995582e-003
8005007.727	2.502460e-003	-1.052930e-002	9.911591e-001	-1.402803e-001	9.912235e-001	-1.401415e-001	2.058823e-003	-9.844090e-003
8067546.811	2.331846e-003	-1.056327e-002	9.910646e-001	-1.413161e-001	9.908760e-001	-1.411251e-001	1.941053e-003	-1.015203e-002
8130085.894	2.381170e-003	-1.072551e-002	9.908647e-001	-1.423083e-001	9.908107e-001	-1.422773e-001	2.156644e-003	-1.027020e-002
8192624.978	2.190495e-003	-1.085501e-002	9.905817e-001	-1.435806e-001	9.906490e-001	-1.433039e-001	2.177769e-003	-1.036802e-002
8255164.062	2.294350e-003	-1.092610e-002	9.905404e-001	-1.445774e-001	9.904351e-001	-1.444238e-001	2.103769e-003	-1.050173e-002
8317703.146	2.142140e-003	-1.090255e-002	9.904329e-001	-1.457140e-001	9.903947e-001	-1.455301e-001	1.894202e-003	-1.052780e-002
8380242.230	2.235673e-003	-1.120409e-002	9.900891e-001	-1.469254e-001	9.901078e-001	-1.465645e-001	1.837732e-003	-1.066101e-002
8442781.313	2.185100e-003	-1.125914e-002	9.901825e-001	-1.478801e-001	9.900025e-001	-1.476175e-001	1.795412e-003	-1.082784e-002
8505320.397	2.146297e-003	-1.120921e-002	9.899717e-001	-1.490180e-001	9.897959e-001	-1.487015e-001	1.714227e-003	-1.085878e-002
8567859.481	2.055196e-003	-1.113384e-002	9.897218e-001	-1.499185e-001	9.897201e-001	-1.498262e-001	1.721080e-003	-1.077681e-002
8630398.565	2.117948e-003	-1.125550e-002	9.894099e-001	-1.509704e-001	9.895584e-001	-1.508441e-001	1.568215e-003	-1.110428e-002
8692937.649	2.025941e-003	-1.154788e-002	9.893317e-001	-1.520788e-001	9.892260e-001	-1.520336e-001	1.485058e-003	-1.109365e-002
8755476.732	2.022059e-003	-1.157134e-002	9.892007e-001	-1.532952e-001	9.890737e-001	-1.529507e-001	1.514053e-003	-1.115841e-002
8818015.816	1.870200e-003	-1.167649e-002	9.889650e-001	-1.543188e-001	9.887371e-001	-1.541066e-001	1.603780e-003	-1.132759e-002
8880554.900	2.052346e-003	-1.173586e-002	9.889309e-001	-1.554898e-001	9.888956e-001	-1.550648e-001	1.430997e-003	-1.157566e-002
8943093.984	1.845590e-003	-1.172299e-002	9.887026e-001	-1.564418e-001	9.886949e-001	-1.562140e-001	1.414377e-003	-1.160414e-002
9005633.068	1.868724e-003	-1.189363e-002	9.884291e-001	-1.576065e-001	9.885788e-001	-1.574073e-001	1.295787e-003	-1.181021e-002
9068172.151	1.688940e-003	-1.196934e-002	9.883933e-001	-1.587155e-001	9.882181e-001	-1.583263e-001	1.303355e-003	-1.184416e-002
9130711.235	1.861864e-003	-1.212598e-002	9.881166e-001	-1.597786e-001	9.881122e-001	-1.594387e-001	1.318628e-003	-1.210946e-002
9193250.319	1.829319e-003	-1.223306e-002	9.880724e-001	-1.606911e-001	9.879086e-001	-1.606076e-001	1.208830e-003	-1.213171e-002
9255789.403	1.696973e-003	-1.245837e-002	9.879297e-001	-1.617095e-001	9.877432e-001	-1.616230e-001	1.027950e-003	-1.214748e-002
9318328.487	1.603964e-003	-1.245509e-002	9.876298e-001	-1.630332e-001	9.877070e-001	-1.626742e-001	1.117498e-003	-1.223149e-002
9380867.570	1.577693e-003	-1.241924e-002	9.875248e-001	-1.641293e-001	9.873670e-001	-1.639004e-001	1.081492e-003	-1.234108e-002
9443406.654	1.602039e-003	-1.250275e-002	9.874281e-001	-1.651303e-001	9.873345e-001	-1.650163e-001	1.075088e-003	-1.250067e-002
9505945.738	1.538258e-003	-1.256577e-002	9.870172e-001	-1.663800e-001	9.871848e-001	-1.660815e-001	9.886485e-004	-1.258876e-002
9568484.822	1.549194e-003	-1.267652e-002	9.869711e-001	-1.674288e-001	9.867119e-001	-1.671351e-001	7.492702e-004	-1.243700e-002
