!Agilent Technologies,E5061B,MY49102235,A.02.00
!Date: Tue Jul 11 16:39:42 2023
!Data & Calibration Information:
!Freq	S11:SOLT2(ON)	S21:SOLT2(ON)	S12:SOLT2(ON)	S22:SOLT2(ON)
# Hz S RI R 50
5.000	-5.121343e-003	-5.620703e-003	1.001630e+000	8.044879e-003	1.000258e+000	1.022781e-002	-1.421227e-003	-7.538895e-003
62544.084	5.811295e-003	-4.833201e-004	1.001405e+000	5.310817e-004	1.000874e+000	1.276380e-003	7.710819e-003	-2.868809e-003
125083.168	5.670729e-003	-4.688344e-004	1.000980e+000	-9.616022e-004	1.000794e+000	-7.683485e-004	7.491960e-003	-2.263331e-003
187622.251	5.444551e-003	-2.988209e-004	1.000541e+000	-2.252613e-003	1.001041e+000	-8.431833e-004	7.378156e-003	-2.352125e-003
250161.335	5.260300e-003	-1.471451e-004	1.000658e+000	-3.258470e-003	1.000594e+000	-3.148937e-003	7.267981e-003	-1.982597e-003
312700.419	5.431712e-003	5.943495e-004	1.000753e+000	-3.888891e-003	1.000637e+000	-3.653833e-003	7.782752e-003	-2.282093e-003
375239.503	5.286819e-003	-9.033168e-004	1.001187e+000	-5.323225e-003	1.000572e+000	-4.966576e-003	7.256669e-003	-2.448682e-003
437778.587	5.159324e-003	-5.047406e-004	1.001223e+000	-5.462117e-003	1.001038e+000	-6.135279e-003	6.616228e-003	-2.152586e-003
500317.670	4.582112e-003	-3.650774e-004	1.001294e+000	-7.898833e-003	1.001715e+000	-7.663150e-003	4.802251e-003	-1.961539e-003
562856.754	5.895985e-003	-6.691373e-004	1.001364e+000	-9.399186e-003	1.001222e+000	-9.165691e-003	6.000247e-003	-1.474529e-003
625395.838	5.075306e-003	-5.225992e-004	1.002228e+000	-1.059310e-002	1.002041e+000	-1.008623e-002	6.121740e-003	-8.959412e-004
687934.922	5.137515e-003	-8.356562e-004	1.001311e+000	-1.157271e-002	1.001257e+000	-1.164137e-002	5.757292e-003	-1.347766e-003
750474.006	4.349076e-003	-5.037864e-004	1.000892e+000	-1.095704e-002	1.000820e+000	-1.066822e-002	5.526470e-003	-1.163532e-003
813013.089	4.527778e-003	-4.589530e-004	1.001292e+000	-1.288217e-002	1.000774e+000	-1.252781e-002	4.888203e-003	-9.801501e-004
875552.173	4.263736e-003	-3.000558e-004	1.001198e+000	-1.364864e-002	1.000984e+000	-1.376396e-002	5.678414e-003	-1.387515e-003
938091.257	4.342795e-003	-2.313240e-004	1.001340e+000	-1.524057e-002	1.001095e+000	-1.482724e-002	5.910786e-003	-8.081026e-004
1000630.341	3.784074e-003	-5.711292e-004	1.000833e+000	-1.650101e-002	1.001108e+000	-1.621558e-002	5.155691e-003	-1.503195e-003
1063169.425	4.146951e-003	-7.305369e-004	1.001247e+000	-1.788783e-002	1.000694e+000	-1.711056e-002	4.339701e-003	-1.826065e-003
1125708.508	4.031527e-003	-6.884686e-004	1.000866e+000	-1.915160e-002	1.000791e+000	-1.848067e-002	3.854491e-003	-1.525296e-003
1188247.592	4.557539e-003	-1.129380e-003	1.001189e+000	-2.025241e-002	1.001131e+000	-1.947509e-002	2.740340e-003	-2.088982e-003
1250786.676	4.406509e-003	-1.860494e-003	1.000648e+000	-2.020452e-002	1.000891e+000	-2.028300e-002	2.021020e-003	-3.746502e-003
1313325.760	4.534543e-003	-1.963243e-003	1.001159e+000	-2.176747e-002	1.001102e+000	-2.181784e-002	2.742632e-003	-3.532809e-003
1375864.844	4.247241e-003	-2.132971e-003	1.000730e+000	-2.355209e-002	1.000628e+000	-2.355601e-002	2.597217e-003	-3.255042e-003
1438403.927	4.150311e-003	-2.304951e-003	1.000719e+000	-2.423823e-002	1.000863e+000	-2.358330e-002	2.668970e-003	-2.995814e-003
1500943.011	4.366025e-003	-2.233027e-003	1.001414e+000	-2.509276e-002	1.001361e+000	-2.511845e-002	3.044209e-003	-3.393116e-003
1563482.095	4.365794e-003	-2.603097e-003	1.000933e+000	-2.671369e-002	1.000746e+000	-2.576203e-002	3.186867e-003	-3.180790e-003
1626021.179	4.176636e-003	-2.466388e-003	1.000784e+000	-2.782559e-002	1.001025e+000	-2.828782e-002	3.441326e-003	-3.230376e-003
1688560.263	3.870099e-003	-2.404188e-003	1.000474e+000	-2.950779e-002	1.001410e+000	-2.950840e-002	3.613758e-003	-3.239795e-003
1751099.346	4.022565e-003	-2.307147e-003	1.001019e+000	-3.069744e-002	1.000657e+000	-3.001812e-002	3.412675e-003	-2.400210e-003
1813638.430	3.653204e-003	-2.347829e-003	1.001465e+000	-3.226075e-002	1.000896e+000	-3.195959e-002	3.602484e-003	-2.772455e-003
1876177.514	3.685053e-003	-2.038024e-003	1.001592e+000	-3.302752e-002	1.001401e+000	-3.357619e-002	3.285047e-003	-2.106644e-003
1938716.598	3.141138e-003	-1.970667e-003	1.001809e+000	-3.395623e-002	1.001393e+000	-3.347161e-002	3.447830e-003	-1.708172e-003
2001255.682	3.056043e-003	-2.433285e-003	1.001821e+000	-3.529820e-002	1.001508e+000	-3.516252e-002	3.209599e-003	-2.169625e-003
2063794.765	3.138448e-003	-2.057485e-003	1.001356e+000	-3.640797e-002	1.000749e+000	-3.664131e-002	3.589075e-003	-2.251284e-003
2126333.849	2.690680e-003	-2.576252e-003	1.000848e+000	-3.768665e-002	1.000262e+000	-3.713587e-002	3.847903e-003	-2.000723e-003
2188872.933	3.157918e-003	-2.565737e-003	1.000541e+000	-3.871560e-002	1.000191e+000	-3.807449e-002	3.726724e-003	-2.033255e-003
2251412.017	3.261164e-003	-2.945290e-003	1.000413e+000	-4.036747e-002	1.000265e+000	-3.904835e-002	3.705410e-003	-2.147339e-003
2313951.101	3.585835e-003	-2.509927e-003	9.998074e-001	-4.132406e-002	1.000291e+000	-4.003303e-002	4.026104e-003	-2.226501e-003
2376490.184	3.339048e-003	-2.549618e-003	9.997620e-001	-4.173785e-002	1.000186e+000	-4.195890e-002	3.995926e-003	-2.220077e-003
2439029.268	3.788779e-003	-2.580874e-003	9.997539e-001	-4.360467e-002	9.995415e-001	-4.300721e-002	3.648179e-003	-2.106300e-003
2501568.352	3.755343e-003	-2.579021e-003	9.994692e-001	-4.366020e-002	1.000238e+000	-4.362375e-002	3.932835e-003	-2.158044e-003
2564107.436	3.651966e-003	-2.738393e-003	9.997406e-001	-4.553744e-002	1.000044e+000	-4.523015e-002	3.244202e-003	-2.532200e-003
2626646.520	4.159827e-003	-2.923558e-003	9.996296e-001	-4.656199e-002	9.989166e-001	-4.624279e-002	3.502789e-003	-2.595841e-003
2689185.604	4.108688e-003	-2.762052e-003	9.999801e-001	-4.733399e-002	9.994755e-001	-4.706697e-002	3.622088e-003	-2.540184e-003
2751724.687	4.208579e-003	-2.852543e-003	9.998576e-001	-4.805777e-002	9.996080e-001	-4.783436e-002	3.228414e-003	-2.573396e-003
2814263.771	4.154366e-003	-2.915600e-003	9.989697e-001	-4.994081e-002	9.993420e-001	-4.917081e-002	3.198905e-003	-2.708664e-003
2876802.855	4.127133e-003	-3.133509e-003	9.990026e-001	-5.140054e-002	9.992587e-001	-5.046760e-002	3.281663e-003	-2.593638e-003
2939341.939	4.239927e-003	-3.060324e-003	9.996186e-001	-5.185254e-002	9.992108e-001	-5.186676e-002	3.174372e-003	-2.690282e-003
3001881.023	4.147060e-003	-3.065305e-003	9.992949e-001	-5.291067e-002	9.990650e-001	-5.275466e-002	3.253581e-003	-2.828829e-003
3064420.106	4.194272e-003	-3.116048e-003	9.998280e-001	-5.407502e-002	9.991770e-001	-5.387095e-002	3.100008e-003	-2.980529e-003
3126959.190	4.403598e-003	-3.215902e-003	9.994043e-001	-5.526464e-002	9.991954e-001	-5.503638e-002	3.263757e-003	-3.044777e-003
3189498.274	4.376636e-003	-3.211526e-003	9.993144e-001	-5.622993e-002	9.991301e-001	-5.614351e-002	3.270933e-003	-3.128428e-003
3252037.358	4.283985e-003	-3.581575e-003	9.993643e-001	-5.740271e-002	9.991745e-001	-5.717806e-002	3.213215e-003	-3.093251e-003
3314576.442	4.293440e-003	-3.437654e-003	9.992793e-001	-5.845110e-002	9.990489e-001	-5.831269e-002	3.265831e-003	-3.215270e-003
3377115.525	4.264475e-003	-3.445166e-003	9.990977e-001	-5.945629e-002	9.987712e-001	-5.957569e-002	3.118599e-003	-3.360011e-003
3439654.609	4.277790e-003	-3.519484e-003	9.988564e-001	-6.057760e-002	9.990777e-001	-6.055205e-002	3.115531e-003	-3.196108e-003
3502193.693	4.222573e-003	-3.859532e-003	9.988555e-001	-6.179338e-002	9.987355e-001	-6.158618e-002	3.275327e-003	-3.266850e-003
3564732.777	4.273607e-003	-3.752583e-003	9.989323e-001	-6.284709e-002	9.986850e-001	-6.278482e-002	3.383569e-003	-3.262297e-003
3627271.861	4.116225e-003	-3.911410e-003	9.988883e-001	-6.405730e-002	9.987707e-001	-6.369578e-002	3.151462e-003	-3.503369e-003
3689810.944	4.016566e-003	-4.059750e-003	9.986985e-001	-6.516374e-002	9.986751e-001	-6.483397e-002	3.299377e-003	-3.527932e-003
3752350.028	4.118857e-003	-4.049756e-003	9.986682e-001	-6.600929e-002	9.984515e-001	-6.587590e-002	3.233795e-003	-3.603021e-003
3814889.112	4.229945e-003	-3.973244e-003	9.984798e-001	-6.717380e-002	9.986488e-001	-6.727037e-002	3.156307e-003	-3.787004e-003
3877428.196	4.176702e-003	-4.000082e-003	9.986331e-001	-6.835033e-002	9.984721e-001	-6.813858e-002	3.464737e-003	-3.801673e-003
3939967.280	4.141534e-003	-4.326850e-003	9.985060e-001	-6.950365e-002	9.985011e-001	-6.927437e-002	3.445119e-003	-3.756636e-003
4002506.363	4.201269e-003	-4.217271e-003	9.984642e-001	-7.054635e-002	9.983536e-001	-7.021192e-002	3.384060e-003	-3.869965e-003
4065045.447	4.012303e-003	-4.357193e-003	9.982059e-001	-7.168496e-002	9.981713e-001	-7.141474e-002	3.467997e-003	-4.019003e-003
4127584.531	3.993016e-003	-4.429586e-003	9.981166e-001	-7.278447e-002	9.981438e-001	-7.246387e-002	3.487340e-003	-3.949699e-003
4190123.615	4.037987e-003	-4.461089e-003	9.981601e-001	-7.406341e-002	9.979845e-001	-7.371468e-002	3.390288e-003	-4.241654e-003
4252662.699	3.981439e-003	-4.589063e-003	9.982024e-001	-7.518499e-002	9.978397e-001	-7.495940e-002	3.494293e-003	-4.267780e-003
4315201.782	4.112192e-003	-4.685854e-003	9.980755e-001	-7.603809e-002	9.980354e-001	-7.604578e-002	3.304550e-003	-4.506645e-003
4377740.866	4.010624e-003	-4.756241e-003	9.980783e-001	-7.730822e-002	9.977040e-001	-7.715791e-002	3.487208e-003	-4.268802e-003
4440279.950	3.913195e-003	-4.952806e-003	9.979515e-001	-7.825393e-002	9.975486e-001	-7.809630e-002	3.366730e-003	-4.487836e-003
4502819.034	3.897666e-003	-4.870339e-003	9.976240e-001	-7.945496e-002	9.976371e-001	-7.920403e-002	3.451986e-003	-4.396136e-003
4565358.118	3.810238e-003	-4.988848e-003	9.975960e-001	-8.050548e-002	9.973592e-001	-8.011036e-002	3.438764e-003	-4.562277e-003
4627897.201	3.979886e-003	-4.924298e-003	9.976732e-001	-8.165756e-002	9.974008e-001	-8.123613e-002	3.538737e-003	-4.509422e-003
4690436.285	3.800480e-003	-5.100395e-003	9.976277e-001	-8.282131e-002	9.974002e-001	-8.276195e-002	3.540457e-003	-4.773467e-003
4752975.369	3.794294e-003	-5.150654e-003	9.972776e-001	-8.398611e-002	9.973472e-001	-8.369338e-002	3.357384e-003	-4.895336e-003
4815514.453	3.917892e-003	-5.227755e-003	9.973980e-001	-8.499593e-002	9.972008e-001	-8.490644e-002	3.561420e-003	-4.855739e-003
4878053.537	4.004158e-003	-5.382563e-003	9.973217e-001	-8.605058e-002	9.971056e-001	-8.582922e-002	3.526421e-003	-4.999525e-003
4940592.620	3.733752e-003	-5.409193e-003	9.971380e-001	-8.716810e-002	9.970586e-001	-8.699920e-002	3.285108e-003	-5.106640e-003
5003131.704	3.802985e-003	-5.590885e-003	9.969905e-001	-8.824184e-002	9.970356e-001	-8.793122e-002	3.411926e-003	-5.221650e-003
5065670.788	3.722090e-003	-5.469263e-003	9.969224e-001	-8.944977e-002	9.968627e-001	-8.906710e-002	3.379709e-003	-5.233101e-003
5128209.872	3.837553e-003	-5.675933e-003	9.970095e-001	-9.048313e-002	9.966713e-001	-9.020002e-002	3.353472e-003	-5.517064e-003
5190748.956	3.751381e-003	-5.757484e-003	9.968116e-001	-9.160934e-002	9.967500e-001	-9.143176e-002	3.305843e-003	-5.455730e-003
5253288.039	3.789038e-003	-5.873067e-003	9.967676e-001	-9.272284e-002	9.966333e-001	-9.248667e-002	3.225746e-003	-5.451097e-003
5315827.123	3.748036e-003	-5.999023e-003	9.965064e-001	-9.382239e-002	9.965237e-001	-9.359008e-002	3.224238e-003	-5.612707e-003
5378366.207	3.826318e-003	-6.012037e-003	9.965804e-001	-9.495435e-002	9.964365e-001	-9.487771e-002	3.191737e-003	-5.783425e-003
5440905.291	3.640188e-003	-6.002982e-003	9.965315e-001	-9.604694e-002	9.963352e-001	-9.588075e-002	3.077041e-003	-5.799286e-003
5503444.375	3.848611e-003	-6.234083e-003	9.963544e-001	-9.718803e-002	9.963114e-001	-9.681574e-002	3.265045e-003	-5.947983e-003
5565983.458	3.483916e-003	-6.170141e-003	9.963090e-001	-9.822422e-002	9.962137e-001	-9.790658e-002	3.172449e-003	-5.858340e-003
5628522.542	3.728436e-003	-6.332125e-003	9.962280e-001	-9.923365e-002	9.960705e-001	-9.917539e-002	3.230027e-003	-6.057573e-003
5691061.626	3.790788e-003	-6.571598e-003	9.960417e-001	-1.005313e-001	9.959288e-001	-1.002659e-001	3.111515e-003	-6.080610e-003
5753600.710	3.625308e-003	-6.566560e-003	9.958569e-001	-1.015433e-001	9.958323e-001	-1.013039e-001	3.164846e-003	-6.295294e-003
5816139.794	3.733372e-003	-6.442279e-003	9.958711e-001	-1.026680e-001	9.955856e-001	-1.026200e-001	3.005934e-003	-6.316626e-003
5878678.877	3.611088e-003	-6.753902e-003	9.957084e-001	-1.037960e-001	9.956015e-001	-1.035867e-001	3.119194e-003	-6.527656e-003
5941217.961	3.604475e-003	-6.905122e-003	9.955472e-001	-1.050137e-001	9.954649e-001	-1.045646e-001	2.909824e-003	-6.513785e-003
6003757.045	3.421774e-003	-6.757050e-003	9.953043e-001	-1.059010e-001	9.953584e-001	-1.056663e-001	3.030687e-003	-6.605127e-003
6066296.129	3.567445e-003	-7.018408e-003	9.954425e-001	-1.070368e-001	9.952430e-001	-1.066877e-001	3.001142e-003	-6.700700e-003
6128835.213	3.639569e-003	-7.078832e-003	9.952886e-001	-1.078978e-001	9.952965e-001	-1.079229e-001	3.087907e-003	-6.787884e-003
6191374.296	3.567239e-003	-7.172772e-003	9.951005e-001	-1.092127e-001	9.949850e-001	-1.091716e-001	2.912573e-003	-6.769991e-003
6253913.380	3.473967e-003	-7.122076e-003	9.950313e-001	-1.103595e-001	9.948484e-001	-1.100986e-001	2.781750e-003	-6.744528e-003
6316452.464	3.430094e-003	-7.125959e-003	9.949520e-001	-1.113809e-001	9.946363e-001	-1.114293e-001	2.813042e-003	-7.038087e-003
6378991.548	3.378684e-003	-7.363036e-003	9.948141e-001	-1.128023e-001	9.947469e-001	-1.123481e-001	2.874495e-003	-7.247503e-003
6441530.632	3.326018e-003	-7.514874e-003	9.945860e-001	-1.135607e-001	9.945321e-001	-1.135989e-001	2.912311e-003	-7.214059e-003
6504069.715	3.302124e-003	-7.620979e-003	9.944726e-001	-1.149759e-001	9.945961e-001	-1.146418e-001	2.905223e-003	-7.289146e-003
6566608.799	3.434390e-003	-7.744265e-003	9.944856e-001	-1.160946e-001	9.943205e-001	-1.157493e-001	2.794633e-003	-7.189349e-003
6629147.883	3.377743e-003	-7.703162e-003	9.942723e-001	-1.168468e-001	9.941445e-001	-1.168511e-001	2.869134e-003	-7.402258e-003
6691686.967	3.246602e-003	-7.767261e-003	9.940477e-001	-1.180966e-001	9.940020e-001	-1.179599e-001	2.886597e-003	-7.395712e-003
6754226.051	3.171046e-003	-7.858480e-003	9.939509e-001	-1.192772e-001	9.937419e-001	-1.192005e-001	2.681093e-003	-7.692266e-003
6816765.134	3.258747e-003	-7.938155e-003	9.938732e-001	-1.202678e-001	9.937676e-001	-1.201568e-001	2.718499e-003	-7.571480e-003
6879304.218	3.139135e-003	-8.183724e-003	9.936885e-001	-1.214138e-001	9.936722e-001	-1.212188e-001	2.700057e-003	-7.714686e-003
6941843.302	3.208579e-003	-8.101016e-003	9.935046e-001	-1.225865e-001	9.935454e-001	-1.223230e-001	2.673667e-003	-7.713633e-003
7004382.386	2.984276e-003	-8.109843e-003	9.934741e-001	-1.235915e-001	9.932871e-001	-1.234170e-001	2.567889e-003	-7.751875e-003
7066921.470	3.075544e-003	-8.248302e-003	9.932497e-001	-1.248400e-001	9.932461e-001	-1.243649e-001	2.725330e-003	-7.985207e-003
7129460.553	2.944086e-003	-8.437105e-003	9.931415e-001	-1.257387e-001	9.930814e-001	-1.255860e-001	2.707582e-003	-8.003156e-003
7191999.637	2.928810e-003	-8.274696e-003	9.928132e-001	-1.269618e-001	9.927816e-001	-1.266879e-001	2.552463e-003	-8.071224e-003
7254538.721	2.959850e-003	-8.469499e-003	9.930034e-001	-1.280850e-001	9.928388e-001	-1.278659e-001	2.574541e-003	-8.135468e-003
7317077.805	3.123817e-003	-8.572279e-003	9.927800e-001	-1.290387e-001	9.926931e-001	-1.288591e-001	2.551821e-003	-8.323233e-003
7379616.889	2.970682e-003	-8.633774e-003	9.927536e-001	-1.303695e-001	9.925081e-001	-1.299788e-001	2.469622e-003	-8.379140e-003
7442155.972	2.784589e-003	-8.721410e-003	9.924446e-001	-1.312968e-001	9.924006e-001	-1.310174e-001	2.546459e-003	-8.239153e-003
7504695.056	2.825569e-003	-8.892528e-003	9.922013e-001	-1.322803e-001	9.921350e-001	-1.323116e-001	2.556486e-003	-8.246806e-003
7567234.140	2.991854e-003	-9.030430e-003	9.922284e-001	-1.333858e-001	9.919712e-001	-1.333393e-001	2.471223e-003	-8.432485e-003
7629773.224	2.861331e-003	-8.810344e-003	9.921418e-001	-1.346599e-001	9.919814e-001	-1.343980e-001	2.369685e-003	-8.557776e-003
7692312.308	2.708577e-003	-8.955096e-003	9.919072e-001	-1.357321e-001	9.917129e-001	-1.355671e-001	2.418366e-003	-8.724635e-003
7754851.391	2.684036e-003	-9.192105e-003	9.917702e-001	-1.368812e-001	9.914529e-001	-1.364527e-001	2.349501e-003	-8.661630e-003
7817390.475	2.745209e-003	-9.057943e-003	9.916324e-001	-1.380865e-001	9.913755e-001	-1.377949e-001	2.246559e-003	-8.627234e-003
7879929.559	2.635382e-003	-9.312831e-003	9.913763e-001	-1.391712e-001	9.911947e-001	-1.390703e-001	2.357346e-003	-8.699217e-003
7942468.643	2.568689e-003	-9.436668e-003	9.913250e-001	-1.401836e-001	9.911589e-001	-1.400994e-001	2.312110e-003	-8.966313e-003
8005007.727	2.638818e-003	-9.473957e-003	9.910724e-001	-1.413208e-001	9.910168e-001	-1.411233e-001	2.197855e-003	-8.792533e-003
8067546.811	2.464828e-003	-9.520936e-003	9.909475e-001	-1.424236e-001	9.906972e-001	-1.421927e-001	2.093667e-003	-9.087424e-003
8130085.894	2.528010e-003	-9.655337e-003	9.907792e-001	-1.434378e-001	9.906608e-001	-1.433363e-001	2.284870e-003	-9.214348e-003
8192624.978	2.335770e-003	-9.793716e-003	9.904362e-001	-1.446543e-001	9.904726e-001	-1.443962e-001	2.326597e-003	-9.298681e-003
8255164.062	2.428956e-003	-9.834303e-003	9.904286e-001	-1.457251e-001	9.902768e-001	-1.454753e-001	2.249968e-003	-9.416415e-003
8317703.146	2.282783e-003	-9.793941e-003	9.902824e-001	-1.468094e-001	9.902127e-001	-1.465631e-001	2.049791e-003	-9.429894e-003
8380242.230	2.380923e-003	-1.011851e-002	9.900171e-001	-1.480461e-001	9.899557e-001	-1.476339e-001	1.990147e-003	-9.564101e-003
8442781.313	2.336329e-003	-1.015614e-002	9.900512e-001	-1.489903e-001	9.898578e-001	-1.487302e-001	1.955100e-003	-9.732052e-003
8505320.397	2.293881e-003	-1.009546e-002	9.898434e-001	-1.501643e-001	9.896387e-001	-1.498529e-001	1.877721e-003	-9.751912e-003
8567859.481	2.210092e-003	-1.000785e-002	9.895783e-001	-1.510696e-001	9.895532e-001	-1.509244e-001	1.884343e-003	-9.648277e-003
8630398.565	2.273921e-003	-1.015073e-002	9.892946e-001	-1.521489e-001	9.893625e-001	-1.519883e-001	1.740030e-003	-9.986527e-003
8692937.649	2.187546e-003	-1.041501e-002	9.892147e-001	-1.532542e-001	9.890345e-001	-1.531084e-001	1.649882e-003	-9.956516e-003
8755476.732	2.174605e-003	-1.043149e-002	9.890727e-001	-1.544825e-001	9.888748e-001	-1.541148e-001	1.690138e-003	-1.001472e-002
8818015.816	2.024114e-003	-1.053516e-002	9.888351e-001	-1.555126e-001	9.885337e-001	-1.552484e-001	1.761189e-003	-1.017691e-002
8880554.900	2.212889e-003	-1.056360e-002	9.888012e-001	-1.566363e-001	9.886401e-001	-1.562096e-001	1.608731e-003	-1.041629e-002
8943093.984	2.011531e-003	-1.054074e-002	9.885703e-001	-1.576167e-001	9.884935e-001	-1.573674e-001	1.598606e-003	-1.042999e-002
9005633.068	2.040093e-003	-1.070364e-002	9.882622e-001	-1.588000e-001	9.883542e-001	-1.585629e-001	1.460320e-003	-1.063606e-002
9068172.151	1.861001e-003	-1.078608e-002	9.882508e-001	-1.598938e-001	9.880695e-001	-1.595190e-001	1.488211e-003	-1.065176e-002
9130711.235	2.055359e-003	-1.091271e-002	9.879716e-001	-1.610038e-001	9.879282e-001	-1.605871e-001	1.502079e-003	-1.093448e-002
9193250.319	1.999776e-003	-1.102839e-002	9.878899e-001	-1.619786e-001	9.876934e-001	-1.617982e-001	1.396355e-003	-1.092515e-002
9255789.403	1.862008e-003	-1.125662e-002	9.877733e-001	-1.629608e-001	9.875408e-001	-1.627953e-001	1.230120e-003	-1.094693e-002
9318328.487	1.784607e-003	-1.122900e-002	9.874912e-001	-1.642996e-001	9.874973e-001	-1.638695e-001	1.308015e-003	-1.102206e-002
9380867.570	1.761905e-003	-1.117908e-002	9.874204e-001	-1.653701e-001	9.871342e-001	-1.650844e-001	1.275256e-003	-1.110647e-002
9443406.654	1.788260e-003	-1.128191e-002	9.872215e-001	-1.663896e-001	9.871082e-001	-1.662268e-001	1.278164e-003	-1.126599e-002
9505945.738	1.722430e-003	-1.131615e-002	9.868389e-001	-1.676457e-001	9.869479e-001	-1.673322e-001	1.185552e-003	-1.135213e-002
9568484.822	1.739836e-003	-1.143482e-002	9.868251e-001	-1.687075e-001	9.865293e-001	-1.684005e-001	9.537150e-004	-1.117576e-002
