!Agilent Technologies,E5061B,MY49102235,A.02.00
!Date: Tue Jul 11 15:26:57 2023
!Data & Calibration Information:
!Freq	S11:SOLT2(ON)	S21:SOLT2(ON)	S12:SOLT2(ON)	S22:SOLT2(ON)
# Hz S RI R 50
5.000	-5.218080e-003	-5.642389e-003	1.001694e+000	8.010029e-003	1.000291e+000	1.022438e-002	-1.513955e-003	-7.555321e-003
62544.084	5.840961e-003	-9.708587e-005	1.001336e+000	3.577137e-004	1.000859e+000	7.151424e-004	7.698881e-003	-2.494120e-003
125083.168	5.708850e-003	2.875096e-004	1.000928e+000	-1.581745e-003	1.000811e+000	-1.660810e-003	7.489180e-003	-1.504885e-003
187622.251	5.486384e-003	8.617428e-004	1.000387e+000	-3.331310e-003	1.000983e+000	-2.218516e-003	7.383085e-003	-1.205342e-003
250161.335	5.328530e-003	1.381333e-003	1.000504e+000	-4.730185e-003	1.000618e+000	-4.737714e-003	7.300312e-003	-4.796083e-004
312700.419	5.482417e-003	2.480554e-003	1.000840e+000	-5.682752e-003	1.000585e+000	-5.516407e-003	7.816162e-003	-4.136077e-004
375239.503	5.364523e-003	1.326033e-003	1.001077e+000	-7.486989e-003	1.000464e+000	-7.282519e-003	7.321060e-003	-2.099812e-004
437778.587	5.239641e-003	2.095971e-003	1.001256e+000	-7.959398e-003	1.000954e+000	-8.836040e-003	6.692638e-003	4.667566e-004
500317.670	4.694008e-003	2.622254e-003	1.001145e+000	-1.084803e-002	1.001476e+000	-1.067887e-002	4.916094e-003	1.037815e-003
562856.754	6.021693e-003	2.690419e-003	1.001251e+000	-1.281146e-002	1.001107e+000	-1.257940e-002	6.119204e-003	1.897367e-003
625395.838	5.251447e-003	3.231082e-003	1.001994e+000	-1.439405e-002	1.002117e+000	-1.392785e-002	6.250891e-003	2.832888e-003
687934.922	5.326967e-003	3.250656e-003	1.001098e+000	-1.561561e-002	1.001123e+000	-1.585809e-002	5.907725e-003	2.752476e-003
750474.006	4.550038e-003	3.971415e-003	1.000731e+000	-1.549309e-002	1.000629e+000	-1.536285e-002	5.739766e-003	3.299960e-003
813013.089	4.767024e-003	4.371511e-003	1.000997e+000	-1.765952e-002	1.000423e+000	-1.747955e-002	5.130040e-003	3.850129e-003
875552.173	4.520703e-003	4.911354e-003	1.000958e+000	-1.901096e-002	1.000722e+000	-1.896194e-002	5.926747e-003	3.831418e-003
938091.257	4.628072e-003	5.345753e-003	1.000968e+000	-2.076997e-002	1.000723e+000	-2.033264e-002	6.185982e-003	4.769622e-003
1000630.341	4.111607e-003	5.387574e-003	1.000565e+000	-2.254107e-002	1.000715e+000	-2.226269e-002	5.460422e-003	4.459726e-003
1063169.425	4.493434e-003	5.601738e-003	1.000788e+000	-2.435366e-002	1.000486e+000	-2.346285e-002	4.658191e-003	4.522229e-003
1125708.508	4.399750e-003	6.037560e-003	1.000588e+000	-2.588446e-002	1.000468e+000	-2.526284e-002	4.210661e-003	5.193336e-003
1188247.592	4.974760e-003	5.942754e-003	1.000744e+000	-2.746888e-002	1.000642e+000	-2.664058e-002	3.135578e-003	5.010955e-003
1250786.676	4.834757e-003	5.598760e-003	1.000280e+000	-2.765912e-002	1.000370e+000	-2.779593e-002	2.405935e-003	3.747703e-003
1313325.760	4.988164e-003	5.889869e-003	1.000636e+000	-2.960648e-002	1.000573e+000	-2.983146e-002	3.177109e-003	4.322603e-003
1375864.844	4.746586e-003	6.068346e-003	1.000271e+000	-3.185170e-002	1.000132e+000	-3.197780e-002	3.082186e-003	4.995829e-003
1438403.927	4.676008e-003	6.293270e-003	1.000185e+000	-3.301735e-002	1.000476e+000	-3.229799e-002	3.203054e-003	5.634514e-003
1500943.011	4.929484e-003	6.749411e-003	1.000729e+000	-3.428366e-002	1.000910e+000	-3.415479e-002	3.588699e-003	5.617476e-003
1563482.095	4.984654e-003	6.768746e-003	1.000484e+000	-3.612175e-002	1.000083e+000	-3.533631e-002	3.759879e-003	6.200694e-003
1626021.179	4.815327e-003	7.290818e-003	1.000179e+000	-3.761308e-002	1.000383e+000	-3.820641e-002	4.078558e-003	6.546188e-003
1688560.263	4.579193e-003	7.745695e-003	9.998852e-001	-3.986315e-002	1.000730e+000	-3.987982e-002	4.298825e-003	6.929406e-003
1751099.346	4.748283e-003	8.243301e-003	1.000308e+000	-4.128043e-002	1.000019e+000	-4.079605e-002	4.169834e-003	8.166445e-003
1813638.430	4.446592e-003	8.595017e-003	1.000638e+000	-4.331043e-002	1.000224e+000	-4.295459e-002	4.375322e-003	8.173241e-003
1876177.514	4.532493e-003	9.288954e-003	1.000821e+000	-4.457856e-002	1.000619e+000	-4.509477e-002	4.129662e-003	9.248790e-003
1938716.598	4.050683e-003	9.781328e-003	1.001013e+000	-4.584307e-002	1.000491e+000	-4.532934e-002	4.358107e-003	1.003409e-002
2001255.682	3.997938e-003	9.707993e-003	1.000883e+000	-4.760555e-002	1.000434e+000	-4.726378e-002	4.161246e-003	9.992835e-003
2063794.765	4.160452e-003	1.050624e-002	1.000340e+000	-4.903740e-002	9.996581e-001	-4.944011e-002	4.602758e-003	1.028795e-002
2126333.849	3.753789e-003	1.041472e-002	9.999011e-001	-5.070277e-002	9.990909e-001	-5.018362e-002	4.915072e-003	1.095426e-002
2188872.933	4.309611e-003	1.081462e-002	9.995115e-001	-5.225960e-002	9.989016e-001	-5.159101e-002	4.863803e-003	1.132421e-002
2251412.017	4.458676e-003	1.087031e-002	9.992090e-001	-5.419458e-002	9.990825e-001	-5.306359e-002	4.922370e-003	1.163605e-002
2313951.101	4.883418e-003	1.169907e-002	9.986278e-001	-5.567510e-002	9.990120e-001	-5.442284e-002	5.308536e-003	1.198552e-002
2376490.184	4.696160e-003	1.211217e-002	9.984158e-001	-5.639915e-002	9.988205e-001	-5.670297e-002	5.349572e-003	1.239710e-002
2439029.268	5.226288e-003	1.249439e-002	9.983625e-001	-5.863312e-002	9.979118e-001	-5.820378e-002	5.102342e-003	1.295973e-002
2501568.352	5.292886e-003	1.292087e-002	9.979718e-001	-5.915226e-002	9.986302e-001	-5.929654e-002	5.481523e-003	1.333863e-002
2564107.436	5.284039e-003	1.321217e-002	9.982052e-001	-6.145278e-002	9.984464e-001	-6.142723e-002	4.885480e-003	1.342463e-002
2626646.520	5.877649e-003	1.344563e-002	9.980442e-001	-6.303504e-002	9.970936e-001	-6.277325e-002	5.236393e-003	1.378508e-002
2689185.604	5.935581e-003	1.404924e-002	9.982305e-001	-6.426889e-002	9.976581e-001	-6.405385e-002	5.464206e-003	1.427351e-002
2751724.687	6.156536e-003	1.439073e-002	9.979921e-001	-6.550389e-002	9.976370e-001	-6.534570e-002	5.174522e-003	1.469739e-002
2814263.771	6.218123e-003	1.475927e-002	9.969311e-001	-6.770794e-002	9.972660e-001	-6.701083e-002	5.272806e-003	1.502650e-002
2876802.855	6.292415e-003	1.500821e-002	9.968334e-001	-6.961015e-002	9.970228e-001	-6.863909e-002	5.494501e-003	1.557060e-002
2939341.939	6.545447e-003	1.552354e-002	9.972233e-001	-7.051623e-002	9.968090e-001	-7.064102e-002	5.529748e-003	1.591982e-002
3001881.023	6.617205e-003	1.599209e-002	9.968749e-001	-7.217617e-002	9.965633e-001	-7.215049e-002	5.751187e-003	1.622141e-002
3064420.106	6.806723e-003	1.637456e-002	9.971800e-001	-7.366878e-002	9.963228e-001	-7.354017e-002	5.716037e-003	1.654858e-002
3126959.190	7.162030e-003	1.670994e-002	9.966301e-001	-7.537432e-002	9.964130e-001	-7.525538e-002	6.059013e-003	1.693390e-002
3189498.274	7.300391e-003	1.720112e-002	9.963614e-001	-7.678826e-002	9.961696e-001	-7.680623e-002	6.220267e-003	1.732369e-002
3252037.358	7.389072e-003	1.728722e-002	9.963075e-001	-7.843801e-002	9.960511e-001	-7.827255e-002	6.322534e-003	1.782010e-002
3314576.442	7.578177e-003	1.789776e-002	9.960298e-001	-7.990511e-002	9.957599e-001	-7.990839e-002	6.573421e-003	1.815337e-002
3377115.525	7.742924e-003	1.835019e-002	9.956198e-001	-8.141411e-002	9.953055e-001	-8.163446e-002	6.598138e-003	1.848031e-002
3439654.609	7.949617e-003	1.873104e-002	9.952064e-001	-8.302542e-002	9.953531e-001	-8.310461e-002	6.835071e-003	1.911338e-002
3502193.693	8.101528e-003	1.887071e-002	9.950281e-001	-8.472460e-002	9.948059e-001	-8.453653e-002	7.203154e-003	1.950491e-002
3564732.777	8.380633e-003	1.944410e-002	9.948171e-001	-8.624746e-002	9.945881e-001	-8.620308e-002	7.523923e-003	1.995493e-002
3627271.861	8.443230e-003	1.976368e-002	9.946213e-001	-8.789904e-002	9.944055e-001	-8.767531e-002	7.521843e-003	2.019559e-002
3689810.944	8.591289e-003	2.008507e-002	9.941838e-001	-8.947541e-002	9.940771e-001	-8.921147e-002	7.906781e-003	2.063743e-002
3752350.028	8.957727e-003	2.053120e-002	9.938320e-001	-9.078989e-002	9.935915e-001	-9.075838e-002	8.093995e-003	2.102009e-002
3814889.112	9.339902e-003	2.107901e-002	9.934255e-001	-9.244169e-002	9.935143e-001	-9.256665e-002	8.264725e-003	2.132097e-002
3877428.196	9.553766e-003	2.152586e-002	9.933236e-001	-9.405711e-002	9.931110e-001	-9.397105e-002	8.865833e-003	2.173636e-002
3939967.280	9.781720e-003	2.164426e-002	9.928993e-001	-9.569514e-002	9.928352e-001	-9.550492e-002	9.126422e-003	2.223871e-002
4002506.363	1.014906e-002	2.219360e-002	9.926157e-001	-9.718915e-002	9.924075e-001	-9.694729e-002	9.372085e-003	2.258449e-002
4065045.447	1.027314e-002	2.251591e-002	9.920081e-001	-9.881311e-002	9.919107e-001	-9.859918e-002	9.753427e-003	2.286936e-002
4127584.531	1.055732e-002	2.289791e-002	9.916056e-001	-1.003382e-001	9.915889e-001	-1.000668e-001	1.009139e-002	2.338577e-002
4190123.615	1.093257e-002	2.329464e-002	9.913036e-001	-1.020738e-001	9.910586e-001	-1.017811e-001	1.031785e-002	2.355204e-002
4252662.699	1.122152e-002	2.361081e-002	9.909816e-001	-1.036548e-001	9.906061e-001	-1.034296e-001	1.076033e-002	2.395478e-002
4315201.782	1.169776e-002	2.393436e-002	9.905337e-001	-1.048958e-001	9.904244e-001	-1.049764e-001	1.090545e-002	2.413985e-002
4377740.866	1.194079e-002	2.429138e-002	9.901476e-001	-1.066106e-001	9.897711e-001	-1.064903e-001	1.146013e-002	2.478973e-002
4440279.950	1.220299e-002	2.451092e-002	9.896774e-001	-1.079626e-001	9.892272e-001	-1.078801e-001	1.170236e-002	2.499846e-002
4502819.034	1.258553e-002	2.499076e-002	9.889541e-001	-1.095713e-001	9.889069e-001	-1.094118e-001	1.216788e-002	2.548407e-002
4565358.118	1.287570e-002	2.529952e-002	9.885434e-001	-1.110534e-001	9.883069e-001	-1.107024e-001	1.255270e-002	2.572320e-002
4627897.201	1.346283e-002	2.573739e-002	9.882443e-001	-1.125463e-001	9.878862e-001	-1.122349e-001	1.306664e-002	2.614688e-002
4690436.285	1.367502e-002	2.596872e-002	9.877749e-001	-1.141067e-001	9.874321e-001	-1.140904e-001	1.345051e-002	2.627837e-002
4752975.369	1.408751e-002	2.626304e-002	9.869780e-001	-1.156701e-001	9.869828e-001	-1.154619e-001	1.367447e-002	2.655163e-002
4815514.453	1.462838e-002	2.656033e-002	9.866966e-001	-1.170836e-001	9.865062e-001	-1.170135e-001	1.431546e-002	2.693368e-002
4878053.537	1.513746e-002	2.675494e-002	9.862209e-001	-1.184774e-001	9.859457e-001	-1.183350e-001	1.470796e-002	2.715407e-002
4940592.620	1.531622e-002	2.709882e-002	9.855495e-001	-1.199876e-001	9.854278e-001	-1.199050e-001	1.490264e-002	2.741699e-002
5003131.704	1.581686e-002	2.722445e-002	9.849893e-001	-1.214015e-001	9.849877e-001	-1.211387e-001	1.546472e-002	2.762251e-002
5065670.788	1.620049e-002	2.768786e-002	9.844530e-001	-1.228706e-001	9.843250e-001	-1.226252e-001	1.588588e-002	2.792380e-002
5128209.872	1.676584e-002	2.779948e-002	9.840833e-001	-1.242798e-001	9.837747e-001	-1.240655e-001	1.629714e-002	2.797085e-002
5190748.956	1.712227e-002	2.804652e-002	9.833858e-001	-1.257231e-001	9.832997e-001	-1.255727e-001	1.673741e-002	2.834906e-002
5253288.039	1.764579e-002	2.821774e-002	9.829253e-001	-1.271074e-001	9.826994e-001	-1.269489e-001	1.712911e-002	2.865346e-002
5315827.123	1.806003e-002	2.836528e-002	9.821770e-001	-1.285130e-001	9.820886e-001	-1.283275e-001	1.758150e-002	2.877088e-002
5378366.207	1.863325e-002	2.862806e-002	9.817577e-001	-1.299035e-001	9.815566e-001	-1.299376e-001	1.803858e-002	2.888057e-002
5440905.291	1.893247e-002	2.891029e-002	9.812440e-001	-1.312808e-001	9.809722e-001	-1.311789e-001	1.841681e-002	2.913095e-002
5503444.375	1.960551e-002	2.890952e-002	9.805668e-001	-1.326575e-001	9.804856e-001	-1.323872e-001	1.906473e-002	2.921740e-002
5565983.458	1.975658e-002	2.922758e-002	9.800348e-001	-1.339504e-001	9.798294e-001	-1.337041e-001	1.949980e-002	2.954777e-002
5628522.542	2.047801e-002	2.928235e-002	9.794549e-001	-1.351851e-001	9.792373e-001	-1.351944e-001	2.001297e-002	2.956187e-002
5691061.626	2.102056e-002	2.925050e-002	9.787557e-001	-1.367168e-001	9.785882e-001	-1.365440e-001	2.040206e-002	2.976510e-002
5753600.710	2.136462e-002	2.946971e-002	9.780351e-001	-1.378994e-001	9.780215e-001	-1.377860e-001	2.095200e-002	2.975826e-002
5816139.794	2.197073e-002	2.977197e-002	9.775344e-001	-1.392139e-001	9.772133e-001	-1.392645e-001	2.129634e-002	2.992861e-002
5878678.877	2.235392e-002	2.965287e-002	9.769039e-001	-1.405339e-001	9.767413e-001	-1.404273e-001	2.189716e-002	2.990036e-002
5941217.961	2.282408e-002	2.967238e-002	9.762614e-001	-1.419122e-001	9.761135e-001	-1.415545e-001	2.219683e-002	3.010084e-002
6003757.045	2.318402e-002	2.999295e-002	9.755571e-001	-1.429808e-001	9.755061e-001	-1.428375e-001	2.281325e-002	3.014920e-002
6066296.129	2.379055e-002	2.985939e-002	9.751227e-001	-1.442790e-001	9.748789e-001	-1.440415e-001	2.328704e-002	3.018419e-002
6128835.213	2.435875e-002	2.993119e-002	9.745028e-001	-1.452462e-001	9.744216e-001	-1.454102e-001	2.386242e-002	3.022493e-002
6191374.296	2.478736e-002	2.996745e-002	9.738263e-001	-1.467232e-001	9.736295e-001	-1.467314e-001	2.419316e-002	3.038582e-002
6253913.380	2.520109e-002	3.011291e-002	9.732366e-001	-1.479402e-001	9.730243e-001	-1.477873e-001	2.459068e-002	3.052433e-002
6316452.464	2.565809e-002	3.021658e-002	9.726569e-001	-1.490593e-001	9.723316e-001	-1.491667e-001	2.507863e-002	3.032572e-002
6378991.548	2.609779e-002	3.007363e-002	9.719881e-001	-1.506062e-001	9.719335e-001	-1.502574e-001	2.561536e-002	3.021033e-002
6441530.632	2.649441e-002	3.000180e-002	9.713372e-001	-1.514945e-001	9.712070e-001	-1.515506e-001	2.613446e-002	3.031830e-002
6504069.715	2.695867e-002	2.997687e-002	9.707067e-001	-1.528970e-001	9.707469e-001	-1.526566e-001	2.660318e-002	3.029753e-002
6566608.799	2.755275e-002	2.988802e-002	9.702154e-001	-1.541061e-001	9.699995e-001	-1.538314e-001	2.699539e-002	3.047524e-002
6629147.883	2.798612e-002	2.999296e-002	9.695651e-001	-1.549104e-001	9.693780e-001	-1.550063e-001	2.752965e-002	3.030451e-002
6691686.967	2.831490e-002	2.996631e-002	9.688752e-001	-1.562022e-001	9.687453e-001	-1.560960e-001	2.802152e-002	3.034933e-002
6754226.051	2.871240e-002	2.992468e-002	9.682681e-001	-1.574623e-001	9.680521e-001	-1.574414e-001	2.825731e-002	3.011860e-002
6816765.134	2.924462e-002	2.985798e-002	9.677471e-001	-1.584785e-001	9.675997e-001	-1.584085e-001	2.877488e-002	3.024793e-002
6879304.218	2.957005e-002	2.964641e-002	9.671086e-001	-1.596173e-001	9.670373e-001	-1.595166e-001	2.919287e-002	3.012142e-002
6941843.302	3.009421e-002	2.972249e-002	9.665175e-001	-1.608049e-001	9.664158e-001	-1.605904e-001	2.961866e-002	3.012723e-002
7004382.386	3.034896e-002	2.973984e-002	9.659781e-001	-1.617879e-001	9.658039e-001	-1.617040e-001	2.998605e-002	3.010087e-002
7066921.470	3.085714e-002	2.959373e-002	9.653309e-001	-1.630464e-001	9.652859e-001	-1.626515e-001	3.054408e-002	2.984985e-002
7129460.553	3.113543e-002	2.940001e-002	9.648281e-001	-1.639488e-001	9.646915e-001	-1.638699e-001	3.096312e-002	2.982130e-002
7191999.637	3.157042e-002	2.953955e-002	9.640293e-001	-1.651312e-001	9.639875e-001	-1.649416e-001	3.122975e-002	2.974016e-002
7254538.721	3.201684e-002	2.933089e-002	9.638298e-001	-1.662452e-001	9.635772e-001	-1.661015e-001	3.167596e-002	2.964506e-002
7317077.805	3.257461e-002	2.918857e-002	9.632003e-001	-1.671969e-001	9.630446e-001	-1.670801e-001	3.206355e-002	2.944681e-002
7379616.889	3.282961e-002	2.908592e-002	9.627454e-001	-1.684758e-001	9.624282e-001	-1.682061e-001	3.240581e-002	2.936041e-002
7442155.972	3.307755e-002	2.900420e-002	9.620508e-001	-1.693570e-001	9.619146e-001	-1.692198e-001	3.289118e-002	2.945667e-002
7504695.056	3.348371e-002	2.878740e-002	9.614269e-001	-1.703313e-001	9.612414e-001	-1.703884e-001	3.330173e-002	2.939043e-002
7567234.140	3.400768e-002	2.859344e-002	9.610437e-001	-1.714149e-001	9.607239e-001	-1.714007e-001	3.360306e-002	2.918616e-002
7629773.224	3.431156e-002	2.874406e-002	9.605103e-001	-1.726151e-001	9.603198e-001	-1.724002e-001	3.386865e-002	2.901031e-002
7692312.308	3.453863e-002	2.856549e-002	9.599549e-001	-1.736369e-001	9.596732e-001	-1.735465e-001	3.430106e-002	2.879470e-002
7754851.391	3.486640e-002	2.830169e-002	9.594169e-001	-1.747171e-001	9.590532e-001	-1.743521e-001	3.460849e-002	2.879483e-002
7817390.475	3.531530e-002	2.834692e-002	9.588933e-001	-1.758759e-001	9.585508e-001	-1.756530e-001	3.490229e-002	2.876609e-002
7879929.559	3.556776e-002	2.805144e-002	9.583096e-001	-1.768796e-001	9.580277e-001	-1.768194e-001	3.535970e-002	2.862525e-002
7942468.643	3.584616e-002	2.786428e-002	9.579039e-001	-1.778723e-001	9.576151e-001	-1.778231e-001	3.564739e-002	2.831549e-002
8005007.727	3.627960e-002	2.773985e-002	9.572549e-001	-1.789613e-001	9.571593e-001	-1.788082e-001	3.593225e-002	2.840744e-002
8067546.811	3.646241e-002	2.765275e-002	9.567890e-001	-1.799451e-001	9.564863e-001	-1.797526e-001	3.615304e-002	2.806548e-002
8130085.894	3.683933e-002	2.743875e-002	9.562619e-001	-1.809285e-001	9.560673e-001	-1.808279e-001	3.667762e-002	2.785133e-002
8192624.978	3.699484e-002	2.724733e-002	9.556138e-001	-1.820782e-001	9.555635e-001	-1.818274e-001	3.703312e-002	2.770467e-002
8255164.062	3.741677e-002	2.711331e-002	9.552463e-001	-1.830254e-001	9.550358e-001	-1.828903e-001	3.730938e-002	2.751096e-002
8317703.146	3.761675e-002	2.707529e-002	9.547890e-001	-1.840623e-001	9.546474e-001	-1.838932e-001	3.744916e-002	2.743912e-002
8380242.230	3.801613e-002	2.669432e-002	9.541495e-001	-1.851915e-001	9.540046e-001	-1.848816e-001	3.772528e-002	2.721420e-002
8442781.313	3.829535e-002	2.657942e-002	9.539109e-001	-1.860857e-001	9.536165e-001	-1.858834e-001	3.799207e-002	2.698163e-002
8505320.397	3.858445e-002	2.655224e-002	9.533648e-001	-1.871650e-001	9.530788e-001	-1.869352e-001	3.824179e-002	2.688203e-002
8567859.481	3.885091e-002	2.655315e-002	9.528353e-001	-1.880004e-001	9.526887e-001	-1.879346e-001	3.858200e-002	2.686868e-002
8630398.565	3.919649e-002	2.632444e-002	9.521988e-001	-1.890008e-001	9.521800e-001	-1.888897e-001	3.873145e-002	2.648936e-002
8692937.649	3.940076e-002	2.596413e-002	9.518127e-001	-1.900197e-001	9.515573e-001	-1.899491e-001	3.896509e-002	2.641988e-002
8755476.732	3.968336e-002	2.586863e-002	9.513541e-001	-1.911353e-001	9.511067e-001	-1.908625e-001	3.929946e-002	2.627655e-002
8818015.816	3.985451e-002	2.566932e-002	9.508330e-001	-1.921257e-001	9.504740e-001	-1.919189e-001	3.966018e-002	2.601868e-002
8880554.900	4.031588e-002	2.553714e-002	9.504964e-001	-1.931607e-001	9.502968e-001	-1.927761e-001	3.977830e-002	2.572323e-002
8943093.984	4.042674e-002	2.549257e-002	9.499778e-001	-1.940551e-001	9.498181e-001	-1.938456e-001	4.006589e-002	2.560128e-002
9005633.068	4.073602e-002	2.523197e-002	9.494022e-001	-1.951158e-001	9.494262e-001	-1.949702e-001	4.021249e-002	2.533439e-002
9068172.151	4.085098e-002	2.507425e-002	9.490815e-001	-1.961408e-001	9.488271e-001	-1.958660e-001	4.051939e-002	2.519667e-002
9130711.235	4.128758e-002	2.482247e-002	9.485392e-001	-1.971408e-001	9.483981e-001	-1.968260e-001	4.079870e-002	2.484934e-002
9193250.319	4.152205e-002	2.463023e-002	9.482221e-001	-1.979970e-001	9.479307e-001	-1.979194e-001	4.098668e-002	2.476085e-002
9255789.403	4.163743e-002	2.432189e-002	9.478053e-001	-1.989136e-001	9.474389e-001	-1.988414e-001	4.109981e-002	2.465226e-002
9318328.487	4.184802e-002	2.425283e-002	9.472802e-001	-2.001318e-001	9.471472e-001	-1.998111e-001	4.144261e-002	2.447242e-002
9380867.570	4.211303e-002	2.419174e-002	9.468555e-001	-2.011553e-001	9.465314e-001	-2.009624e-001	4.166861e-002	2.428208e-002
9443406.654	4.237567e-002	2.400684e-002	9.464538e-001	-2.020110e-001	9.462470e-001	-2.019692e-001	4.193414e-002	2.404057e-002
9505945.738	4.258923e-002	2.385728e-002	9.457803e-001	-2.032109e-001	9.458197e-001	-2.029369e-001	4.209932e-002	2.386415e-002
9568484.822	4.284096e-002	2.364494e-002	9.454913e-001	-2.041561e-001	9.451274e-001	-2.039221e-001	4.216189e-002	2.392118e-002
9631023.906	4.304307e-002	2.348573e-002	9.450662e-001	-2.051042e-001	9.447067e-001	-2.049431e-001	4.253673e-002	2.345166e-002
9693562.989	4.328324e-002	2.328871e-002	9.445101e-001	-2.061444e-001	9.443523e-001	-2.058560e-001	4.252584e-002	2.339752e-002
9756102.073	4.347763e-002	2.308074e-002	9.442899e-001	-2.071467e-001	9.439515e-001	-2.067828e-001	4.277147e-002	2.309999e-002
