!Agilent Technologies,E5061B,MY49102235,A.02.00
!Date: Tue Jul 11 16:35:31 2023
!Data & Calibration Information:
!Freq	S11:SOLT2(ON)	S21:SOLT2(ON)	S12:SOLT2(ON)	S22:SOLT2(ON)
# Hz S RI R 50
5.000	-5.161660e-003	-5.613171e-003	1.001621e+000	8.083884e-003	1.000275e+000	1.020947e-002	-1.463870e-003	-7.531300e-003
62544.084	5.807941e-003	-7.995497e-005	1.001380e+000	1.483592e-004	1.000959e+000	7.713601e-004	7.705303e-003	-2.443056e-003
125083.168	5.705410e-003	3.491791e-004	1.000869e+000	-1.593370e-003	1.000671e+000	-1.660913e-003	7.515621e-003	-1.437415e-003
187622.251	5.485989e-003	9.298029e-004	1.000410e+000	-3.381699e-003	1.000907e+000	-2.191535e-003	7.415505e-003	-1.113760e-003
250161.335	5.317239e-003	1.493239e-003	1.000555e+000	-4.817493e-003	1.000806e+000	-4.807132e-003	7.293383e-003	-3.791865e-004
312700.419	5.482868e-003	2.631985e-003	1.000823e+000	-5.747595e-003	1.000544e+000	-5.629065e-003	7.836183e-003	-2.564802e-004
375239.503	5.355799e-003	1.535788e-003	1.001122e+000	-7.761960e-003	1.000603e+000	-7.429518e-003	7.317820e-003	-1.834917e-005
437778.587	5.231450e-003	2.339202e-003	1.001239e+000	-8.280457e-003	1.000885e+000	-8.940700e-003	6.714396e-003	6.943097e-004
500317.670	4.723457e-003	2.894126e-003	1.001021e+000	-1.106246e-002	1.001632e+000	-1.093679e-002	4.921271e-003	1.285813e-003
562856.754	6.038786e-003	2.989920e-003	1.001114e+000	-1.300565e-002	1.001050e+000	-1.285351e-002	6.157376e-003	2.171569e-003
625395.838	5.268591e-003	3.540031e-003	1.001959e+000	-1.453797e-002	1.001935e+000	-1.424358e-002	6.279773e-003	3.152126e-003
687934.922	5.321929e-003	3.639447e-003	1.001167e+000	-1.612727e-002	1.001120e+000	-1.619559e-002	5.934226e-003	3.107748e-003
750474.006	4.588273e-003	4.371891e-003	1.000675e+000	-1.598085e-002	1.000822e+000	-1.569296e-002	5.767609e-003	3.695542e-003
813013.089	4.773811e-003	4.799608e-003	1.000862e+000	-1.811161e-002	1.000510e+000	-1.769814e-002	5.141177e-003	4.283396e-003
875552.173	4.556798e-003	5.361032e-003	1.000790e+000	-1.936162e-002	1.000746e+000	-1.937834e-002	5.951639e-003	4.275100e-003
938091.257	4.656035e-003	5.830164e-003	1.000837e+000	-2.121974e-002	1.001099e+000	-2.099703e-002	6.231753e-003	5.262528e-003
1000630.341	4.135058e-003	5.902993e-003	1.000411e+000	-2.314158e-002	1.000986e+000	-2.276369e-002	5.494614e-003	4.979133e-003
1063169.425	4.509768e-003	6.154994e-003	1.000709e+000	-2.476502e-002	1.000634e+000	-2.401688e-002	4.697112e-003	5.085157e-003
1125708.508	4.435626e-003	6.610916e-003	1.000522e+000	-2.627001e-002	1.000456e+000	-2.581364e-002	4.248351e-003	5.772721e-003
1188247.592	4.998922e-003	6.553445e-003	1.000549e+000	-2.803532e-002	1.000723e+000	-2.735167e-002	3.178521e-003	5.630402e-003
1250786.676	4.881333e-003	6.236688e-003	1.000240e+000	-2.821758e-002	1.000286e+000	-2.838127e-002	2.447490e-003	4.390410e-003
1313325.760	5.026703e-003	6.564367e-003	1.000564e+000	-3.020059e-002	1.000561e+000	-3.047979e-002	3.218576e-003	5.007837e-003
1375864.844	4.794562e-003	6.772932e-003	1.000133e+000	-3.260150e-002	1.000004e+000	-3.261531e-002	3.125994e-003	5.697303e-003
1438403.927	4.719876e-003	7.039343e-003	1.000134e+000	-3.360080e-002	1.000383e+000	-3.297719e-002	3.247347e-003	6.373372e-003
1500943.011	4.991435e-003	7.508019e-003	1.000767e+000	-3.495412e-002	1.001035e+000	-3.490833e-002	3.646545e-003	6.395533e-003
1563482.095	5.038870e-003	7.560138e-003	1.000272e+000	-3.683242e-002	1.000120e+000	-3.597919e-002	3.820376e-003	7.007135e-003
1626021.179	4.877261e-003	8.120428e-003	1.000047e+000	-3.831820e-002	1.000423e+000	-3.901419e-002	4.140324e-003	7.374230e-003
1688560.263	4.648213e-003	8.617315e-003	9.997883e-001	-4.061822e-002	1.000776e+000	-4.065055e-002	4.362754e-003	7.796890e-003
1751099.346	4.824689e-003	9.130614e-003	1.000288e+000	-4.201391e-002	9.998883e-001	-4.166343e-002	4.243274e-003	9.041101e-003
1813638.430	4.523767e-003	9.532777e-003	1.000422e+000	-4.408717e-002	1.000182e+000	-4.395046e-002	4.463598e-003	9.097841e-003
1876177.514	4.624638e-003	1.025716e-002	1.000684e+000	-4.532545e-002	1.000291e+000	-4.605078e-002	4.203547e-003	1.021099e-002
1938716.598	4.138559e-003	1.077681e-002	1.000724e+000	-4.668846e-002	1.000390e+000	-4.628194e-002	4.433998e-003	1.101980e-002
2001255.682	4.088538e-003	1.074185e-002	1.000763e+000	-4.853430e-002	1.000438e+000	-4.834537e-002	4.253453e-003	1.102123e-002
2063794.765	4.256956e-003	1.157523e-002	1.000143e+000	-5.002462e-002	9.996800e-001	-5.042343e-002	4.706876e-003	1.135253e-002
2126333.849	3.853169e-003	1.150854e-002	9.996575e-001	-5.165490e-002	9.990758e-001	-5.131614e-002	5.034453e-003	1.204074e-002
2188872.933	4.406001e-003	1.194367e-002	9.993195e-001	-5.326276e-002	9.989713e-001	-5.278176e-002	4.979532e-003	1.245609e-002
2251412.017	4.575910e-003	1.202999e-002	9.990459e-001	-5.516978e-002	9.990898e-001	-5.422310e-002	5.043955e-003	1.278593e-002
2313951.101	5.000387e-003	1.288243e-002	9.983995e-001	-5.669758e-002	9.989483e-001	-5.555746e-002	5.427800e-003	1.316816e-002
2376490.184	4.827827e-003	1.332821e-002	9.983530e-001	-5.749272e-002	9.988078e-001	-5.794327e-002	5.477469e-003	1.362400e-002
2439029.268	5.375937e-003	1.373126e-002	9.980606e-001	-5.978275e-002	9.977468e-001	-5.941154e-002	5.246859e-003	1.419513e-002
2501568.352	5.445202e-003	1.419056e-002	9.976848e-001	-6.036435e-002	9.985143e-001	-6.069520e-002	5.657812e-003	1.459900e-002
2564107.436	5.456168e-003	1.449789e-002	9.980025e-001	-6.268361e-002	9.982896e-001	-6.258093e-002	5.030343e-003	1.472257e-002
2626646.520	6.046331e-003	1.477283e-002	9.976929e-001	-6.426531e-002	9.969360e-001	-6.410105e-002	5.402849e-003	1.510216e-002
2689185.604	6.112655e-003	1.539973e-002	9.979473e-001	-6.547121e-002	9.976661e-001	-6.536730e-002	5.639108e-003	1.563665e-002
2751724.687	6.340388e-003	1.576156e-002	9.976827e-001	-6.672252e-002	9.975083e-001	-6.668195e-002	5.370030e-003	1.609199e-002
2814263.771	6.435344e-003	1.616339e-002	9.966225e-001	-6.900176e-002	9.967455e-001	-6.839199e-002	5.465990e-003	1.640500e-002
2876802.855	6.511922e-003	1.644526e-002	9.966541e-001	-7.099953e-002	9.969112e-001	-7.010282e-002	5.706159e-003	1.701734e-002
2939341.939	6.766696e-003	1.698843e-002	9.969738e-001	-7.191544e-002	9.965777e-001	-7.214476e-002	5.735157e-003	1.738630e-002
3001881.023	6.856342e-003	1.748363e-002	9.965439e-001	-7.368171e-002	9.962920e-001	-7.354872e-002	5.980077e-003	1.771878e-002
3064420.106	7.044972e-003	1.790014e-002	9.969086e-001	-7.497776e-002	9.961929e-001	-7.502587e-002	5.959348e-003	1.808219e-002
3126959.190	7.424301e-003	1.826076e-002	9.963589e-001	-7.679346e-002	9.962180e-001	-7.675330e-002	6.308849e-003	1.848289e-002
3189498.274	7.564025e-003	1.876670e-002	9.960673e-001	-7.823922e-002	9.959481e-001	-7.829390e-002	6.475618e-003	1.889385e-002
3252037.358	7.659996e-003	1.888343e-002	9.959662e-001	-7.990674e-002	9.958200e-001	-7.986369e-002	6.611063e-003	1.941771e-002
3314576.442	7.865728e-003	1.950705e-002	9.956209e-001	-8.142199e-002	9.955172e-001	-8.144775e-002	6.865180e-003	1.976391e-002
3377115.525	8.028560e-003	1.999322e-002	9.952519e-001	-8.292572e-002	9.950726e-001	-8.323713e-002	6.892207e-003	2.011502e-002
3439654.609	8.245585e-003	2.038638e-002	9.948548e-001	-8.452947e-002	9.951116e-001	-8.469170e-002	7.137799e-003	2.078199e-002
3502193.693	8.407323e-003	2.054725e-002	9.946389e-001	-8.626705e-002	9.945168e-001	-8.618379e-002	7.520119e-003	2.117631e-002
3564732.777	8.685398e-003	2.113472e-002	9.944280e-001	-8.778798e-002	9.943384e-001	-8.787277e-002	7.840425e-003	2.165677e-002
3627271.861	8.780311e-003	2.146121e-002	9.942565e-001	-8.945589e-002	9.941474e-001	-8.935376e-002	7.838229e-003	2.190710e-002
3689810.944	8.918110e-003	2.181604e-002	9.938265e-001	-9.104417e-002	9.937982e-001	-9.086761e-002	8.243916e-003	2.237961e-002
3752350.028	9.285986e-003	2.227731e-002	9.934563e-001	-9.239888e-002	9.932879e-001	-9.243059e-002	8.442996e-003	2.278365e-002
3814889.112	9.669140e-003	2.284607e-002	9.930400e-001	-9.399332e-002	9.932141e-001	-9.432022e-002	8.615549e-003	2.308690e-002
3877428.196	9.903417e-003	2.330018e-002	9.929129e-001	-9.568932e-002	9.928077e-001	-9.566192e-002	9.204798e-003	2.353008e-002
3939967.280	1.014027e-002	2.344376e-002	9.925258e-001	-9.734744e-002	9.925296e-001	-9.728025e-002	9.479067e-003	2.403802e-002
4002506.363	1.049136e-002	2.399533e-002	9.921676e-001	-9.884818e-002	9.921101e-001	-9.871396e-002	9.715282e-003	2.439018e-002
4065045.447	1.063019e-002	2.433564e-002	9.916204e-001	-1.004970e-001	9.916104e-001	-1.004118e-001	1.009955e-002	2.469728e-002
4127584.531	1.090486e-002	2.474108e-002	9.912417e-001	-1.020297e-001	9.912707e-001	-1.018958e-001	1.044443e-002	2.522703e-002
4190123.615	1.126958e-002	2.515606e-002	9.908660e-001	-1.037269e-001	9.907560e-001	-1.035442e-001	1.064880e-002	2.539706e-002
4252662.699	1.156064e-002	2.548323e-002	9.905861e-001	-1.053465e-001	9.902970e-001	-1.052539e-001	1.108681e-002	2.582567e-002
4315201.782	1.203145e-002	2.582997e-002	9.901069e-001	-1.066386e-001	9.901615e-001	-1.067788e-001	1.124698e-002	2.604648e-002
4377740.866	1.228238e-002	2.619365e-002	9.897466e-001	-1.083856e-001	9.894826e-001	-1.083343e-001	1.179166e-002	2.670859e-002
4440279.950	1.253440e-002	2.643975e-002	9.893261e-001	-1.097290e-001	9.889660e-001	-1.097427e-001	1.202058e-002	2.693382e-002
4502819.034	1.288945e-002	2.693413e-002	9.885588e-001	-1.113549e-001	9.886448e-001	-1.112838e-001	1.248455e-002	2.744823e-002
4565358.118	1.319442e-002	2.725608e-002	9.881935e-001	-1.128730e-001	9.880362e-001	-1.126021e-001	1.284809e-002	2.770031e-002
4627897.201	1.375054e-002	2.772977e-002	9.879015e-001	-1.143558e-001	9.876471e-001	-1.141454e-001	1.335276e-002	2.814661e-002
4690436.285	1.395892e-002	2.797194e-002	9.874192e-001	-1.159710e-001	9.872548e-001	-1.160386e-001	1.372795e-002	2.829652e-002
4752975.369	1.437023e-002	2.828753e-002	9.866709e-001	-1.175571e-001	9.867716e-001	-1.174444e-001	1.394535e-002	2.859659e-002
4815514.453	1.489200e-002	2.861058e-002	9.863870e-001	-1.189616e-001	9.862828e-001	-1.189801e-001	1.456596e-002	2.899940e-002
4878053.537	1.538145e-002	2.884233e-002	9.859132e-001	-1.203765e-001	9.857328e-001	-1.203364e-001	1.494862e-002	2.923903e-002
4940592.620	1.556209e-002	2.919654e-002	9.852729e-001	-1.219213e-001	9.852553e-001	-1.218890e-001	1.514019e-002	2.954015e-002
5003131.704	1.603150e-002	2.936204e-002	9.847506e-001	-1.233488e-001	9.848210e-001	-1.231613e-001	1.567586e-002	2.977995e-002
5065670.788	1.639774e-002	2.984480e-002	9.842126e-001	-1.248390e-001	9.841883e-001	-1.246906e-001	1.608410e-002	3.009792e-002
5128209.872	1.694212e-002	2.998638e-002	9.838761e-001	-1.262772e-001	9.836668e-001	-1.261558e-001	1.646252e-002	3.018681e-002
5190748.956	1.729887e-002	3.024181e-002	9.831832e-001	-1.277923e-001	9.831731e-001	-1.277293e-001	1.690187e-002	3.057541e-002
5253288.039	1.778735e-002	3.047211e-002	9.827014e-001	-1.291727e-001	9.826071e-001	-1.290560e-001	1.727493e-002	3.092032e-002
5315827.123	1.819458e-002	3.066640e-002	9.819672e-001	-1.306499e-001	9.820456e-001	-1.305308e-001	1.770720e-002	3.107433e-002
5378366.207	1.873935e-002	3.094240e-002	9.815593e-001	-1.320494e-001	9.814870e-001	-1.321726e-001	1.815324e-002	3.121352e-002
5440905.291	1.903271e-002	3.126988e-002	9.810599e-001	-1.334705e-001	9.809139e-001	-1.334408e-001	1.849717e-002	3.151503e-002
5503444.375	1.967687e-002	3.131828e-002	9.804581e-001	-1.349073e-001	9.804506e-001	-1.346996e-001	1.915337e-002	3.163138e-002
5565983.458	1.980201e-002	3.168221e-002	9.799093e-001	-1.362117e-001	9.798163e-001	-1.360207e-001	1.956652e-002	3.200431e-002
5628522.542	2.053397e-002	3.177010e-002	9.793901e-001	-1.374518e-001	9.792488e-001	-1.375591e-001	2.005225e-002	3.206904e-002
5691061.626	2.104022e-002	3.178146e-002	9.787058e-001	-1.390943e-001	9.786205e-001	-1.389478e-001	2.042714e-002	3.231409e-002
5753600.710	2.137876e-002	3.204712e-002	9.780169e-001	-1.403220e-001	9.780585e-001	-1.402460e-001	2.096091e-002	3.235817e-002
5816139.794	2.196658e-002	3.238476e-002	9.775150e-001	-1.416616e-001	9.772774e-001	-1.417998e-001	2.128936e-002	3.256619e-002
5878678.877	2.232434e-002	3.233174e-002	9.769195e-001	-1.430111e-001	9.768074e-001	-1.430396e-001	2.187293e-002	3.258119e-002
5941217.961	2.277855e-002	3.239953e-002	9.762261e-001	-1.444491e-001	9.762246e-001	-1.441783e-001	2.216904e-002	3.284974e-002
6003757.045	2.313372e-002	3.275642e-002	9.755350e-001	-1.455858e-001	9.755951e-001	-1.454393e-001	2.276226e-002	3.293706e-002
6066296.129	2.370448e-002	3.267987e-002	9.751676e-001	-1.468804e-001	9.750534e-001	-1.467502e-001	2.321052e-002	3.304380e-002
6128835.213	2.428283e-002	3.279351e-002	9.744809e-001	-1.479055e-001	9.745660e-001	-1.481783e-001	2.379175e-002	3.314151e-002
6191374.296	2.469774e-002	3.291064e-002	9.738798e-001	-1.494533e-001	9.737092e-001	-1.495547e-001	2.411820e-002	3.334345e-002
6253913.380	2.509313e-002	3.311789e-002	9.733196e-001	-1.507906e-001	9.732238e-001	-1.506806e-001	2.449096e-002	3.355148e-002
6316452.464	2.554671e-002	3.327334e-002	9.727175e-001	-1.518798e-001	9.724737e-001	-1.521444e-001	2.497358e-002	3.342053e-002
6378991.548	2.596572e-002	3.319682e-002	9.720992e-001	-1.535460e-001	9.720795e-001	-1.532840e-001	2.550009e-002	3.336022e-002
6441530.632	2.637104e-002	3.319584e-002	9.714222e-001	-1.544599e-001	9.714097e-001	-1.546401e-001	2.601737e-002	3.353337e-002
6504069.715	2.683375e-002	3.323112e-002	9.707796e-001	-1.559411e-001	9.709577e-001	-1.557794e-001	2.649809e-002	3.358172e-002
6566608.799	2.742089e-002	3.321323e-002	9.702948e-001	-1.572335e-001	9.701562e-001	-1.570405e-001	2.687895e-002	3.381706e-002
6629147.883	2.785580e-002	3.337204e-002	9.696440e-001	-1.581123e-001	9.695240e-001	-1.582799e-001	2.740739e-002	3.370042e-002
6691686.967	2.820398e-002	3.343025e-002	9.689678e-001	-1.594535e-001	9.689192e-001	-1.594444e-001	2.790612e-002	3.380926e-002
6754226.051	2.859118e-002	3.344124e-002	9.683539e-001	-1.607674e-001	9.682193e-001	-1.608347e-001	2.815329e-002	3.364869e-002
6816765.134	2.913954e-002	3.344087e-002	9.678428e-001	-1.618807e-001	9.677400e-001	-1.618659e-001	2.867345e-002	3.384189e-002
6879304.218	2.946714e-002	3.329982e-002	9.671595e-001	-1.630957e-001	9.671749e-001	-1.630261e-001	2.909967e-002	3.378699e-002
6941843.302	2.998954e-002	3.345616e-002	9.665593e-001	-1.643314e-001	9.665588e-001	-1.641900e-001	2.954185e-002	3.386518e-002
7004382.386	3.027251e-002	3.352599e-002	9.660397e-001	-1.653707e-001	9.658997e-001	-1.653818e-001	2.991060e-002	3.391699e-002
7066921.470	3.078339e-002	3.345134e-002	9.653432e-001	-1.666804e-001	9.654286e-001	-1.663803e-001	3.049020e-002	3.373589e-002
7129460.553	3.109697e-002	3.333912e-002	9.648416e-001	-1.676192e-001	9.648076e-001	-1.676778e-001	3.092638e-002	3.376340e-002
7191999.637	3.154515e-002	3.353337e-002	9.640581e-001	-1.689002e-001	9.640306e-001	-1.688232e-001	3.121676e-002	3.374421e-002
7254538.721	3.201057e-002	3.339074e-002	9.637805e-001	-1.701122e-001	9.636436e-001	-1.700190e-001	3.168773e-002	3.374153e-002
7317077.805	3.259095e-002	3.332079e-002	9.631589e-001	-1.710825e-001	9.630972e-001	-1.710648e-001	3.209607e-002	3.359203e-002
7379616.889	3.287646e-002	3.330567e-002	9.626911e-001	-1.724620e-001	9.624600e-001	-1.722736e-001	3.245559e-002	3.357671e-002
7442155.972	3.313801e-002	3.325557e-002	9.619466e-001	-1.734180e-001	9.618996e-001	-1.733207e-001	3.297438e-002	3.374067e-002
7504695.056	3.357427e-002	3.311624e-002	9.612945e-001	-1.744611e-001	9.611814e-001	-1.745783e-001	3.340867e-002	3.373752e-002
7567234.140	3.413376e-002	3.297395e-002	9.608734e-001	-1.755351e-001	9.606581e-001	-1.756437e-001	3.373493e-002	3.358760e-002
7629773.224	3.446808e-002	3.320353e-002	9.603453e-001	-1.768530e-001	9.602263e-001	-1.767086e-001	3.405271e-002	3.349310e-002
7692312.308	3.472974e-002	3.308678e-002	9.597445e-001	-1.779270e-001	9.595158e-001	-1.779346e-001	3.449384e-002	3.333570e-002
7754851.391	3.509633e-002	3.288011e-002	9.591434e-001	-1.790801e-001	9.588790e-001	-1.788321e-001	3.484432e-002	3.339388e-002
7817390.475	3.556953e-002	3.299660e-002	9.585832e-001	-1.802899e-001	9.583761e-001	-1.801253e-001	3.517183e-002	3.344007e-002
7879929.559	3.584137e-002	3.275142e-002	9.579221e-001	-1.814005e-001	9.577831e-001	-1.813790e-001	3.566605e-002	3.333465e-002
7942468.643	3.617127e-002	3.264137e-002	9.575158e-001	-1.824022e-001	9.573335e-001	-1.824182e-001	3.601203e-002	3.309662e-002
8005007.727	3.664181e-002	3.256628e-002	9.568343e-001	-1.835402e-001	9.568045e-001	-1.834736e-001	3.631906e-002	3.324173e-002
8067546.811	3.685702e-002	3.253904e-002	9.563508e-001	-1.845805e-001	9.561408e-001	-1.845044e-001	3.658215e-002	3.297011e-002
8130085.894	3.729748e-002	3.237100e-002	9.557786e-001	-1.855995e-001	9.556794e-001	-1.856302e-001	3.715272e-002	3.281323e-002
8192624.978	3.749115e-002	3.224777e-002	9.550907e-001	-1.868238e-001	9.551159e-001	-1.866423e-001	3.753768e-002	3.270738e-002
8255164.062	3.795316e-002	3.215931e-002	9.546899e-001	-1.878143e-001	9.545221e-001	-1.877720e-001	3.786883e-002	3.256863e-002
8317703.146	3.819674e-002	3.217887e-002	9.541616e-001	-1.889491e-001	9.541053e-001	-1.888373e-001	3.805356e-002	3.253628e-002
8380242.230	3.864635e-002	3.183607e-002	9.534670e-001	-1.901128e-001	9.534061e-001	-1.898458e-001	3.836825e-002	3.237856e-002
8442781.313	3.896005e-002	3.178025e-002	9.531966e-001	-1.910398e-001	9.529658e-001	-1.908974e-001	3.868515e-002	3.219991e-002
8505320.397	3.930675e-002	3.178790e-002	9.525926e-001	-1.921959e-001	9.524178e-001	-1.919996e-001	3.898335e-002	3.214566e-002
8567859.481	3.960321e-002	3.183529e-002	9.519925e-001	-1.930374e-001	9.519751e-001	-1.930523e-001	3.937234e-002	3.218892e-002
8630398.565	4.000348e-002	3.166107e-002	9.512908e-001	-1.940833e-001	9.514037e-001	-1.940822e-001	3.956337e-002	3.184284e-002
8692937.649	4.026639e-002	3.135541e-002	9.509149e-001	-1.951452e-001	9.507582e-001	-1.951640e-001	3.984057e-002	3.183021e-002
8755476.732	4.059398e-002	3.129855e-002	9.503982e-001	-1.962983e-001	9.502358e-001	-1.961069e-001	4.023350e-002	3.172924e-002
8818015.816	4.080421e-002	3.115012e-002	9.498172e-001	-1.973150e-001	9.495765e-001	-1.972435e-001	4.064148e-002	3.152265e-002
8880554.900	4.132474e-002	3.105331e-002	9.494489e-001	-1.984270e-001	9.493096e-001	-1.981362e-001	4.080740e-002	3.126229e-002
8943093.984	4.148629e-002	3.105734e-002	9.488694e-001	-1.993774e-001	9.488139e-001	-1.992182e-001	4.114309e-002	3.118071e-002
9005633.068	4.184520e-002	3.083238e-002	9.482351e-001	-2.004640e-001	9.483394e-001	-2.003938e-001	4.133754e-002	3.094279e-002
9068172.151	4.199357e-002	3.073356e-002	9.478705e-001	-2.015155e-001	9.476707e-001	-2.013086e-001	4.169790e-002	3.085199e-002
9130711.235	4.250100e-002	3.049217e-002	9.472507e-001	-2.025407e-001	9.472784e-001	-2.022916e-001	4.201793e-002	3.055047e-002
9193250.319	4.277238e-002	3.034467e-002	9.469182e-001	-2.034615e-001	9.467249e-001	-2.034600e-001	4.226219e-002	3.049217e-002
9255789.403	4.295142e-002	3.008347e-002	9.464275e-001	-2.043932e-001	9.461804e-001	-2.044371e-001	4.243385e-002	3.041546e-002
9318328.487	4.321051e-002	3.003648e-002	9.458305e-001	-2.056750e-001	9.458187e-001	-2.054030e-001	4.281826e-002	3.027143e-002
9380867.570	4.350733e-002	3.001594e-002	9.453932e-001	-2.066562e-001	9.451609e-001	-2.065470e-001	4.309350e-002	3.010731e-002
9443406.654	4.384481e-002	2.985688e-002	9.449177e-001	-2.076370e-001	9.448000e-001	-2.076339e-001	4.342105e-002	2.990247e-002
9505945.738	4.411578e-002	2.974747e-002	9.442403e-001	-2.088325e-001	9.443295e-001	-2.086368e-001	4.364692e-002	2.975678e-002
9568484.822	4.440629e-002	2.956181e-002	9.438919e-001	-2.097875e-001	9.435876e-001	-2.096544e-001	4.375617e-002	2.985970e-002
9631023.906	4.467473e-002	2.942538e-002	9.433958e-001	-2.107774e-001	9.431132e-001	-2.106931e-001	4.418868e-002	2.939922e-002
9693562.989	4.496065e-002	2.926312e-002	9.428216e-001	-2.118495e-001	9.427130e-001	-2.116670e-001	4.421484e-002	2.938819e-002
9756102.073	4.519992e-002	2.907707e-002	9.425449e-001	-2.128534e-001	9.422635e-001	-2.126107e-001	4.452121e-002	2.910780e-002
