!Agilent Technologies,E5061B,MY49102235,A.02.00
!Date: Tue Jul 11 16:44:54 2023
!Data & Calibration Information:
!Freq	S11:SOLT2(ON)	S21:SOLT2(ON)	S12:SOLT2(ON)	S22:SOLT2(ON)
# Hz S RI R 50
5.000	-5.182450e-003	-5.635314e-003	1.001980e+000	7.887703e-003	1.000526e+000	1.028810e-002	-1.459573e-003	-7.560285e-003
62544.084	5.821468e-003	-5.048278e-004	1.001417e+000	5.023789e-004	1.000741e+000	1.341947e-003	7.704452e-003	-2.902324e-003
125083.168	5.682610e-003	-5.024447e-004	1.001035e+000	-8.671737e-004	1.000726e+000	-6.849722e-004	7.492530e-003	-2.296238e-003
187622.251	5.434185e-003	-3.267107e-004	1.000602e+000	-2.321779e-003	1.001062e+000	-9.590524e-004	7.345365e-003	-2.383824e-003
250161.335	5.263067e-003	-1.905641e-004	1.000759e+000	-3.358036e-003	1.000669e+000	-3.057467e-003	7.240573e-003	-2.043174e-003
312700.419	5.405711e-003	5.285721e-004	1.001065e+000	-4.018621e-003	1.000600e+000	-3.402312e-003	7.761381e-003	-2.362447e-003
375239.503	5.320115e-003	-9.905636e-004	1.001054e+000	-5.303354e-003	1.000438e+000	-4.813859e-003	7.254325e-003	-2.524269e-003
437778.587	5.133372e-003	-6.058534e-004	1.001493e+000	-5.543656e-003	1.000930e+000	-5.962318e-003	6.601682e-003	-2.241423e-003
500317.670	4.606406e-003	-4.754634e-004	1.001324e+000	-7.877013e-003	1.001582e+000	-7.512324e-003	4.799528e-003	-2.063934e-003
562856.754	5.901933e-003	-7.944213e-004	1.001504e+000	-9.401823e-003	1.001079e+000	-8.872301e-003	6.013094e-003	-1.599882e-003
625395.838	5.107191e-003	-6.451229e-004	1.002243e+000	-1.061559e-002	1.002045e+000	-9.983264e-003	6.101335e-003	-1.010828e-003
687934.922	5.115347e-003	-9.779977e-004	1.001565e+000	-1.175744e-002	1.001134e+000	-1.145259e-002	5.742375e-003	-1.480749e-003
750474.006	4.338692e-003	-6.740249e-004	1.001181e+000	-1.101671e-002	1.000653e+000	-1.049817e-002	5.531505e-003	-1.340552e-003
813013.089	4.524267e-003	-6.612872e-004	1.001408e+000	-1.270845e-002	1.000495e+000	-1.206519e-002	4.881815e-003	-1.186497e-003
875552.173	4.259087e-003	-5.128892e-004	1.001428e+000	-1.378865e-002	1.000875e+000	-1.338362e-002	5.674377e-003	-1.579721e-003
938091.257	4.340209e-003	-4.546656e-004	1.001548e+000	-1.512521e-002	1.000946e+000	-1.436798e-002	5.902518e-003	-1.018525e-003
1000630.341	3.786009e-003	-8.126026e-004	1.001068e+000	-1.648997e-002	1.000985e+000	-1.573400e-002	5.160830e-003	-1.733975e-003
1063169.425	4.132740e-003	-9.892939e-004	1.001380e+000	-1.786173e-002	1.000560e+000	-1.668536e-002	4.322646e-003	-2.071316e-003
1125708.508	4.025416e-003	-9.436219e-004	1.001171e+000	-1.906580e-002	1.000626e+000	-1.813299e-002	3.840327e-003	-1.803325e-003
1188247.592	4.548848e-003	-1.402283e-003	1.001308e+000	-2.013441e-002	1.000921e+000	-1.917495e-002	2.735280e-003	-2.368975e-003
1250786.676	4.401785e-003	-2.142303e-003	1.001033e+000	-2.003355e-002	1.000643e+000	-1.991842e-002	2.000546e-003	-4.050524e-003
1313325.760	4.519758e-003	-2.248609e-003	1.001248e+000	-2.164842e-002	1.000948e+000	-2.139770e-002	2.744783e-003	-3.848172e-003
1375864.844	4.238224e-003	-2.448017e-003	1.001023e+000	-2.345247e-002	1.000487e+000	-2.320110e-002	2.593888e-003	-3.575801e-003
1438403.927	4.141131e-003	-2.630426e-003	1.000963e+000	-2.423457e-002	1.000810e+000	-2.314429e-002	2.669413e-003	-3.330635e-003
1500943.011	4.384411e-003	-2.567655e-003	1.001651e+000	-2.517181e-002	1.001300e+000	-2.476985e-002	3.032510e-003	-3.744268e-003
1563482.095	4.371633e-003	-2.965667e-003	1.001141e+000	-2.650197e-002	1.000516e+000	-2.507425e-002	3.162344e-003	-3.543668e-003
1626021.179	4.170365e-003	-2.834337e-003	1.000998e+000	-2.773995e-002	1.000856e+000	-2.776828e-002	3.435701e-003	-3.605506e-003
1688560.263	3.870010e-003	-2.791213e-003	1.000829e+000	-2.936609e-002	1.001276e+000	-2.903598e-002	3.597076e-003	-3.637153e-003
1751099.346	4.000420e-003	-2.690551e-003	1.001393e+000	-3.045537e-002	1.000700e+000	-2.960525e-002	3.414904e-003	-2.800469e-003
1813638.430	3.643493e-003	-2.768872e-003	1.001587e+000	-3.211107e-002	1.000906e+000	-3.135552e-002	3.589127e-003	-3.203406e-003
1876177.514	3.671158e-003	-2.475412e-003	1.001902e+000	-3.288984e-002	1.001411e+000	-3.294656e-002	3.268341e-003	-2.532699e-003
1938716.598	3.134704e-003	-2.409364e-003	1.002041e+000	-3.376884e-002	1.001277e+000	-3.284856e-002	3.427897e-003	-2.167099e-003
2001255.682	3.050383e-003	-2.903208e-003	1.001979e+000	-3.514375e-002	1.001152e+000	-3.438737e-002	3.177355e-003	-2.631810e-003
2063794.765	3.124637e-003	-2.525949e-003	1.001603e+000	-3.619365e-002	1.000645e+000	-3.613169e-002	3.568986e-003	-2.732989e-003
2126333.849	2.664052e-003	-3.074860e-003	1.000972e+000	-3.737383e-002	1.000156e+000	-3.641653e-002	3.831655e-003	-2.485706e-003
2188872.933	3.160513e-003	-3.086778e-003	1.000790e+000	-3.848913e-002	1.000097e+000	-3.744334e-002	3.719037e-003	-2.556529e-003
2251412.017	3.251088e-003	-3.453381e-003	1.000684e+000	-4.000420e-002	1.000172e+000	-3.858643e-002	3.699252e-003	-2.676062e-003
2313951.101	3.565321e-003	-3.051916e-003	1.000106e+000	-4.101050e-002	1.000231e+000	-3.938158e-002	4.002725e-003	-2.757425e-003
2376490.184	3.320687e-003	-3.091942e-003	1.000011e+000	-4.146986e-002	1.000191e+000	-4.133757e-002	3.968453e-003	-2.766633e-003
2439029.268	3.766935e-003	-3.145249e-003	9.999030e-001	-4.321378e-002	9.992609e-001	-4.243280e-002	3.620424e-003	-2.685700e-003
2501568.352	3.731226e-003	-3.161245e-003	9.995897e-001	-4.328912e-002	1.000186e+000	-4.283982e-002	3.918103e-003	-2.722999e-003
2564107.436	3.640499e-003	-3.328656e-003	9.999403e-001	-4.504041e-002	9.998936e-001	-4.453016e-002	3.217282e-003	-3.125982e-003
2626646.520	4.133966e-003	-3.520562e-003	9.997613e-001	-4.620925e-002	9.988397e-001	-4.570835e-002	3.485607e-003	-3.207184e-003
2689185.604	4.076734e-003	-3.375384e-003	1.000259e+000	-4.680972e-002	9.994464e-001	-4.638719e-002	3.578474e-003	-3.164862e-003
2751724.687	4.188041e-003	-3.489589e-003	9.999575e-001	-4.768986e-002	9.993960e-001	-4.710215e-002	3.201329e-003	-3.217042e-003
2814263.771	4.133478e-003	-3.565095e-003	9.991626e-001	-4.944396e-002	9.991335e-001	-4.838678e-002	3.161543e-003	-3.368732e-003
2876802.855	4.073253e-003	-3.798887e-003	9.991972e-001	-5.092912e-002	9.992686e-001	-4.951707e-002	3.248669e-003	-3.257206e-003
2939341.939	4.205871e-003	-3.738025e-003	9.998466e-001	-5.132088e-002	9.990266e-001	-5.102002e-002	3.134253e-003	-3.385719e-003
3001881.023	4.127658e-003	-3.757319e-003	9.994712e-001	-5.249019e-002	9.991115e-001	-5.206157e-002	3.222570e-003	-3.547459e-003
3064420.106	4.163814e-003	-3.837429e-003	1.000012e+000	-5.350740e-002	9.988319e-001	-5.305487e-002	3.062447e-003	-3.694421e-003
3126959.190	4.352361e-003	-3.958870e-003	9.995784e-001	-5.475099e-002	9.991044e-001	-5.424413e-002	3.233269e-003	-3.785863e-003
3189498.274	4.335839e-003	-3.933749e-003	9.994898e-001	-5.568060e-002	9.990658e-001	-5.529408e-002	3.216717e-003	-3.856850e-003
3252037.358	4.236369e-003	-4.334743e-003	9.995643e-001	-5.684837e-002	9.991051e-001	-5.634690e-002	3.168092e-003	-3.839190e-003
3314576.442	4.254695e-003	-4.198258e-003	9.994336e-001	-5.785266e-002	9.989624e-001	-5.742429e-002	3.223531e-003	-3.975289e-003
3377115.525	4.219296e-003	-4.224119e-003	9.992734e-001	-5.886483e-002	9.987604e-001	-5.868094e-002	3.069042e-003	-4.143171e-003
3439654.609	4.224027e-003	-4.317409e-003	9.990421e-001	-5.999635e-002	9.990091e-001	-5.966488e-002	3.077427e-003	-4.002194e-003
3502193.693	4.182543e-003	-4.663211e-003	9.990254e-001	-6.123184e-002	9.986601e-001	-6.065056e-002	3.247540e-003	-4.076976e-003
3564732.777	4.214469e-003	-4.564195e-003	9.990794e-001	-6.219323e-002	9.986570e-001	-6.182000e-002	3.332193e-003	-4.098922e-003
3627271.861	4.063784e-003	-4.752108e-003	9.991060e-001	-6.343751e-002	9.987154e-001	-6.274426e-002	3.098910e-003	-4.351066e-003
3689810.944	3.977811e-003	-4.909886e-003	9.989466e-001	-6.450919e-002	9.986337e-001	-6.384572e-002	3.250203e-003	-4.372007e-003
3752350.028	4.083473e-003	-4.932600e-003	9.988543e-001	-6.534754e-002	9.984197e-001	-6.487241e-002	3.179804e-003	-4.482745e-003
3814889.112	4.192828e-003	-4.853936e-003	9.986907e-001	-6.652318e-002	9.985956e-001	-6.626614e-002	3.089061e-003	-4.660516e-003
3877428.196	4.106807e-003	-4.876014e-003	9.988312e-001	-6.764841e-002	9.984904e-001	-6.710463e-002	3.409946e-003	-4.704876e-003
3939967.280	4.091325e-003	-5.237204e-003	9.987182e-001	-6.881815e-002	9.985097e-001	-6.824134e-002	3.392133e-003	-4.671831e-003
4002506.363	4.150832e-003	-5.145762e-003	9.987093e-001	-6.983896e-002	9.983379e-001	-6.917131e-002	3.326770e-003	-4.798821e-003
4065045.447	3.952818e-003	-5.296131e-003	9.984405e-001	-7.100102e-002	9.981844e-001	-7.038151e-002	3.417245e-003	-4.960109e-003
4127584.531	3.922590e-003	-5.386212e-003	9.983486e-001	-7.205077e-002	9.981396e-001	-7.138258e-002	3.412409e-003	-4.925005e-003
4190123.615	3.954699e-003	-5.423289e-003	9.983868e-001	-7.326552e-002	9.979442e-001	-7.264578e-002	3.324478e-003	-5.214935e-003
4252662.699	3.911052e-003	-5.566954e-003	9.984217e-001	-7.435671e-002	9.978275e-001	-7.380093e-002	3.425494e-003	-5.253051e-003
4315201.782	4.039689e-003	-5.674246e-003	9.982648e-001	-7.525219e-002	9.980451e-001	-7.490285e-002	3.234937e-003	-5.518371e-003
4377740.866	3.936067e-003	-5.767587e-003	9.982814e-001	-7.648074e-002	9.976933e-001	-7.600590e-002	3.408859e-003	-5.277892e-003
4440279.950	3.833793e-003	-5.980283e-003	9.981628e-001	-7.742378e-002	9.975527e-001	-7.696143e-002	3.291210e-003	-5.522422e-003
4502819.034	3.819429e-003	-5.904989e-003	9.978581e-001	-7.861850e-002	9.976574e-001	-7.803360e-002	3.364434e-003	-5.446322e-003
4565358.118	3.729059e-003	-6.037385e-003	9.978120e-001	-7.970304e-002	9.973662e-001	-7.895778e-002	3.370771e-003	-5.628981e-003
4627897.201	3.913856e-003	-5.980836e-003	9.979107e-001	-8.075817e-002	9.973785e-001	-8.002298e-002	3.458905e-003	-5.585609e-003
4690436.285	3.716454e-003	-6.180619e-003	9.978351e-001	-8.189802e-002	9.973614e-001	-8.152474e-002	3.457016e-003	-5.849469e-003
4752975.369	3.710143e-003	-6.270355e-003	9.974909e-001	-8.310814e-002	9.973259e-001	-8.250669e-002	3.275317e-003	-5.989831e-003
4815514.453	3.823603e-003	-6.342630e-003	9.976316e-001	-8.404445e-002	9.972602e-001	-8.369000e-002	3.477809e-003	-5.960766e-003
4878053.537	3.923798e-003	-6.501566e-003	9.975871e-001	-8.510296e-002	9.971034e-001	-8.461319e-002	3.442884e-003	-6.118013e-003
4940592.620	3.644554e-003	-6.548589e-003	9.973645e-001	-8.626785e-002	9.970817e-001	-8.572416e-002	3.193738e-003	-6.249154e-003
5003131.704	3.712451e-003	-6.768885e-003	9.972513e-001	-8.735836e-002	9.970624e-001	-8.665048e-002	3.307490e-003	-6.368482e-003
5065670.788	3.624940e-003	-6.643159e-003	9.971514e-001	-8.846474e-002	9.968626e-001	-8.780652e-002	3.287514e-003	-6.422396e-003
5128209.872	3.751721e-003	-6.856037e-003	9.972401e-001	-8.952824e-002	9.967961e-001	-8.888467e-002	3.245360e-003	-6.690489e-003
5190748.956	3.642037e-003	-6.959211e-003	9.970119e-001	-9.063540e-002	9.967618e-001	-9.008583e-002	3.212785e-003	-6.660284e-003
5253288.039	3.674654e-003	-7.077821e-003	9.969979e-001	-9.170936e-002	9.966375e-001	-9.112623e-002	3.124988e-003	-6.669386e-003
5315827.123	3.639963e-003	-7.219071e-003	9.967556e-001	-9.276762e-002	9.965445e-001	-9.223926e-002	3.104691e-003	-6.849079e-003
5378366.207	3.711579e-003	-7.253474e-003	9.967927e-001	-9.389345e-002	9.964764e-001	-9.352850e-002	3.089084e-003	-7.016776e-003
5440905.291	3.533009e-003	-7.259524e-003	9.967334e-001	-9.497604e-002	9.963588e-001	-9.449455e-002	2.964103e-003	-7.060324e-003
5503444.375	3.734534e-003	-7.508263e-003	9.966362e-001	-9.614128e-002	9.963528e-001	-9.543920e-002	3.160637e-003	-7.214859e-003
5565983.458	3.362192e-003	-7.469258e-003	9.965636e-001	-9.710421e-002	9.962618e-001	-9.648110e-002	3.072083e-003	-7.154080e-003
5628522.542	3.609610e-003	-7.620411e-003	9.964517e-001	-9.814240e-002	9.961524e-001	-9.773903e-002	3.103766e-003	-7.365860e-003
5691061.626	3.663281e-003	-7.884737e-003	9.962867e-001	-9.941688e-002	9.960108e-001	-9.882916e-002	2.996098e-003	-7.405143e-003
5753600.710	3.507757e-003	-7.888378e-003	9.961354e-001	-1.003829e-001	9.959189e-001	-9.983712e-002	3.037979e-003	-7.621617e-003
5816139.794	3.590213e-003	-7.795707e-003	9.960989e-001	-1.015161e-001	9.956541e-001	-1.011527e-001	2.878915e-003	-7.664751e-003
5878678.877	3.485600e-003	-8.117940e-003	9.959847e-001	-1.026261e-001	9.956303e-001	-1.020929e-001	2.979547e-003	-7.891426e-003
5941217.961	3.463847e-003	-8.275218e-003	9.957724e-001	-1.037904e-001	9.955348e-001	-1.030182e-001	2.786640e-003	-7.886591e-003
6003757.045	3.287810e-003	-8.134719e-003	9.955907e-001	-1.047457e-001	9.954167e-001	-1.041297e-001	2.904052e-003	-7.986261e-003
6066296.129	3.416202e-003	-8.432193e-003	9.956803e-001	-1.057985e-001	9.953120e-001	-1.051568e-001	2.862514e-003	-8.103197e-003
6128835.213	3.502022e-003	-8.488207e-003	9.955403e-001	-1.066134e-001	9.953385e-001	-1.063710e-001	2.946559e-003	-8.202256e-003
6191374.296	3.419813e-003	-8.600647e-003	9.953891e-001	-1.080292e-001	9.950442e-001	-1.076302e-001	2.768867e-003	-8.204454e-003
6253913.380	3.329146e-003	-8.572513e-003	9.953270e-001	-1.091282e-001	9.950064e-001	-1.085336e-001	2.634175e-003	-8.187814e-003
6316452.464	3.282158e-003	-8.580379e-003	9.952320e-001	-1.100939e-001	9.947547e-001	-1.098237e-001	2.679503e-003	-8.518559e-003
6378991.548	3.236484e-003	-8.831864e-003	9.950581e-001	-1.114923e-001	9.948338e-001	-1.108014e-001	2.721064e-003	-8.712650e-003
6441530.632	3.161499e-003	-8.994994e-003	9.948789e-001	-1.122799e-001	9.946571e-001	-1.119998e-001	2.732293e-003	-8.704571e-003
6504069.715	3.139642e-003	-9.130329e-003	9.947415e-001	-1.136090e-001	9.946390e-001	-1.130005e-001	2.754931e-003	-8.798394e-003
6566608.799	3.272305e-003	-9.267384e-003	9.947553e-001	-1.147743e-001	9.943848e-001	-1.141025e-001	2.636047e-003	-8.689888e-003
6629147.883	3.198807e-003	-9.235277e-003	9.945503e-001	-1.155482e-001	9.942519e-001	-1.152057e-001	2.707716e-003	-8.939879e-003
6691686.967	3.063802e-003	-9.302886e-003	9.943522e-001	-1.167458e-001	9.940644e-001	-1.162905e-001	2.714238e-003	-8.940238e-003
6754226.051	2.999363e-003	-9.419088e-003	9.942152e-001	-1.179145e-001	9.938681e-001	-1.175118e-001	2.512429e-003	-9.245306e-003
6816765.134	3.080260e-003	-9.530135e-003	9.941670e-001	-1.189182e-001	9.938676e-001	-1.184586e-001	2.549372e-003	-9.141536e-003
6879304.218	2.956584e-003	-9.767294e-003	9.939571e-001	-1.200313e-001	9.937673e-001	-1.195327e-001	2.515507e-003	-9.293001e-003
6941843.302	3.009414e-003	-9.701447e-003	9.938294e-001	-1.211617e-001	9.936043e-001	-1.206158e-001	2.497918e-003	-9.307392e-003
7004382.386	2.793112e-003	-9.724663e-003	9.937758e-001	-1.221473e-001	9.934380e-001	-1.216806e-001	2.378389e-003	-9.364473e-003
7066921.470	2.872445e-003	-9.870104e-003	9.935720e-001	-1.233898e-001	9.933886e-001	-1.225863e-001	2.536424e-003	-9.614084e-003
7129460.553	2.756752e-003	-1.007704e-002	9.934878e-001	-1.242511e-001	9.932338e-001	-1.238172e-001	2.510752e-003	-9.640101e-003
7191999.637	2.731120e-003	-9.933148e-003	9.931087e-001	-1.254820e-001	9.929484e-001	-1.248820e-001	2.352666e-003	-9.734727e-003
7254538.721	2.757963e-003	-1.014648e-002	9.933353e-001	-1.266226e-001	9.929861e-001	-1.260623e-001	2.376702e-003	-9.807260e-003
7317077.805	2.920403e-003	-1.025631e-002	9.931014e-001	-1.275462e-001	9.928442e-001	-1.270492e-001	2.352408e-003	-1.001544e-002
7379616.889	2.751999e-003	-1.034322e-002	9.930965e-001	-1.288740e-001	9.926444e-001	-1.281444e-001	2.275937e-003	-1.007551e-002
7442155.972	2.584795e-003	-1.042883e-002	9.927985e-001	-1.297428e-001	9.925489e-001	-1.291993e-001	2.342886e-003	-9.959196e-003
7504695.056	2.606262e-003	-1.062067e-002	9.925209e-001	-1.308012e-001	9.922377e-001	-1.304503e-001	2.351054e-003	-9.987621e-003
7567234.140	2.768546e-003	-1.078733e-002	9.925387e-001	-1.318696e-001	9.921635e-001	-1.314570e-001	2.255846e-003	-1.016792e-002
7629773.224	2.647437e-003	-1.056968e-002	9.924256e-001	-1.331174e-001	9.921558e-001	-1.324945e-001	2.163050e-003	-1.031766e-002
7692312.308	2.485204e-003	-1.071978e-002	9.922612e-001	-1.341574e-001	9.918771e-001	-1.336296e-001	2.194024e-003	-1.049317e-002
7754851.391	2.448247e-003	-1.097548e-002	9.920701e-001	-1.352998e-001	9.916224e-001	-1.345300e-001	2.114221e-003	-1.045524e-002
7817390.475	2.504813e-003	-1.084668e-002	9.919988e-001	-1.364643e-001	9.915416e-001	-1.358939e-001	2.019802e-003	-1.042168e-002
7879929.559	2.396326e-003	-1.111517e-002	9.917484e-001	-1.375493e-001	9.913567e-001	-1.371249e-001	2.116753e-003	-1.051505e-002
7942468.643	2.314280e-003	-1.126458e-002	9.916923e-001	-1.385029e-001	9.913549e-001	-1.381470e-001	2.076683e-003	-1.078747e-002
8005007.727	2.396826e-003	-1.132498e-002	9.914442e-001	-1.396725e-001	9.911972e-001	-1.391976e-001	1.958712e-003	-1.064852e-002
8067546.811	2.223615e-003	-1.137534e-002	9.913371e-001	-1.407295e-001	9.909018e-001	-1.401995e-001	1.844797e-003	-1.095020e-002
8130085.894	2.267200e-003	-1.152827e-002	9.911323e-001	-1.417456e-001	9.908177e-001	-1.413586e-001	2.046061e-003	-1.108459e-002
8192624.978	2.078250e-003	-1.167699e-002	9.908110e-001	-1.429469e-001	9.906240e-001	-1.423388e-001	2.065181e-003	-1.117174e-002
8255164.062	2.162039e-003	-1.173758e-002	9.907933e-001	-1.440022e-001	9.904717e-001	-1.434577e-001	2.001687e-003	-1.130847e-002
8317703.146	2.010338e-003	-1.171660e-002	9.906644e-001	-1.450719e-001	9.903903e-001	-1.445348e-001	1.790211e-003	-1.134473e-002
8380242.230	2.108498e-003	-1.204383e-002	9.903587e-001	-1.462829e-001	9.901284e-001	-1.455950e-001	1.743575e-003	-1.149782e-002
8442781.313	2.057555e-003	-1.208999e-002	9.904576e-001	-1.472369e-001	9.900466e-001	-1.466139e-001	1.687060e-003	-1.167353e-002
8505320.397	2.010979e-003	-1.204986e-002	9.902341e-001	-1.483960e-001	9.898346e-001	-1.477542e-001	1.594993e-003	-1.170167e-002
8567859.481	1.929536e-003	-1.198905e-002	9.899724e-001	-1.493137e-001	9.897562e-001	-1.488112e-001	1.615124e-003	-1.161863e-002
8630398.565	1.987742e-003	-1.211763e-002	9.896566e-001	-1.503679e-001	9.895864e-001	-1.498457e-001	1.461223e-003	-1.196990e-002
8692937.649	1.887596e-003	-1.241624e-002	9.896028e-001	-1.514430e-001	9.892495e-001	-1.509895e-001	1.375050e-003	-1.195531e-002
8755476.732	1.889595e-003	-1.244199e-002	9.894666e-001	-1.526312e-001	9.891136e-001	-1.519202e-001	1.405892e-003	-1.203198e-002
8818015.816	1.723073e-003	-1.256218e-002	9.892149e-001	-1.536712e-001	9.888131e-001	-1.530887e-001	1.478148e-003	-1.220429e-002
8880554.900	1.915077e-003	-1.260775e-002	9.891990e-001	-1.548166e-001	9.889110e-001	-1.540344e-001	1.303993e-003	-1.245959e-002
8943093.984	1.704503e-003	-1.259835e-002	9.889626e-001	-1.558247e-001	9.887075e-001	-1.551669e-001	1.290775e-003	-1.249821e-002
9005633.068	1.725749e-003	-1.277785e-002	9.887243e-001	-1.569476e-001	9.886019e-001	-1.563290e-001	1.162260e-003	-1.271817e-002
9068172.151	1.537956e-003	-1.287452e-002	9.886611e-001	-1.580417e-001	9.883242e-001	-1.573059e-001	1.178547e-003	-1.275013e-002
9130711.235	1.721752e-003	-1.302826e-002	9.883814e-001	-1.590928e-001	9.881751e-001	-1.583861e-001	1.195703e-003	-1.303005e-002
9193250.319	1.677241e-003	-1.314341e-002	9.883176e-001	-1.600333e-001	9.879384e-001	-1.595592e-001	1.074816e-003	-1.303365e-002
9255789.403	1.540792e-003	-1.337946e-002	9.881772e-001	-1.610336e-001	9.877839e-001	-1.605556e-001	9.160800e-004	-1.307347e-002
9318328.487	1.456240e-003	-1.336451e-002	9.879676e-001	-1.623488e-001	9.877389e-001	-1.615963e-001	9.851886e-004	-1.316225e-002
9380867.570	1.428734e-003	-1.333682e-002	9.878458e-001	-1.634032e-001	9.874112e-001	-1.628106e-001	9.551660e-004	-1.327137e-002
9443406.654	1.440898e-003	-1.342913e-002	9.876934e-001	-1.643932e-001	9.873686e-001	-1.639233e-001	9.372098e-004	-1.343465e-002
9505945.738	1.376516e-003	-1.350604e-002	9.872792e-001	-1.656616e-001	9.872440e-001	-1.649976e-001	8.544080e-004	-1.353311e-002
9568484.822	1.381043e-003	-1.362617e-002	9.872668e-001	-1.666689e-001	9.868157e-001	-1.660746e-001	6.183402e-004	-1.338266e-002
