!Agilent Technologies,E5061B,MY49102235,A.02.00
!Date: Tue Jul 11 16:38:05 2023
!Data & Calibration Information:
!Freq	S11:SOLT2(ON)	S21:SOLT2(ON)	S12:SOLT2(ON)	S22:SOLT2(ON)
# Hz S RI R 50
5.000	-5.151808e-003	-5.628396e-003	1.001683e+000	7.978681e-003	1.000232e+000	1.025164e-002	-1.436328e-003	-7.556134e-003
62544.084	5.815298e-003	-4.287882e-004	1.001349e+000	5.284918e-004	1.000924e+000	1.185386e-003	7.703312e-003	-2.810124e-003
125083.168	5.685267e-003	-3.292058e-004	1.000846e+000	-1.042144e-003	1.000814e+000	-1.082890e-003	7.477588e-003	-2.120263e-003
187622.251	5.450254e-003	-1.061386e-004	1.000497e+000	-2.324546e-003	1.000910e+000	-1.107830e-003	7.392722e-003	-2.151854e-003
250161.335	5.294988e-003	1.082445e-004	1.000589e+000	-3.339585e-003	1.000691e+000	-3.429047e-003	7.256808e-003	-1.734178e-003
312700.419	5.416570e-003	9.233492e-004	1.000867e+000	-4.150892e-003	1.000667e+000	-3.905769e-003	7.777530e-003	-1.972696e-003
375239.503	5.306037e-003	-5.106657e-004	1.001075e+000	-5.720991e-003	1.000625e+000	-5.430486e-003	7.244913e-003	-2.057320e-003
437778.587	5.153837e-003	-4.684277e-005	1.001299e+000	-5.956065e-003	1.000997e+000	-6.663738e-003	6.627249e-003	-1.683980e-003
500317.670	4.588373e-003	1.506771e-004	1.001281e+000	-8.362449e-003	1.001610e+000	-8.157580e-003	4.821406e-003	-1.446318e-003
562856.754	5.884404e-003	-8.823540e-005	1.001485e+000	-9.980803e-003	1.001124e+000	-9.810575e-003	6.017422e-003	-8.732874e-004
625395.838	5.093311e-003	1.335872e-004	1.002313e+000	-1.128080e-002	1.002037e+000	-1.069774e-002	6.131513e-003	-2.588699e-004
687934.922	5.141883e-003	-1.218527e-004	1.001317e+000	-1.228351e-002	1.001207e+000	-1.231248e-002	5.782387e-003	-6.488789e-004
750474.006	4.368185e-003	2.681084e-004	1.000814e+000	-1.183721e-002	1.000887e+000	-1.168226e-002	5.565945e-003	-3.964652e-004
813013.089	4.543083e-003	3.598431e-004	1.001168e+000	-1.357843e-002	1.000679e+000	-1.324552e-002	4.923308e-003	-1.414139e-004
875552.173	4.278545e-003	5.988717e-004	1.001089e+000	-1.479873e-002	1.000986e+000	-1.464752e-002	5.705632e-003	-4.824452e-004
938091.257	4.358873e-003	7.476749e-004	1.001115e+000	-1.618928e-002	1.001053e+000	-1.586769e-002	5.941358e-003	1.560297e-004
1000630.341	3.819227e-003	4.553983e-004	1.000762e+000	-1.776913e-002	1.001049e+000	-1.728347e-002	5.184629e-003	-4.592523e-004
1063169.425	4.177595e-003	3.673287e-004	1.001169e+000	-1.917098e-002	1.000813e+000	-1.815571e-002	4.362345e-003	-7.067347e-004
1125708.508	4.046284e-003	4.900719e-004	1.000957e+000	-2.019736e-002	1.000727e+000	-1.972402e-002	3.879974e-003	-3.683335e-004
1188247.592	4.594720e-003	9.638738e-005	1.001047e+000	-2.159810e-002	1.001026e+000	-2.084582e-002	2.776634e-003	-8.531636e-004
1250786.676	4.433750e-003	-5.736557e-004	1.000582e+000	-2.148050e-002	1.000853e+000	-2.144196e-002	2.039271e-003	-2.436304e-003
1313325.760	4.553462e-003	-5.952829e-004	1.000961e+000	-2.303326e-002	1.001023e+000	-2.303513e-002	2.771861e-003	-2.163508e-003
1375864.844	4.285562e-003	-7.177856e-004	1.000653e+000	-2.505558e-002	1.000543e+000	-2.503459e-002	2.635529e-003	-1.822956e-003
1438403.927	4.179542e-003	-8.062765e-004	1.000671e+000	-2.576373e-002	1.000962e+000	-2.508268e-002	2.727968e-003	-1.489321e-003
1500943.011	4.416205e-003	-6.748125e-004	1.001342e+000	-2.685843e-002	1.001351e+000	-2.664842e-002	3.078426e-003	-1.822104e-003
1563482.095	4.407083e-003	-9.700425e-004	1.000904e+000	-2.825748e-002	1.000698e+000	-2.747258e-002	3.225202e-003	-1.544964e-003
1626021.179	4.224807e-003	-7.661725e-004	1.000876e+000	-2.946748e-002	1.001017e+000	-2.988869e-002	3.490652e-003	-1.534487e-003
1688560.263	3.927398e-003	-6.505601e-004	1.000348e+000	-3.135071e-002	1.001306e+000	-3.143666e-002	3.672964e-003	-1.476724e-003
1751099.346	4.074945e-003	-4.796186e-004	1.001114e+000	-3.241115e-002	1.000700e+000	-3.190552e-002	3.481194e-003	-5.685284e-004
1813638.430	3.720818e-003	-4.535705e-004	1.001378e+000	-3.406845e-002	1.001067e+000	-3.393187e-002	3.674643e-003	-8.853012e-004
1876177.514	3.763323e-003	-8.855056e-005	1.001691e+000	-3.506673e-002	1.001396e+000	-3.561727e-002	3.345567e-003	-1.409985e-004
1938716.598	3.225898e-003	5.842207e-005	1.001866e+000	-3.601055e-002	1.001344e+000	-3.545954e-002	3.509140e-003	3.117468e-004
2001255.682	3.132972e-003	-3.464400e-004	1.001786e+000	-3.755716e-002	1.001399e+000	-3.722086e-002	3.287201e-003	-6.882810e-005
2063794.765	3.228571e-003	8.614479e-005	1.001245e+000	-3.855538e-002	1.000630e+000	-3.889393e-002	3.671686e-003	-9.731742e-005
2126333.849	2.765298e-003	-3.513801e-004	1.000735e+000	-3.982762e-002	1.000118e+000	-3.933387e-002	3.938295e-003	2.062157e-004
2188872.933	3.263377e-003	-2.998856e-004	1.000572e+000	-4.103544e-002	1.000046e+000	-4.028890e-002	3.818208e-003	2.332175e-004
2251412.017	3.376722e-003	-5.891641e-004	1.000343e+000	-4.270794e-002	1.000137e+000	-4.155030e-002	3.816106e-003	1.892329e-004
2313951.101	3.683404e-003	-9.826506e-005	9.997047e-001	-4.373138e-002	1.000279e+000	-4.245967e-002	4.119546e-003	1.903125e-004
2376490.184	3.446189e-003	-6.695073e-005	9.996735e-001	-4.417191e-002	1.000006e+000	-4.444128e-002	4.088425e-003	2.477356e-004
2439029.268	3.901401e-003	-4.187951e-005	9.995678e-001	-4.607486e-002	9.992978e-001	-4.556913e-002	3.764048e-003	4.278539e-004
2501568.352	3.873763e-003	4.258422e-006	9.993644e-001	-4.630106e-002	1.000099e+000	-4.624490e-002	4.066415e-003	4.528350e-004
2564107.436	3.791200e-003	-6.075680e-005	9.996720e-001	-4.806722e-002	9.999119e-001	-4.794603e-002	3.367268e-003	1.466236e-004
2626646.520	4.290621e-003	-1.922045e-004	9.995437e-001	-4.929759e-002	9.987719e-001	-4.905111e-002	3.629455e-003	1.395588e-004
2689185.604	4.236479e-003	5.014687e-005	9.998175e-001	-4.996877e-002	9.995460e-001	-4.987510e-002	3.753644e-003	2.663938e-004
2751724.687	4.363163e-003	1.300994e-005	9.997568e-001	-5.090741e-002	9.994537e-001	-5.077800e-002	3.366427e-003	2.900588e-004
2814263.771	4.318126e-003	1.765271e-007	9.988382e-001	-5.285940e-002	9.992254e-001	-5.219215e-002	3.355371e-003	2.238181e-004
2876802.855	4.264911e-003	-1.518585e-004	9.988735e-001	-5.426217e-002	9.991651e-001	-5.333351e-002	3.440128e-003	4.064384e-004
2939341.939	4.390299e-003	-1.928800e-005	9.993514e-001	-5.490329e-002	9.989399e-001	-5.488870e-002	3.334194e-003	3.611251e-004
3001881.023	4.318408e-003	5.748584e-005	9.990554e-001	-5.608710e-002	9.989156e-001	-5.599633e-002	3.438532e-003	2.765233e-004
3064420.106	4.368649e-003	5.776767e-005	9.996732e-001	-5.717145e-002	9.987230e-001	-5.698448e-002	3.273113e-003	2.169399e-004
3126959.190	4.595778e-003	2.364603e-005	9.992247e-001	-5.851063e-002	9.990297e-001	-5.833956e-002	3.465505e-003	2.129459e-004
3189498.274	4.559464e-003	1.098011e-004	9.990979e-001	-5.949589e-002	9.989118e-001	-5.949775e-002	3.462554e-003	1.972467e-004
3252037.358	4.486948e-003	-1.980329e-004	9.991536e-001	-6.078789e-002	9.989397e-001	-6.061963e-002	3.419971e-003	2.847778e-004
3314576.442	4.493716e-003	1.397801e-005	9.990030e-001	-6.185762e-002	9.988271e-001	-6.183192e-002	3.481939e-003	2.350535e-004
3377115.525	4.475954e-003	5.829131e-005	9.988376e-001	-6.294668e-002	9.986000e-001	-6.313048e-002	3.328990e-003	1.501699e-004
3439654.609	4.494144e-003	4.397300e-005	9.986215e-001	-6.418242e-002	9.988298e-001	-6.420222e-002	3.362948e-003	3.786382e-004
3502193.693	4.459052e-003	-2.186650e-004	9.986777e-001	-6.544566e-002	9.985070e-001	-6.523836e-002	3.520668e-003	3.798097e-004
3564732.777	4.521029e-003	-3.812601e-005	9.986601e-001	-6.655727e-002	9.984888e-001	-6.650040e-002	3.639775e-003	4.469132e-004
3627271.861	4.363993e-003	-1.365673e-004	9.986550e-001	-6.781836e-002	9.985236e-001	-6.754973e-002	3.400834e-003	2.656302e-004
3689810.944	4.285561e-003	-2.305674e-004	9.984544e-001	-6.897875e-002	9.984095e-001	-6.875285e-002	3.569717e-003	3.186317e-004
3752350.028	4.393141e-003	-1.631019e-004	9.983907e-001	-6.989039e-002	9.981639e-001	-6.983039e-002	3.504556e-003	2.942242e-004
3814889.112	4.512315e-003	-9.887836e-006	9.982210e-001	-7.115707e-002	9.983416e-001	-7.127103e-002	3.431829e-003	1.926860e-004
3877428.196	4.461106e-003	3.813205e-005	9.983795e-001	-7.237923e-002	9.982028e-001	-7.220485e-002	3.743597e-003	2.273515e-004
3939967.280	4.441331e-003	-2.376348e-004	9.982371e-001	-7.358312e-002	9.982281e-001	-7.338730e-002	3.746901e-003	3.422411e-004
4002506.363	4.510416e-003	-7.299729e-005	9.982316e-001	-7.471100e-002	9.980717e-001	-7.443079e-002	3.695086e-003	2.862027e-004
4065045.447	4.340512e-003	-1.531348e-004	9.979063e-001	-7.594016e-002	9.978604e-001	-7.573261e-002	3.791974e-003	1.900292e-004
4127584.531	4.315875e-003	-1.480353e-004	9.978311e-001	-7.709338e-002	9.978529e-001	-7.680975e-002	3.810346e-003	3.247113e-004
4190123.615	4.367359e-003	-1.042968e-004	9.978136e-001	-7.839919e-002	9.976630e-001	-7.807628e-002	3.730211e-003	1.127249e-004
4252662.699	4.325941e-003	-1.730350e-004	9.978994e-001	-7.958700e-002	9.975158e-001	-7.937723e-002	3.840861e-003	1.493744e-004
4315201.782	4.467899e-003	-2.100643e-004	9.977245e-001	-8.052145e-002	9.976886e-001	-8.055245e-002	3.660167e-003	-2.491694e-005
4377740.866	4.384105e-003	-2.161157e-004	9.977230e-001	-8.187274e-002	9.973874e-001	-8.171492e-002	3.847749e-003	2.788335e-004
4440279.950	4.278745e-003	-3.364833e-004	9.976004e-001	-8.286137e-002	9.972200e-001	-8.273214e-002	3.743624e-003	1.203327e-004
4502819.034	4.288240e-003	-2.020502e-004	9.972314e-001	-8.411657e-002	9.972540e-001	-8.394978e-002	3.832257e-003	2.868345e-004
4565358.118	4.210184e-003	-2.505901e-004	9.971711e-001	-8.523373e-002	9.969929e-001	-8.490321e-002	3.839494e-003	1.739600e-004
4627897.201	4.393724e-003	-1.098002e-004	9.972989e-001	-8.641982e-002	9.970024e-001	-8.609072e-002	3.956046e-003	2.973883e-004
4690436.285	4.222895e-003	-2.279258e-004	9.971931e-001	-8.764486e-002	9.969382e-001	-8.762889e-002	3.957536e-003	9.725511e-005
4752975.369	4.237110e-003	-2.315970e-004	9.968455e-001	-8.893005e-002	9.969324e-001	-8.868861e-002	3.782013e-003	5.014643e-005
4815514.453	4.354582e-003	-2.421250e-004	9.969890e-001	-8.998290e-002	9.968023e-001	-8.994564e-002	4.002300e-003	1.547203e-004
4878053.537	4.466729e-003	-3.258060e-004	9.969069e-001	-9.109707e-002	9.966841e-001	-9.091932e-002	3.985174e-003	7.147583e-005
4940592.620	4.207753e-003	-2.723424e-004	9.966775e-001	-9.232330e-002	9.965751e-001	-9.221502e-002	3.753274e-003	3.280446e-005
5003131.704	4.280883e-003	-4.239439e-004	9.965534e-001	-9.346072e-002	9.965629e-001	-9.315350e-002	3.882785e-003	-2.006327e-005
5065670.788	4.220062e-003	-2.222647e-004	9.964113e-001	-9.467319e-002	9.963325e-001	-9.436781e-002	3.866375e-003	1.711999e-005
5128209.872	4.335446e-003	-3.684124e-004	9.965242e-001	-9.584292e-002	9.962141e-001	-9.557684e-002	3.839083e-003	-1.884976e-004
5190748.956	4.263283e-003	-3.733898e-004	9.962791e-001	-9.702778e-002	9.962430e-001	-9.684113e-002	3.815439e-003	-7.263081e-005
5253288.039	4.313779e-003	-4.193562e-004	9.962612e-001	-9.814744e-002	9.961353e-001	-9.797906e-002	3.760274e-003	2.088645e-005
5315827.123	4.284781e-003	-4.909770e-004	9.959802e-001	-9.933643e-002	9.959837e-001	-9.916901e-002	3.730845e-003	-9.176730e-005
5378366.207	4.387289e-003	-4.357792e-004	9.960154e-001	-1.005189e-001	9.958931e-001	-1.005195e-001	3.739376e-003	-1.914198e-004
5440905.291	4.196429e-003	-3.680763e-004	9.959621e-001	-1.016712e-001	9.958180e-001	-1.015546e-001	3.638424e-003	-1.480588e-004
5503444.375	4.419710e-003	-5.286561e-004	9.957916e-001	-1.029521e-001	9.957266e-001	-1.025786e-001	3.835527e-003	-2.405037e-004
5565983.458	4.072898e-003	-4.066639e-004	9.957072e-001	-1.039561e-001	9.955923e-001	-1.036933e-001	3.769136e-003	-8.706591e-005
5628522.542	4.327382e-003	-4.918435e-004	9.956275e-001	-1.050667e-001	9.955299e-001	-1.050302e-001	3.814633e-003	-2.194093e-004
5691061.626	4.404783e-003	-6.804450e-004	9.954190e-001	-1.064467e-001	9.953158e-001	-1.062380e-001	3.722408e-003	-1.785296e-004
5753600.710	4.252504e-003	-6.098084e-004	9.952662e-001	-1.075436e-001	9.952332e-001	-1.073446e-001	3.774631e-003	-3.291594e-004
5816139.794	4.362476e-003	-4.391913e-004	9.952459e-001	-1.087412e-001	9.949431e-001	-1.086697e-001	3.648264e-003	-2.791458e-004
5878678.877	4.269478e-003	-6.676557e-004	9.950916e-001	-1.099211e-001	9.949431e-001	-1.097268e-001	3.764252e-003	-4.344470e-004
5941217.961	4.270289e-003	-7.460092e-004	9.948711e-001	-1.111459e-001	9.948216e-001	-1.107297e-001	3.566253e-003	-3.535856e-004
6003757.045	4.118151e-003	-5.272843e-004	9.946308e-001	-1.121385e-001	9.946743e-001	-1.118965e-001	3.696867e-003	-3.876703e-004
6066296.129	4.242882e-003	-7.487944e-004	9.947854e-001	-1.133397e-001	9.945226e-001	-1.130673e-001	3.684121e-003	-4.225788e-004
6128835.213	4.351768e-003	-7.303710e-004	9.946197e-001	-1.141952e-001	9.945829e-001	-1.143642e-001	3.786110e-003	-4.367432e-004
6191374.296	4.290940e-003	-7.590153e-004	9.943476e-001	-1.156854e-001	9.942409e-001	-1.156297e-001	3.633359e-003	-3.517865e-004
6253913.380	4.208395e-003	-6.592431e-004	9.943039e-001	-1.168657e-001	9.941439e-001	-1.166417e-001	3.517965e-003	-2.561305e-004
6316452.464	4.184784e-003	-5.888756e-004	9.942045e-001	-1.178865e-001	9.939216e-001	-1.180159e-001	3.567437e-003	-4.858768e-004
6378991.548	4.163148e-003	-7.618022e-004	9.940262e-001	-1.194326e-001	9.940089e-001	-1.190266e-001	3.636643e-003	-6.279860e-004
6441530.632	4.106161e-003	-8.472755e-004	9.938345e-001	-1.203059e-001	9.937871e-001	-1.203175e-001	3.671239e-003	-5.410145e-004
6504069.715	4.097019e-003	-8.773586e-004	9.936457e-001	-1.217017e-001	9.937893e-001	-1.214256e-001	3.694082e-003	-5.580813e-004
6566608.799	4.256751e-003	-9.655906e-004	9.936556e-001	-1.229248e-001	9.935245e-001	-1.226283e-001	3.602281e-003	-3.784831e-004
6629147.883	4.200476e-003	-8.464517e-004	9.934704e-001	-1.237312e-001	9.933369e-001	-1.237830e-001	3.703522e-003	-5.436068e-004
6691686.967	4.081459e-003	-8.388384e-004	9.932211e-001	-1.250008e-001	9.931262e-001	-1.249581e-001	3.725757e-003	-4.657748e-004
6754226.051	4.030045e-003	-8.717787e-004	9.930925e-001	-1.262851e-001	9.928994e-001	-1.262750e-001	3.514410e-003	-6.892209e-004
6816765.134	4.133790e-003	-8.968149e-004	9.929738e-001	-1.273501e-001	9.929012e-001	-1.272638e-001	3.586361e-003	-5.002686e-004
6879304.218	4.024123e-003	-1.066157e-003	9.928121e-001	-1.285746e-001	9.927728e-001	-1.284330e-001	3.564751e-003	-5.841177e-004
6941843.302	4.098901e-003	-9.319637e-004	9.926189e-001	-1.297961e-001	9.925992e-001	-1.295702e-001	3.571631e-003	-5.137179e-004
7004382.386	3.911839e-003	-8.648059e-004	9.925774e-001	-1.308145e-001	9.924036e-001	-1.307183e-001	3.483058e-003	-5.014390e-004
7066921.470	4.011142e-003	-9.340016e-004	9.922847e-001	-1.321269e-001	9.923488e-001	-1.317410e-001	3.649263e-003	-6.729394e-004
7129460.553	3.890909e-003	-1.067625e-003	9.922363e-001	-1.330935e-001	9.921125e-001	-1.330112e-001	3.652239e-003	-6.151532e-004
7191999.637	3.900111e-003	-8.346413e-004	9.918669e-001	-1.343919e-001	9.918434e-001	-1.342087e-001	3.510781e-003	-6.320936e-004
7254538.721	3.955323e-003	-9.595257e-004	9.920232e-001	-1.355693e-001	9.918741e-001	-1.354147e-001	3.548511e-003	-6.240886e-004
7317077.805	4.133709e-003	-1.002901e-003	9.917904e-001	-1.365902e-001	9.917546e-001	-1.365321e-001	3.551198e-003	-7.584517e-004
7379616.889	3.997161e-003	-1.014687e-003	9.917657e-001	-1.379840e-001	9.914715e-001	-1.376906e-001	3.500241e-003	-7.402043e-004
7442155.972	3.847066e-003	-1.024628e-003	9.914263e-001	-1.389588e-001	9.913430e-001	-1.387961e-001	3.587922e-003	-5.424893e-004
7504695.056	3.880577e-003	-1.129384e-003	9.911719e-001	-1.400669e-001	9.910520e-001	-1.401123e-001	3.621089e-003	-4.775497e-004
7567234.140	4.066218e-003	-1.215188e-003	9.911773e-001	-1.412483e-001	9.908881e-001	-1.412132e-001	3.536202e-003	-5.959073e-004
7629773.224	3.968063e-003	-9.385819e-004	9.910322e-001	-1.425651e-001	9.908839e-001	-1.423189e-001	3.462705e-003	-6.640545e-004
7692312.308	3.823253e-003	-1.011116e-003	9.908261e-001	-1.437082e-001	9.905822e-001	-1.435930e-001	3.517211e-003	-7.637756e-004
7754851.391	3.809016e-003	-1.172292e-003	9.906306e-001	-1.449164e-001	9.903316e-001	-1.445344e-001	3.454921e-003	-6.357976e-004
7817390.475	3.884808e-003	-9.670149e-004	9.904782e-001	-1.461753e-001	9.902359e-001	-1.459193e-001	3.393090e-003	-5.350699e-004
7879929.559	3.805440e-003	-1.162713e-003	9.901773e-001	-1.473554e-001	9.900323e-001	-1.472813e-001	3.506943e-003	-5.539219e-004
7942468.643	3.747491e-003	-1.235218e-003	9.901824e-001	-1.483982e-001	9.899769e-001	-1.483422e-001	3.475317e-003	-7.407074e-004
8005007.727	3.839713e-003	-1.225254e-003	9.898864e-001	-1.496522e-001	9.898057e-001	-1.494972e-001	3.395200e-003	-5.234119e-004
8067546.811	3.698686e-003	-1.183636e-003	9.897273e-001	-1.507711e-001	9.894990e-001	-1.505633e-001	3.302480e-003	-7.429579e-004
8130085.894	3.759802e-003	-1.255631e-003	9.895443e-001	-1.518735e-001	9.893763e-001	-1.517940e-001	3.516421e-003	-7.984380e-004
8192624.978	3.588606e-003	-1.331438e-003	9.892017e-001	-1.531700e-001	9.891840e-001	-1.529171e-001	3.554739e-003	-8.297356e-004
8255164.062	3.698828e-003	-1.320162e-003	9.891542e-001	-1.542219e-001	9.889935e-001	-1.540822e-001	3.520793e-003	-8.810808e-004
8317703.146	3.587708e-003	-1.221669e-003	9.890197e-001	-1.554233e-001	9.889149e-001	-1.552479e-001	3.333780e-003	-8.304943e-004
8380242.230	3.701469e-003	-1.464455e-003	9.886423e-001	-1.567060e-001	9.885948e-001	-1.563412e-001	3.300056e-003	-9.013097e-004
8442781.313	3.664548e-003	-1.434849e-003	9.887264e-001	-1.577126e-001	9.884953e-001	-1.574839e-001	3.280098e-003	-9.908987e-004
8505320.397	3.651289e-003	-1.310716e-003	9.884623e-001	-1.589611e-001	9.882880e-001	-1.587029e-001	3.207618e-003	-9.520895e-004
8567859.481	3.595041e-003	-1.162305e-003	9.882382e-001	-1.599789e-001	9.881884e-001	-1.598192e-001	3.245438e-003	-7.990915e-004
8630398.565	3.674181e-003	-1.222685e-003	9.879170e-001	-1.610895e-001	9.879832e-001	-1.609256e-001	3.120006e-003	-1.062315e-003
8692937.649	3.601291e-003	-1.435827e-003	9.877811e-001	-1.622437e-001	9.876163e-001	-1.621640e-001	3.051283e-003	-9.691015e-004
8755476.732	3.616252e-003	-1.387236e-003	9.876282e-001	-1.635069e-001	9.874383e-001	-1.632092e-001	3.118880e-003	-9.600598e-004
8818015.816	3.481566e-003	-1.433531e-003	9.873857e-001	-1.646296e-001	9.871229e-001	-1.644196e-001	3.215989e-003	-1.071230e-003
8880554.900	3.701105e-003	-1.410696e-003	9.873482e-001	-1.658596e-001	9.872002e-001	-1.654599e-001	3.062690e-003	-1.241173e-003
8943093.984	3.512330e-003	-1.321161e-003	9.870793e-001	-1.669372e-001	9.869948e-001	-1.666575e-001	3.064568e-003	-1.191590e-003
9005633.068	3.566622e-003	-1.424357e-003	9.867699e-001	-1.680881e-001	9.868532e-001	-1.679043e-001	2.955530e-003	-1.333547e-003
9068172.151	3.407854e-003	-1.426795e-003	9.866987e-001	-1.692807e-001	9.865065e-001	-1.689103e-001	3.003548e-003	-1.293910e-003
9130711.235	3.612717e-003	-1.513568e-003	9.864381e-001	-1.704354e-001	9.863375e-001	-1.700648e-001	3.041600e-003	-1.495551e-003
9193250.319	3.582702e-003	-1.558579e-003	9.863665e-001	-1.714468e-001	9.861193e-001	-1.713304e-001	2.968292e-003	-1.424458e-003
9255789.403	3.466438e-003	-1.708593e-003	9.861654e-001	-1.725198e-001	9.859016e-001	-1.724174e-001	2.808813e-003	-1.378128e-003
9318328.487	3.419277e-003	-1.630905e-003	9.859153e-001	-1.739651e-001	9.858633e-001	-1.735737e-001	2.910147e-003	-1.397264e-003
9380867.570	3.414548e-003	-1.518726e-003	9.857810e-001	-1.750405e-001	9.854882e-001	-1.748535e-001	2.894636e-003	-1.425693e-003
9443406.654	3.452012e-003	-1.540637e-003	9.855903e-001	-1.761714e-001	9.854072e-001	-1.760470e-001	2.915399e-003	-1.514679e-003
9505945.738	3.425292e-003	-1.514225e-003	9.851650e-001	-1.774595e-001	9.852881e-001	-1.771793e-001	2.854096e-003	-1.545743e-003
9568484.822	3.465597e-003	-1.569536e-003	9.851004e-001	-1.785735e-001	9.848188e-001	-1.783177e-001	2.652621e-003	-1.307641e-003
9631023.906	3.428356e-003	-1.571303e-003	9.849076e-001	-1.797252e-001	9.846011e-001	-1.795208e-001	2.814877e-003	-1.624476e-003
