!Agilent Technologies,E5061B,MY49102235,A.02.00
!Date: Tue Jul 11 16:40:05 2023
!Data & Calibration Information:
!Freq	S11:SOLT2(ON)	S21:SOLT2(ON)	S12:SOLT2(ON)	S22:SOLT2(ON)
# Hz S RI R 50
5.000	-5.124611e-003	-5.635713e-003	1.001541e+000	7.902061e-003	1.000282e+000	1.024380e-002	-1.449420e-003	-7.550847e-003
62544.084	5.805099e-003	-4.932705e-004	1.001304e+000	4.521445e-004	1.000845e+000	1.218162e-003	7.709647e-003	-2.860591e-003
125083.168	5.674606e-003	-4.734495e-004	1.000871e+000	-9.617578e-004	1.000707e+000	-8.411192e-004	7.500031e-003	-2.255129e-003
187622.251	5.448804e-003	-3.054491e-004	1.000504e+000	-2.193951e-003	1.000946e+000	-1.002348e-003	7.375133e-003	-2.344197e-003
250161.335	5.289509e-003	-1.540773e-004	1.000521e+000	-3.188214e-003	1.000564e+000	-3.165317e-003	7.272074e-003	-1.993354e-003
312700.419	5.403157e-003	5.794585e-004	1.000958e+000	-3.832022e-003	1.000753e+000	-3.660443e-003	7.758117e-003	-2.298521e-003
375239.503	5.307608e-003	-9.344883e-004	1.001017e+000	-5.207934e-003	1.000570e+000	-4.981016e-003	7.246146e-003	-2.468850e-003
437778.587	5.119330e-003	-5.337878e-004	1.001423e+000	-5.450692e-003	1.001048e+000	-6.068712e-003	6.615336e-003	-2.184872e-003
500317.670	4.569929e-003	-4.060316e-004	1.001380e+000	-7.856074e-003	1.001654e+000	-7.612299e-003	4.820471e-003	-1.994837e-003
562856.754	5.920641e-003	-7.136930e-004	1.001345e+000	-9.222534e-003	1.001220e+000	-9.103253e-003	6.016690e-003	-1.502305e-003
625395.838	5.082294e-003	-5.484706e-004	1.002226e+000	-1.049354e-002	1.002306e+000	-1.011828e-002	6.083067e-003	-9.335164e-004
687934.922	5.152041e-003	-8.843892e-004	1.001214e+000	-1.148545e-002	1.001100e+000	-1.154329e-002	5.778907e-003	-1.393218e-003
750474.006	4.354408e-003	-5.421820e-004	1.000896e+000	-1.097836e-002	1.000878e+000	-1.072671e-002	5.540620e-003	-1.205366e-003
813013.089	4.536482e-003	-5.326711e-004	1.001115e+000	-1.277876e-002	1.000760e+000	-1.234788e-002	4.895486e-003	-1.040830e-003
875552.173	4.262088e-003	-3.660335e-004	1.001008e+000	-1.370449e-002	1.000965e+000	-1.361478e-002	5.675154e-003	-1.437422e-003
938091.257	4.339606e-003	-2.800021e-004	1.001249e+000	-1.511965e-002	1.001147e+000	-1.473983e-002	5.906917e-003	-8.585350e-004
1000630.341	3.794215e-003	-6.536834e-004	1.000729e+000	-1.661920e-002	1.001082e+000	-1.607311e-002	5.168792e-003	-1.558923e-003
1063169.425	4.141485e-003	-8.037358e-004	1.001037e+000	-1.801640e-002	1.000824e+000	-1.705979e-002	4.341059e-003	-1.895948e-003
1125708.508	4.033603e-003	-7.443211e-004	1.000931e+000	-1.903794e-002	1.000839e+000	-1.834793e-002	3.849394e-003	-1.600515e-003
1188247.592	4.575227e-003	-1.205970e-003	1.001102e+000	-2.020002e-002	1.001122e+000	-1.946270e-002	2.746478e-003	-2.157361e-003
1250786.676	4.409383e-003	-1.937231e-003	1.000592e+000	-2.000822e-002	1.000784e+000	-2.019161e-002	2.016504e-003	-3.812665e-003
1313325.760	4.536235e-003	-2.029786e-003	1.001081e+000	-2.164678e-002	1.001054e+000	-2.176552e-002	2.752272e-003	-3.615819e-003
1375864.844	4.260377e-003	-2.228540e-003	1.000704e+000	-2.360460e-002	1.000669e+000	-2.368521e-002	2.600851e-003	-3.344668e-003
1438403.927	4.146603e-003	-2.387420e-003	1.000636e+000	-2.419874e-002	1.000873e+000	-2.346350e-002	2.689891e-003	-3.084084e-003
1500943.011	4.368303e-003	-2.322780e-003	1.001322e+000	-2.501320e-002	1.001475e+000	-2.496676e-002	3.042294e-003	-3.486035e-003
1563482.095	4.377421e-003	-2.698312e-003	1.000947e+000	-2.656141e-002	1.000771e+000	-2.571887e-002	3.167320e-003	-3.281767e-003
1626021.179	4.173471e-003	-2.555522e-003	1.000758e+000	-2.761322e-002	1.001022e+000	-2.823362e-002	3.442045e-003	-3.324513e-003
1688560.263	3.876371e-003	-2.499820e-003	1.000520e+000	-2.941862e-002	1.001402e+000	-2.951487e-002	3.610255e-003	-3.346948e-003
1751099.346	3.999943e-003	-2.402115e-003	1.001019e+000	-3.052185e-002	1.000941e+000	-2.995626e-002	3.432246e-003	-2.497783e-003
1813638.430	3.652172e-003	-2.452975e-003	1.001271e+000	-3.213466e-002	1.001122e+000	-3.185881e-002	3.614644e-003	-2.887691e-003
1876177.514	3.682568e-003	-2.146494e-003	1.001591e+000	-3.306031e-002	1.001425e+000	-3.349524e-002	3.267024e-003	-2.218400e-003
1938716.598	3.138912e-003	-2.084171e-003	1.001807e+000	-3.395212e-002	1.001504e+000	-3.328321e-002	3.448549e-003	-1.826583e-003
2001255.682	3.051914e-003	-2.565214e-003	1.001807e+000	-3.531294e-002	1.001401e+000	-3.489263e-002	3.190103e-003	-2.282426e-003
2063794.765	3.151617e-003	-2.177524e-003	1.001408e+000	-3.621798e-002	1.000726e+000	-3.662610e-002	3.579920e-003	-2.387145e-003
2126333.849	2.678914e-003	-2.713086e-003	1.000755e+000	-3.755438e-002	1.000167e+000	-3.692941e-002	3.837462e-003	-2.129085e-003
2188872.933	3.164488e-003	-2.699198e-003	1.000649e+000	-3.859729e-002	1.000191e+000	-3.794985e-002	3.713576e-003	-2.170512e-003
2251412.017	3.268628e-003	-3.076746e-003	1.000399e+000	-4.018551e-002	1.000218e+000	-3.902696e-002	3.715206e-003	-2.288913e-003
2313951.101	3.585048e-003	-2.646923e-003	9.998775e-001	-4.115084e-002	1.000295e+000	-4.000380e-002	4.011180e-003	-2.350952e-003
2376490.184	3.320086e-003	-2.677229e-003	9.997099e-001	-4.145722e-002	1.000282e+000	-4.169283e-002	3.974787e-003	-2.351602e-003
2439029.268	3.780821e-003	-2.730228e-003	9.998202e-001	-4.350678e-002	9.994041e-001	-4.293947e-002	3.639412e-003	-2.253945e-003
2501568.352	3.746259e-003	-2.734418e-003	9.994004e-001	-4.358338e-002	1.000290e+000	-4.343679e-002	3.940609e-003	-2.293690e-003
2564107.436	3.656745e-003	-2.877761e-003	9.998209e-001	-4.520720e-002	1.000013e+000	-4.507136e-002	3.237129e-003	-2.677527e-003
2626646.520	4.143545e-003	-3.076240e-003	9.995832e-001	-4.645380e-002	9.989318e-001	-4.619825e-002	3.494331e-003	-2.748054e-003
2689185.604	4.095643e-003	-2.919804e-003	1.000029e+000	-4.725214e-002	9.996037e-001	-4.695052e-002	3.592236e-003	-2.697154e-003
2751724.687	4.204312e-003	-3.008096e-003	9.997951e-001	-4.778257e-002	9.995890e-001	-4.784286e-002	3.222380e-003	-2.752562e-003
2814263.771	4.153669e-003	-3.090149e-003	9.989189e-001	-4.969240e-002	9.992913e-001	-4.901971e-002	3.201769e-003	-2.870629e-003
2876802.855	4.105560e-003	-3.311168e-003	9.990246e-001	-5.117724e-002	9.993078e-001	-5.020253e-002	3.268417e-003	-2.763876e-003
2939341.939	4.216396e-003	-3.249070e-003	9.994948e-001	-5.164801e-002	9.992622e-001	-5.163880e-002	3.169762e-003	-2.877994e-003
3001881.023	4.142798e-003	-3.230395e-003	9.991299e-001	-5.272051e-002	9.991979e-001	-5.272202e-002	3.252924e-003	-3.019609e-003
3064420.106	4.185236e-003	-3.296938e-003	9.996624e-001	-5.386298e-002	9.990028e-001	-5.370556e-002	3.080654e-003	-3.170382e-003
3126959.190	4.380069e-003	-3.408111e-003	9.994058e-001	-5.505661e-002	9.992522e-001	-5.488016e-002	3.260929e-003	-3.237945e-003
3189498.274	4.372779e-003	-3.399859e-003	9.992912e-001	-5.602642e-002	9.991289e-001	-5.598613e-002	3.263664e-003	-3.304739e-003
3252037.358	4.276295e-003	-3.772480e-003	9.993425e-001	-5.720658e-002	9.991746e-001	-5.699669e-002	3.195896e-003	-3.273429e-003
3314576.442	4.277213e-003	-3.628913e-003	9.992346e-001	-5.820422e-002	9.990457e-001	-5.814643e-002	3.244724e-003	-3.402749e-003
3377115.525	4.234597e-003	-3.643129e-003	9.990853e-001	-5.922601e-002	9.987964e-001	-5.937123e-002	3.105124e-003	-3.562399e-003
3439654.609	4.260494e-003	-3.745320e-003	9.988453e-001	-6.039579e-002	9.990574e-001	-6.035891e-002	3.119564e-003	-3.405040e-003
3502193.693	4.209619e-003	-4.063289e-003	9.988714e-001	-6.157302e-002	9.987235e-001	-6.136937e-002	3.266276e-003	-3.474486e-003
3564732.777	4.252575e-003	-3.955184e-003	9.989065e-001	-6.259235e-002	9.987785e-001	-6.255409e-002	3.363570e-003	-3.469538e-003
3627271.861	4.091443e-003	-4.125030e-003	9.989107e-001	-6.376755e-002	9.988113e-001	-6.354394e-002	3.136209e-003	-3.724891e-003
3689810.944	4.000145e-003	-4.263619e-003	9.987228e-001	-6.493714e-002	9.986980e-001	-6.462128e-002	3.290882e-003	-3.739019e-003
3752350.028	4.119298e-003	-4.277903e-003	9.986459e-001	-6.577054e-002	9.984853e-001	-6.568003e-002	3.219038e-003	-3.830130e-003
3814889.112	4.213572e-003	-4.194611e-003	9.984581e-001	-6.690720e-002	9.986200e-001	-6.704069e-002	3.133369e-003	-3.997675e-003
3877428.196	4.157014e-003	-4.227163e-003	9.986388e-001	-6.803350e-002	9.985484e-001	-6.790545e-002	3.452807e-003	-4.031121e-003
3939967.280	4.128770e-003	-4.553973e-003	9.984915e-001	-6.922313e-002	9.985530e-001	-6.905389e-002	3.438338e-003	-3.980835e-003
4002506.363	4.188464e-003	-4.466752e-003	9.984951e-001	-7.031416e-002	9.983929e-001	-6.998642e-002	3.363466e-003	-4.110962e-003
4065045.447	3.990430e-003	-4.604776e-003	9.982242e-001	-7.144382e-002	9.982037e-001	-7.123851e-002	3.450888e-003	-4.254082e-003
4127584.531	3.972168e-003	-4.671246e-003	9.981188e-001	-7.251716e-002	9.982241e-001	-7.226456e-002	3.463057e-003	-4.205754e-003
4190123.615	4.009556e-003	-4.709292e-003	9.981662e-001	-7.378912e-002	9.979749e-001	-7.348473e-002	3.374435e-003	-4.480139e-003
4252662.699	3.963813e-003	-4.836169e-003	9.982133e-001	-7.492798e-002	9.978851e-001	-7.465890e-002	3.466954e-003	-4.511793e-003
4315201.782	4.089646e-003	-4.925219e-003	9.980549e-001	-7.581047e-002	9.980713e-001	-7.577897e-002	3.294687e-003	-4.757176e-003
4377740.866	3.982444e-003	-5.012815e-003	9.980938e-001	-7.704038e-002	9.977507e-001	-7.686272e-002	3.457587e-003	-4.517682e-003
4440279.950	3.893260e-003	-5.222646e-003	9.979199e-001	-7.796720e-002	9.976168e-001	-7.786914e-002	3.339603e-003	-4.749943e-003
4502819.034	3.866028e-003	-5.134557e-003	9.976326e-001	-7.917019e-002	9.976555e-001	-7.896739e-002	3.420069e-003	-4.660314e-003
4565358.118	3.798698e-003	-5.243315e-003	9.975943e-001	-8.025538e-002	9.973917e-001	-7.986256e-002	3.433554e-003	-4.834834e-003
4627897.201	3.964788e-003	-5.182406e-003	9.976466e-001	-8.134291e-002	9.974140e-001	-8.099315e-002	3.522528e-003	-4.781159e-003
4690436.285	3.780006e-003	-5.369280e-003	9.975817e-001	-8.249548e-002	9.973809e-001	-8.246223e-002	3.522930e-003	-5.041070e-003
4752975.369	3.774636e-003	-5.440405e-003	9.972950e-001	-8.371814e-002	9.973736e-001	-8.343150e-002	3.332140e-003	-5.161437e-003
4815514.453	3.898413e-003	-5.506929e-003	9.974038e-001	-8.469342e-002	9.972427e-001	-8.462079e-002	3.540005e-003	-5.142345e-003
4878053.537	3.992623e-003	-5.660108e-003	9.973520e-001	-8.570345e-002	9.971546e-001	-8.554000e-002	3.498346e-003	-5.293306e-003
4940592.620	3.714759e-003	-5.694018e-003	9.971462e-001	-8.687776e-002	9.970576e-001	-8.676097e-002	3.262131e-003	-5.391730e-003
5003131.704	3.777399e-003	-5.895693e-003	9.970108e-001	-8.798004e-002	9.970432e-001	-8.761729e-002	3.372932e-003	-5.501603e-003
5065670.788	3.702934e-003	-5.774347e-003	9.969124e-001	-8.911187e-002	9.968727e-001	-8.879514e-002	3.347532e-003	-5.536401e-003
5128209.872	3.815518e-003	-5.975781e-003	9.970170e-001	-9.020114e-002	9.967944e-001	-8.989859e-002	3.321831e-003	-5.816763e-003
5190748.956	3.720154e-003	-6.067202e-003	9.968077e-001	-9.136814e-002	9.967592e-001	-9.115903e-002	3.285097e-003	-5.759079e-003
5253288.039	3.759912e-003	-6.162387e-003	9.968244e-001	-9.239190e-002	9.966389e-001	-9.215516e-002	3.195597e-003	-5.756144e-003
5315827.123	3.722818e-003	-6.305730e-003	9.964834e-001	-9.352521e-002	9.965246e-001	-9.328371e-002	3.182529e-003	-5.925237e-003
5378366.207	3.801605e-003	-6.329643e-003	9.965441e-001	-9.462309e-002	9.964837e-001	-9.457996e-002	3.170921e-003	-6.095226e-003
5440905.291	3.598815e-003	-6.304752e-003	9.965243e-001	-9.569484e-002	9.963859e-001	-9.562964e-002	3.048740e-003	-6.121693e-003
5503444.375	3.811764e-003	-6.563384e-003	9.963862e-001	-9.689324e-002	9.963871e-001	-9.652677e-002	3.251672e-003	-6.267034e-003
5565983.458	3.438791e-003	-6.490573e-003	9.962923e-001	-9.783429e-002	9.962295e-001	-9.758981e-002	3.154246e-003	-6.195093e-003
5628522.542	3.701507e-003	-6.659477e-003	9.962517e-001	-9.890435e-002	9.961289e-001	-9.885550e-002	3.197947e-003	-6.384351e-003
5691061.626	3.766403e-003	-6.900580e-003	9.961028e-001	-1.001900e-001	9.959429e-001	-9.990422e-002	3.079165e-003	-6.410117e-003
5753600.710	3.583101e-003	-6.898818e-003	9.958465e-001	-1.011881e-001	9.958969e-001	-1.009916e-001	3.135151e-003	-6.617107e-003
5816139.794	3.689854e-003	-6.793036e-003	9.958465e-001	-1.023391e-001	9.956026e-001	-1.022619e-001	2.976030e-003	-6.660054e-003
5878678.877	3.578435e-003	-7.105192e-003	9.957344e-001	-1.034315e-001	9.956221e-001	-1.032822e-001	3.086985e-003	-6.873097e-003
5941217.961	3.569640e-003	-7.258866e-003	9.955370e-001	-1.046255e-001	9.954814e-001	-1.041875e-001	2.875892e-003	-6.857603e-003
6003757.045	3.398909e-003	-7.100359e-003	9.953437e-001	-1.055730e-001	9.953702e-001	-1.052798e-001	2.994192e-003	-6.947425e-003
6066296.129	3.524239e-003	-7.385108e-003	9.954117e-001	-1.066832e-001	9.953060e-001	-1.063169e-001	2.955835e-003	-7.066044e-003
6128835.213	3.603152e-003	-7.431225e-003	9.952529e-001	-1.074536e-001	9.953435e-001	-1.075933e-001	3.056284e-003	-7.142040e-003
6191374.296	3.528142e-003	-7.525332e-003	9.951096e-001	-1.088683e-001	9.950073e-001	-1.088332e-001	2.875466e-003	-7.132225e-003
6253913.380	3.434305e-003	-7.500500e-003	9.950515e-001	-1.100381e-001	9.949276e-001	-1.097454e-001	2.750139e-003	-7.118352e-003
6316452.464	3.396598e-003	-7.504977e-003	9.949764e-001	-1.109658e-001	9.946949e-001	-1.110417e-001	2.780681e-003	-7.412966e-003
6378991.548	3.350947e-003	-7.737484e-003	9.948078e-001	-1.124180e-001	9.947963e-001	-1.119839e-001	2.837527e-003	-7.603537e-003
6441530.632	3.268275e-003	-7.889633e-003	9.946302e-001	-1.132014e-001	9.946352e-001	-1.132122e-001	2.867744e-003	-7.585480e-003
6504069.715	3.263672e-003	-8.003793e-003	9.944265e-001	-1.145411e-001	9.946319e-001	-1.142466e-001	2.866757e-003	-7.677417e-003
6566608.799	3.397993e-003	-8.133332e-003	9.945012e-001	-1.156719e-001	9.943727e-001	-1.154235e-001	2.752385e-003	-7.562862e-003
6629147.883	3.323235e-003	-8.089183e-003	9.942995e-001	-1.164750e-001	9.942088e-001	-1.164552e-001	2.841176e-003	-7.787001e-003
6691686.967	3.203182e-003	-8.151409e-003	9.940843e-001	-1.176773e-001	9.940689e-001	-1.175518e-001	2.855999e-003	-7.786240e-003
6754226.051	3.132922e-003	-8.250524e-003	9.939304e-001	-1.188751e-001	9.938000e-001	-1.188090e-001	2.631075e-003	-8.084689e-003
6816765.134	3.220446e-003	-8.339211e-003	9.939004e-001	-1.198913e-001	9.938241e-001	-1.197667e-001	2.674664e-003	-7.958669e-003
6879304.218	3.086306e-003	-8.590373e-003	9.936693e-001	-1.210369e-001	9.937037e-001	-1.208336e-001	2.640623e-003	-8.111833e-003
6941843.302	3.159409e-003	-8.503377e-003	9.935536e-001	-1.221929e-001	9.935907e-001	-1.219157e-001	2.632803e-003	-8.114835e-003
7004382.386	2.939923e-003	-8.518861e-003	9.934737e-001	-1.231509e-001	9.933871e-001	-1.230197e-001	2.533014e-003	-8.165424e-003
7066921.470	3.023512e-003	-8.654530e-003	9.932566e-001	-1.244023e-001	9.933036e-001	-1.239589e-001	2.671612e-003	-8.400727e-003
7129460.553	2.905184e-003	-8.852709e-003	9.931899e-001	-1.252868e-001	9.931486e-001	-1.251890e-001	2.653200e-003	-8.421836e-003
7191999.637	2.876203e-003	-8.680619e-003	9.928289e-001	-1.264868e-001	9.928722e-001	-1.262833e-001	2.500702e-003	-8.505651e-003
7254538.721	2.909773e-003	-8.886119e-003	9.930173e-001	-1.276179e-001	9.928908e-001	-1.273928e-001	2.517974e-003	-8.564755e-003
7317077.805	3.076513e-003	-8.989576e-003	9.928033e-001	-1.285769e-001	9.927990e-001	-1.284425e-001	2.513035e-003	-8.751197e-003
7379616.889	2.914830e-003	-9.079305e-003	9.928198e-001	-1.299098e-001	9.925483e-001	-1.295578e-001	2.432940e-003	-8.814420e-003
7442155.972	2.744383e-003	-9.148731e-003	9.924794e-001	-1.307857e-001	9.924855e-001	-1.305959e-001	2.492347e-003	-8.660068e-003
7504695.056	2.763901e-003	-9.322784e-003	9.922261e-001	-1.318598e-001	9.921858e-001	-1.318808e-001	2.517853e-003	-8.678961e-003
7567234.140	2.915422e-003	-9.473857e-003	9.922238e-001	-1.329340e-001	9.920564e-001	-1.328816e-001	2.420173e-003	-8.877950e-003
7629773.224	2.816097e-003	-9.259947e-003	9.921561e-001	-1.342269e-001	9.920476e-001	-1.339254e-001	2.310504e-003	-9.004426e-003
7692312.308	2.649963e-003	-9.396885e-003	9.919623e-001	-1.352654e-001	9.917899e-001	-1.351317e-001	2.357032e-003	-9.184662e-003
7754851.391	2.614283e-003	-9.640180e-003	9.918044e-001	-1.363670e-001	9.915360e-001	-1.360256e-001	2.285908e-003	-9.112732e-003
7817390.475	2.681060e-003	-9.507523e-003	9.916555e-001	-1.376052e-001	9.914434e-001	-1.373584e-001	2.184336e-003	-9.083304e-003
7879929.559	2.573285e-003	-9.774634e-003	9.914138e-001	-1.387170e-001	9.912811e-001	-1.386064e-001	2.285796e-003	-9.169048e-003
7942468.643	2.506173e-003	-9.904704e-003	9.913954e-001	-1.397117e-001	9.912133e-001	-1.396336e-001	2.251365e-003	-9.428293e-003
8005007.727	2.577252e-003	-9.946971e-003	9.910896e-001	-1.408419e-001	9.910919e-001	-1.407466e-001	2.128759e-003	-9.271593e-003
8067546.811	2.411255e-003	-9.977987e-003	9.910132e-001	-1.419366e-001	9.907663e-001	-1.417209e-001	2.028961e-003	-9.569337e-003
8130085.894	2.457935e-003	-1.012520e-002	9.907892e-001	-1.429569e-001	9.907178e-001	-1.428671e-001	2.234495e-003	-9.689515e-003
8192624.978	2.277878e-003	-1.026642e-002	9.904771e-001	-1.441586e-001	9.905513e-001	-1.438633e-001	2.244677e-003	-9.777677e-003
8255164.062	2.355633e-003	-1.032381e-002	9.904633e-001	-1.451825e-001	9.903232e-001	-1.450179e-001	2.193781e-003	-9.895311e-003
8317703.146	2.217538e-003	-1.029381e-002	9.903335e-001	-1.463362e-001	9.902995e-001	-1.461397e-001	1.988369e-003	-9.913693e-003
8380242.230	2.317679e-003	-1.059859e-002	9.900139e-001	-1.475519e-001	9.900307e-001	-1.471467e-001	1.924051e-003	-1.005689e-002
8442781.313	2.266167e-003	-1.064393e-002	9.901078e-001	-1.484643e-001	9.898814e-001	-1.482090e-001	1.882211e-003	-1.021581e-002
8505320.397	2.220371e-003	-1.058487e-002	9.898827e-001	-1.496552e-001	9.897031e-001	-1.493545e-001	1.794345e-003	-1.025214e-002
8567859.481	2.140723e-003	-1.050340e-002	9.896726e-001	-1.505935e-001	9.896285e-001	-1.504084e-001	1.811624e-003	-1.014223e-002
8630398.565	2.204992e-003	-1.063793e-002	9.893181e-001	-1.516437e-001	9.894377e-001	-1.514694e-001	1.663009e-003	-1.048370e-002
8692937.649	2.117226e-003	-1.092983e-002	9.892771e-001	-1.527239e-001	9.891326e-001	-1.526522e-001	1.581346e-003	-1.046442e-002
8755476.732	2.098853e-003	-1.093332e-002	9.891372e-001	-1.539402e-001	9.889615e-001	-1.536036e-001	1.619034e-003	-1.051534e-002
8818015.816	1.945349e-003	-1.105347e-002	9.888636e-001	-1.549656e-001	9.886517e-001	-1.547376e-001	1.695360e-003	-1.069590e-002
8880554.900	2.135322e-003	-1.108898e-002	9.888656e-001	-1.561580e-001	9.887542e-001	-1.556747e-001	1.535154e-003	-1.093266e-002
8943093.984	1.944045e-003	-1.105784e-002	9.886043e-001	-1.571166e-001	9.885688e-001	-1.568413e-001	1.510064e-003	-1.095980e-002
9005633.068	1.972538e-003	-1.123731e-002	9.883331e-001	-1.582312e-001	9.884683e-001	-1.580120e-001	1.381564e-003	-1.116008e-002
9068172.151	1.784720e-003	-1.131335e-002	9.882864e-001	-1.593718e-001	9.881438e-001	-1.590178e-001	1.413052e-003	-1.118797e-002
9130711.235	1.969635e-003	-1.145593e-002	9.880111e-001	-1.604489e-001	9.879964e-001	-1.600733e-001	1.420732e-003	-1.143602e-002
9193250.319	1.923485e-003	-1.155885e-002	9.879845e-001	-1.613654e-001	9.877910e-001	-1.612791e-001	1.311897e-003	-1.145441e-002
9255789.403	1.780554e-003	-1.178991e-002	9.878069e-001	-1.624058e-001	9.876194e-001	-1.622819e-001	1.143812e-003	-1.148339e-002
9318328.487	1.703672e-003	-1.177063e-002	9.876057e-001	-1.637173e-001	9.875712e-001	-1.633231e-001	1.220420e-003	-1.155432e-002
9380867.570	1.675720e-003	-1.173268e-002	9.874546e-001	-1.648350e-001	9.872341e-001	-1.645697e-001	1.178938e-003	-1.165381e-002
9443406.654	1.685772e-003	-1.182652e-002	9.872940e-001	-1.658579e-001	9.871935e-001	-1.657247e-001	1.192461e-003	-1.181615e-002
9505945.738	1.641391e-003	-1.187865e-002	9.869135e-001	-1.670946e-001	9.870517e-001	-1.667640e-001	1.107092e-003	-1.191325e-002
9568484.822	1.649252e-003	-1.199344e-002	9.868651e-001	-1.681269e-001	9.866420e-001	-1.678310e-001	8.659096e-004	-1.174757e-002
