!Agilent Technologies,E5061B,MY49102235,A.02.00
!Date: Tue Jul 11 15:03:55 2023
!Data & Calibration Information:
!Freq	S11:SOLT2(ON)	S21:SOLT2(ON)	S12:SOLT2(ON)	S22:SOLT2(ON)
# Hz S RI R 50
5.000	-5.224852e-003	-5.654367e-003	1.001471e+000	8.009797e-003	1.000135e+000	1.023325e-002	-1.465779e-003	-7.533976e-003
62544.084	5.808087e-003	-4.424819e-004	1.001398e+000	5.296059e-004	1.000842e+000	1.010922e-003	7.695791e-003	-2.813256e-003
125083.168	5.679597e-003	-3.852336e-004	1.001000e+000	-8.725223e-004	1.000712e+000	-1.003065e-003	7.502595e-003	-2.154157e-003
187622.251	5.443470e-003	-1.482320e-004	1.000532e+000	-2.277603e-003	1.001074e+000	-1.127412e-003	7.356968e-003	-2.196119e-003
250161.335	5.271337e-003	5.987176e-005	1.000556e+000	-3.419764e-003	1.000722e+000	-3.447438e-003	7.247647e-003	-1.788290e-003
312700.419	5.426143e-003	8.353978e-004	1.000803e+000	-4.015296e-003	1.000578e+000	-3.821581e-003	7.778348e-003	-2.050948e-003
375239.503	5.297386e-003	-6.104846e-004	1.001037e+000	-5.521150e-003	1.000778e+000	-5.347403e-003	7.228987e-003	-2.160195e-003
437778.587	5.138100e-003	-1.474880e-004	1.001315e+000	-5.866768e-003	1.001142e+000	-6.480985e-003	6.601591e-003	-1.802027e-003
500317.670	4.586420e-003	1.988360e-005	1.001307e+000	-8.250956e-003	1.001677e+000	-8.094171e-003	4.805881e-003	-1.580591e-003
562856.754	5.891772e-003	-2.098648e-004	1.001405e+000	-9.876009e-003	1.001164e+000	-9.731463e-003	6.000729e-003	-1.008954e-003
625395.838	5.079008e-003	-1.527714e-005	1.002211e+000	-1.099569e-002	1.002259e+000	-1.059396e-002	6.099157e-003	-4.127694e-004
687934.922	5.142170e-003	-2.883193e-004	1.001281e+000	-1.205281e-002	1.001299e+000	-1.226975e-002	5.735055e-003	-7.992703e-004
750474.006	4.383400e-003	1.192318e-004	1.000955e+000	-1.172291e-002	1.000886e+000	-1.156350e-002	5.559995e-003	-5.511687e-004
813013.089	4.562437e-003	1.873303e-004	1.001186e+000	-1.347754e-002	1.000692e+000	-1.313836e-002	4.909674e-003	-3.316541e-004
875552.173	4.290339e-003	4.049705e-004	1.001187e+000	-1.450724e-002	1.000993e+000	-1.457523e-002	5.690031e-003	-6.651700e-004
938091.257	4.359549e-003	5.348494e-004	1.001186e+000	-1.581431e-002	1.001221e+000	-1.566976e-002	5.934464e-003	-5.249684e-005
1000630.341	3.808505e-003	2.392082e-004	1.000734e+000	-1.730874e-002	1.001084e+000	-1.702715e-002	5.179708e-003	-6.824524e-004
1063169.425	4.162291e-003	1.354325e-004	1.001234e+000	-1.870723e-002	1.000856e+000	-1.800987e-002	4.349332e-003	-9.483915e-004
1125708.508	4.053925e-003	2.412653e-004	1.000883e+000	-2.007073e-002	1.000764e+000	-1.939345e-002	3.855322e-003	-5.992665e-004
1188247.592	4.605860e-003	-1.606169e-004	1.001068e+000	-2.122210e-002	1.001085e+000	-2.057285e-002	2.763638e-003	-1.110000e-003
1250786.676	4.439014e-003	-8.331861e-004	1.000690e+000	-2.105767e-002	1.000774e+000	-2.132145e-002	2.021216e-003	-2.718956e-003
1313325.760	4.551988e-003	-8.824991e-004	1.000964e+000	-2.270392e-002	1.001049e+000	-2.294753e-002	2.763255e-003	-2.463564e-003
1375864.844	4.282466e-003	-1.014709e-003	1.000720e+000	-2.468625e-002	1.000571e+000	-2.487925e-002	2.611258e-003	-2.113024e-003
1438403.927	4.187579e-003	-1.118008e-003	1.000673e+000	-2.548736e-002	1.000952e+000	-2.468698e-002	2.711829e-003	-1.796705e-003
1500943.011	4.409390e-003	-1.004574e-003	1.001416e+000	-2.638246e-002	1.001526e+000	-2.630841e-002	3.057004e-003	-2.148924e-003
1563482.095	4.399074e-003	-1.305695e-003	1.000883e+000	-2.768652e-002	1.000831e+000	-2.706793e-002	3.208558e-003	-1.898935e-003
1626021.179	4.217865e-003	-1.123717e-003	1.000734e+000	-2.914959e-002	1.001042e+000	-2.975618e-002	3.475577e-003	-1.881003e-003
1688560.263	3.923157e-003	-1.004052e-003	1.000467e+000	-3.087665e-002	1.001227e+000	-3.107918e-002	3.647716e-003	-1.856062e-003
1751099.346	4.055157e-003	-8.502770e-004	1.001078e+000	-3.193811e-002	1.000759e+000	-3.165867e-002	3.452427e-003	-9.560655e-004
1813638.430	3.696464e-003	-8.404310e-004	1.001240e+000	-3.366727e-002	1.001009e+000	-3.342278e-002	3.645345e-003	-1.277403e-003
1876177.514	3.754736e-003	-4.951062e-004	1.001712e+000	-3.460562e-002	1.001272e+000	-3.516707e-002	3.320912e-003	-5.527191e-004
1938716.598	3.195584e-003	-3.718063e-004	1.001848e+000	-3.547789e-002	1.001326e+000	-3.503993e-002	3.491984e-003	-1.018282e-004
2001255.682	3.114766e-003	-7.909922e-004	1.001681e+000	-3.678541e-002	1.001258e+000	-3.670441e-002	3.246725e-003	-5.232194e-004
2063794.765	3.209224e-003	-3.557068e-004	1.001353e+000	-3.806066e-002	1.000813e+000	-3.833748e-002	3.627280e-003	-5.163258e-004
2126333.849	2.750910e-003	-8.193391e-004	1.000894e+000	-3.934802e-002	1.000095e+000	-3.894695e-002	3.889401e-003	-2.489727e-004
2188872.933	3.244687e-003	-7.669996e-004	1.000619e+000	-4.054996e-002	1.000114e+000	-3.982067e-002	3.782223e-003	-2.185520e-004
2251412.017	3.350901e-003	-1.072395e-003	1.000321e+000	-4.208946e-002	1.000244e+000	-4.107024e-002	3.774415e-003	-3.049335e-004
2313951.101	3.675840e-003	-6.079876e-004	9.999407e-001	-4.313887e-002	1.000288e+000	-4.210286e-002	4.091281e-003	-3.113438e-004
2376490.184	3.415964e-003	-5.850686e-004	9.997293e-001	-4.355769e-002	1.000156e+000	-4.388324e-002	4.040287e-003	-2.535094e-004
2439029.268	3.871330e-003	-5.597775e-004	9.997529e-001	-4.539301e-002	9.993744e-001	-4.496336e-002	3.716473e-003	-9.007532e-005
2501568.352	3.845312e-003	-5.268284e-004	9.993673e-001	-4.565943e-002	1.000181e+000	-4.577262e-002	4.012848e-003	-7.270265e-005
2564107.436	3.766989e-003	-6.214593e-004	9.997034e-001	-4.746303e-002	9.999488e-001	-4.738601e-002	3.320938e-003	-3.989764e-004
2626646.520	4.261857e-003	-7.539686e-004	9.995316e-001	-4.863660e-002	9.987395e-001	-4.853845e-002	3.577019e-003	-4.119647e-004
2689185.604	4.210363e-003	-5.392202e-004	9.998499e-001	-4.938667e-002	9.995088e-001	-4.935547e-002	3.711373e-003	-3.083421e-004
2751724.687	4.331112e-003	-5.803531e-004	9.997282e-001	-5.019084e-002	9.993795e-001	-5.019481e-002	3.316493e-003	-3.036982e-004
2814263.771	4.288920e-003	-6.116296e-004	9.988371e-001	-5.222299e-002	9.992128e-001	-5.143541e-002	3.298288e-003	-3.699602e-004
2876802.855	4.236243e-003	-7.648889e-004	9.989827e-001	-5.360166e-002	9.991615e-001	-5.262398e-002	3.376384e-003	-1.973337e-004
2939341.939	4.349951e-003	-6.354810e-004	9.995556e-001	-5.418820e-002	9.991779e-001	-5.425858e-002	3.286814e-003	-2.506314e-004
3001881.023	4.274853e-003	-5.917970e-004	9.991826e-001	-5.527958e-002	9.988920e-001	-5.537081e-002	3.371002e-003	-3.558770e-004
3064420.106	4.336343e-003	-5.922189e-004	9.996853e-001	-5.641294e-002	9.988805e-001	-5.633553e-002	3.218288e-003	-4.349784e-004
3126959.190	4.544648e-003	-6.513199e-004	9.992544e-001	-5.771172e-002	9.991057e-001	-5.764910e-002	3.387067e-003	-4.442067e-004
3189498.274	4.528089e-003	-5.686733e-004	9.991748e-001	-5.872989e-002	9.989512e-001	-5.878980e-002	3.397727e-003	-4.767425e-004
3252037.358	4.436044e-003	-9.015106e-004	9.992207e-001	-5.998856e-002	9.990348e-001	-5.986787e-002	3.341921e-003	-3.862930e-004
3314576.442	4.447167e-003	-6.992769e-004	9.991278e-001	-6.102307e-002	9.989395e-001	-6.106731e-002	3.403655e-003	-4.619269e-004
3377115.525	4.430563e-003	-6.679194e-004	9.989171e-001	-6.213121e-002	9.986438e-001	-6.233653e-002	3.255102e-003	-5.648943e-004
3439654.609	4.439573e-003	-7.000756e-004	9.987175e-001	-6.332908e-002	9.989274e-001	-6.343880e-002	3.283495e-003	-3.445962e-004
3502193.693	4.404632e-003	-9.679387e-004	9.986986e-001	-6.458109e-002	9.985676e-001	-6.444531e-002	3.440084e-003	-3.613081e-004
3564732.777	4.457304e-003	-7.978694e-004	9.987322e-001	-6.568126e-002	9.985584e-001	-6.567186e-002	3.534602e-003	-3.123412e-004
3627271.861	4.305279e-003	-9.180946e-004	9.987409e-001	-6.692968e-002	9.986050e-001	-6.674959e-002	3.311483e-003	-4.972667e-004
3689810.944	4.224054e-003	-1.014098e-003	9.985435e-001	-6.807311e-002	9.984887e-001	-6.784963e-002	3.479858e-003	-4.721050e-004
3752350.028	4.342597e-003	-9.710474e-004	9.984098e-001	-6.898593e-002	9.982960e-001	-6.900274e-002	3.420302e-003	-4.907552e-004
3814889.112	4.454343e-003	-8.185843e-004	9.983197e-001	-7.024058e-002	9.984354e-001	-7.044579e-002	3.342822e-003	-6.114364e-004
3877428.196	4.399677e-003	-7.927591e-004	9.984538e-001	-7.142695e-002	9.983348e-001	-7.134747e-002	3.666235e-003	-5.775470e-004
3939967.280	4.372299e-003	-1.074849e-003	9.983180e-001	-7.266848e-002	9.983020e-001	-7.252315e-002	3.649882e-003	-4.863486e-004
4002506.363	4.444257e-003	-9.310050e-004	9.983047e-001	-7.377344e-002	9.981747e-001	-7.352256e-002	3.596039e-003	-5.409241e-004
4065045.447	4.271824e-003	-1.005009e-003	9.979937e-001	-7.494033e-002	9.979943e-001	-7.480890e-002	3.687761e-003	-6.522116e-004
4127584.531	4.239656e-003	-1.035046e-003	9.979070e-001	-7.608126e-002	9.979396e-001	-7.586090e-002	3.708646e-003	-5.399514e-004
4190123.615	4.292195e-003	-1.000412e-003	9.979661e-001	-7.738854e-002	9.977303e-001	-7.716309e-002	3.614596e-003	-7.644787e-004
4252662.699	4.257444e-003	-1.071012e-003	9.979351e-001	-7.855872e-002	9.976415e-001	-7.842403e-002	3.730530e-003	-7.306875e-004
4315201.782	4.387375e-003	-1.123192e-003	9.978109e-001	-7.949270e-002	9.978133e-001	-7.957488e-002	3.549957e-003	-9.301171e-004
4377740.866	4.298479e-003	-1.142610e-003	9.978714e-001	-8.079734e-002	9.975131e-001	-8.070601e-002	3.745029e-003	-6.374968e-004
4440279.950	4.205931e-003	-1.287831e-003	9.976857e-001	-8.179135e-002	9.973030e-001	-8.173585e-002	3.632218e-003	-8.098556e-004
4502819.034	4.196807e-003	-1.168718e-003	9.973442e-001	-8.303627e-002	9.973635e-001	-8.294409e-002	3.708481e-003	-6.570417e-004
4565358.118	4.121157e-003	-1.220695e-003	9.973303e-001	-8.417900e-002	9.971105e-001	-8.387055e-002	3.710309e-003	-7.702002e-004
4627897.201	4.309730e-003	-1.095756e-003	9.974038e-001	-8.529586e-002	9.971125e-001	-8.500800e-002	3.829191e-003	-6.845328e-004
4690436.285	4.131277e-003	-1.227868e-003	9.973315e-001	-8.652899e-002	9.970853e-001	-8.656583e-002	3.825713e-003	-8.798269e-004
4752975.369	4.137727e-003	-1.232396e-003	9.969593e-001	-8.778207e-002	9.970791e-001	-8.759393e-002	3.649506e-003	-9.486431e-004
4815514.453	4.256421e-003	-1.256210e-003	9.971192e-001	-8.877790e-002	9.969137e-001	-8.883632e-002	3.868645e-003	-8.579416e-004
4878053.537	4.363489e-003	-1.364493e-003	9.970486e-001	-8.992082e-002	9.967856e-001	-8.981087e-002	3.840889e-003	-9.473930e-004
4940592.620	4.106002e-003	-1.314502e-003	9.968229e-001	-9.110368e-002	9.966964e-001	-9.106583e-002	3.617774e-003	-9.970991e-004
5003131.704	4.176783e-003	-1.476742e-003	9.966934e-001	-9.224258e-002	9.966613e-001	-9.198211e-002	3.743902e-003	-1.060380e-003
5065670.788	4.105805e-003	-1.303949e-003	9.965721e-001	-9.346311e-002	9.965075e-001	-9.321342e-002	3.706889e-003	-1.031465e-003
5128209.872	4.244782e-003	-1.451749e-003	9.966259e-001	-9.460528e-002	9.964062e-001	-9.439746e-002	3.694916e-003	-1.254430e-003
5190748.956	4.149005e-003	-1.472045e-003	9.964457e-001	-9.578411e-002	9.964044e-001	-9.567068e-002	3.658585e-003	-1.152236e-003
5253288.039	4.197469e-003	-1.536152e-003	9.964481e-001	-9.690271e-002	9.962721e-001	-9.679435e-002	3.597580e-003	-1.092752e-003
5315827.123	4.166764e-003	-1.616779e-003	9.961315e-001	-9.808804e-002	9.961452e-001	-9.795269e-002	3.571084e-003	-1.206567e-003
5378366.207	4.262459e-003	-1.585069e-003	9.962095e-001	-9.927066e-002	9.960667e-001	-9.928541e-002	3.573952e-003	-1.325738e-003
5440905.291	4.088821e-003	-1.513307e-003	9.961820e-001	-1.004196e-001	9.959834e-001	-1.002931e-001	3.474796e-003	-1.288950e-003
5503444.375	4.292679e-003	-1.699522e-003	9.959869e-001	-1.016050e-001	9.959346e-001	-1.013267e-001	3.673568e-003	-1.384820e-003
5565983.458	3.948987e-003	-1.597055e-003	9.959066e-001	-1.026495e-001	9.957643e-001	-1.024495e-001	3.605127e-003	-1.239074e-003
5628522.542	4.200969e-003	-1.695914e-003	9.958276e-001	-1.037705e-001	9.956957e-001	-1.037434e-001	3.639607e-003	-1.388377e-003
5691061.626	4.275366e-003	-1.893924e-003	9.956322e-001	-1.051019e-001	9.954827e-001	-1.049570e-001	3.541022e-003	-1.361086e-003
5753600.710	4.119247e-003	-1.823268e-003	9.954401e-001	-1.061645e-001	9.954111e-001	-1.059832e-001	3.601655e-003	-1.522991e-003
5816139.794	4.218143e-003	-1.663452e-003	9.954104e-001	-1.073176e-001	9.951259e-001	-1.073493e-001	3.460710e-003	-1.485205e-003
5878678.877	4.128686e-003	-1.918506e-003	9.952631e-001	-1.085347e-001	9.951256e-001	-1.084129e-001	3.579620e-003	-1.650685e-003
5941217.961	4.124090e-003	-2.019316e-003	9.950902e-001	-1.097684e-001	9.950226e-001	-1.093868e-001	3.373089e-003	-1.581658e-003
6003757.045	3.967949e-003	-1.809159e-003	9.948317e-001	-1.106947e-001	9.948886e-001	-1.105653e-001	3.507357e-003	-1.619061e-003
6066296.129	4.099924e-003	-2.031273e-003	9.949579e-001	-1.119032e-001	9.947408e-001	-1.116559e-001	3.487797e-003	-1.677414e-003
6128835.213	4.201839e-003	-2.036143e-003	9.948325e-001	-1.127730e-001	9.948048e-001	-1.129701e-001	3.576593e-003	-1.706411e-003
6191374.296	4.147523e-003	-2.077298e-003	9.945977e-001	-1.141708e-001	9.944636e-001	-1.142360e-001	3.426991e-003	-1.635313e-003
6253913.380	4.047824e-003	-1.980333e-003	9.944946e-001	-1.154052e-001	9.943826e-001	-1.152405e-001	3.313540e-003	-1.551439e-003
6316452.464	4.016991e-003	-1.925940e-003	9.944748e-001	-1.163938e-001	9.940978e-001	-1.165554e-001	3.358885e-003	-1.806685e-003
6378991.548	3.993047e-003	-2.110453e-003	9.942182e-001	-1.179337e-001	9.942505e-001	-1.175764e-001	3.418418e-003	-1.949147e-003
6441530.632	3.939512e-003	-2.215962e-003	9.940558e-001	-1.187528e-001	9.940293e-001	-1.188254e-001	3.455090e-003	-1.873539e-003
6504069.715	3.927088e-003	-2.271509e-003	9.938754e-001	-1.201594e-001	9.940233e-001	-1.199471e-001	3.462146e-003	-1.909073e-003
6566608.799	4.085021e-003	-2.355354e-003	9.938662e-001	-1.213659e-001	9.937489e-001	-1.211096e-001	3.365505e-003	-1.735333e-003
6629147.883	4.024484e-003	-2.253267e-003	9.936863e-001	-1.221831e-001	9.935795e-001	-1.222615e-001	3.452709e-003	-1.910809e-003
6691686.967	3.909250e-003	-2.269081e-003	9.934705e-001	-1.234389e-001	9.934026e-001	-1.233596e-001	3.480207e-003	-1.855490e-003
6754226.051	3.852065e-003	-2.308824e-003	9.933031e-001	-1.246860e-001	9.931530e-001	-1.247019e-001	3.284345e-003	-2.083740e-003
6816765.134	3.949776e-003	-2.336086e-003	9.932601e-001	-1.257707e-001	9.931226e-001	-1.257416e-001	3.345102e-003	-1.921026e-003
6879304.218	3.831939e-003	-2.531566e-003	9.930424e-001	-1.269554e-001	9.930278e-001	-1.268404e-001	3.322782e-003	-2.009054e-003
6941843.302	3.916948e-003	-2.385441e-003	9.928875e-001	-1.281198e-001	9.928630e-001	-1.279757e-001	3.307899e-003	-1.958357e-003
7004382.386	3.707871e-003	-2.346340e-003	9.928263e-001	-1.291921e-001	9.926502e-001	-1.291047e-001	3.227420e-003	-1.935429e-003
7066921.470	3.809813e-003	-2.434997e-003	9.925501e-001	-1.305037e-001	9.925843e-001	-1.301539e-001	3.391130e-003	-2.132743e-003
7129460.553	3.697258e-003	-2.572649e-003	9.925206e-001	-1.314263e-001	9.924241e-001	-1.314188e-001	3.391333e-003	-2.097977e-003
7191999.637	3.681815e-003	-2.367243e-003	9.921286e-001	-1.327154e-001	9.920902e-001	-1.325307e-001	3.244333e-003	-2.111122e-003
7254538.721	3.743124e-003	-2.499547e-003	9.922947e-001	-1.338887e-001	9.921549e-001	-1.337726e-001	3.275416e-003	-2.130106e-003
7317077.805	3.918210e-003	-2.553623e-003	9.920973e-001	-1.348998e-001	9.920172e-001	-1.348249e-001	3.273224e-003	-2.266228e-003
7379616.889	3.769832e-003	-2.575058e-003	9.920317e-001	-1.362873e-001	9.917420e-001	-1.359917e-001	3.208947e-003	-2.256233e-003
7442155.972	3.614383e-003	-2.594722e-003	9.917383e-001	-1.372289e-001	9.916675e-001	-1.370907e-001	3.289388e-003	-2.062914e-003
7504695.056	3.660470e-003	-2.724776e-003	9.914521e-001	-1.383031e-001	9.913675e-001	-1.384137e-001	3.324841e-003	-2.029868e-003
7567234.140	3.816326e-003	-2.821124e-003	9.914380e-001	-1.394139e-001	9.911967e-001	-1.394940e-001	3.243514e-003	-2.167627e-003
7629773.224	3.719700e-003	-2.550437e-003	9.913211e-001	-1.407828e-001	9.912132e-001	-1.405799e-001	3.159046e-003	-2.230700e-003
7692312.308	3.582381e-003	-2.634482e-003	9.911247e-001	-1.419063e-001	9.909347e-001	-1.418183e-001	3.217192e-003	-2.352847e-003
7754851.391	3.568983e-003	-2.812928e-003	9.909448e-001	-1.430736e-001	9.906398e-001	-1.427596e-001	3.151753e-003	-2.236204e-003
7817390.475	3.650662e-003	-2.630500e-003	9.907961e-001	-1.443444e-001	9.905501e-001	-1.441665e-001	3.081184e-003	-2.151444e-003
7879929.559	3.547423e-003	-2.840434e-003	9.905453e-001	-1.455112e-001	9.903757e-001	-1.455006e-001	3.189228e-003	-2.183246e-003
7942468.643	3.495950e-003	-2.918104e-003	9.904746e-001	-1.465355e-001	9.903092e-001	-1.465417e-001	3.158633e-003	-2.376228e-003
8005007.727	3.587613e-003	-2.907761e-003	9.902030e-001	-1.477425e-001	9.901449e-001	-1.476712e-001	3.062253e-003	-2.167416e-003
8067546.811	3.426069e-003	-2.885402e-003	9.900514e-001	-1.488654e-001	9.898130e-001	-1.487436e-001	2.972136e-003	-2.405188e-003
8130085.894	3.496131e-003	-2.979291e-003	9.898595e-001	-1.499583e-001	9.897250e-001	-1.499455e-001	3.180835e-003	-2.472968e-003
8192624.978	3.322261e-003	-3.058657e-003	9.895571e-001	-1.512171e-001	9.895790e-001	-1.510540e-001	3.215770e-003	-2.512462e-003
8255164.062	3.432403e-003	-3.056969e-003	9.894968e-001	-1.523280e-001	9.893472e-001	-1.522209e-001	3.170887e-003	-2.576834e-003
8317703.146	3.293728e-003	-2.973807e-003	9.893820e-001	-1.535138e-001	9.892880e-001	-1.533414e-001	2.988848e-003	-2.539907e-003
8380242.230	3.413411e-003	-3.243499e-003	9.890527e-001	-1.547474e-001	9.890015e-001	-1.544302e-001	2.948254e-003	-2.630668e-003
8442781.313	3.375808e-003	-3.219290e-003	9.891252e-001	-1.557504e-001	9.888781e-001	-1.555779e-001	2.913945e-003	-2.727673e-003
8505320.397	3.362317e-003	-3.109677e-003	9.888583e-001	-1.569782e-001	9.886326e-001	-1.567693e-001	2.848919e-003	-2.711915e-003
8567859.481	3.298207e-003	-2.968723e-003	9.886416e-001	-1.579370e-001	9.885542e-001	-1.579089e-001	2.884153e-003	-2.552305e-003
8630398.565	3.364507e-003	-3.053852e-003	9.882585e-001	-1.590813e-001	9.883750e-001	-1.589885e-001	2.741934e-003	-2.832418e-003
8692937.649	3.304353e-003	-3.289039e-003	9.881783e-001	-1.602492e-001	9.880113e-001	-1.601923e-001	2.667452e-003	-2.757142e-003
8755476.732	3.313532e-003	-3.242854e-003	9.880436e-001	-1.614908e-001	9.878516e-001	-1.612058e-001	2.722123e-003	-2.759362e-003
8818015.816	3.170399e-003	-3.296828e-003	9.877685e-001	-1.625733e-001	9.874996e-001	-1.624330e-001	2.830978e-003	-2.880049e-003
8880554.900	3.372358e-003	-3.292031e-003	9.877670e-001	-1.637914e-001	9.875965e-001	-1.634420e-001	2.663070e-003	-3.056411e-003
8943093.984	3.186516e-003	-3.219024e-003	9.874693e-001	-1.648467e-001	9.874032e-001	-1.646228e-001	2.670636e-003	-3.030696e-003
9005633.068	3.238841e-003	-3.318760e-003	9.871523e-001	-1.660244e-001	9.872541e-001	-1.658803e-001	2.563187e-003	-3.180539e-003
9068172.151	3.067057e-003	-3.345050e-003	9.871331e-001	-1.671730e-001	9.869419e-001	-1.668773e-001	2.602473e-003	-3.155857e-003
9130711.235	3.275854e-003	-3.457024e-003	9.868336e-001	-1.683274e-001	9.867928e-001	-1.680147e-001	2.630972e-003	-3.362499e-003
9193250.319	3.247616e-003	-3.481587e-003	9.867740e-001	-1.693216e-001	9.865704e-001	-1.692614e-001	2.546198e-003	-3.312716e-003
9255789.403	3.109483e-003	-3.675938e-003	9.865866e-001	-1.703775e-001	9.863398e-001	-1.703284e-001	2.381333e-003	-3.285538e-003
9318328.487	3.052918e-003	-3.599151e-003	9.863678e-001	-1.717745e-001	9.863343e-001	-1.714464e-001	2.481240e-003	-3.302770e-003
9380867.570	3.053414e-003	-3.505493e-003	9.862058e-001	-1.728955e-001	9.859513e-001	-1.727002e-001	2.468629e-003	-3.348961e-003
9443406.654	3.098879e-003	-3.526515e-003	9.860092e-001	-1.739721e-001	9.858671e-001	-1.739106e-001	2.474423e-003	-3.450449e-003
9505945.738	3.061625e-003	-3.538635e-003	9.856008e-001	-1.752738e-001	9.857241e-001	-1.750177e-001	2.405968e-003	-3.486032e-003
9568484.822	3.080165e-003	-3.598580e-003	9.855656e-001	-1.763498e-001	9.852618e-001	-1.761495e-001	2.197889e-003	-3.264318e-003
9631023.906	3.041424e-003	-3.600014e-003	9.853904e-001	-1.774905e-001	9.850702e-001	-1.773203e-001	2.362830e-003	-3.595472e-003
