!Agilent Technologies,E5061B,MY49102235,A.02.00
!Date: Tue Jul 11 16:44:23 2023
!Data & Calibration Information:
!Freq	S11:SOLT2(ON)	S21:SOLT2(ON)	S12:SOLT2(ON)	S22:SOLT2(ON)
# Hz S RI R 50
5.000	-5.174102e-003	-5.632118e-003	1.001992e+000	7.899172e-003	1.000392e+000	1.029934e-002	-1.403210e-003	-7.548560e-003
62544.084	5.804554e-003	-5.002928e-004	1.001505e+000	4.771283e-004	1.000737e+000	1.181167e-003	7.694847e-003	-2.880440e-003
125083.168	5.678223e-003	-4.773049e-004	1.001053e+000	-9.237155e-004	1.000770e+000	-8.421856e-004	7.462490e-003	-2.282995e-003
187622.251	5.452679e-003	-3.303645e-004	1.000557e+000	-2.224099e-003	1.000843e+000	-9.433825e-004	7.369295e-003	-2.370847e-003
250161.335	5.277844e-003	-1.976020e-004	1.000650e+000	-3.291789e-003	1.000631e+000	-3.122209e-003	7.257078e-003	-2.048692e-003
312700.419	5.415659e-003	5.487368e-004	1.000985e+000	-3.976973e-003	1.000527e+000	-3.485579e-003	7.768651e-003	-2.350649e-003
375239.503	5.302182e-003	-1.005949e-003	1.001225e+000	-5.279877e-003	1.000444e+000	-4.837234e-003	7.250325e-003	-2.526319e-003
437778.587	5.135389e-003	-6.177431e-004	1.001552e+000	-5.402887e-003	1.000988e+000	-5.902371e-003	6.619218e-003	-2.262836e-003
500317.670	4.583372e-003	-4.682100e-004	1.001362e+000	-7.892970e-003	1.001627e+000	-7.440159e-003	4.801816e-003	-2.074769e-003
562856.754	5.892169e-003	-7.924640e-004	1.001460e+000	-9.372634e-003	1.001088e+000	-9.058205e-003	6.000879e-003	-1.579347e-003
625395.838	5.076209e-003	-6.463177e-004	1.002298e+000	-1.062501e-002	1.002186e+000	-9.920134e-003	6.077765e-003	-1.024113e-003
687934.922	5.129484e-003	-9.813616e-004	1.001353e+000	-1.158083e-002	1.001215e+000	-1.136991e-002	5.740613e-003	-1.520301e-003
750474.006	4.357265e-003	-6.705833e-004	1.001022e+000	-1.094620e-002	1.000700e+000	-1.056230e-002	5.537396e-003	-1.346015e-003
813013.089	4.524497e-003	-6.519363e-004	1.001319e+000	-1.277507e-002	1.000567e+000	-1.229304e-002	4.899331e-003	-1.174494e-003
875552.173	4.259548e-003	-4.995498e-004	1.001402e+000	-1.361152e-002	1.000914e+000	-1.339099e-002	5.687864e-003	-1.564640e-003
938091.257	4.346498e-003	-4.405711e-004	1.001528e+000	-1.519251e-002	1.001046e+000	-1.454365e-002	5.904835e-003	-1.018024e-003
1000630.341	3.789923e-003	-8.076018e-004	1.000980e+000	-1.653057e-002	1.000875e+000	-1.576477e-002	5.150175e-003	-1.723224e-003
1063169.425	4.129141e-003	-9.713484e-004	1.001281e+000	-1.793780e-002	1.000719e+000	-1.678859e-002	4.338333e-003	-2.055021e-003
1125708.508	4.017711e-003	-9.335271e-004	1.001176e+000	-1.898592e-002	1.000712e+000	-1.807282e-002	3.842848e-003	-1.776765e-003
1188247.592	4.561953e-003	-1.408914e-003	1.001286e+000	-2.024658e-002	1.000953e+000	-1.917352e-002	2.744584e-003	-2.359819e-003
1250786.676	4.395583e-003	-2.145296e-003	1.000809e+000	-1.993069e-002	1.000688e+000	-1.982642e-002	2.000988e-003	-4.030726e-003
1313325.760	4.526857e-003	-2.241867e-003	1.001317e+000	-2.174174e-002	1.000820e+000	-2.151499e-002	2.738753e-003	-3.840524e-003
1375864.844	4.251313e-003	-2.451121e-003	1.000998e+000	-2.349152e-002	1.000482e+000	-2.317571e-002	2.586732e-003	-3.559061e-003
1438403.927	4.140491e-003	-2.614425e-003	1.000924e+000	-2.409706e-002	1.000925e+000	-2.315917e-002	2.682198e-003	-3.309702e-003
1500943.011	4.361409e-003	-2.561594e-003	1.001594e+000	-2.496599e-002	1.001261e+000	-2.455370e-002	3.031144e-003	-3.736515e-003
1563482.095	4.353279e-003	-2.939166e-003	1.001159e+000	-2.635865e-002	1.000654e+000	-2.531743e-002	3.160660e-003	-3.550508e-003
1626021.179	4.173171e-003	-2.833310e-003	1.000981e+000	-2.764543e-002	1.000876e+000	-2.777390e-002	3.437646e-003	-3.584671e-003
1688560.263	3.871568e-003	-2.773414e-003	1.000686e+000	-2.937382e-002	1.001223e+000	-2.913296e-002	3.603573e-003	-3.625257e-003
1751099.346	4.005339e-003	-2.692437e-003	1.001242e+000	-3.042357e-002	1.000613e+000	-2.954942e-002	3.414145e-003	-2.795310e-003
1813638.430	3.648606e-003	-2.745333e-003	1.001474e+000	-3.211780e-002	1.000931e+000	-3.140303e-002	3.602417e-003	-3.171533e-003
1876177.514	3.685294e-003	-2.462818e-003	1.001896e+000	-3.286724e-002	1.001230e+000	-3.307174e-002	3.257040e-003	-2.526196e-003
1938716.598	3.136978e-003	-2.406528e-003	1.002010e+000	-3.370511e-002	1.001407e+000	-3.289209e-002	3.423539e-003	-2.147658e-003
2001255.682	3.046001e-003	-2.898841e-003	1.001985e+000	-3.512911e-002	1.001249e+000	-3.453144e-002	3.188488e-003	-2.625603e-003
2063794.765	3.131043e-003	-2.509605e-003	1.001569e+000	-3.612795e-002	1.000595e+000	-3.618057e-002	3.572381e-003	-2.719339e-003
2126333.849	2.666971e-003	-3.040629e-003	1.001089e+000	-3.733872e-002	1.000123e+000	-3.658279e-002	3.828917e-003	-2.486074e-003
2188872.933	3.144987e-003	-3.066084e-003	1.000875e+000	-3.851200e-002	1.000182e+000	-3.749374e-002	3.713567e-003	-2.533438e-003
2251412.017	3.251387e-003	-3.440700e-003	1.000528e+000	-3.996639e-002	1.000276e+000	-3.851405e-002	3.694352e-003	-2.664473e-003
2313951.101	3.571544e-003	-3.029992e-003	1.000101e+000	-4.111705e-002	1.000400e+000	-3.947272e-002	4.006288e-003	-2.732807e-003
2376490.184	3.319770e-003	-3.076425e-003	9.999266e-001	-4.135293e-002	1.000092e+000	-4.138900e-002	3.955743e-003	-2.748636e-003
2439029.268	3.762713e-003	-3.128880e-003	9.998583e-001	-4.317862e-002	9.992205e-001	-4.238292e-002	3.618754e-003	-2.667767e-003
2501568.352	3.735443e-003	-3.150709e-003	9.996411e-001	-4.334787e-002	1.000108e+000	-4.290358e-002	3.917640e-003	-2.696738e-003
2564107.436	3.645085e-003	-3.319571e-003	9.998901e-001	-4.504178e-002	9.998107e-001	-4.455292e-002	3.215330e-003	-3.100678e-003
2626646.520	4.131733e-003	-3.506814e-003	9.996817e-001	-4.620747e-002	9.987563e-001	-4.568061e-002	3.479163e-003	-3.189339e-003
2689185.604	4.082910e-003	-3.362181e-003	1.000157e+000	-4.691551e-002	9.996611e-001	-4.640270e-002	3.598156e-003	-3.136465e-003
2751724.687	4.199131e-003	-3.456638e-003	9.999676e-001	-4.773344e-002	9.995546e-001	-4.725593e-002	3.207048e-003	-3.205413e-003
2814263.771	4.128588e-003	-3.536694e-003	9.990768e-001	-4.935970e-002	9.993065e-001	-4.850154e-002	3.171746e-003	-3.340998e-003
2876802.855	4.084244e-003	-3.793445e-003	9.991259e-001	-5.089013e-002	9.992155e-001	-4.952930e-002	3.252217e-003	-3.237383e-003
2939341.939	4.199342e-003	-3.721673e-003	9.997852e-001	-5.145517e-002	9.991991e-001	-5.107623e-002	3.149570e-003	-3.340469e-003
3001881.023	4.125250e-003	-3.734896e-003	9.993762e-001	-5.250332e-002	9.989713e-001	-5.221876e-002	3.235048e-003	-3.533627e-003
3064420.106	4.163643e-003	-3.797762e-003	1.000055e+000	-5.348563e-002	9.990761e-001	-5.310813e-002	3.075221e-003	-3.668971e-003
3126959.190	4.355703e-003	-3.909673e-003	9.995719e-001	-5.475057e-002	9.991301e-001	-5.425626e-002	3.233575e-003	-3.749175e-003
3189498.274	4.341239e-003	-3.926151e-003	9.994298e-001	-5.566535e-002	9.990717e-001	-5.534656e-002	3.223506e-003	-3.831309e-003
3252037.358	4.238505e-003	-4.308154e-003	9.995436e-001	-5.681243e-002	9.991288e-001	-5.631539e-002	3.164005e-003	-3.815356e-003
3314576.442	4.262029e-003	-4.183218e-003	9.994210e-001	-5.784974e-002	9.990010e-001	-5.748852e-002	3.222629e-003	-3.970600e-003
3377115.525	4.219129e-003	-4.203447e-003	9.992352e-001	-5.887393e-002	9.987524e-001	-5.871628e-002	3.070189e-003	-4.120969e-003
3439654.609	4.227359e-003	-4.306038e-003	9.990254e-001	-5.999669e-002	9.989951e-001	-5.970439e-002	3.066996e-003	-3.974481e-003
3502193.693	4.173155e-003	-4.643343e-003	9.990057e-001	-6.120416e-002	9.986481e-001	-6.066792e-002	3.242556e-003	-4.050230e-003
3564732.777	4.225377e-003	-4.538183e-003	9.990626e-001	-6.223705e-002	9.987077e-001	-6.190328e-002	3.331761e-003	-4.068725e-003
3627271.861	4.071550e-003	-4.717770e-003	9.990904e-001	-6.341924e-002	9.987466e-001	-6.281206e-002	3.094540e-003	-4.329060e-003
3689810.944	3.977670e-003	-4.878977e-003	9.989359e-001	-6.451529e-002	9.986507e-001	-6.390367e-002	3.245246e-003	-4.346315e-003
3752350.028	4.071463e-003	-4.904595e-003	9.987979e-001	-6.534055e-002	9.984236e-001	-6.495577e-002	3.183569e-003	-4.447466e-003
3814889.112	4.185584e-003	-4.818581e-003	9.986434e-001	-6.653465e-002	9.986164e-001	-6.627100e-002	3.089542e-003	-4.628578e-003
3877428.196	4.118564e-003	-4.847039e-003	9.988272e-001	-6.763800e-002	9.985184e-001	-6.718356e-002	3.414071e-003	-4.667138e-003
3939967.280	4.090479e-003	-5.206381e-003	9.986884e-001	-6.882311e-002	9.984814e-001	-6.828750e-002	3.393288e-003	-4.633791e-003
4002506.363	4.138635e-003	-5.122603e-003	9.986528e-001	-6.981159e-002	9.983529e-001	-6.923325e-002	3.334725e-003	-4.772319e-003
4065045.447	3.959328e-003	-5.275852e-003	9.984160e-001	-7.099879e-002	9.981867e-001	-7.043239e-002	3.414290e-003	-4.933869e-003
4127584.531	3.930208e-003	-5.351654e-003	9.983081e-001	-7.204444e-002	9.981778e-001	-7.146634e-002	3.424183e-003	-4.889954e-003
4190123.615	3.967600e-003	-5.392901e-003	9.983344e-001	-7.326895e-002	9.979578e-001	-7.271715e-002	3.321991e-003	-5.180003e-003
4252662.699	3.924016e-003	-5.540207e-003	9.983470e-001	-7.442991e-002	9.978712e-001	-7.389152e-002	3.423962e-003	-5.206938e-003
4315201.782	4.054924e-003	-5.642082e-003	9.982622e-001	-7.520464e-002	9.980611e-001	-7.497501e-002	3.244619e-003	-5.470074e-003
4377740.866	3.943951e-003	-5.730165e-003	9.982668e-001	-7.648430e-002	9.977329e-001	-7.602507e-002	3.412981e-003	-5.243544e-003
4440279.950	3.841255e-003	-5.940360e-003	9.981543e-001	-7.743753e-002	9.976000e-001	-7.701332e-002	3.291233e-003	-5.494148e-003
4502819.034	3.821601e-003	-5.888652e-003	9.978393e-001	-7.864073e-002	9.975891e-001	-7.810464e-002	3.361464e-003	-5.397291e-003
4565358.118	3.745600e-003	-6.006536e-003	9.977815e-001	-7.967380e-002	9.973958e-001	-7.900545e-002	3.369455e-003	-5.582293e-003
4627897.201	3.909184e-003	-5.943128e-003	9.978996e-001	-8.073114e-002	9.974215e-001	-8.010635e-002	3.463966e-003	-5.556266e-003
4690436.285	3.720427e-003	-6.145635e-003	9.978432e-001	-8.193886e-002	9.973793e-001	-8.160216e-002	3.453298e-003	-5.822268e-003
4752975.369	3.726239e-003	-6.230195e-003	9.974773e-001	-8.312196e-002	9.973526e-001	-8.256306e-002	3.271204e-003	-5.947346e-003
4815514.453	3.831200e-003	-6.308860e-003	9.975658e-001	-8.405139e-002	9.972630e-001	-8.371737e-002	3.481930e-003	-5.930269e-003
4878053.537	3.936192e-003	-6.472926e-003	9.975411e-001	-8.512017e-002	9.971187e-001	-8.463658e-002	3.440043e-003	-6.095207e-003
4940592.620	3.648345e-003	-6.507036e-003	9.973212e-001	-8.623796e-002	9.970695e-001	-8.583894e-002	3.207555e-003	-6.196715e-003
5003131.704	3.714787e-003	-6.727249e-003	9.972127e-001	-8.731237e-002	9.970552e-001	-8.670007e-002	3.317415e-003	-6.329911e-003
5065670.788	3.623410e-003	-6.607194e-003	9.970938e-001	-8.844232e-002	9.969103e-001	-8.786592e-002	3.290809e-003	-6.367715e-003
5128209.872	3.755037e-003	-6.806926e-003	9.972086e-001	-8.952329e-002	9.968324e-001	-8.894625e-002	3.250477e-003	-6.652703e-003
5190748.956	3.648690e-003	-6.919345e-003	9.969879e-001	-9.063880e-002	9.967568e-001	-9.014799e-002	3.207730e-003	-6.609357e-003
5253288.039	3.697920e-003	-7.030782e-003	9.970241e-001	-9.174820e-002	9.966925e-001	-9.119840e-002	3.128198e-003	-6.614575e-003
5315827.123	3.646945e-003	-7.169686e-003	9.967309e-001	-9.279845e-002	9.965304e-001	-9.235033e-002	3.114518e-003	-6.798171e-003
5378366.207	3.724133e-003	-7.215735e-003	9.967745e-001	-9.389534e-002	9.964643e-001	-9.359304e-002	3.084977e-003	-6.975179e-003
5440905.291	3.525937e-003	-7.217577e-003	9.967532e-001	-9.497444e-002	9.964248e-001	-9.455329e-002	2.974944e-003	-7.000691e-003
5503444.375	3.731656e-003	-7.461394e-003	9.965537e-001	-9.616946e-002	9.963747e-001	-9.547723e-002	3.150764e-003	-7.176764e-003
5565983.458	3.364671e-003	-7.423560e-003	9.965156e-001	-9.712093e-002	9.962404e-001	-9.655674e-002	3.067584e-003	-7.103394e-003
5628522.542	3.621387e-003	-7.570576e-003	9.964420e-001	-9.813253e-002	9.961731e-001	-9.779148e-002	3.114414e-003	-7.312699e-003
5691061.626	3.673179e-003	-7.833916e-003	9.962703e-001	-9.948505e-002	9.959962e-001	-9.892806e-002	2.995660e-003	-7.343202e-003
5753600.710	3.508733e-003	-7.850533e-003	9.960908e-001	-1.004293e-001	9.959244e-001	-9.993829e-002	3.033991e-003	-7.574939e-003
5816139.794	3.602850e-003	-7.751321e-003	9.960621e-001	-1.015490e-001	9.956441e-001	-1.012410e-001	2.883234e-003	-7.613106e-003
5878678.877	3.490930e-003	-8.069138e-003	9.959464e-001	-1.026879e-001	9.956591e-001	-1.021783e-001	2.987757e-003	-7.837745e-003
5941217.961	3.472845e-003	-8.228871e-003	9.957553e-001	-1.038626e-001	9.955461e-001	-1.031187e-001	2.787234e-003	-7.829100e-003
6003757.045	3.303786e-003	-8.079310e-003	9.955510e-001	-1.047655e-001	9.954132e-001	-1.042106e-001	2.900096e-003	-7.935839e-003
6066296.129	3.417703e-003	-8.377145e-003	9.956775e-001	-1.058673e-001	9.952917e-001	-1.052429e-001	2.868416e-003	-8.060369e-003
6128835.213	3.504523e-003	-8.436667e-003	9.955154e-001	-1.066590e-001	9.953810e-001	-1.064763e-001	2.953779e-003	-8.157110e-003
6191374.296	3.430250e-003	-8.545106e-003	9.953609e-001	-1.080483e-001	9.950527e-001	-1.077140e-001	2.775734e-003	-8.143897e-003
6253913.380	3.330233e-003	-8.520747e-003	9.952844e-001	-1.091645e-001	9.950143e-001	-1.086006e-001	2.638245e-003	-8.132015e-003
6316452.464	3.286007e-003	-8.543049e-003	9.951687e-001	-1.101018e-001	9.947632e-001	-1.099068e-001	2.672295e-003	-8.452179e-003
6378991.548	3.249297e-003	-8.774351e-003	9.950767e-001	-1.115468e-001	9.948560e-001	-1.108935e-001	2.725147e-003	-8.662273e-003
6441530.632	3.172043e-003	-8.961531e-003	9.948611e-001	-1.123457e-001	9.946672e-001	-1.120733e-001	2.753483e-003	-8.644603e-003
6504069.715	3.151793e-003	-9.074993e-003	9.947258e-001	-1.136497e-001	9.946574e-001	-1.130625e-001	2.749340e-003	-8.745072e-003
6566608.799	3.284539e-003	-9.213392e-003	9.947152e-001	-1.147640e-001	9.944165e-001	-1.142145e-001	2.643931e-003	-8.644793e-003
6629147.883	3.216856e-003	-9.177524e-003	9.945047e-001	-1.155803e-001	9.942774e-001	-1.152876e-001	2.715822e-003	-8.879829e-003
6691686.967	3.078209e-003	-9.255399e-003	9.942978e-001	-1.167642e-001	9.941018e-001	-1.163502e-001	2.728713e-003	-8.883892e-003
6754226.051	3.004821e-003	-9.374415e-003	9.941795e-001	-1.179416e-001	9.938363e-001	-1.175808e-001	2.518545e-003	-9.189515e-003
6816765.134	3.081003e-003	-9.464874e-003	9.941242e-001	-1.189263e-001	9.938761e-001	-1.185011e-001	2.550287e-003	-9.089939e-003
6879304.218	2.969941e-003	-9.721764e-003	9.939520e-001	-1.200897e-001	9.937924e-001	-1.196123e-001	2.513925e-003	-9.252202e-003
6941843.302	3.021356e-003	-9.637267e-003	9.938027e-001	-1.212469e-001	9.935997e-001	-1.206774e-001	2.492171e-003	-9.245830e-003
7004382.386	2.806489e-003	-9.669656e-003	9.937519e-001	-1.221727e-001	9.934210e-001	-1.217542e-001	2.390315e-003	-9.314109e-003
7066921.470	2.889807e-003	-9.814914e-003	9.934955e-001	-1.234362e-001	9.933914e-001	-1.227174e-001	2.538755e-003	-9.562035e-003
7129460.553	2.765810e-003	-1.002507e-002	9.934700e-001	-1.243042e-001	9.932440e-001	-1.238736e-001	2.521174e-003	-9.591756e-003
7191999.637	2.742400e-003	-9.877811e-003	9.931033e-001	-1.255171e-001	9.929399e-001	-1.249675e-001	2.356692e-003	-9.674190e-003
7254538.721	2.770661e-003	-1.007965e-002	9.933097e-001	-1.266038e-001	9.929552e-001	-1.261594e-001	2.372664e-003	-9.763347e-003
7317077.805	2.921350e-003	-1.019731e-002	9.930407e-001	-1.275841e-001	9.928399e-001	-1.271181e-001	2.357882e-003	-9.949552e-003
7379616.889	2.768836e-003	-1.028342e-002	9.930946e-001	-1.288990e-001	9.926386e-001	-1.282611e-001	2.289947e-003	-1.002289e-002
7442155.972	2.599164e-003	-1.037981e-002	9.927698e-001	-1.297877e-001	9.925496e-001	-1.293028e-001	2.346535e-003	-9.882780e-003
7504695.056	2.611405e-003	-1.055065e-002	9.925090e-001	-1.307883e-001	9.922489e-001	-1.305154e-001	2.359427e-003	-9.925664e-003
7567234.140	2.780344e-003	-1.072356e-002	9.925342e-001	-1.318798e-001	9.921321e-001	-1.315200e-001	2.253422e-003	-1.010587e-002
7629773.224	2.652720e-003	-1.050732e-002	9.924226e-001	-1.331208e-001	9.921398e-001	-1.325578e-001	2.155935e-003	-1.025575e-002
7692312.308	2.493098e-003	-1.065960e-002	9.922724e-001	-1.341845e-001	9.918926e-001	-1.337061e-001	2.207804e-003	-1.043551e-002
7754851.391	2.461737e-003	-1.091517e-002	9.920747e-001	-1.353043e-001	9.916365e-001	-1.346428e-001	2.123994e-003	-1.038938e-002
7817390.475	2.514458e-003	-1.078928e-002	9.919566e-001	-1.364774e-001	9.915503e-001	-1.359800e-001	2.023942e-003	-1.036874e-002
7879929.559	2.399145e-003	-1.106688e-002	9.916881e-001	-1.375697e-001	9.913899e-001	-1.371979e-001	2.126644e-003	-1.045189e-002
7942468.643	2.329670e-003	-1.121005e-002	9.916662e-001	-1.385703e-001	9.913626e-001	-1.382383e-001	2.079862e-003	-1.071767e-002
8005007.727	2.414360e-003	-1.125631e-002	9.914201e-001	-1.397015e-001	9.911839e-001	-1.392878e-001	1.961548e-003	-1.058317e-002
8067546.811	2.229499e-003	-1.131036e-002	9.912925e-001	-1.407521e-001	9.909044e-001	-1.402901e-001	1.851387e-003	-1.089173e-002
8130085.894	2.275954e-003	-1.146435e-002	9.911042e-001	-1.417783e-001	9.908111e-001	-1.414234e-001	2.048918e-003	-1.100965e-002
8192624.978	2.082405e-003	-1.161836e-002	9.907755e-001	-1.429921e-001	9.906510e-001	-1.424319e-001	2.071935e-003	-1.111463e-002
8255164.062	2.181343e-003	-1.167698e-002	9.907468e-001	-1.440257e-001	9.904600e-001	-1.435980e-001	2.003917e-003	-1.124653e-002
8317703.146	2.037754e-003	-1.165538e-002	9.906477e-001	-1.451420e-001	9.904349e-001	-1.446167e-001	1.802342e-003	-1.127134e-002
8380242.230	2.130107e-003	-1.196679e-002	9.903658e-001	-1.463036e-001	9.901440e-001	-1.457010e-001	1.742092e-003	-1.143123e-002
8442781.313	2.066904e-003	-1.202954e-002	9.904161e-001	-1.472612e-001	9.900474e-001	-1.467369e-001	1.685717e-003	-1.161213e-002
8505320.397	2.025839e-003	-1.197812e-002	9.901984e-001	-1.484347e-001	9.898525e-001	-1.478460e-001	1.607488e-003	-1.163268e-002
8567859.481	1.934154e-003	-1.191152e-002	9.899674e-001	-1.493081e-001	9.897679e-001	-1.488998e-001	1.605488e-003	-1.154799e-002
8630398.565	1.997797e-003	-1.204342e-002	9.896227e-001	-1.504188e-001	9.896083e-001	-1.499336e-001	1.472974e-003	-1.190009e-002
8692937.649	1.908880e-003	-1.234242e-002	9.895478e-001	-1.515083e-001	9.892379e-001	-1.510766e-001	1.368658e-003	-1.189035e-002
8755476.732	1.891204e-003	-1.237763e-002	9.894303e-001	-1.527067e-001	9.890938e-001	-1.520488e-001	1.408018e-003	-1.196107e-002
8818015.816	1.730934e-003	-1.249056e-002	9.891924e-001	-1.537411e-001	9.887814e-001	-1.531921e-001	1.493296e-003	-1.214221e-002
8880554.900	1.919891e-003	-1.254720e-002	9.891898e-001	-1.548573e-001	9.889340e-001	-1.541447e-001	1.324430e-003	-1.238612e-002
8943093.984	1.715081e-003	-1.253137e-002	9.889597e-001	-1.558352e-001	9.887556e-001	-1.552523e-001	1.303205e-003	-1.242165e-002
9005633.068	1.747531e-003	-1.269567e-002	9.886796e-001	-1.569559e-001	9.885851e-001	-1.564426e-001	1.173345e-003	-1.263727e-002
9068172.151	1.550830e-003	-1.279501e-002	9.886556e-001	-1.580583e-001	9.882918e-001	-1.574128e-001	1.192124e-003	-1.267706e-002
9130711.235	1.742100e-003	-1.295589e-002	9.883576e-001	-1.591481e-001	9.881866e-001	-1.584785e-001	1.205976e-003	-1.296542e-002
9193250.319	1.694818e-003	-1.305964e-002	9.883206e-001	-1.600776e-001	9.879478e-001	-1.596179e-001	1.089130e-003	-1.296174e-002
9255789.403	1.547289e-003	-1.331490e-002	9.881925e-001	-1.610641e-001	9.878009e-001	-1.606384e-001	9.178930e-004	-1.300149e-002
9318328.487	1.471772e-003	-1.329807e-002	9.879206e-001	-1.624294e-001	9.877556e-001	-1.616759e-001	9.808765e-004	-1.308428e-002
9380867.570	1.440455e-003	-1.326493e-002	9.878121e-001	-1.634673e-001	9.874401e-001	-1.628929e-001	9.537735e-004	-1.319994e-002
9443406.654	1.447288e-003	-1.336758e-002	9.876411e-001	-1.644557e-001	9.873540e-001	-1.640212e-001	9.482642e-004	-1.336382e-002
9505945.738	1.394886e-003	-1.341435e-002	9.872492e-001	-1.656781e-001	9.872482e-001	-1.651076e-001	8.593024e-004	-1.345595e-002
9568484.822	1.395293e-003	-1.355974e-002	9.872042e-001	-1.667153e-001	9.868334e-001	-1.661777e-001	6.152516e-004	-1.330633e-002
