!Agilent Technologies,E5061B,MY49102235,A.02.00
!Date: Tue Jul 11 16:39:18 2023
!Data & Calibration Information:
!Freq	S11:SOLT2(ON)	S21:SOLT2(ON)	S12:SOLT2(ON)	S22:SOLT2(ON)
# Hz S RI R 50
5.000	-5.293047e-003	-5.648269e-003	1.001700e+000	7.928794e-003	1.000442e+000	1.026396e-002	-1.595775e-003	-7.539958e-003
62544.084	5.797990e-003	-4.956957e-004	1.001507e+000	5.505495e-004	1.000888e+000	1.187112e-003	7.693639e-003	-2.872569e-003
125083.168	5.678985e-003	-4.747901e-004	1.001000e+000	-7.866118e-004	1.000734e+000	-8.944587e-004	7.485079e-003	-2.244551e-003
187622.251	5.441969e-003	-2.727664e-004	1.000501e+000	-2.243743e-003	1.001022e+000	-1.041479e-003	7.367504e-003	-2.319980e-003
250161.335	5.286872e-003	-1.146518e-004	1.000541e+000	-3.272184e-003	1.000662e+000	-3.110235e-003	7.267643e-003	-1.973790e-003
312700.419	5.416049e-003	6.245113e-004	1.000867e+000	-3.909906e-003	1.000588e+000	-3.591859e-003	7.779087e-003	-2.262305e-003
375239.503	5.299901e-003	-8.835248e-004	1.001083e+000	-5.319510e-003	1.000561e+000	-4.954006e-003	7.254195e-003	-2.425668e-003
437778.587	5.142962e-003	-4.775032e-004	1.001332e+000	-5.517370e-003	1.000969e+000	-6.206348e-003	6.620860e-003	-2.112891e-003
500317.670	4.590174e-003	-3.324752e-004	1.001254e+000	-7.890475e-003	1.001704e+000	-7.720086e-003	4.802945e-003	-1.921730e-003
562856.754	5.906687e-003	-6.087000e-004	1.001357e+000	-9.563607e-003	1.001183e+000	-9.218174e-003	6.002525e-003	-1.407242e-003
625395.838	5.078398e-003	-4.507476e-004	1.002245e+000	-1.068840e-002	1.002223e+000	-1.019603e-002	6.092073e-003	-8.368859e-004
687934.922	5.150777e-003	-7.771906e-004	1.001318e+000	-1.160671e-002	1.001198e+000	-1.173149e-002	5.753914e-003	-1.281578e-003
750474.006	4.366640e-003	-4.298068e-004	1.000973e+000	-1.112339e-002	1.000873e+000	-1.071384e-002	5.533457e-003	-1.099299e-003
813013.089	4.525289e-003	-3.951426e-004	1.001187e+000	-1.287743e-002	1.000741e+000	-1.267880e-002	4.914670e-003	-9.194999e-004
875552.173	4.262112e-003	-2.319269e-004	1.001182e+000	-1.379372e-002	1.001077e+000	-1.364007e-002	5.682067e-003	-1.303654e-003
938091.257	4.347488e-003	-1.556755e-004	1.001260e+000	-1.537017e-002	1.001276e+000	-1.495866e-002	5.919644e-003	-7.339445e-004
1000630.341	3.790823e-003	-4.961097e-004	1.000868e+000	-1.660329e-002	1.000963e+000	-1.630440e-002	5.151164e-003	-1.429790e-003
1063169.425	4.149026e-003	-6.553364e-004	1.001127e+000	-1.815291e-002	1.000705e+000	-1.713595e-002	4.348432e-003	-1.732447e-003
1125708.508	4.027094e-003	-5.874192e-004	1.000977e+000	-1.932590e-002	1.000898e+000	-1.859155e-002	3.861606e-003	-1.427252e-003
1188247.592	4.568361e-003	-1.023987e-003	1.001095e+000	-2.042708e-002	1.000982e+000	-1.967691e-002	2.753663e-003	-1.987280e-003
1250786.676	4.414902e-003	-1.745580e-003	1.000758e+000	-2.032058e-002	1.000734e+000	-2.042370e-002	2.019918e-003	-3.651616e-003
1313325.760	4.525976e-003	-1.843303e-003	1.001126e+000	-2.178219e-002	1.001034e+000	-2.192340e-002	2.761125e-003	-3.430706e-003
1375864.844	4.254668e-003	-2.028996e-003	1.000765e+000	-2.386573e-002	1.000572e+000	-2.388961e-002	2.610669e-003	-3.144042e-003
1438403.927	4.148053e-003	-2.182354e-003	1.000775e+000	-2.441867e-002	1.001047e+000	-2.362998e-002	2.682125e-003	-2.856796e-003
1500943.011	4.386521e-003	-2.099795e-003	1.001480e+000	-2.536455e-002	1.001429e+000	-2.527523e-002	3.037845e-003	-3.261985e-003
1563482.095	4.379076e-003	-2.461334e-003	1.001099e+000	-2.683395e-002	1.000655e+000	-2.590338e-002	3.168337e-003	-3.058033e-003
1626021.179	4.190025e-003	-2.322208e-003	1.000826e+000	-2.802044e-002	1.001033e+000	-2.849470e-002	3.443043e-003	-3.089867e-003
1688560.263	3.889792e-003	-2.257347e-003	1.000528e+000	-2.972820e-002	1.001311e+000	-2.969121e-002	3.627697e-003	-3.095689e-003
1751099.346	4.010218e-003	-2.154514e-003	1.001056e+000	-3.085964e-002	1.000732e+000	-3.012770e-002	3.428370e-003	-2.242447e-003
1813638.430	3.663670e-003	-2.187812e-003	1.001385e+000	-3.241454e-002	1.001047e+000	-3.212936e-002	3.612276e-003	-2.617761e-003
1876177.514	3.688080e-003	-1.894760e-003	1.001714e+000	-3.337443e-002	1.001310e+000	-3.371868e-002	3.282450e-003	-1.939851e-003
1938716.598	3.140850e-003	-1.808857e-003	1.001887e+000	-3.419024e-002	1.001479e+000	-3.354805e-002	3.454812e-003	-1.548166e-003
2001255.682	3.065261e-003	-2.279020e-003	1.001875e+000	-3.560586e-002	1.001309e+000	-3.517519e-002	3.208099e-003	-2.006425e-003
2063794.765	3.149077e-003	-1.879917e-003	1.001451e+000	-3.660403e-002	1.000806e+000	-3.676145e-002	3.600728e-003	-2.080162e-003
2126333.849	2.685277e-003	-2.391650e-003	1.000826e+000	-3.786799e-002	1.000070e+000	-3.720576e-002	3.853672e-003	-1.825584e-003
2188872.933	3.183448e-003	-2.387025e-003	1.000620e+000	-3.897190e-002	1.000138e+000	-3.832003e-002	3.732136e-003	-1.853903e-003
2251412.017	3.284516e-003	-2.747183e-003	1.000566e+000	-4.064539e-002	1.000252e+000	-3.930661e-002	3.723133e-003	-1.972839e-003
2313951.101	3.594209e-003	-2.306861e-003	1.000034e+000	-4.156860e-002	1.000299e+000	-4.017923e-002	4.024940e-003	-2.028473e-003
2376490.184	3.333940e-003	-2.351573e-003	9.998991e-001	-4.193990e-002	1.000238e+000	-4.200517e-002	3.988990e-003	-2.016593e-003
2439029.268	3.800932e-003	-2.379479e-003	9.998019e-001	-4.379676e-002	9.992963e-001	-4.324937e-002	3.649097e-003	-1.911716e-003
2501568.352	3.765315e-003	-2.366521e-003	9.994882e-001	-4.391393e-002	1.000253e+000	-4.388370e-002	3.948670e-003	-1.933108e-003
2564107.436	3.676185e-003	-2.522274e-003	9.997248e-001	-4.567421e-002	1.000120e+000	-4.540970e-002	3.262478e-003	-2.308674e-003
2626646.520	4.173618e-003	-2.701081e-003	9.997341e-001	-4.688751e-002	9.987904e-001	-4.655080e-002	3.509069e-003	-2.360102e-003
2689185.604	4.117167e-003	-2.529886e-003	9.999977e-001	-4.753909e-002	9.994754e-001	-4.729344e-002	3.620288e-003	-2.315011e-003
2751724.687	4.228501e-003	-2.625446e-003	9.999600e-001	-4.850056e-002	9.995561e-001	-4.808948e-002	3.239609e-003	-2.337589e-003
2814263.771	4.169239e-003	-2.675061e-003	9.990750e-001	-5.017208e-002	9.992611e-001	-4.937659e-002	3.206689e-003	-2.466138e-003
2876802.855	4.129660e-003	-2.888106e-003	9.990548e-001	-5.157722e-002	9.991941e-001	-5.061938e-002	3.279985e-003	-2.348220e-003
2939341.939	4.238557e-003	-2.819732e-003	9.995587e-001	-5.215789e-002	9.990302e-001	-5.206076e-002	3.196486e-003	-2.458777e-003
3001881.023	4.163240e-003	-2.808189e-003	9.992985e-001	-5.327226e-002	9.991306e-001	-5.301401e-002	3.279249e-003	-2.585798e-003
3064420.106	4.215001e-003	-2.853218e-003	9.998719e-001	-5.431760e-002	9.988755e-001	-5.414995e-002	3.116975e-003	-2.720940e-003
3126959.190	4.403702e-003	-2.963819e-003	9.994348e-001	-5.555428e-002	9.991667e-001	-5.530349e-002	3.278049e-003	-2.773272e-003
3189498.274	4.392636e-003	-2.940019e-003	9.992926e-001	-5.652092e-002	9.990749e-001	-5.638556e-002	3.282180e-003	-2.857472e-003
3252037.358	4.305669e-003	-3.314055e-003	9.993992e-001	-5.774105e-002	9.991323e-001	-5.746565e-002	3.226561e-003	-2.810957e-003
3314576.442	4.305548e-003	-3.163186e-003	9.992495e-001	-5.870681e-002	9.989978e-001	-5.862065e-002	3.275800e-003	-2.933481e-003
3377115.525	4.275400e-003	-3.162190e-003	9.990989e-001	-5.974221e-002	9.987810e-001	-5.989572e-002	3.124834e-003	-3.080261e-003
3439654.609	4.287892e-003	-3.243701e-003	9.988709e-001	-6.090181e-002	9.990157e-001	-6.088228e-002	3.144715e-003	-2.907978e-003
3502193.693	4.242494e-003	-3.567707e-003	9.988757e-001	-6.214839e-002	9.986956e-001	-6.180898e-002	3.314641e-003	-2.958500e-003
3564732.777	4.286437e-003	-3.437905e-003	9.989222e-001	-6.320671e-002	9.987010e-001	-6.307400e-002	3.399290e-003	-2.958054e-003
3627271.861	4.131383e-003	-3.616905e-003	9.989413e-001	-6.440003e-002	9.987248e-001	-6.402606e-002	3.173403e-003	-3.192541e-003
3689810.944	4.034067e-003	-3.745601e-003	9.987418e-001	-6.550705e-002	9.986410e-001	-6.511211e-002	3.321986e-003	-3.211454e-003
3752350.028	4.161313e-003	-3.747594e-003	9.986343e-001	-6.632860e-002	9.983871e-001	-6.620487e-002	3.246110e-003	-3.281372e-003
3814889.112	4.266725e-003	-3.647156e-003	9.985199e-001	-6.753552e-002	9.985805e-001	-6.757565e-002	3.165722e-003	-3.456458e-003
3877428.196	4.195591e-003	-3.660056e-003	9.986406e-001	-6.868795e-002	9.984840e-001	-6.848685e-002	3.496098e-003	-3.472515e-003
3939967.280	4.166619e-003	-3.995433e-003	9.985201e-001	-6.989682e-002	9.984510e-001	-6.961083e-002	3.467192e-003	-3.416653e-003
4002506.363	4.234653e-003	-3.886526e-003	9.985171e-001	-7.095846e-002	9.983456e-001	-7.055350e-002	3.422185e-003	-3.537626e-003
4065045.447	4.038373e-003	-4.023292e-003	9.982427e-001	-7.205777e-002	9.981376e-001	-7.180181e-002	3.502965e-003	-3.670738e-003
4127584.531	4.019808e-003	-4.084886e-003	9.981330e-001	-7.316811e-002	9.981137e-001	-7.282706e-002	3.505732e-003	-3.616954e-003
4190123.615	4.043385e-003	-4.101770e-003	9.981890e-001	-7.443220e-002	9.979407e-001	-7.402730e-002	3.416720e-003	-3.874837e-003
4252662.699	4.003929e-003	-4.232942e-003	9.981854e-001	-7.558801e-002	9.977929e-001	-7.525931e-002	3.523610e-003	-3.905109e-003
4315201.782	4.139627e-003	-4.316846e-003	9.980404e-001	-7.643105e-002	9.980231e-001	-7.640042e-002	3.347735e-003	-4.136792e-003
4377740.866	4.035214e-003	-4.380767e-003	9.980783e-001	-7.769683e-002	9.976975e-001	-7.749792e-002	3.511265e-003	-3.889629e-003
4440279.950	3.946830e-003	-4.585588e-003	9.979373e-001	-7.867404e-002	9.975579e-001	-7.851323e-002	3.391750e-003	-4.130159e-003
4502819.034	3.924558e-003	-4.497210e-003	9.976334e-001	-7.987828e-002	9.975546e-001	-7.958335e-002	3.484190e-003	-4.030879e-003
4565358.118	3.839602e-003	-4.602205e-003	9.975892e-001	-8.092501e-002	9.973432e-001	-8.051990e-002	3.471242e-003	-4.178557e-003
4627897.201	4.008704e-003	-4.520288e-003	9.976798e-001	-8.205785e-002	9.973238e-001	-8.161395e-002	3.574197e-003	-4.124072e-003
4690436.285	3.848167e-003	-4.695440e-003	9.976533e-001	-8.323849e-002	9.972840e-001	-8.311104e-002	3.571215e-003	-4.372496e-003
4752975.369	3.841347e-003	-4.770737e-003	9.972429e-001	-8.441606e-002	9.973235e-001	-8.408526e-002	3.378270e-003	-4.491477e-003
4815514.453	3.947966e-003	-4.821357e-003	9.973835e-001	-8.538985e-002	9.971888e-001	-8.531240e-002	3.606318e-003	-4.445143e-003
4878053.537	4.038620e-003	-4.972006e-003	9.973169e-001	-8.647509e-002	9.970499e-001	-8.624417e-002	3.557623e-003	-4.592194e-003
4940592.620	3.774951e-003	-4.989472e-003	9.971290e-001	-8.763536e-002	9.970054e-001	-8.744189e-002	3.325975e-003	-4.685777e-003
5003131.704	3.836774e-003	-5.191732e-003	9.969638e-001	-8.868468e-002	9.969885e-001	-8.834432e-002	3.454510e-003	-4.787884e-003
5065670.788	3.755749e-003	-5.048489e-003	9.968819e-001	-8.987174e-002	9.967704e-001	-8.951689e-002	3.421726e-003	-4.810597e-003
5128209.872	3.882748e-003	-5.244808e-003	9.970264e-001	-9.094426e-002	9.966976e-001	-9.062632e-002	3.386838e-003	-5.082613e-003
5190748.956	3.776542e-003	-5.321342e-003	9.967800e-001	-9.206704e-002	9.966652e-001	-9.186924e-002	3.347263e-003	-5.016845e-003
5253288.039	3.811827e-003	-5.421761e-003	9.967860e-001	-9.318539e-002	9.965949e-001	-9.291863e-002	3.269354e-003	-4.999085e-003
5315827.123	3.793119e-003	-5.550549e-003	9.965010e-001	-9.431018e-002	9.964252e-001	-9.405220e-002	3.246728e-003	-5.168326e-003
5378366.207	3.882806e-003	-5.565936e-003	9.965428e-001	-9.543560e-002	9.963755e-001	-9.533137e-002	3.236211e-003	-5.312937e-003
5440905.291	3.700450e-003	-5.539381e-003	9.965452e-001	-9.651896e-002	9.962973e-001	-9.631345e-002	3.117951e-003	-5.343015e-003
5503444.375	3.897570e-003	-5.770693e-003	9.963394e-001	-9.771797e-002	9.962839e-001	-9.731778e-002	3.315152e-003	-5.487902e-003
5565983.458	3.528862e-003	-5.715079e-003	9.962725e-001	-9.872512e-002	9.961319e-001	-9.831882e-002	3.241577e-003	-5.400926e-003
5628522.542	3.772822e-003	-5.853875e-003	9.962176e-001	-9.971488e-002	9.960335e-001	-9.961954e-002	3.256368e-003	-5.586784e-003
5691061.626	3.840550e-003	-6.099167e-003	9.960470e-001	-1.010378e-001	9.958980e-001	-1.007382e-001	3.167087e-003	-5.590791e-003
5753600.710	3.685936e-003	-6.089140e-003	9.958386e-001	-1.020577e-001	9.958133e-001	-1.018028e-001	3.212541e-003	-5.802953e-003
5816139.794	3.754350e-003	-5.956103e-003	9.958599e-001	-1.031663e-001	9.954956e-001	-1.031067e-001	3.054349e-003	-5.808079e-003
5878678.877	3.668322e-003	-6.267414e-003	9.956907e-001	-1.043108e-001	9.955225e-001	-1.040681e-001	3.169127e-003	-6.036732e-003
5941217.961	3.654109e-003	-6.411221e-003	9.955630e-001	-1.054987e-001	9.954016e-001	-1.050221e-001	2.963124e-003	-6.004375e-003
6003757.045	3.498376e-003	-6.247476e-003	9.953017e-001	-1.064678e-001	9.953181e-001	-1.061460e-001	3.078656e-003	-6.084721e-003
6066296.129	3.602645e-003	-6.516947e-003	9.954032e-001	-1.075636e-001	9.951443e-001	-1.072133e-001	3.052451e-003	-6.193901e-003
6128835.213	3.701476e-003	-6.558863e-003	9.952611e-001	-1.083836e-001	9.952111e-001	-1.084696e-001	3.137455e-003	-6.269174e-003
6191374.296	3.640436e-003	-6.653072e-003	9.950610e-001	-1.097584e-001	9.949111e-001	-1.097068e-001	2.964878e-003	-6.268716e-003
6253913.380	3.532605e-003	-6.616457e-003	9.950271e-001	-1.109708e-001	9.948465e-001	-1.106128e-001	2.831752e-003	-6.219959e-003
6316452.464	3.496617e-003	-6.591370e-003	9.949152e-001	-1.118718e-001	9.946263e-001	-1.119244e-001	2.881705e-003	-6.523235e-003
6378991.548	3.444363e-003	-6.821960e-003	9.947125e-001	-1.133788e-001	9.946723e-001	-1.129297e-001	2.932917e-003	-6.706232e-003
6441530.632	3.378773e-003	-6.972034e-003	9.945600e-001	-1.141292e-001	9.944774e-001	-1.141459e-001	2.963963e-003	-6.674608e-003
6504069.715	3.360315e-003	-7.073921e-003	9.944308e-001	-1.155460e-001	9.944773e-001	-1.151443e-001	2.964940e-003	-6.753880e-003
6566608.799	3.505115e-003	-7.209734e-003	9.944667e-001	-1.166788e-001	9.941940e-001	-1.163000e-001	2.850614e-003	-6.627995e-003
6629147.883	3.436986e-003	-7.146449e-003	9.942715e-001	-1.174386e-001	9.940818e-001	-1.174229e-001	2.937137e-003	-6.852059e-003
6691686.967	3.305617e-003	-7.204950e-003	9.940458e-001	-1.186520e-001	9.939251e-001	-1.184749e-001	2.955385e-003	-6.833163e-003
6754226.051	3.240020e-003	-7.298922e-003	9.938824e-001	-1.198594e-001	9.936794e-001	-1.197672e-001	2.746253e-003	-7.113661e-003
6816765.134	3.335372e-003	-7.369109e-003	9.938365e-001	-1.208835e-001	9.936753e-001	-1.207154e-001	2.789623e-003	-7.000609e-003
6879304.218	3.206872e-003	-7.598852e-003	9.936146e-001	-1.220342e-001	9.935563e-001	-1.218068e-001	2.757351e-003	-7.134302e-003
6941843.302	3.262685e-003	-7.516559e-003	9.934819e-001	-1.231758e-001	9.934125e-001	-1.228876e-001	2.745158e-003	-7.116366e-003
7004382.386	3.059211e-003	-7.530064e-003	9.934188e-001	-1.241587e-001	9.932292e-001	-1.239854e-001	2.645725e-003	-7.169814e-003
7066921.470	3.142846e-003	-7.653727e-003	9.932084e-001	-1.254595e-001	9.931624e-001	-1.249427e-001	2.793556e-003	-7.390334e-003
7129460.553	3.024485e-003	-7.835271e-003	9.931387e-001	-1.263432e-001	9.930123e-001	-1.261911e-001	2.784428e-003	-7.398857e-003
7191999.637	2.992136e-003	-7.667411e-003	9.927584e-001	-1.275566e-001	9.927459e-001	-1.272518e-001	2.620302e-003	-7.469786e-003
7254538.721	3.029104e-003	-7.857824e-003	9.929377e-001	-1.286825e-001	9.927476e-001	-1.284306e-001	2.653987e-003	-7.528016e-003
7317077.805	3.200832e-003	-7.961797e-003	9.927216e-001	-1.296733e-001	9.926291e-001	-1.294911e-001	2.632396e-003	-7.721179e-003
7379616.889	3.041911e-003	-8.021672e-003	9.927074e-001	-1.310042e-001	9.924028e-001	-1.306143e-001	2.557221e-003	-7.756518e-003
7442155.972	2.868190e-003	-8.100342e-003	9.924462e-001	-1.318919e-001	9.922982e-001	-1.316779e-001	2.632631e-003	-7.615346e-003
7504695.056	2.904464e-003	-8.259269e-003	9.921684e-001	-1.329257e-001	9.920327e-001	-1.328965e-001	2.636925e-003	-7.621341e-003
7567234.140	3.060833e-003	-8.409051e-003	9.921517e-001	-1.340200e-001	9.918913e-001	-1.339557e-001	2.551411e-003	-7.799990e-003
7629773.224	2.949514e-003	-8.173787e-003	9.920599e-001	-1.353322e-001	9.918809e-001	-1.349991e-001	2.466480e-003	-7.909248e-003
7692312.308	2.791319e-003	-8.313703e-003	9.918880e-001	-1.364176e-001	9.916370e-001	-1.361804e-001	2.512699e-003	-8.076266e-003
7754851.391	2.758463e-003	-8.547289e-003	9.916527e-001	-1.375226e-001	9.913705e-001	-1.370641e-001	2.428816e-003	-8.003677e-003
7817390.475	2.835893e-003	-8.401218e-003	9.915865e-001	-1.387561e-001	9.912730e-001	-1.384264e-001	2.332633e-003	-7.977790e-003
7879929.559	2.723260e-003	-8.650294e-003	9.912744e-001	-1.398608e-001	9.911243e-001	-1.396848e-001	2.437585e-003	-8.042407e-003
7942468.643	2.635944e-003	-8.769975e-003	9.913031e-001	-1.408562e-001	9.910578e-001	-1.407361e-001	2.399886e-003	-8.292147e-003
8005007.727	2.734418e-003	-8.812119e-003	9.909854e-001	-1.420315e-001	9.908917e-001	-1.418274e-001	2.293159e-003	-8.138137e-003
8067546.811	2.558101e-003	-8.838413e-003	9.908930e-001	-1.431232e-001	9.906134e-001	-1.428253e-001	2.185667e-003	-8.423697e-003
8130085.894	2.613390e-003	-8.975044e-003	9.906886e-001	-1.441429e-001	9.905284e-001	-1.439850e-001	2.384795e-003	-8.529185e-003
8192624.978	2.430885e-003	-9.101445e-003	9.903978e-001	-1.453428e-001	9.903695e-001	-1.450764e-001	2.411374e-003	-8.613211e-003
8255164.062	2.521234e-003	-9.157490e-003	9.903361e-001	-1.464203e-001	9.901483e-001	-1.462119e-001	2.360334e-003	-8.725565e-003
8317703.146	2.383641e-003	-9.102070e-003	9.902265e-001	-1.475326e-001	9.901231e-001	-1.472606e-001	2.151930e-003	-8.736717e-003
8380242.230	2.477956e-003	-9.414416e-003	9.898958e-001	-1.487607e-001	9.898276e-001	-1.482876e-001	2.098264e-003	-8.875815e-003
8442781.313	2.427820e-003	-9.442534e-003	9.899836e-001	-1.497042e-001	9.897357e-001	-1.494216e-001	2.050688e-003	-9.028408e-003
8505320.397	2.390323e-003	-9.384340e-003	9.897382e-001	-1.508793e-001	9.895189e-001	-1.505544e-001	1.983212e-003	-9.035790e-003
8567859.481	2.315127e-003	-9.296567e-003	9.895092e-001	-1.518032e-001	9.894158e-001	-1.516117e-001	1.990699e-003	-8.950061e-003
8630398.565	2.376869e-003	-9.395638e-003	9.892128e-001	-1.529060e-001	9.892625e-001	-1.526879e-001	1.851446e-003	-9.263850e-003
8692937.649	2.289144e-003	-9.690140e-003	9.890970e-001	-1.540058e-001	9.889293e-001	-1.538288e-001	1.755232e-003	-9.239251e-003
8755476.732	2.283364e-003	-9.692937e-003	9.890167e-001	-1.552117e-001	9.887672e-001	-1.548397e-001	1.802166e-003	-9.281979e-003
8818015.816	2.136072e-003	-9.806327e-003	9.887800e-001	-1.562939e-001	9.884370e-001	-1.559540e-001	1.877606e-003	-9.445522e-003
8880554.900	2.312871e-003	-9.815158e-003	9.887049e-001	-1.573989e-001	9.885519e-001	-1.569468e-001	1.720628e-003	-9.677292e-003
8943093.984	2.118563e-003	-9.802614e-003	9.885131e-001	-1.584269e-001	9.883458e-001	-1.580690e-001	1.716135e-003	-9.696198e-003
9005633.068	2.161697e-003	-9.962824e-003	9.881926e-001	-1.595681e-001	9.882517e-001	-1.593052e-001	1.582234e-003	-9.895624e-003
9068172.151	1.981926e-003	-1.002729e-002	9.881452e-001	-1.607097e-001	9.879201e-001	-1.602457e-001	1.604034e-003	-9.895597e-003
9130711.235	2.165348e-003	-1.017415e-002	9.878875e-001	-1.618050e-001	9.878051e-001	-1.613848e-001	1.607715e-003	-1.016958e-002
9193250.319	2.121184e-003	-1.026502e-002	9.878653e-001	-1.627482e-001	9.875343e-001	-1.625573e-001	1.519902e-003	-1.016462e-002
9255789.403	1.982911e-003	-1.048501e-002	9.876621e-001	-1.637533e-001	9.873856e-001	-1.635821e-001	1.344017e-003	-1.017158e-002
9318328.487	1.912097e-003	-1.044758e-002	9.874023e-001	-1.650928e-001	9.873133e-001	-1.646500e-001	1.439522e-003	-1.023899e-002
9380867.570	1.880724e-003	-1.040604e-002	9.873002e-001	-1.661846e-001	9.870144e-001	-1.658588e-001	1.398158e-003	-1.033529e-002
9443406.654	1.907066e-003	-1.048614e-002	9.871305e-001	-1.672090e-001	9.869504e-001	-1.669787e-001	1.391912e-003	-1.048800e-002
9505945.738	1.850527e-003	-1.051377e-002	9.867575e-001	-1.684775e-001	9.868390e-001	-1.680985e-001	1.319268e-003	-1.056034e-002
9568484.822	1.864791e-003	-1.063596e-002	9.867141e-001	-1.695305e-001	9.863978e-001	-1.691772e-001	1.080879e-003	-1.039637e-002
