!Agilent Technologies,E5061B,MY49102235,A.02.00
!Date: Tue Jul 11 15:04:31 2023
!Data & Calibration Information:
!Freq	S11:SOLT2(ON)	S21:SOLT2(ON)	S12:SOLT2(ON)	S22:SOLT2(ON)
# Hz S RI R 50
5.000	-5.230088e-003	-5.651510e-003	1.001435e+000	7.985647e-003	1.000143e+000	1.021955e-002	-1.543399e-003	-7.552134e-003
62544.084	5.810542e-003	-5.024530e-004	1.001361e+000	5.556084e-004	1.000807e+000	1.247576e-003	7.693423e-003	-2.866993e-003
125083.168	5.675399e-003	-4.896719e-004	1.000926e+000	-7.647595e-004	1.000763e+000	-8.444250e-004	7.487406e-003	-2.263851e-003
187622.251	5.443968e-003	-3.151185e-004	1.000471e+000	-2.215481e-003	1.001029e+000	-1.067926e-003	7.363582e-003	-2.355477e-003
250161.335	5.270902e-003	-1.581577e-004	1.000589e+000	-3.137128e-003	1.000808e+000	-3.179341e-003	7.247504e-003	-2.026703e-003
312700.419	5.427669e-003	5.741563e-004	1.000816e+000	-3.811327e-003	1.000611e+000	-3.572516e-003	7.777461e-003	-2.314041e-003
375239.503	5.299460e-003	-9.521988e-004	1.001004e+000	-5.190756e-003	1.000640e+000	-4.996166e-003	7.244933e-003	-2.493104e-003
437778.587	5.129266e-003	-5.471951e-004	1.001348e+000	-5.409965e-003	1.000976e+000	-6.163372e-003	6.622482e-003	-2.184803e-003
500317.670	4.557659e-003	-4.220473e-004	1.001350e+000	-7.829714e-003	1.001720e+000	-7.609029e-003	4.796637e-003	-2.022528e-003
562856.754	5.888272e-003	-6.987208e-004	1.001364e+000	-9.376763e-003	1.001216e+000	-9.303399e-003	5.995491e-003	-1.511943e-003
625395.838	5.072097e-003	-5.754576e-004	1.002147e+000	-1.050344e-002	1.002164e+000	-1.006931e-002	6.112099e-003	-9.631078e-004
687934.922	5.117827e-003	-8.911533e-004	1.001314e+000	-1.155521e-002	1.001236e+000	-1.168404e-002	5.737553e-003	-1.415057e-003
750474.006	4.354077e-003	-5.673523e-004	1.000734e+000	-1.086030e-002	1.000843e+000	-1.077267e-002	5.540205e-003	-1.240009e-003
813013.089	4.534357e-003	-5.417846e-004	1.001071e+000	-1.271116e-002	1.000760e+000	-1.249134e-002	4.909369e-003	-1.050249e-003
875552.173	4.277816e-003	-3.717555e-004	1.001098e+000	-1.361979e-002	1.001026e+000	-1.368385e-002	5.681798e-003	-1.468028e-003
938091.257	4.345609e-003	-3.181572e-004	1.001137e+000	-1.513303e-002	1.001190e+000	-1.478429e-002	5.923693e-003	-8.755596e-004
1000630.341	3.792494e-003	-6.589931e-004	1.000787e+000	-1.648660e-002	1.001124e+000	-1.618137e-002	5.165914e-003	-1.573321e-003
1063169.425	4.140719e-003	-8.131497e-004	1.001210e+000	-1.770297e-002	1.000853e+000	-1.711345e-002	4.346787e-003	-1.906745e-003
1125708.508	4.025808e-003	-7.773217e-004	1.000842e+000	-1.887318e-002	1.000877e+000	-1.844239e-002	3.843931e-003	-1.627936e-003
1188247.592	4.579286e-003	-1.232289e-003	1.001162e+000	-2.010864e-002	1.001130e+000	-1.954051e-002	2.735141e-003	-2.188456e-003
1250786.676	4.398102e-003	-1.967748e-003	1.000561e+000	-2.003012e-002	1.001000e+000	-2.009526e-002	2.032435e-003	-3.848345e-003
1313325.760	4.527495e-003	-2.054168e-003	1.001020e+000	-2.145345e-002	1.001092e+000	-2.171421e-002	2.729780e-003	-3.649972e-003
1375864.844	4.246885e-003	-2.257311e-003	1.000705e+000	-2.352593e-002	1.000612e+000	-2.355061e-002	2.585333e-003	-3.363421e-003
1438403.927	4.139760e-003	-2.418725e-003	1.000628e+000	-2.415535e-002	1.001021e+000	-2.354402e-002	2.677943e-003	-3.106057e-003
1500943.011	4.383607e-003	-2.341152e-003	1.001328e+000	-2.502427e-002	1.001537e+000	-2.500792e-002	3.039212e-003	-3.513169e-003
1563482.095	4.363197e-003	-2.730151e-003	1.000847e+000	-2.636480e-002	1.000727e+000	-2.557540e-002	3.162947e-003	-3.308332e-003
1626021.179	4.178354e-003	-2.595305e-003	1.000814e+000	-2.759887e-002	1.001135e+000	-2.806629e-002	3.425135e-003	-3.353995e-003
1688560.263	3.879090e-003	-2.540240e-003	1.000456e+000	-2.942941e-002	1.001359e+000	-2.941437e-002	3.599742e-003	-3.367411e-003
1751099.346	4.006035e-003	-2.443239e-003	1.001019e+000	-3.047186e-002	1.000873e+000	-2.993095e-002	3.421125e-003	-2.529988e-003
1813638.430	3.653954e-003	-2.489507e-003	1.001293e+000	-3.208991e-002	1.001079e+000	-3.187947e-002	3.601792e-003	-2.919400e-003
1876177.514	3.685801e-003	-2.191460e-003	1.001648e+000	-3.297162e-002	1.001482e+000	-3.327986e-002	3.254922e-003	-2.237845e-003
1938716.598	3.146352e-003	-2.118172e-003	1.001868e+000	-3.378759e-002	1.001407e+000	-3.331340e-002	3.428789e-003	-1.861863e-003
2001255.682	3.057629e-003	-2.599745e-003	1.001737e+000	-3.510073e-002	1.001441e+000	-3.481880e-002	3.181116e-003	-2.325840e-003
2063794.765	3.135516e-003	-2.216181e-003	1.001329e+000	-3.613424e-002	1.000739e+000	-3.653602e-002	3.556615e-003	-2.409342e-003
2126333.849	2.685352e-003	-2.738888e-003	1.000839e+000	-3.737459e-002	1.000325e+000	-3.698657e-002	3.833276e-003	-2.163332e-003
2188872.933	3.156656e-003	-2.756133e-003	1.000560e+000	-3.857571e-002	1.000173e+000	-3.787526e-002	3.708279e-003	-2.210258e-003
2251412.017	3.265136e-003	-3.112930e-003	1.000468e+000	-4.008757e-002	1.000425e+000	-3.891891e-002	3.686219e-003	-2.323262e-003
2313951.101	3.570965e-003	-2.691514e-003	9.998545e-001	-4.098143e-002	1.000400e+000	-3.988845e-002	3.992471e-003	-2.392497e-003
2376490.184	3.326272e-003	-2.733818e-003	9.997907e-001	-4.150239e-002	1.000261e+000	-4.181930e-002	3.959046e-003	-2.397809e-003
2439029.268	3.778640e-003	-2.773411e-003	9.997481e-001	-4.322817e-002	9.994364e-001	-4.277510e-002	3.617463e-003	-2.293658e-003
2501568.352	3.751536e-003	-2.772940e-003	9.994732e-001	-4.333430e-002	1.000307e+000	-4.338884e-002	3.899795e-003	-2.332754e-003
2564107.436	3.652928e-003	-2.936616e-003	9.996683e-001	-4.503450e-002	9.999800e-001	-4.494986e-002	3.216318e-003	-2.712467e-003
2626646.520	4.131832e-003	-3.120926e-003	9.995551e-001	-4.622437e-002	9.989199e-001	-4.611107e-002	3.470731e-003	-2.780353e-003
2689185.604	4.094951e-003	-2.958725e-003	1.000027e+000	-4.698875e-002	9.997490e-001	-4.689452e-002	3.597828e-003	-2.734670e-003
2751724.687	4.204393e-003	-3.055570e-003	9.998663e-001	-4.776963e-002	9.996394e-001	-4.767227e-002	3.195465e-003	-2.776250e-003
2814263.771	4.156376e-003	-3.129948e-003	9.990007e-001	-4.964845e-002	9.992914e-001	-4.907990e-002	3.161826e-003	-2.927263e-003
2876802.855	4.100021e-003	-3.351479e-003	9.990528e-001	-5.100624e-002	9.993872e-001	-5.013520e-002	3.245923e-003	-2.798216e-003
2939341.939	4.221157e-003	-3.282076e-003	9.996658e-001	-5.149722e-002	9.992290e-001	-5.166009e-002	3.149951e-003	-2.909721e-003
3001881.023	4.138502e-003	-3.293532e-003	9.993467e-001	-5.255632e-002	9.990730e-001	-5.255916e-002	3.226221e-003	-3.062900e-003
3064420.106	4.193420e-003	-3.353817e-003	9.997952e-001	-5.369667e-002	9.989567e-001	-5.363612e-002	3.055456e-003	-3.200985e-003
3126959.190	4.384245e-003	-3.451905e-003	9.993757e-001	-5.488684e-002	9.992586e-001	-5.481455e-002	3.232568e-003	-3.279624e-003
3189498.274	4.364546e-003	-3.451686e-003	9.992764e-001	-5.583962e-002	9.991952e-001	-5.589130e-002	3.231408e-003	-3.352069e-003
3252037.358	4.259157e-003	-3.838636e-003	9.993560e-001	-5.701724e-002	9.991833e-001	-5.688646e-002	3.173011e-003	-3.317288e-003
3314576.442	4.278402e-003	-3.682051e-003	9.992488e-001	-5.804387e-002	9.991231e-001	-5.802093e-002	3.221111e-003	-3.444094e-003
3377115.525	4.248463e-003	-3.705813e-003	9.990551e-001	-5.905943e-002	9.988496e-001	-5.926573e-002	3.068322e-003	-3.610557e-003
3439654.609	4.243145e-003	-3.791418e-003	9.988520e-001	-6.018350e-002	9.991253e-001	-6.029424e-002	3.093582e-003	-3.445536e-003
3502193.693	4.205451e-003	-4.117708e-003	9.988717e-001	-6.141044e-002	9.987827e-001	-6.125164e-002	3.235074e-003	-3.518187e-003
3564732.777	4.250274e-003	-4.015814e-003	9.988732e-001	-6.243456e-002	9.987910e-001	-6.245365e-002	3.336432e-003	-3.524332e-003
3627271.861	4.096231e-003	-4.184446e-003	9.989276e-001	-6.362650e-002	9.988368e-001	-6.341804e-002	3.109079e-003	-3.766674e-003
3689810.944	4.014257e-003	-4.339906e-003	9.987226e-001	-6.471334e-002	9.987297e-001	-6.452990e-002	3.251786e-003	-3.787452e-003
3752350.028	4.106501e-003	-4.350596e-003	9.986395e-001	-6.557167e-002	9.984890e-001	-6.557137e-002	3.177890e-003	-3.879598e-003
3814889.112	4.223040e-003	-4.257787e-003	9.984777e-001	-6.676949e-002	9.986927e-001	-6.694179e-002	3.101275e-003	-4.048742e-003
3877428.196	4.160472e-003	-4.283289e-003	9.986403e-001	-6.787026e-002	9.985698e-001	-6.784637e-002	3.418892e-003	-4.083694e-003
3939967.280	4.117899e-003	-4.617531e-003	9.984866e-001	-6.907587e-002	9.985657e-001	-6.894402e-002	3.395354e-003	-4.032903e-003
4002506.363	4.181649e-003	-4.530846e-003	9.985321e-001	-7.014168e-002	9.984473e-001	-6.988640e-002	3.337315e-003	-4.161180e-003
4065045.447	3.991460e-003	-4.667907e-003	9.982326e-001	-7.127944e-002	9.982475e-001	-7.109018e-002	3.417149e-003	-4.311024e-003
4127584.531	3.979865e-003	-4.737979e-003	9.981501e-001	-7.231751e-002	9.982411e-001	-7.209791e-002	3.422398e-003	-4.250975e-003
4190123.615	4.010372e-003	-4.766735e-003	9.981669e-001	-7.360761e-002	9.980467e-001	-7.340070e-002	3.333822e-003	-4.543059e-003
4252662.699	3.956792e-003	-4.910028e-003	9.982068e-001	-7.471772e-002	9.978871e-001	-7.456915e-002	3.431859e-003	-4.561470e-003
4315201.782	4.084560e-003	-5.001408e-003	9.981006e-001	-7.557666e-002	9.981517e-001	-7.565115e-002	3.247542e-003	-4.811745e-003
4377740.866	3.991561e-003	-5.083511e-003	9.980622e-001	-7.682379e-002	9.978117e-001	-7.672649e-002	3.421166e-003	-4.577037e-003
4440279.950	3.886884e-003	-5.283763e-003	9.980098e-001	-7.774392e-002	9.976556e-001	-7.770951e-002	3.303730e-003	-4.812032e-003
4502819.034	3.872691e-003	-5.206288e-003	9.976639e-001	-7.897803e-002	9.976909e-001	-7.882699e-002	3.381892e-003	-4.713371e-003
4565358.118	3.783044e-003	-5.330343e-003	9.976255e-001	-8.002559e-002	9.974639e-001	-7.972368e-002	3.386228e-003	-4.883972e-003
4627897.201	3.960525e-003	-5.258568e-003	9.977152e-001	-8.114474e-002	9.974684e-001	-8.081456e-002	3.485643e-003	-4.838376e-003
4690436.285	3.771963e-003	-5.444357e-003	9.976220e-001	-8.227817e-002	9.974144e-001	-8.231355e-002	3.463885e-003	-5.102569e-003
4752975.369	3.781227e-003	-5.522169e-003	9.972871e-001	-8.346178e-002	9.974275e-001	-8.327869e-002	3.290653e-003	-5.231307e-003
4815514.453	3.894644e-003	-5.577511e-003	9.973979e-001	-8.445637e-002	9.973102e-001	-8.449178e-002	3.502730e-003	-5.189924e-003
4878053.537	3.984454e-003	-5.734466e-003	9.973971e-001	-8.548361e-002	9.972001e-001	-8.540959e-002	3.457613e-003	-5.342366e-003
4940592.620	3.714871e-003	-5.765952e-003	9.971524e-001	-8.666022e-002	9.971558e-001	-8.660006e-002	3.216022e-003	-5.442244e-003
5003131.704	3.782033e-003	-5.976025e-003	9.970742e-001	-8.773123e-002	9.971162e-001	-8.746810e-002	3.347974e-003	-5.563713e-003
5065670.788	3.694189e-003	-5.855662e-003	9.969623e-001	-8.889316e-002	9.969703e-001	-8.865744e-002	3.309654e-003	-5.596507e-003
5128209.872	3.816051e-003	-6.050400e-003	9.970521e-001	-8.995828e-002	9.968507e-001	-8.975795e-002	3.272276e-003	-5.870601e-003
5190748.956	3.711559e-003	-6.135405e-003	9.968613e-001	-9.109037e-002	9.968319e-001	-9.096899e-002	3.235438e-003	-5.815893e-003
5253288.039	3.751705e-003	-6.261416e-003	9.968513e-001	-9.219913e-002	9.967409e-001	-9.203168e-002	3.159837e-003	-5.800639e-003
5315827.123	3.716228e-003	-6.380527e-003	9.965747e-001	-9.324193e-002	9.965454e-001	-9.314305e-002	3.126591e-003	-5.984816e-003
5378366.207	3.797307e-003	-6.414845e-003	9.966530e-001	-9.439094e-002	9.965466e-001	-9.441904e-002	3.111436e-003	-6.155312e-003
5440905.291	3.614323e-003	-6.406094e-003	9.965529e-001	-9.544853e-002	9.964397e-001	-9.540960e-002	2.997977e-003	-6.180931e-003
5503444.375	3.811029e-003	-6.637067e-003	9.964068e-001	-9.665058e-002	9.964184e-001	-9.632800e-002	3.188407e-003	-6.335802e-003
5565983.458	3.448071e-003	-6.582433e-003	9.963353e-001	-9.762649e-002	9.963511e-001	-9.743807e-002	3.106995e-003	-6.249931e-003
5628522.542	3.691889e-003	-6.741897e-003	9.962695e-001	-9.865015e-002	9.962049e-001	-9.865956e-002	3.139414e-003	-6.450299e-003
5691061.626	3.759053e-003	-6.999269e-003	9.960668e-001	-9.997741e-002	9.959994e-001	-9.980930e-002	3.030010e-003	-6.480264e-003
5753600.710	3.597691e-003	-7.000048e-003	9.958991e-001	-1.009463e-001	9.959635e-001	-1.008086e-001	3.074660e-003	-6.686731e-003
5816139.794	3.685190e-003	-6.883300e-003	9.959091e-001	-1.020493e-001	9.956792e-001	-1.020976e-001	2.921893e-003	-6.721760e-003
5878678.877	3.585547e-003	-7.193351e-003	9.957946e-001	-1.031710e-001	9.956881e-001	-1.031057e-001	3.023585e-003	-6.933473e-003
5941217.961	3.557354e-003	-7.346470e-003	9.956030e-001	-1.044100e-001	9.955753e-001	-1.040089e-001	2.821881e-003	-6.926064e-003
6003757.045	3.397756e-003	-7.200152e-003	9.953808e-001	-1.052847e-001	9.954533e-001	-1.051112e-001	2.941475e-003	-7.024253e-003
6066296.129	3.517645e-003	-7.480120e-003	9.954944e-001	-1.064124e-001	9.953443e-001	-1.061874e-001	2.897812e-003	-7.124936e-003
6128835.213	3.594570e-003	-7.523482e-003	9.953596e-001	-1.072229e-001	9.954366e-001	-1.074196e-001	2.985457e-003	-7.206427e-003
6191374.296	3.531809e-003	-7.634717e-003	9.951601e-001	-1.085875e-001	9.950876e-001	-1.086554e-001	2.816407e-003	-7.211292e-003
6253913.380	3.434904e-003	-7.596491e-003	9.951257e-001	-1.097291e-001	9.950544e-001	-1.095668e-001	2.683034e-003	-7.170561e-003
6316452.464	3.388830e-003	-7.595423e-003	9.950396e-001	-1.107036e-001	9.947790e-001	-1.108625e-001	2.719034e-003	-7.491972e-003
6378991.548	3.349199e-003	-7.829308e-003	9.948566e-001	-1.121386e-001	9.948529e-001	-1.118575e-001	2.773305e-003	-7.678854e-003
6441530.632	3.269200e-003	-7.992087e-003	9.946557e-001	-1.129198e-001	9.946682e-001	-1.130372e-001	2.777506e-003	-7.653648e-003
6504069.715	3.255235e-003	-8.108538e-003	9.945333e-001	-1.143135e-001	9.946415e-001	-1.140569e-001	2.804364e-003	-7.739487e-003
6566608.799	3.393792e-003	-8.242241e-003	9.945593e-001	-1.154278e-001	9.944373e-001	-1.151757e-001	2.694438e-003	-7.635830e-003
6629147.883	3.328240e-003	-8.189526e-003	9.943692e-001	-1.162030e-001	9.942662e-001	-1.163073e-001	2.756852e-003	-7.859821e-003
6691686.967	3.192925e-003	-8.271381e-003	9.941471e-001	-1.174220e-001	9.941382e-001	-1.173442e-001	2.774251e-003	-7.859503e-003
6754226.051	3.123315e-003	-8.366420e-003	9.939751e-001	-1.185896e-001	9.939097e-001	-1.185955e-001	2.559846e-003	-8.144308e-003
6816765.134	3.212995e-003	-8.456125e-003	9.939438e-001	-1.196205e-001	9.938890e-001	-1.195570e-001	2.604424e-003	-8.031549e-003
6879304.218	3.081283e-003	-8.701037e-003	9.937446e-001	-1.207494e-001	9.937934e-001	-1.206277e-001	2.571579e-003	-8.179529e-003
6941843.302	3.151367e-003	-8.618633e-003	9.935881e-001	-1.218974e-001	9.936372e-001	-1.217259e-001	2.555254e-003	-8.183047e-003
7004382.386	2.932418e-003	-8.639455e-003	9.935866e-001	-1.228760e-001	9.934451e-001	-1.228081e-001	2.450016e-003	-8.221715e-003
7066921.470	3.019677e-003	-8.771644e-003	9.932965e-001	-1.241267e-001	9.933979e-001	-1.237948e-001	2.611099e-003	-8.463629e-003
7129460.553	2.897918e-003	-8.961867e-003	9.932643e-001	-1.250103e-001	9.932459e-001	-1.249918e-001	2.585147e-003	-8.484894e-003
7191999.637	2.862489e-003	-8.806920e-003	9.929181e-001	-1.262329e-001	9.929092e-001	-1.260776e-001	2.425540e-003	-8.577655e-003
7254538.721	2.907280e-003	-9.000835e-003	9.931177e-001	-1.273306e-001	9.929860e-001	-1.272245e-001	2.444661e-003	-8.631536e-003
7317077.805	3.067761e-003	-9.118686e-003	9.928853e-001	-1.283038e-001	9.928424e-001	-1.282506e-001	2.424924e-003	-8.822011e-003
7379616.889	2.914636e-003	-9.198993e-003	9.928833e-001	-1.296068e-001	9.926444e-001	-1.293500e-001	2.359347e-003	-8.883397e-003
7442155.972	2.735031e-003	-9.275913e-003	9.925617e-001	-1.305262e-001	9.925425e-001	-1.304079e-001	2.425268e-003	-8.744247e-003
7504695.056	2.754413e-003	-9.441729e-003	9.923202e-001	-1.315415e-001	9.922565e-001	-1.316203e-001	2.420463e-003	-8.763712e-003
7567234.140	2.928750e-003	-9.600433e-003	9.923262e-001	-1.326366e-001	9.921239e-001	-1.326865e-001	2.334366e-003	-8.941678e-003
7629773.224	2.805112e-003	-9.375731e-003	9.922049e-001	-1.338907e-001	9.921160e-001	-1.337082e-001	2.238693e-003	-9.074815e-003
7692312.308	2.636297e-003	-9.521319e-003	9.920460e-001	-1.349500e-001	9.918677e-001	-1.348802e-001	2.280957e-003	-9.249158e-003
7754851.391	2.611185e-003	-9.754630e-003	9.918720e-001	-1.361063e-001	9.916336e-001	-1.357849e-001	2.204911e-003	-9.185315e-003
7817390.475	2.678171e-003	-9.639025e-003	9.917360e-001	-1.373445e-001	9.915737e-001	-1.371194e-001	2.107286e-003	-9.154548e-003
7879929.559	2.563756e-003	-9.890573e-003	9.914608e-001	-1.383773e-001	9.913727e-001	-1.383885e-001	2.196010e-003	-9.229343e-003
7942468.643	2.494578e-003	-1.001941e-002	9.914502e-001	-1.393945e-001	9.913498e-001	-1.393758e-001	2.165706e-003	-9.489648e-003
8005007.727	2.579172e-003	-1.007042e-002	9.911880e-001	-1.405450e-001	9.911722e-001	-1.404707e-001	2.046050e-003	-9.344991e-003
8067546.811	2.404307e-003	-1.011162e-002	9.910593e-001	-1.416222e-001	9.908934e-001	-1.414659e-001	1.955602e-003	-9.641624e-003
8130085.894	2.454425e-003	-1.025760e-002	9.908735e-001	-1.426323e-001	9.908150e-001	-1.426075e-001	2.137361e-003	-9.747052e-003
8192624.978	2.265403e-003	-1.040862e-002	9.905919e-001	-1.438571e-001	9.906284e-001	-1.436636e-001	2.161201e-003	-9.848133e-003
8255164.062	2.354867e-003	-1.045896e-002	9.905384e-001	-1.448944e-001	9.904447e-001	-1.447611e-001	2.100967e-003	-9.968505e-003
8317703.146	2.220442e-003	-1.042273e-002	9.904302e-001	-1.460218e-001	9.903846e-001	-1.458447e-001	1.901230e-003	-9.989129e-003
8380242.230	2.314119e-003	-1.073027e-002	9.901068e-001	-1.472095e-001	9.901087e-001	-1.469341e-001	1.839412e-003	-1.013193e-002
8442781.313	2.259581e-003	-1.077884e-002	9.901967e-001	-1.481574e-001	9.900136e-001	-1.479671e-001	1.789061e-003	-1.030275e-002
8505320.397	2.218926e-003	-1.072557e-002	9.899337e-001	-1.493181e-001	9.898071e-001	-1.491084e-001	1.712169e-003	-1.032148e-002
8567859.481	2.138815e-003	-1.064053e-002	9.897356e-001	-1.502405e-001	9.897305e-001	-1.501902e-001	1.712519e-003	-1.022329e-002
8630398.565	2.187159e-003	-1.077131e-002	9.894196e-001	-1.513038e-001	9.895797e-001	-1.512315e-001	1.578585e-003	-1.056600e-002
8692937.649	2.106679e-003	-1.106321e-002	9.893838e-001	-1.523967e-001	9.892088e-001	-1.523591e-001	1.477903e-003	-1.054475e-002
8755476.732	2.095291e-003	-1.107562e-002	9.892129e-001	-1.535959e-001	9.890901e-001	-1.533575e-001	1.522103e-003	-1.060110e-002
8818015.816	1.956831e-003	-1.118694e-002	9.889468e-001	-1.546344e-001	9.887629e-001	-1.545312e-001	1.590521e-003	-1.076896e-002
8880554.900	2.135864e-003	-1.121375e-002	9.889346e-001	-1.557978e-001	9.888548e-001	-1.554233e-001	1.429350e-003	-1.101348e-002
8943093.984	1.936179e-003	-1.120455e-002	9.886974e-001	-1.567904e-001	9.886691e-001	-1.565790e-001	1.426842e-003	-1.103768e-002
9005633.068	1.955563e-003	-1.136713e-002	9.884232e-001	-1.579341e-001	9.885527e-001	-1.577861e-001	1.295136e-003	-1.124056e-002
9068172.151	1.770365e-003	-1.145935e-002	9.884204e-001	-1.590052e-001	9.882362e-001	-1.587450e-001	1.308306e-003	-1.126580e-002
9130711.235	1.956924e-003	-1.160672e-002	9.881700e-001	-1.601171e-001	9.881320e-001	-1.598144e-001	1.322083e-003	-1.154597e-002
9193250.319	1.915593e-003	-1.169713e-002	9.880811e-001	-1.610413e-001	9.878867e-001	-1.609962e-001	1.212562e-003	-1.153839e-002
9255789.403	1.778530e-003	-1.194024e-002	9.879400e-001	-1.620421e-001	9.876946e-001	-1.619819e-001	1.046348e-003	-1.155944e-002
9318328.487	1.695190e-003	-1.192085e-002	9.876782e-001	-1.633778e-001	9.876895e-001	-1.630533e-001	1.123401e-003	-1.164121e-002
9380867.570	1.662474e-003	-1.187272e-002	9.875324e-001	-1.644834e-001	9.873351e-001	-1.642931e-001	1.083183e-003	-1.174349e-002
9443406.654	1.686173e-003	-1.197561e-002	9.873924e-001	-1.654630e-001	9.873161e-001	-1.654410e-001	1.084098e-003	-1.189659e-002
9505945.738	1.627370e-003	-1.201412e-002	9.870142e-001	-1.667118e-001	9.871475e-001	-1.664637e-001	1.004897e-003	-1.197254e-002
9568484.822	1.631013e-003	-1.213745e-002	9.869827e-001	-1.677449e-001	9.867632e-001	-1.675560e-001	7.768791e-004	-1.181425e-002
