!Agilent Technologies,E5061B,MY49102235,A.02.00
!Date: Tue Jul 11 15:29:24 2023
!Data & Calibration Information:
!Freq	S11:SOLT2(ON)	S21:SOLT2(ON)	S12:SOLT2(ON)	S22:SOLT2(ON)
# Hz S RI R 50
5.000	-5.192909e-003	-5.657625e-003	1.001657e+000	8.050706e-003	1.000328e+000	1.024904e-002	-1.590371e-003	-7.563627e-003
62544.084	5.825707e-003	-5.021858e-004	1.001293e+000	6.416104e-004	1.000857e+000	1.121665e-003	7.690617e-003	-2.889907e-003
125083.168	5.692761e-003	-5.099700e-004	1.000940e+000	-7.935277e-004	1.000807e+000	-8.271192e-004	7.489085e-003	-2.290185e-003
187622.251	5.446131e-003	-3.448487e-004	1.000484e+000	-2.152157e-003	1.000920e+000	-9.892715e-004	7.383809e-003	-2.370618e-003
250161.335	5.286871e-003	-1.830850e-004	1.000513e+000	-3.162701e-003	1.000709e+000	-3.105519e-003	7.261662e-003	-2.058155e-003
312700.419	5.415732e-003	5.340372e-004	1.000803e+000	-3.838952e-003	1.000628e+000	-3.576393e-003	7.773359e-003	-2.358465e-003
375239.503	5.281588e-003	-1.012860e-003	1.001078e+000	-5.176308e-003	1.000637e+000	-4.881416e-003	7.256258e-003	-2.556799e-003
437778.587	5.137718e-003	-5.902615e-004	1.001315e+000	-5.396127e-003	1.001012e+000	-6.039376e-003	6.624448e-003	-2.256361e-003
500317.670	4.579297e-003	-4.926751e-004	1.001280e+000	-7.753546e-003	1.001744e+000	-7.435897e-003	4.807168e-003	-2.100040e-003
562856.754	5.888250e-003	-7.960124e-004	1.001379e+000	-9.248954e-003	1.001335e+000	-9.001140e-003	5.996307e-003	-1.608821e-003
625395.838	5.091508e-003	-6.564072e-004	1.002134e+000	-1.044988e-002	1.002279e+000	-9.979491e-003	6.098024e-003	-1.040431e-003
687934.922	5.125387e-003	-9.823551e-004	1.001314e+000	-1.147735e-002	1.001345e+000	-1.153649e-002	5.736308e-003	-1.517181e-003
750474.006	4.341194e-003	-6.857702e-004	1.000728e+000	-1.078941e-002	1.000922e+000	-1.065300e-002	5.520652e-003	-1.342611e-003
813013.089	4.527366e-003	-6.658665e-004	1.001123e+000	-1.271140e-002	1.000782e+000	-1.232581e-002	4.889639e-003	-1.169598e-003
875552.173	4.260193e-003	-4.979969e-004	1.001154e+000	-1.352653e-002	1.001016e+000	-1.347932e-002	5.662062e-003	-1.576962e-003
938091.257	4.328004e-003	-4.556450e-004	1.001194e+000	-1.501991e-002	1.001217e+000	-1.457830e-002	5.905392e-003	-1.007824e-003
1000630.341	3.777146e-003	-8.078488e-004	1.000703e+000	-1.631872e-002	1.001069e+000	-1.598122e-002	5.141857e-003	-1.728388e-003
1063169.425	4.133947e-003	-9.624769e-004	1.001182e+000	-1.774360e-002	1.000798e+000	-1.691660e-002	4.326449e-003	-2.061012e-003
1125708.508	4.016148e-003	-9.328442e-004	1.000841e+000	-1.895633e-002	1.000906e+000	-1.830294e-002	3.837848e-003	-1.763590e-003
1188247.592	4.555596e-003	-1.399400e-003	1.001019e+000	-1.989298e-002	1.001219e+000	-1.936482e-002	2.728144e-003	-2.348263e-003
1250786.676	4.391129e-003	-2.140937e-003	1.000532e+000	-1.981063e-002	1.000848e+000	-1.999966e-002	1.991224e-003	-4.025091e-003
1313325.760	4.520289e-003	-2.244926e-003	1.001104e+000	-2.151770e-002	1.001086e+000	-2.160043e-002	2.733890e-003	-3.820625e-003
1375864.844	4.245993e-003	-2.451156e-003	1.000774e+000	-2.343380e-002	1.000576e+000	-2.344105e-002	2.581881e-003	-3.551751e-003
1438403.927	4.131550e-003	-2.622282e-003	1.000652e+000	-2.396694e-002	1.001049e+000	-2.322294e-002	2.663173e-003	-3.300958e-003
1500943.011	4.352658e-003	-2.559590e-003	1.001347e+000	-2.477602e-002	1.001474e+000	-2.473581e-002	3.013759e-003	-3.726306e-003
1563482.095	4.356735e-003	-2.953450e-003	1.000875e+000	-2.623349e-002	1.000704e+000	-2.542729e-002	3.148558e-003	-3.535401e-003
1626021.179	4.148695e-003	-2.818293e-003	1.000645e+000	-2.745397e-002	1.001128e+000	-2.802128e-002	3.426077e-003	-3.591683e-003
1688560.263	3.848644e-003	-2.773179e-003	1.000421e+000	-2.920080e-002	1.001465e+000	-2.939389e-002	3.602608e-003	-3.618130e-003
1751099.346	3.981660e-003	-2.687837e-003	1.001012e+000	-3.033815e-002	1.000874e+000	-2.976204e-002	3.401802e-003	-2.780155e-003
1813638.430	3.639664e-003	-2.753907e-003	1.001266e+000	-3.196473e-002	1.001095e+000	-3.157512e-002	3.592939e-003	-3.169652e-003
1876177.514	3.667299e-003	-2.452760e-003	1.001715e+000	-3.275705e-002	1.001436e+000	-3.319771e-002	3.253930e-003	-2.508236e-003
1938716.598	3.120181e-003	-2.386947e-003	1.001780e+000	-3.357080e-002	1.001558e+000	-3.310516e-002	3.420320e-003	-2.140581e-003
2001255.682	3.023842e-003	-2.890776e-003	1.001762e+000	-3.497978e-002	1.001365e+000	-3.457035e-002	3.158258e-003	-2.603283e-003
2063794.765	3.122359e-003	-2.532400e-003	1.001416e+000	-3.599289e-002	1.000864e+000	-3.626929e-002	3.553659e-003	-2.702146e-003
2126333.849	2.655609e-003	-3.047345e-003	1.000760e+000	-3.720009e-002	1.000387e+000	-3.684282e-002	3.816862e-003	-2.468071e-003
2188872.933	3.134931e-003	-3.062988e-003	1.000557e+000	-3.833620e-002	1.000258e+000	-3.768791e-002	3.699466e-003	-2.520713e-003
2251412.017	3.244690e-003	-3.445478e-003	1.000405e+000	-3.989335e-002	1.000225e+000	-3.868197e-002	3.666833e-003	-2.652528e-003
2313951.101	3.550540e-003	-3.029917e-003	9.998891e-001	-4.088545e-002	1.000409e+000	-3.961468e-002	3.980911e-003	-2.723268e-003
2376490.184	3.303695e-003	-3.068618e-003	9.997386e-001	-4.115829e-002	1.000184e+000	-4.154069e-002	3.933399e-003	-2.737007e-003
2439029.268	3.758286e-003	-3.125997e-003	9.996467e-001	-4.294688e-002	9.992896e-001	-4.255153e-002	3.601781e-003	-2.650433e-003
2501568.352	3.721922e-003	-3.134805e-003	9.994077e-001	-4.311002e-002	1.000311e+000	-4.323233e-002	3.897594e-003	-2.700747e-003
2564107.436	3.634356e-003	-3.305451e-003	9.997876e-001	-4.482907e-002	1.000010e+000	-4.468911e-002	3.184459e-003	-3.071850e-003
2626646.520	4.126515e-003	-3.486253e-003	9.996883e-001	-4.598694e-002	9.988485e-001	-4.579976e-002	3.447862e-003	-3.166145e-003
2689185.604	4.072893e-003	-3.344721e-003	1.000092e+000	-4.668786e-002	9.996893e-001	-4.661939e-002	3.580247e-003	-3.123004e-003
2751724.687	4.159155e-003	-3.457571e-003	9.997918e-001	-4.742626e-002	9.995467e-001	-4.734697e-002	3.169347e-003	-3.184802e-003
2814263.771	4.109186e-003	-3.545309e-003	9.989188e-001	-4.943783e-002	9.993768e-001	-4.858683e-002	3.155179e-003	-3.328299e-003
2876802.855	4.081421e-003	-3.773311e-003	9.990326e-001	-5.070328e-002	9.992750e-001	-4.979741e-002	3.220563e-003	-3.220445e-003
2939341.939	4.178859e-003	-3.709651e-003	9.996433e-001	-5.127435e-002	9.992466e-001	-5.121676e-002	3.122208e-003	-3.332339e-003
3001881.023	4.102664e-003	-3.723069e-003	9.992628e-001	-5.233436e-002	9.991601e-001	-5.223181e-002	3.195141e-003	-3.500614e-003
3064420.106	4.151644e-003	-3.794489e-003	9.998696e-001	-5.337999e-002	9.989931e-001	-5.324293e-002	3.033067e-003	-3.649205e-003
3126959.190	4.345882e-003	-3.910394e-003	9.994245e-001	-5.463666e-002	9.992854e-001	-5.450257e-002	3.208892e-003	-3.732328e-003
3189498.274	4.330288e-003	-3.904648e-003	9.993153e-001	-5.558465e-002	9.991843e-001	-5.558404e-002	3.205869e-003	-3.811208e-003
3252037.358	4.235019e-003	-4.293977e-003	9.993928e-001	-5.673045e-002	9.991925e-001	-5.658109e-002	3.133240e-003	-3.784498e-003
3314576.442	4.245410e-003	-4.166852e-003	9.992670e-001	-5.772414e-002	9.990945e-001	-5.771307e-002	3.192814e-003	-3.930867e-003
3377115.525	4.215441e-003	-4.187337e-003	9.990870e-001	-5.874539e-002	9.988626e-001	-5.896521e-002	3.041764e-003	-4.101193e-003
3439654.609	4.222720e-003	-4.299274e-003	9.988586e-001	-5.989756e-002	9.991208e-001	-5.991589e-002	3.062809e-003	-3.938676e-003
3502193.693	4.171181e-003	-4.641548e-003	9.988441e-001	-6.110458e-002	9.987727e-001	-6.089669e-002	3.210095e-003	-4.023881e-003
3564732.777	4.220294e-003	-4.526025e-003	9.988977e-001	-6.210701e-002	9.988116e-001	-6.206995e-002	3.299793e-003	-4.037407e-003
3627271.861	4.052473e-003	-4.706374e-003	9.989431e-001	-6.333938e-002	9.988241e-001	-6.305975e-002	3.074578e-003	-4.292081e-003
3689810.944	3.965977e-003	-4.865572e-003	9.987655e-001	-6.439694e-002	9.987434e-001	-6.411672e-002	3.224872e-003	-4.322211e-003
3752350.028	4.076254e-003	-4.895038e-003	9.986743e-001	-6.519568e-002	9.985000e-001	-6.519492e-002	3.153357e-003	-4.415396e-003
3814889.112	4.181740e-003	-4.813696e-003	9.984895e-001	-6.640089e-002	9.987310e-001	-6.653648e-002	3.065722e-003	-4.602981e-003
3877428.196	4.110275e-003	-4.850066e-003	9.986721e-001	-6.753934e-002	9.985889e-001	-6.743510e-002	3.391805e-003	-4.643482e-003
3939967.280	4.080495e-003	-5.187883e-003	9.985230e-001	-6.868673e-002	9.985824e-001	-6.854959e-002	3.354427e-003	-4.606089e-003
4002506.363	4.132724e-003	-5.112238e-003	9.985038e-001	-6.974768e-002	9.984377e-001	-6.948265e-002	3.309274e-003	-4.742438e-003
4065045.447	3.953786e-003	-5.252981e-003	9.982910e-001	-7.092469e-002	9.982543e-001	-7.072101e-002	3.380838e-003	-4.899845e-003
4127584.531	3.924848e-003	-5.332744e-003	9.981845e-001	-7.192479e-002	9.982366e-001	-7.171844e-002	3.387001e-003	-4.859564e-003
4190123.615	3.960754e-003	-5.371090e-003	9.982211e-001	-7.320145e-002	9.980777e-001	-7.294694e-002	3.298622e-003	-5.150410e-003
4252662.699	3.909652e-003	-5.521851e-003	9.982346e-001	-7.429280e-002	9.979166e-001	-7.412447e-002	3.395969e-003	-5.181327e-003
4315201.782	4.041871e-003	-5.627985e-003	9.981112e-001	-7.516284e-002	9.981302e-001	-7.522029e-002	3.211432e-003	-5.441727e-003
4377740.866	3.942669e-003	-5.712856e-003	9.981239e-001	-7.643588e-002	9.978284e-001	-7.631995e-002	3.380241e-003	-5.208634e-003
4440279.950	3.839011e-003	-5.931426e-003	9.979991e-001	-7.732095e-002	9.976818e-001	-7.728000e-002	3.262462e-003	-5.459530e-003
4502819.034	3.823255e-003	-5.865209e-003	9.976798e-001	-7.855280e-002	9.977404e-001	-7.836062e-002	3.333360e-003	-5.371416e-003
4565358.118	3.730243e-003	-5.981076e-003	9.976808e-001	-7.960748e-002	9.974963e-001	-7.927474e-002	3.336391e-003	-5.554303e-003
4627897.201	3.900336e-003	-5.917684e-003	9.977377e-001	-8.068389e-002	9.974546e-001	-8.036439e-002	3.428352e-003	-5.502051e-003
4690436.285	3.725605e-003	-6.120865e-003	9.976787e-001	-8.185523e-002	9.974450e-001	-8.184754e-002	3.421589e-003	-5.778514e-003
4752975.369	3.715150e-003	-6.211561e-003	9.973155e-001	-8.303475e-002	9.974278e-001	-8.279324e-002	3.233556e-003	-5.921734e-003
4815514.453	3.822073e-003	-6.291599e-003	9.974539e-001	-8.403285e-002	9.973377e-001	-8.400550e-002	3.454305e-003	-5.894872e-003
4878053.537	3.922253e-003	-6.441017e-003	9.974199e-001	-8.503711e-002	9.972191e-001	-8.489960e-002	3.409004e-003	-6.039349e-003
4940592.620	3.654922e-003	-6.496120e-003	9.971696e-001	-8.620073e-002	9.971300e-001	-8.611626e-002	3.165374e-003	-6.166397e-003
5003131.704	3.718212e-003	-6.694884e-003	9.970877e-001	-8.725788e-002	9.971369e-001	-8.698333e-002	3.283200e-003	-6.279455e-003
5065670.788	3.618938e-003	-6.587983e-003	9.969821e-001	-8.841680e-002	9.969704e-001	-8.817803e-002	3.249113e-003	-6.332183e-003
5128209.872	3.748738e-003	-6.794252e-003	9.970823e-001	-8.948057e-002	9.968636e-001	-8.923046e-002	3.207875e-003	-6.620367e-003
5190748.956	3.652776e-003	-6.901039e-003	9.968434e-001	-9.059253e-002	9.968387e-001	-9.044271e-002	3.171098e-003	-6.581134e-003
5253288.039	3.686043e-003	-7.016284e-003	9.968983e-001	-9.168791e-002	9.967748e-001	-9.151639e-002	3.099387e-003	-6.573066e-003
5315827.123	3.643839e-003	-7.156621e-003	9.966038e-001	-9.276682e-002	9.966241e-001	-9.262948e-002	3.069825e-003	-6.763671e-003
5378366.207	3.734774e-003	-7.197274e-003	9.966539e-001	-9.389000e-002	9.965503e-001	-9.385039e-002	3.045301e-003	-6.930789e-003
5440905.291	3.528701e-003	-7.189686e-003	9.965736e-001	-9.499562e-002	9.965070e-001	-9.482975e-002	2.931145e-003	-6.957306e-003
5503444.375	3.741733e-003	-7.430058e-003	9.964580e-001	-9.614013e-002	9.964635e-001	-9.579196e-002	3.116942e-003	-7.137070e-003
5565983.458	3.379202e-003	-7.395821e-003	9.964012e-001	-9.707929e-002	9.963237e-001	-9.683991e-002	3.039207e-003	-7.042847e-003
5628522.542	3.613908e-003	-7.554099e-003	9.963317e-001	-9.812346e-002	9.962128e-001	-9.806836e-002	3.066101e-003	-7.263846e-003
5691061.626	3.673998e-003	-7.815205e-003	9.961370e-001	-9.944786e-002	9.960584e-001	-9.920605e-002	2.961532e-003	-7.293596e-003
5753600.710	3.509319e-003	-7.830351e-003	9.959730e-001	-1.003856e-001	9.959727e-001	-1.002518e-001	3.008478e-003	-7.524639e-003
5816139.794	3.602839e-003	-7.725108e-003	9.959640e-001	-1.015298e-001	9.957260e-001	-1.015086e-001	2.849893e-003	-7.575634e-003
5878678.877	3.493871e-003	-8.044499e-003	9.958677e-001	-1.026453e-001	9.957026e-001	-1.025282e-001	2.943547e-003	-7.794580e-003
5941217.961	3.482182e-003	-8.207007e-003	9.956186e-001	-1.038150e-001	9.956367e-001	-1.034064e-001	2.740792e-003	-7.787572e-003
6003757.045	3.300372e-003	-8.063811e-003	9.954361e-001	-1.047680e-001	9.954721e-001	-1.044649e-001	2.860567e-003	-7.887266e-003
6066296.129	3.424312e-003	-8.355374e-003	9.955554e-001	-1.058191e-001	9.954275e-001	-1.055611e-001	2.811227e-003	-8.005640e-003
6128835.213	3.514880e-003	-8.412386e-003	9.953766e-001	-1.066203e-001	9.954863e-001	-1.067995e-001	2.901780e-003	-8.098054e-003
6191374.296	3.447038e-003	-8.520935e-003	9.952339e-001	-1.080114e-001	9.950775e-001	-1.079882e-001	2.738708e-003	-8.088332e-003
6253913.380	3.330190e-003	-8.500008e-003	9.951617e-001	-1.091538e-001	9.950766e-001	-1.089166e-001	2.609492e-003	-8.080420e-003
6316452.464	3.294824e-003	-8.511940e-003	9.950762e-001	-1.100876e-001	9.948343e-001	-1.102490e-001	2.632328e-003	-8.398472e-003
6378991.548	3.240163e-003	-8.752238e-003	9.949086e-001	-1.115630e-001	9.949269e-001	-1.111524e-001	2.685975e-003	-8.604012e-003
6441530.632	3.181112e-003	-8.918971e-003	9.947267e-001	-1.123435e-001	9.947340e-001	-1.123769e-001	2.706366e-003	-8.585205e-003
6504069.715	3.156660e-003	-9.040786e-003	9.945726e-001	-1.136262e-001	9.947338e-001	-1.133992e-001	2.702729e-003	-8.687883e-003
6566608.799	3.295715e-003	-9.188579e-003	9.945703e-001	-1.147984e-001	9.944985e-001	-1.145346e-001	2.593763e-003	-8.589896e-003
6629147.883	3.217826e-003	-9.142112e-003	9.943880e-001	-1.155537e-001	9.943157e-001	-1.156244e-001	2.670210e-003	-8.815585e-003
6691686.967	3.080509e-003	-9.223837e-003	9.942115e-001	-1.167905e-001	9.941841e-001	-1.166727e-001	2.679574e-003	-8.820002e-003
6754226.051	3.020836e-003	-9.345757e-003	9.940520e-001	-1.179328e-001	9.939311e-001	-1.179375e-001	2.453628e-003	-9.132036e-003
6816765.134	3.097518e-003	-9.439257e-003	9.939965e-001	-1.189646e-001	9.939352e-001	-1.188665e-001	2.498851e-003	-9.024232e-003
6879304.218	2.969073e-003	-9.694210e-003	9.938127e-001	-1.200990e-001	9.938467e-001	-1.199424e-001	2.468796e-003	-9.178726e-003
6941843.302	3.028799e-003	-9.623750e-003	9.936808e-001	-1.212571e-001	9.937088e-001	-1.210257e-001	2.452514e-003	-9.193826e-003
7004382.386	2.818578e-003	-9.641529e-003	9.936421e-001	-1.222235e-001	9.934891e-001	-1.221185e-001	2.347776e-003	-9.246418e-003
7066921.470	2.901377e-003	-9.786540e-003	9.933638e-001	-1.234461e-001	9.934698e-001	-1.230249e-001	2.496863e-003	-9.494475e-003
7129460.553	2.785748e-003	-9.980467e-003	9.933316e-001	-1.243038e-001	9.932926e-001	-1.242842e-001	2.469656e-003	-9.521840e-003
7191999.637	2.737206e-003	-9.843960e-003	9.929679e-001	-1.255070e-001	9.929820e-001	-1.253650e-001	2.308784e-003	-9.605627e-003
7254538.721	2.778245e-003	-1.005188e-002	9.931724e-001	-1.266721e-001	9.930702e-001	-1.264356e-001	2.325962e-003	-9.691473e-003
7317077.805	2.943917e-003	-1.017134e-002	9.929585e-001	-1.276319e-001	9.929219e-001	-1.275196e-001	2.311517e-003	-9.884263e-003
7379616.889	2.777188e-003	-1.024838e-002	9.929855e-001	-1.289340e-001	9.927033e-001	-1.286195e-001	2.239553e-003	-9.950336e-003
7442155.972	2.605881e-003	-1.033640e-002	9.926497e-001	-1.298074e-001	9.926275e-001	-1.296758e-001	2.304568e-003	-9.823688e-003
7504695.056	2.634751e-003	-1.053083e-002	9.923846e-001	-1.308104e-001	9.923073e-001	-1.309060e-001	2.311536e-003	-9.835132e-003
7567234.140	2.795776e-003	-1.068929e-002	9.924074e-001	-1.319038e-001	9.921907e-001	-1.319183e-001	2.217774e-003	-1.003130e-002
7629773.224	2.669992e-003	-1.047860e-002	9.922877e-001	-1.331889e-001	9.921706e-001	-1.329538e-001	2.109387e-003	-1.018164e-002
7692312.308	2.510863e-003	-1.064742e-002	9.921298e-001	-1.342271e-001	9.919409e-001	-1.341160e-001	2.159340e-003	-1.034899e-002
7754851.391	2.472956e-003	-1.087855e-002	9.919460e-001	-1.353397e-001	9.916975e-001	-1.350411e-001	2.082251e-003	-1.031723e-002
7817390.475	2.529329e-003	-1.074944e-002	9.918213e-001	-1.365735e-001	9.916079e-001	-1.363635e-001	1.972879e-003	-1.027819e-002
7879929.559	2.414664e-003	-1.102511e-002	9.915646e-001	-1.376770e-001	9.914427e-001	-1.375554e-001	2.068101e-003	-1.037408e-002
7942468.643	2.342582e-003	-1.117063e-002	9.915143e-001	-1.386122e-001	9.914347e-001	-1.385812e-001	2.026831e-003	-1.064365e-002
8005007.727	2.427041e-003	-1.122149e-002	9.912936e-001	-1.397749e-001	9.912580e-001	-1.396338e-001	1.914874e-003	-1.050031e-002
8067546.811	2.244388e-003	-1.127640e-002	9.911490e-001	-1.408472e-001	9.909562e-001	-1.406595e-001	1.801778e-003	-1.080399e-002
8130085.894	2.294985e-003	-1.142749e-002	9.909222e-001	-1.418583e-001	9.908980e-001	-1.418134e-001	1.996721e-003	-1.091994e-002
8192624.978	2.107323e-003	-1.158395e-002	9.906650e-001	-1.430749e-001	9.907217e-001	-1.428611e-001	2.025162e-003	-1.102940e-002
8255164.062	2.199347e-003	-1.163847e-002	9.906223e-001	-1.441008e-001	9.905367e-001	-1.439512e-001	1.957114e-003	-1.116250e-002
8317703.146	2.050030e-003	-1.161537e-002	9.905229e-001	-1.452142e-001	9.904995e-001	-1.450375e-001	1.748497e-003	-1.119540e-002
8380242.230	2.152029e-003	-1.193951e-002	9.902124e-001	-1.463949e-001	9.902036e-001	-1.460794e-001	1.695961e-003	-1.134592e-002
8442781.313	2.094735e-003	-1.198807e-002	9.902949e-001	-1.473582e-001	9.900797e-001	-1.471239e-001	1.654240e-003	-1.151883e-002
8505320.397	2.034300e-003	-1.194406e-002	9.900499e-001	-1.485171e-001	9.898792e-001	-1.482559e-001	1.559667e-003	-1.154544e-002
8567859.481	1.967618e-003	-1.187701e-002	9.898356e-001	-1.493925e-001	9.898324e-001	-1.493145e-001	1.561306e-003	-1.146201e-002
8630398.565	2.013100e-003	-1.201000e-002	9.895272e-001	-1.504549e-001	9.896463e-001	-1.503487e-001	1.422224e-003	-1.180618e-002
8692937.649	1.937357e-003	-1.231342e-002	9.894221e-001	-1.516033e-001	9.893394e-001	-1.515020e-001	1.329846e-003	-1.179119e-002
8755476.732	1.901086e-003	-1.232349e-002	9.893127e-001	-1.527846e-001	9.891755e-001	-1.524921e-001	1.348812e-003	-1.185901e-002
8818015.816	1.761977e-003	-1.245092e-002	9.890763e-001	-1.537899e-001	9.888436e-001	-1.536102e-001	1.436018e-003	-1.204401e-002
8880554.900	1.942108e-003	-1.249804e-002	9.890440e-001	-1.549486e-001	9.889272e-001	-1.545570e-001	1.259728e-003	-1.229649e-002
8943093.984	1.746003e-003	-1.248298e-002	9.888303e-001	-1.559414e-001	9.888047e-001	-1.556775e-001	1.257505e-003	-1.232788e-002
9005633.068	1.764518e-003	-1.266885e-002	9.885345e-001	-1.570637e-001	9.886368e-001	-1.568775e-001	1.124811e-003	-1.253320e-002
9068172.151	1.575658e-003	-1.275754e-002	9.884846e-001	-1.581707e-001	9.883277e-001	-1.578299e-001	1.142635e-003	-1.258224e-002
9130711.235	1.765243e-003	-1.291615e-002	9.882182e-001	-1.592334e-001	9.882023e-001	-1.589037e-001	1.143550e-003	-1.285813e-002
9193250.319	1.718292e-003	-1.302735e-002	9.881850e-001	-1.601578e-001	9.879961e-001	-1.600606e-001	1.042778e-003	-1.287465e-002
9255789.403	1.577619e-003	-1.326317e-002	9.880113e-001	-1.611582e-001	9.878288e-001	-1.610842e-001	8.642417e-004	-1.290313e-002
9318328.487	1.501533e-003	-1.325994e-002	9.878035e-001	-1.624991e-001	9.877870e-001	-1.621128e-001	9.426037e-004	-1.298529e-002
9380867.570	1.463513e-003	-1.322137e-002	9.877031e-001	-1.635772e-001	9.874465e-001	-1.633443e-001	9.097297e-004	-1.309385e-002
9443406.654	1.467220e-003	-1.331361e-002	9.874933e-001	-1.645890e-001	9.873959e-001	-1.644861e-001	8.977971e-004	-1.325735e-002
9505945.738	1.431695e-003	-1.339306e-002	9.871320e-001	-1.658146e-001	9.872669e-001	-1.655326e-001	8.105218e-004	-1.334612e-002
9568484.822	1.422367e-003	-1.350941e-002	9.871121e-001	-1.668581e-001	9.868624e-001	-1.665858e-001	5.691338e-004	-1.319811e-002
