!Agilent Technologies,E5061B,MY49102235,A.02.00
!Date: Tue Jul 11 16:37:41 2023
!Data & Calibration Information:
!Freq	S11:SOLT2(ON)	S21:SOLT2(ON)	S12:SOLT2(ON)	S22:SOLT2(ON)
# Hz S RI R 50
5.000	-5.104909e-003	-5.632282e-003	1.001692e+000	8.019552e-003	1.000288e+000	1.022864e-002	-1.489371e-003	-7.539107e-003
62544.084	5.800383e-003	-3.437756e-004	1.001473e+000	4.036032e-004	1.000854e+000	9.483607e-004	7.686748e-003	-2.726614e-003
125083.168	5.671476e-003	-1.734394e-004	1.001035e+000	-1.088743e-003	1.000772e+000	-1.161276e-003	7.484247e-003	-1.964795e-003
187622.251	5.461217e-003	1.407581e-004	1.000480e+000	-2.610827e-003	1.000919e+000	-1.318376e-003	7.386095e-003	-1.907081e-003
250161.335	5.279780e-003	4.564222e-004	1.000599e+000	-3.857215e-003	1.000741e+000	-3.645573e-003	7.255351e-003	-1.414848e-003
312700.419	5.419257e-003	1.357716e-003	1.000910e+000	-4.739974e-003	1.000651e+000	-4.301259e-003	7.781550e-003	-1.565775e-003
375239.503	5.310943e-003	-3.054285e-005	1.001091e+000	-6.163159e-003	1.000550e+000	-5.921458e-003	7.266619e-003	-1.569213e-003
437778.587	5.140539e-003	5.006801e-004	1.001412e+000	-6.395855e-003	1.000989e+000	-7.183709e-003	6.620631e-003	-1.129584e-003
500317.670	4.605844e-003	7.971425e-004	1.001251e+000	-9.021475e-003	1.001629e+000	-8.853565e-003	4.835088e-003	-7.805588e-004
562856.754	5.915629e-003	6.591155e-004	1.001335e+000	-1.075481e-002	1.001262e+000	-1.046892e-002	6.031960e-003	-1.581471e-004
625395.838	5.123835e-003	9.593158e-004	1.002190e+000	-1.208582e-002	1.002199e+000	-1.156080e-002	6.121520e-003	5.651440e-004
687934.922	5.157986e-003	7.624963e-004	1.001382e+000	-1.310106e-002	1.001210e+000	-1.332749e-002	5.781892e-003	2.582175e-004
750474.006	4.401685e-003	1.261502e-003	1.001023e+000	-1.280630e-002	1.000832e+000	-1.254529e-002	5.575790e-003	5.909037e-004
813013.089	4.575529e-003	1.429943e-003	1.001222e+000	-1.469053e-002	1.000735e+000	-1.433963e-002	4.925866e-003	9.339669e-004
875552.173	4.314000e-003	1.758761e-003	1.001099e+000	-1.578108e-002	1.000978e+000	-1.574609e-002	5.735060e-003	6.594991e-004
938091.257	4.404813e-003	1.963949e-003	1.001294e+000	-1.745898e-002	1.001160e+000	-1.715870e-002	5.983755e-003	1.389189e-003
1000630.341	3.853843e-003	1.764883e-003	1.000803e+000	-1.896809e-002	1.000998e+000	-1.846100e-002	5.214079e-003	8.506403e-004
1063169.425	4.199441e-003	1.766583e-003	1.001159e+000	-2.031372e-002	1.000691e+000	-1.961365e-002	4.402549e-003	6.663237e-004
1125708.508	4.113941e-003	1.959817e-003	1.000823e+000	-2.169687e-002	1.000680e+000	-2.110841e-002	3.927272e-003	1.115940e-003
1188247.592	4.643496e-003	1.650669e-003	1.001125e+000	-2.306072e-002	1.001026e+000	-2.240717e-002	2.825092e-003	7.046105e-004
1250786.676	4.496023e-003	1.082403e-003	1.000709e+000	-2.297041e-002	1.000692e+000	-2.321940e-002	2.077169e-003	-8.152297e-004
1313325.760	4.614652e-003	1.134886e-003	1.001047e+000	-2.476202e-002	1.000992e+000	-2.490784e-002	2.830606e-003	-4.465040e-004
1375864.844	4.359029e-003	1.092526e-003	1.000696e+000	-2.694797e-002	1.000532e+000	-2.697274e-002	2.687428e-003	-4.799369e-006
1438403.927	4.249444e-003	1.079808e-003	1.000598e+000	-2.769142e-002	1.000868e+000	-2.695538e-002	2.781544e-003	4.017453e-004
1500943.011	4.483700e-003	1.296244e-003	1.001181e+000	-2.870845e-002	1.001302e+000	-2.868459e-002	3.156009e-003	1.241687e-004
1563482.095	4.492241e-003	1.066258e-003	1.000826e+000	-3.016792e-002	1.000689e+000	-2.945778e-002	3.305506e-003	4.973327e-004
1626021.179	4.310286e-003	1.356797e-003	1.000878e+000	-3.159358e-002	1.000956e+000	-3.223873e-002	3.579693e-003	5.873308e-004
1688560.263	4.022972e-003	1.566573e-003	1.000487e+000	-3.358396e-002	1.001326e+000	-3.347961e-002	3.752610e-003	7.340341e-004
1751099.346	4.150811e-003	1.809727e-003	1.000900e+000	-3.486069e-002	1.000668e+000	-3.436467e-002	3.598488e-003	1.717957e-003
1813638.430	3.823879e-003	1.911002e-003	1.001220e+000	-3.660677e-002	1.000896e+000	-3.621702e-002	3.778048e-003	1.502065e-003
1876177.514	3.879727e-003	2.361947e-003	1.001585e+000	-3.760765e-002	1.001193e+000	-3.796692e-002	3.461172e-003	2.314525e-003
1938716.598	3.335005e-003	2.591652e-003	1.001728e+000	-3.842168e-002	1.001278e+000	-3.809039e-002	3.640991e-003	2.844355e-003
2001255.682	3.253888e-003	2.273164e-003	1.001590e+000	-4.007199e-002	1.001046e+000	-3.981781e-002	3.404605e-003	2.535782e-003
2063794.765	3.358984e-003	2.781594e-003	1.001178e+000	-4.123155e-002	1.000641e+000	-4.155131e-002	3.824306e-003	2.594815e-003
2126333.849	2.908340e-003	2.420380e-003	1.000591e+000	-4.261223e-002	9.999848e-001	-4.220112e-002	4.079730e-003	2.982995e-003
2188872.933	3.402042e-003	2.564950e-003	1.000419e+000	-4.386658e-002	9.998556e-001	-4.324563e-002	3.961629e-003	3.095927e-003
2251412.017	3.519021e-003	2.364595e-003	1.000282e+000	-4.561277e-002	1.000115e+000	-4.443212e-002	3.967435e-003	3.124864e-003
2313951.101	3.854750e-003	2.914042e-003	9.995893e-001	-4.678423e-002	1.000164e+000	-4.551933e-002	4.291361e-003	3.205799e-003
2376490.184	3.617536e-003	3.035617e-003	9.994636e-001	-4.735864e-002	9.999882e-001	-4.763546e-002	4.270071e-003	3.346739e-003
2439029.268	4.078478e-003	3.141774e-003	9.993177e-001	-4.924709e-002	9.990747e-001	-4.875414e-002	3.958102e-003	3.608830e-003
2501568.352	4.070178e-003	3.287376e-003	9.992011e-001	-4.964034e-002	9.999003e-001	-4.946231e-002	4.270256e-003	3.730357e-003
2564107.436	4.000213e-003	3.283276e-003	9.994845e-001	-5.147223e-002	9.997158e-001	-5.123432e-002	3.571567e-003	3.493070e-003
2626646.520	4.499992e-003	3.253690e-003	9.993512e-001	-5.270087e-002	9.985399e-001	-5.262821e-002	3.839548e-003	3.573987e-003
2689185.604	4.450195e-003	3.550579e-003	9.995912e-001	-5.362725e-002	9.992795e-001	-5.344392e-002	3.992176e-003	3.766388e-003
2751724.687	4.588812e-003	3.595606e-003	9.994893e-001	-5.459548e-002	9.992682e-001	-5.448931e-002	3.606091e-003	3.890957e-003
2814263.771	4.559119e-003	3.670217e-003	9.985906e-001	-5.655226e-002	9.988167e-001	-5.588575e-002	3.589874e-003	3.892505e-003
2876802.855	4.516240e-003	3.601599e-003	9.986223e-001	-5.816862e-002	9.990682e-001	-5.719892e-002	3.706077e-003	4.166980e-003
2939341.939	4.648571e-003	3.827390e-003	9.991797e-001	-5.871217e-002	9.987544e-001	-5.869354e-002	3.600523e-003	4.209182e-003
3001881.023	4.596168e-003	3.977111e-003	9.987673e-001	-5.996018e-002	9.986439e-001	-5.987733e-002	3.699001e-003	4.201127e-003
3064420.106	4.656772e-003	4.061178e-003	9.994233e-001	-6.111597e-002	9.985067e-001	-6.107050e-002	3.562992e-003	4.220712e-003
3126959.190	4.868720e-003	4.094895e-003	9.989708e-001	-6.257771e-002	9.987078e-001	-6.242950e-002	3.734562e-003	4.289388e-003
3189498.274	4.864030e-003	4.260064e-003	9.987981e-001	-6.370220e-002	9.986241e-001	-6.368417e-002	3.757645e-003	4.367467e-003
3252037.358	4.792775e-003	4.038391e-003	9.988521e-001	-6.505858e-002	9.986259e-001	-6.482826e-002	3.728797e-003	4.549000e-003
3314576.442	4.831976e-003	4.326228e-003	9.987366e-001	-6.622445e-002	9.984854e-001	-6.613039e-002	3.809999e-003	4.573146e-003
3377115.525	4.830201e-003	4.460508e-003	9.985256e-001	-6.739052e-002	9.982361e-001	-6.758881e-002	3.663589e-003	4.559253e-003
3439654.609	4.843088e-003	4.532357e-003	9.983200e-001	-6.865760e-002	9.984807e-001	-6.868986e-002	3.710041e-003	4.883621e-003
3502193.693	4.828487e-003	4.345933e-003	9.983023e-001	-7.006399e-002	9.981287e-001	-6.982152e-002	3.890848e-003	4.957554e-003
3564732.777	4.901085e-003	4.601326e-003	9.983185e-001	-7.121878e-002	9.981015e-001	-7.119411e-002	4.003298e-003	5.103878e-003
3627271.861	4.755338e-003	4.597435e-003	9.983526e-001	-7.260284e-002	9.981139e-001	-7.230989e-002	3.799062e-003	5.012359e-003
3689810.944	4.673654e-003	4.595321e-003	9.981316e-001	-7.381454e-002	9.980357e-001	-7.351444e-002	3.976660e-003	5.138229e-003
3752350.028	4.807567e-003	4.730897e-003	9.979995e-001	-7.481245e-002	9.977682e-001	-7.478596e-002	3.914579e-003	5.199324e-003
3814889.112	4.953755e-003	4.954141e-003	9.977766e-001	-7.612910e-002	9.979351e-001	-7.622704e-002	3.851495e-003	5.184062e-003
3877428.196	4.919678e-003	5.095440e-003	9.979281e-001	-7.745534e-002	9.977420e-001	-7.728628e-002	4.193815e-003	5.293113e-003
3939967.280	4.893975e-003	4.911305e-003	9.977645e-001	-7.878495e-002	9.977873e-001	-7.852418e-002	4.198203e-003	5.494631e-003
4002506.363	4.991992e-003	5.151397e-003	9.977464e-001	-7.998258e-002	9.976264e-001	-7.971465e-002	4.163766e-003	5.521680e-003
4065045.447	4.816800e-003	5.154816e-003	9.974786e-001	-8.128278e-002	9.974075e-001	-8.108223e-002	4.272945e-003	5.519676e-003
4127584.531	4.817309e-003	5.250257e-003	9.973648e-001	-8.251291e-002	9.973163e-001	-8.223465e-002	4.314554e-003	5.729596e-003
4190123.615	4.880049e-003	5.361765e-003	9.973799e-001	-8.393540e-002	9.971404e-001	-8.363202e-002	4.239113e-003	5.595778e-003
4252662.699	4.853764e-003	5.383407e-003	9.973123e-001	-8.515520e-002	9.969689e-001	-8.499584e-002	4.368849e-003	5.718075e-003
4315201.782	4.999437e-003	5.434246e-003	9.972172e-001	-8.618446e-002	9.971642e-001	-8.622916e-002	4.200145e-003	5.612251e-003
4377740.866	4.947466e-003	5.503619e-003	9.972088e-001	-8.763520e-002	9.968080e-001	-8.746291e-002	4.401316e-003	6.011960e-003
4440279.950	4.857267e-003	5.449862e-003	9.970150e-001	-8.872302e-002	9.966656e-001	-8.857756e-002	4.317974e-003	5.933772e-003
4502819.034	4.875488e-003	5.685389e-003	9.966780e-001	-9.004897e-002	9.966575e-001	-8.987739e-002	4.418445e-003	6.170450e-003
4565358.118	4.805176e-003	5.719017e-003	9.966397e-001	-9.124806e-002	9.963714e-001	-9.091712e-002	4.452485e-003	6.160471e-003
4627897.201	5.010937e-003	5.944659e-003	9.966710e-001	-9.252538e-002	9.963352e-001	-9.216346e-002	4.577201e-003	6.348681e-003
4690436.285	4.857008e-003	5.901198e-003	9.965572e-001	-9.383240e-002	9.962825e-001	-9.381156e-002	4.582973e-003	6.241042e-003
4752975.369	4.903544e-003	5.983863e-003	9.962022e-001	-9.517884e-002	9.962671e-001	-9.493188e-002	4.437957e-003	6.267405e-003
4815514.453	5.029564e-003	6.072193e-003	9.963287e-001	-9.631096e-002	9.961172e-001	-9.626541e-002	4.678825e-003	6.446707e-003
4878053.537	5.153868e-003	6.078277e-003	9.962382e-001	-9.751459e-002	9.959636e-001	-9.734629e-002	4.670442e-003	6.445791e-003
4940592.620	4.915364e-003	6.193411e-003	9.960008e-001	-9.888300e-002	9.958664e-001	-9.870485e-002	4.452413e-003	6.502934e-003
5003131.704	5.013515e-003	6.121498e-003	9.958460e-001	-1.000335e-001	9.958145e-001	-9.972770e-002	4.608057e-003	6.535639e-003
5065670.788	4.953147e-003	6.408514e-003	9.957070e-001	-1.013460e-001	9.956389e-001	-1.010972e-001	4.597235e-003	6.658166e-003
5128209.872	5.110591e-003	6.354764e-003	9.957536e-001	-1.025815e-001	9.955009e-001	-1.023221e-001	4.595169e-003	6.532004e-003
5190748.956	5.039422e-003	6.419273e-003	9.955242e-001	-1.038640e-001	9.954874e-001	-1.036998e-001	4.597182e-003	6.746845e-003
5253288.039	5.104481e-003	6.463704e-003	9.954930e-001	-1.050947e-001	9.953737e-001	-1.048976e-001	4.544089e-003	6.901640e-003
5315827.123	5.096736e-003	6.477790e-003	9.951737e-001	-1.063150e-001	9.951540e-001	-1.061787e-001	4.552725e-003	6.877605e-003
5378366.207	5.212394e-003	6.617102e-003	9.951852e-001	-1.076323e-001	9.950918e-001	-1.075964e-001	4.578284e-003	6.867794e-003
5440905.291	5.054669e-003	6.774520e-003	9.951392e-001	-1.089068e-001	9.949182e-001	-1.087372e-001	4.491040e-003	6.991624e-003
5503444.375	5.292136e-003	6.687105e-003	9.949730e-001	-1.101721e-001	9.949009e-001	-1.098004e-001	4.714523e-003	6.994842e-003
5565983.458	4.975847e-003	6.901456e-003	9.948644e-001	-1.113329e-001	9.947662e-001	-1.110404e-001	4.670659e-003	7.225878e-003
5628522.542	5.251434e-003	6.901319e-003	9.947849e-001	-1.124847e-001	9.945983e-001	-1.124609e-001	4.730816e-003	7.177160e-003
5691061.626	5.338077e-003	6.788219e-003	9.945030e-001	-1.139989e-001	9.944192e-001	-1.137252e-001	4.651471e-003	7.298666e-003
5753600.710	5.214473e-003	6.947466e-003	9.942965e-001	-1.151404e-001	9.942859e-001	-1.149073e-001	4.735641e-003	7.234584e-003
5816139.794	5.346607e-003	7.209486e-003	9.942702e-001	-1.163972e-001	9.939718e-001	-1.163542e-001	4.610866e-003	7.359880e-003
5878678.877	5.271981e-003	7.054298e-003	9.941102e-001	-1.176756e-001	9.939431e-001	-1.174813e-001	4.754364e-003	7.304316e-003
5941217.961	5.287998e-003	7.050900e-003	9.939008e-001	-1.190007e-001	9.937871e-001	-1.185973e-001	4.596206e-003	7.480433e-003
6003757.045	5.165544e-003	7.358520e-003	9.936244e-001	-1.201161e-001	9.936350e-001	-1.198679e-001	4.752077e-003	7.537489e-003
6066296.129	5.323993e-003	7.224550e-003	9.936985e-001	-1.213160e-001	9.935048e-001	-1.210525e-001	4.742174e-003	7.563302e-003
6128835.213	5.442715e-003	7.321961e-003	9.935094e-001	-1.223349e-001	9.935038e-001	-1.224565e-001	4.871899e-003	7.628821e-003
6191374.296	5.405932e-003	7.387211e-003	9.933013e-001	-1.238716e-001	9.931379e-001	-1.238813e-001	4.738790e-003	7.806944e-003
6253913.380	5.351658e-003	7.576068e-003	9.932128e-001	-1.251456e-001	9.930460e-001	-1.249107e-001	4.646244e-003	7.987646e-003
6316452.464	5.345331e-003	7.721218e-003	9.931063e-001	-1.262698e-001	9.927321e-001	-1.263703e-001	4.716403e-003	7.832489e-003
6378991.548	5.325700e-003	7.644131e-003	9.928344e-001	-1.278825e-001	9.928497e-001	-1.274994e-001	4.803369e-003	7.778076e-003
6441530.632	5.309614e-003	7.633980e-003	9.926325e-001	-1.288327e-001	9.925970e-001	-1.288517e-001	4.891240e-003	7.949321e-003
6504069.715	5.330814e-003	7.687158e-003	9.924377e-001	-1.303305e-001	9.925388e-001	-1.300706e-001	4.924105e-003	8.031597e-003
6566608.799	5.507128e-003	7.699439e-003	9.924079e-001	-1.316129e-001	9.922478e-001	-1.313584e-001	4.848882e-003	8.284408e-003
6629147.883	5.479107e-003	7.907308e-003	9.922054e-001	-1.325287e-001	9.920779e-001	-1.325668e-001	4.962996e-003	8.214109e-003
6691686.967	5.385694e-003	7.990625e-003	9.919614e-001	-1.338915e-001	9.918368e-001	-1.337878e-001	5.019484e-003	8.379985e-003
6754226.051	5.367491e-003	8.034673e-003	9.917562e-001	-1.352769e-001	9.915982e-001	-1.352145e-001	4.849201e-003	8.237518e-003
6816765.134	5.499615e-003	8.098139e-003	9.916881e-001	-1.364292e-001	9.915571e-001	-1.363449e-001	4.940338e-003	8.516414e-003
6879304.218	5.411097e-003	8.020973e-003	9.914173e-001	-1.377367e-001	9.914426e-001	-1.375596e-001	4.955190e-003	8.515018e-003
6941843.302	5.520721e-003	8.248955e-003	9.912124e-001	-1.389843e-001	9.912204e-001	-1.387718e-001	4.966006e-003	8.671720e-003
7004382.386	5.348149e-003	8.399384e-003	9.911462e-001	-1.401475e-001	9.909607e-001	-1.400373e-001	4.921637e-003	8.778903e-003
7066921.470	5.472408e-003	8.405850e-003	9.908608e-001	-1.415398e-001	9.908404e-001	-1.410902e-001	5.117308e-003	8.687357e-003
7129460.553	5.390734e-003	8.375517e-003	9.907412e-001	-1.426170e-001	9.906201e-001	-1.425410e-001	5.135915e-003	8.818700e-003
7191999.637	5.433107e-003	8.690896e-003	9.903183e-001	-1.439545e-001	9.903019e-001	-1.437612e-001	5.026379e-003	8.889326e-003
7254538.721	5.515052e-003	8.645337e-003	9.904662e-001	-1.452550e-001	9.903525e-001	-1.450694e-001	5.105635e-003	8.987043e-003
7317077.805	5.707662e-003	8.683454e-003	9.902177e-001	-1.463707e-001	9.901496e-001	-1.462495e-001	5.111002e-003	8.940388e-003
7379616.889	5.606544e-003	8.758725e-003	9.901957e-001	-1.478385e-001	9.898649e-001	-1.475205e-001	5.095304e-003	9.047431e-003
7442155.972	5.487992e-003	8.832265e-003	9.897885e-001	-1.488913e-001	9.897451e-001	-1.487275e-001	5.224338e-003	9.341237e-003
7504695.056	5.555111e-003	8.822942e-003	9.895172e-001	-1.500653e-001	9.893890e-001	-1.500991e-001	5.277606e-003	9.478540e-003
7567234.140	5.757561e-003	8.810946e-003	9.894565e-001	-1.513317e-001	9.892162e-001	-1.512904e-001	5.236412e-003	9.441060e-003
7629773.224	5.701257e-003	9.188820e-003	9.892932e-001	-1.527731e-001	9.891425e-001	-1.525339e-001	5.189881e-003	9.462534e-003
7692312.308	5.601386e-003	9.198375e-003	9.890798e-001	-1.539864e-001	9.888622e-001	-1.538405e-001	5.280814e-003	9.455939e-003
7754851.391	5.614567e-003	9.109298e-003	9.888492e-001	-1.552717e-001	9.885371e-001	-1.548818e-001	5.237987e-003	9.668166e-003
7817390.475	5.723799e-003	9.406264e-003	9.886757e-001	-1.566106e-001	9.883793e-001	-1.563639e-001	5.212603e-003	9.854745e-003
7879929.559	5.666421e-003	9.300205e-003	9.883433e-001	-1.578680e-001	9.881724e-001	-1.577815e-001	5.366601e-003	9.915962e-003
7942468.643	5.646764e-003	9.319104e-003	9.882565e-001	-1.590244e-001	9.881055e-001	-1.589417e-001	5.374194e-003	9.822348e-003
8005007.727	5.773395e-003	9.418810e-003	9.879388e-001	-1.603423e-001	9.878746e-001	-1.601955e-001	5.329864e-003	1.013519e-002
8067546.811	5.666556e-003	9.546940e-003	9.877797e-001	-1.615725e-001	9.875174e-001	-1.613655e-001	5.262109e-003	9.992600e-003
8130085.894	5.771875e-003	9.546391e-003	9.875008e-001	-1.627283e-001	9.874018e-001	-1.626394e-001	5.507748e-003	1.001052e-002
8192624.978	5.627670e-003	9.573364e-003	9.871982e-001	-1.641216e-001	9.871670e-001	-1.638513e-001	5.578479e-003	1.008649e-002
8255164.062	5.786361e-003	9.665227e-003	9.870610e-001	-1.653211e-001	9.869408e-001	-1.651382e-001	5.587112e-003	1.011532e-002
8317703.146	5.707455e-003	9.858828e-003	9.869060e-001	-1.665807e-001	9.868182e-001	-1.663430e-001	5.433835e-003	1.024766e-002
8380242.230	5.843946e-003	9.688072e-003	9.865603e-001	-1.679417e-001	9.864609e-001	-1.675940e-001	5.430682e-003	1.025801e-002
8442781.313	5.842826e-003	9.805896e-003	9.865799e-001	-1.690324e-001	9.863092e-001	-1.687954e-001	5.439697e-003	1.026724e-002
8505320.397	5.881719e-003	1.001259e-002	9.862771e-001	-1.703783e-001	9.860442e-001	-1.700736e-001	5.424635e-003	1.039052e-002
8567859.481	5.861497e-003	1.025125e-002	9.859571e-001	-1.714107e-001	9.858971e-001	-1.713001e-001	5.487228e-003	1.064146e-002
8630398.565	5.975370e-003	1.027865e-002	9.856035e-001	-1.726331e-001	9.856998e-001	-1.725009e-001	5.396721e-003	1.045949e-002
8692937.649	5.949486e-003	1.014368e-002	9.854718e-001	-1.739056e-001	9.852897e-001	-1.738013e-001	5.382878e-003	1.063538e-002
8755476.732	5.987130e-003	1.027743e-002	9.852578e-001	-1.752542e-001	9.850638e-001	-1.749611e-001	5.472933e-003	1.072619e-002
8818015.816	5.897778e-003	1.032187e-002	9.849366e-001	-1.764388e-001	9.846945e-001	-1.762566e-001	5.612178e-003	1.070871e-002
8880554.900	6.151932e-003	1.043238e-002	9.848966e-001	-1.777663e-001	9.847616e-001	-1.773484e-001	5.492627e-003	1.062395e-002
8943093.984	6.022968e-003	1.061443e-002	9.845717e-001	-1.789078e-001	9.844714e-001	-1.786685e-001	5.548946e-003	1.076531e-002
9005633.068	6.099339e-003	1.060827e-002	9.842423e-001	-1.802182e-001	9.842910e-001	-1.800109e-001	5.470499e-003	1.070998e-002
9068172.151	5.984109e-003	1.067349e-002	9.841337e-001	-1.814354e-001	9.839176e-001	-1.811330e-001	5.564432e-003	1.084175e-002
9130711.235	6.241732e-003	1.067636e-002	9.838237e-001	-1.827184e-001	9.837694e-001	-1.824010e-001	5.628992e-003	1.072656e-002
9193250.319	6.248916e-003	1.072463e-002	9.837062e-001	-1.837827e-001	9.834594e-001	-1.837022e-001	5.606416e-003	1.086870e-002
9255789.403	6.162196e-003	1.064888e-002	9.834880e-001	-1.849765e-001	9.831850e-001	-1.848741e-001	5.483188e-003	1.100173e-002
9318328.487	6.162055e-003	1.082429e-002	9.831707e-001	-1.864688e-001	9.831095e-001	-1.860810e-001	5.631149e-003	1.108078e-002
9380867.570	6.211697e-003	1.101541e-002	9.829943e-001	-1.877264e-001	9.826974e-001	-1.874695e-001	5.655901e-003	1.112990e-002
9443406.654	6.297950e-003	1.108644e-002	9.827186e-001	-1.888547e-001	9.826197e-001	-1.887185e-001	5.718826e-003	1.113111e-002
9505945.738	6.312975e-003	1.118031e-002	9.822998e-001	-1.902529e-001	9.823909e-001	-1.899593e-001	5.718245e-003	1.118572e-002
9568484.822	6.385493e-003	1.121530e-002	9.821999e-001	-1.914435e-001	9.818825e-001	-1.911806e-001	5.552564e-003	1.152739e-002
9631023.906	6.388434e-003	1.130571e-002	9.819478e-001	-1.926686e-001	9.815936e-001	-1.924720e-001	5.758850e-003	1.127978e-002
9693562.989	6.444816e-003	1.135031e-002	9.815556e-001	-1.938831e-001	9.814481e-001	-1.936156e-001	5.545218e-003	1.146851e-002
9756102.073	6.468469e-003	1.138243e-002	9.815226e-001	-1.951898e-001	9.812606e-001	-1.948198e-001	5.611171e-003	1.141460e-002
