!Agilent Technologies,E5061B,MY49102235,A.02.00
!Date: Tue Jul 11 16:43:57 2023
!Data & Calibration Information:
!Freq	S11:SOLT2(ON)	S21:SOLT2(ON)	S12:SOLT2(ON)	S22:SOLT2(ON)
# Hz S RI R 50
5.000	-5.296055e-003	-5.632391e-003	1.001966e+000	7.931843e-003	1.000491e+000	1.028629e-002	-1.554469e-003	-7.558324e-003
62544.084	5.806107e-003	-4.970011e-004	1.001421e+000	3.170018e-004	1.000848e+000	1.225983e-003	7.694598e-003	-2.884502e-003
125083.168	5.669548e-003	-4.947939e-004	1.001040e+000	-9.356857e-004	1.000713e+000	-7.792977e-004	7.477730e-003	-2.279768e-003
187622.251	5.458209e-003	-3.296049e-004	1.000467e+000	-2.166534e-003	1.000945e+000	-9.462784e-004	7.363714e-003	-2.379449e-003
250161.335	5.287162e-003	-1.949277e-004	1.000618e+000	-3.252168e-003	1.000659e+000	-3.024390e-003	7.251517e-003	-2.055214e-003
312700.419	5.415220e-003	5.283366e-004	1.000925e+000	-3.863571e-003	1.000606e+000	-3.532432e-003	7.762948e-003	-2.353974e-003
375239.503	5.310620e-003	-9.922684e-004	1.001066e+000	-5.257340e-003	1.000575e+000	-4.850872e-003	7.245651e-003	-2.530062e-003
437778.587	5.128093e-003	-5.972416e-004	1.001453e+000	-5.492014e-003	1.001033e+000	-6.070933e-003	6.600452e-003	-2.238134e-003
500317.670	4.587656e-003	-4.927172e-004	1.001302e+000	-7.801902e-003	1.001714e+000	-7.440778e-003	4.786511e-003	-2.082928e-003
562856.754	5.894301e-003	-7.795495e-004	1.001443e+000	-9.402631e-003	1.001289e+000	-9.037455e-003	5.977379e-003	-1.585704e-003
625395.838	5.078662e-003	-6.619863e-004	1.002379e+000	-1.047538e-002	1.002089e+000	-1.004301e-002	6.097731e-003	-9.997034e-004
687934.922	5.126095e-003	-9.939259e-004	1.001381e+000	-1.147291e-002	1.001138e+000	-1.143568e-002	5.748728e-003	-1.494448e-003
750474.006	4.363712e-003	-6.526910e-004	1.001054e+000	-1.099996e-002	1.000927e+000	-1.056169e-002	5.541244e-003	-1.325773e-003
813013.089	4.521411e-003	-6.457396e-004	1.001347e+000	-1.263205e-002	1.000533e+000	-1.224753e-002	4.887964e-003	-1.156233e-003
875552.173	4.271055e-003	-4.848199e-004	1.001409e+000	-1.363696e-002	1.000914e+000	-1.344384e-002	5.677285e-003	-1.572534e-003
938091.257	4.341516e-003	-4.373653e-004	1.001380e+000	-1.514774e-002	1.001191e+000	-1.444283e-002	5.920205e-003	-1.001622e-003
1000630.341	3.781678e-003	-8.028171e-004	1.000925e+000	-1.647043e-002	1.000953e+000	-1.585789e-002	5.166958e-003	-1.713715e-003
1063169.425	4.140574e-003	-9.548372e-004	1.001334e+000	-1.784822e-002	1.000601e+000	-1.685159e-002	4.343353e-003	-2.046023e-003
1125708.508	4.017179e-003	-9.271638e-004	1.001116e+000	-1.894003e-002	1.000783e+000	-1.813590e-002	3.851437e-003	-1.763037e-003
1188247.592	4.570493e-003	-1.389677e-003	1.001229e+000	-2.019161e-002	1.001016e+000	-1.917397e-002	2.753625e-003	-2.342863e-003
1250786.676	4.414589e-003	-2.136081e-003	1.000842e+000	-2.004275e-002	1.000644e+000	-1.986265e-002	2.012174e-003	-4.018442e-003
1313325.760	4.532488e-003	-2.238320e-003	1.001257e+000	-2.153646e-002	1.000893e+000	-2.145365e-002	2.755249e-003	-3.827707e-003
1375864.844	4.250950e-003	-2.443178e-003	1.000890e+000	-2.344617e-002	1.000441e+000	-2.332843e-002	2.600129e-003	-3.551094e-003
1438403.927	4.141405e-003	-2.604799e-003	1.000800e+000	-2.419789e-002	1.000974e+000	-2.309113e-002	2.687786e-003	-3.300041e-003
1500943.011	4.363619e-003	-2.553468e-003	1.001506e+000	-2.506273e-002	1.001405e+000	-2.467303e-002	3.032135e-003	-3.713613e-003
1563482.095	4.368461e-003	-2.934567e-003	1.001164e+000	-2.642157e-002	1.000606e+000	-2.519259e-002	3.168829e-003	-3.520236e-003
1626021.179	4.172317e-003	-2.815389e-003	1.000995e+000	-2.753892e-002	1.001041e+000	-2.784261e-002	3.440552e-003	-3.581023e-003
1688560.263	3.857551e-003	-2.760273e-003	1.000634e+000	-2.932144e-002	1.001389e+000	-2.914486e-002	3.611168e-003	-3.600647e-003
1751099.346	4.006300e-003	-2.675288e-003	1.001189e+000	-3.049527e-002	1.000557e+000	-2.968461e-002	3.428632e-003	-2.770388e-003
1813638.430	3.654696e-003	-2.737234e-003	1.001560e+000	-3.200825e-002	1.000972e+000	-3.154528e-002	3.602868e-003	-3.171824e-003
1876177.514	3.677409e-003	-2.442372e-003	1.001927e+000	-3.284475e-002	1.001403e+000	-3.303250e-002	3.263894e-003	-2.498830e-003
1938716.598	3.139922e-003	-2.376234e-003	1.001974e+000	-3.371419e-002	1.001407e+000	-3.295732e-002	3.439377e-003	-2.126381e-003
2001255.682	3.042488e-003	-2.868023e-003	1.001963e+000	-3.512525e-002	1.001316e+000	-3.459356e-002	3.186341e-003	-2.604532e-003
2063794.765	3.118023e-003	-2.485037e-003	1.001468e+000	-3.608311e-002	1.000774e+000	-3.622000e-002	3.583141e-003	-2.704722e-003
2126333.849	2.675881e-003	-3.031997e-003	1.000989e+000	-3.739781e-002	1.000194e+000	-3.656144e-002	3.824044e-003	-2.456974e-003
2188872.933	3.152220e-003	-3.046803e-003	1.000731e+000	-3.849999e-002	1.000136e+000	-3.754478e-002	3.710566e-003	-2.505727e-003
2251412.017	3.256341e-003	-3.420428e-003	1.000613e+000	-3.990374e-002	1.000347e+000	-3.851610e-002	3.691668e-003	-2.641940e-003
2313951.101	3.562478e-003	-3.003491e-003	1.000068e+000	-4.093264e-002	1.000393e+000	-3.950392e-002	3.999559e-003	-2.711859e-003
2376490.184	3.316854e-003	-3.061568e-003	9.999753e-001	-4.134302e-002	1.000190e+000	-4.139126e-002	3.968053e-003	-2.728017e-003
2439029.268	3.759073e-003	-3.096878e-003	9.998372e-001	-4.308075e-002	9.993827e-001	-4.231692e-002	3.623288e-003	-2.638549e-003
2501568.352	3.735360e-003	-3.110857e-003	9.995046e-001	-4.328577e-002	1.000161e+000	-4.297238e-002	3.910582e-003	-2.682739e-003
2564107.436	3.641793e-003	-3.283095e-003	9.999168e-001	-4.498918e-002	9.999391e-001	-4.459659e-002	3.229340e-003	-3.071987e-003
2626646.520	4.130956e-003	-3.479634e-003	9.997494e-001	-4.616517e-002	9.987469e-001	-4.567478e-002	3.468150e-003	-3.156347e-003
2689185.604	4.080370e-003	-3.332620e-003	1.000285e+000	-4.688604e-002	9.995739e-001	-4.636272e-002	3.580489e-003	-3.110606e-003
2751724.687	4.185803e-003	-3.436269e-003	9.999337e-001	-4.761318e-002	9.995592e-001	-4.722938e-002	3.198887e-003	-3.184123e-003
2814263.771	4.138685e-003	-3.523132e-003	9.990236e-001	-4.941974e-002	9.992705e-001	-4.855314e-002	3.176628e-003	-3.328613e-003
2876802.855	4.099902e-003	-3.748571e-003	9.991446e-001	-5.089960e-002	9.992528e-001	-4.966179e-002	3.242041e-003	-3.217984e-003
2939341.939	4.195350e-003	-3.682341e-003	9.997925e-001	-5.136235e-002	9.992182e-001	-5.103739e-002	3.147622e-003	-3.330234e-003
3001881.023	4.133823e-003	-3.696475e-003	9.994265e-001	-5.253489e-002	9.990088e-001	-5.223145e-002	3.228566e-003	-3.480535e-003
3064420.106	4.165158e-003	-3.760339e-003	9.998863e-001	-5.344938e-002	9.990211e-001	-5.313569e-002	3.075396e-003	-3.643766e-003
3126959.190	4.358538e-003	-3.892177e-003	9.995309e-001	-5.470813e-002	9.991950e-001	-5.432458e-002	3.238708e-003	-3.716671e-003
3189498.274	4.325720e-003	-3.885534e-003	9.994285e-001	-5.567524e-002	9.991236e-001	-5.541806e-002	3.237251e-003	-3.804011e-003
3252037.358	4.241425e-003	-4.268396e-003	9.995199e-001	-5.681766e-002	9.991435e-001	-5.640717e-002	3.169254e-003	-3.792399e-003
3314576.442	4.258563e-003	-4.138032e-003	9.994096e-001	-5.783735e-002	9.990170e-001	-5.756828e-002	3.231151e-003	-3.922209e-003
3377115.525	4.228052e-003	-4.166844e-003	9.992274e-001	-5.885406e-002	9.987790e-001	-5.881930e-002	3.072329e-003	-4.092616e-003
3439654.609	4.218832e-003	-4.261736e-003	9.990175e-001	-5.998970e-002	9.990504e-001	-5.977134e-002	3.087198e-003	-3.934140e-003
3502193.693	4.186462e-003	-4.607529e-003	9.990098e-001	-6.122755e-002	9.986833e-001	-6.073717e-002	3.250997e-003	-4.007913e-003
3564732.777	4.223676e-003	-4.508931e-003	9.990297e-001	-6.222614e-002	9.987220e-001	-6.193911e-002	3.328986e-003	-4.026971e-003
3627271.861	4.068942e-003	-4.683964e-003	9.990439e-001	-6.341147e-002	9.987653e-001	-6.287416e-002	3.104730e-003	-4.300884e-003
3689810.944	3.971147e-003	-4.858017e-003	9.989138e-001	-6.450052e-002	9.986707e-001	-6.393058e-002	3.259030e-003	-4.317441e-003
3752350.028	4.079028e-003	-4.865058e-003	9.987963e-001	-6.534876e-002	9.984457e-001	-6.498391e-002	3.188572e-003	-4.415664e-003
3814889.112	4.193997e-003	-4.779746e-003	9.986260e-001	-6.648959e-002	9.985958e-001	-6.637609e-002	3.096034e-003	-4.599413e-003
3877428.196	4.124826e-003	-4.817045e-003	9.987888e-001	-6.764773e-002	9.984881e-001	-6.724114e-002	3.414765e-003	-4.631979e-003
3939967.280	4.087738e-003	-5.161859e-003	9.986638e-001	-6.882067e-002	9.984833e-001	-6.836519e-002	3.389247e-003	-4.588786e-003
4002506.363	4.150940e-003	-5.088297e-003	9.986233e-001	-6.981620e-002	9.984099e-001	-6.929900e-002	3.337805e-003	-4.731878e-003
4065045.447	3.963290e-003	-5.233015e-003	9.983858e-001	-7.095672e-002	9.981999e-001	-7.050321e-002	3.423799e-003	-4.899632e-003
4127584.531	3.927176e-003	-5.309001e-003	9.983141e-001	-7.205398e-002	9.981611e-001	-7.152857e-002	3.425708e-003	-4.844585e-003
4190123.615	3.975097e-003	-5.355187e-003	9.983384e-001	-7.327269e-002	9.979841e-001	-7.274776e-002	3.326977e-003	-5.141892e-003
4252662.699	3.917029e-003	-5.495469e-003	9.983623e-001	-7.439444e-002	9.978657e-001	-7.396766e-002	3.432199e-003	-5.176994e-003
4315201.782	4.057500e-003	-5.597258e-003	9.982546e-001	-7.527041e-002	9.981170e-001	-7.504060e-002	3.247415e-003	-5.438487e-003
4377740.866	3.947688e-003	-5.699132e-003	9.982474e-001	-7.650528e-002	9.977668e-001	-7.611163e-002	3.412755e-003	-5.199794e-003
4440279.950	3.838089e-003	-5.907703e-003	9.980930e-001	-7.741242e-002	9.976121e-001	-7.706785e-002	3.298594e-003	-5.449343e-003
4502819.034	3.832381e-003	-5.845842e-003	9.978039e-001	-7.862437e-002	9.976674e-001	-7.815879e-002	3.362788e-003	-5.358527e-003
4565358.118	3.742078e-003	-5.959472e-003	9.977652e-001	-7.967242e-002	9.974083e-001	-7.905382e-002	3.376099e-003	-5.535842e-003
4627897.201	3.912971e-003	-5.899539e-003	9.978489e-001	-8.075812e-002	9.974232e-001	-8.016147e-002	3.470957e-003	-5.508259e-003
4690436.285	3.737410e-003	-6.101007e-003	9.977789e-001	-8.192178e-002	9.973780e-001	-8.164412e-002	3.457120e-003	-5.780753e-003
4752975.369	3.724858e-003	-6.185711e-003	9.974308e-001	-8.313038e-002	9.973606e-001	-8.261100e-002	3.283938e-003	-5.913127e-003
4815514.453	3.838707e-003	-6.245044e-003	9.975741e-001	-8.405793e-002	9.972543e-001	-8.380209e-002	3.487449e-003	-5.882736e-003
4878053.537	3.932730e-003	-6.424174e-003	9.975339e-001	-8.511294e-002	9.971456e-001	-8.469422e-002	3.449323e-003	-6.049898e-003
4940592.620	3.659002e-003	-6.470404e-003	9.973012e-001	-8.629459e-002	9.970866e-001	-8.591630e-002	3.202843e-003	-6.156350e-003
5003131.704	3.727048e-003	-6.678037e-003	9.971906e-001	-8.733640e-002	9.970856e-001	-8.676407e-002	3.331902e-003	-6.287769e-003
5065670.788	3.631639e-003	-6.558649e-003	9.970975e-001	-8.849401e-002	9.968917e-001	-8.791098e-002	3.284899e-003	-6.326826e-003
5128209.872	3.753342e-003	-6.771328e-003	9.971755e-001	-8.951110e-002	9.968066e-001	-8.904802e-002	3.255076e-003	-6.607108e-003
5190748.956	3.646299e-003	-6.868434e-003	9.969917e-001	-9.064110e-002	9.968068e-001	-9.021568e-002	3.218110e-003	-6.554027e-003
5253288.039	3.691861e-003	-6.984594e-003	9.969778e-001	-9.173233e-002	9.967113e-001	-9.127645e-002	3.140182e-003	-6.570316e-003
5315827.123	3.650075e-003	-7.132176e-003	9.966737e-001	-9.280544e-002	9.965349e-001	-9.237208e-002	3.114245e-003	-6.746302e-003
5378366.207	3.738527e-003	-7.162703e-003	9.967573e-001	-9.391203e-002	9.964673e-001	-9.362796e-002	3.080763e-003	-6.916494e-003
5440905.291	3.543608e-003	-7.167624e-003	9.967130e-001	-9.503555e-002	9.963772e-001	-9.459884e-002	2.962988e-003	-6.962326e-003
5503444.375	3.749410e-003	-7.408779e-003	9.965874e-001	-9.614285e-002	9.963834e-001	-9.556449e-002	3.165586e-003	-7.119470e-003
5565983.458	3.383168e-003	-7.364032e-003	9.964996e-001	-9.715440e-002	9.962897e-001	-9.667189e-002	3.082985e-003	-7.048150e-003
5628522.542	3.626645e-003	-7.528378e-003	9.964006e-001	-9.815914e-002	9.961128e-001	-9.783650e-002	3.109731e-003	-7.269447e-003
5691061.626	3.683528e-003	-7.792077e-003	9.962451e-001	-9.947707e-002	9.959887e-001	-9.899096e-002	3.009722e-003	-7.293299e-003
5753600.710	3.515072e-003	-7.791702e-003	9.960532e-001	-1.004293e-001	9.959506e-001	-9.998224e-002	3.042270e-003	-7.518605e-003
5816139.794	3.606475e-003	-7.698047e-003	9.960636e-001	-1.015152e-001	9.956197e-001	-1.013286e-001	2.892686e-003	-7.566927e-003
5878678.877	3.495838e-003	-8.014563e-003	9.959298e-001	-1.026682e-001	9.956844e-001	-1.022322e-001	2.994469e-003	-7.786798e-003
5941217.961	3.486320e-003	-8.179131e-003	9.957611e-001	-1.038579e-001	9.955629e-001	-1.032405e-001	2.790002e-003	-7.773458e-003
6003757.045	3.311060e-003	-8.036408e-003	9.955012e-001	-1.047831e-001	9.954382e-001	-1.043134e-001	2.902482e-003	-7.873563e-003
6066296.129	3.428604e-003	-8.322890e-003	9.956610e-001	-1.058328e-001	9.952879e-001	-1.053104e-001	2.881026e-003	-8.005658e-003
6128835.213	3.516364e-003	-8.386210e-003	9.954893e-001	-1.066595e-001	9.953543e-001	-1.065099e-001	2.957635e-003	-8.099778e-003
6191374.296	3.431722e-003	-8.487967e-003	9.953414e-001	-1.080756e-001	9.951187e-001	-1.078198e-001	2.770939e-003	-8.100852e-003
6253913.380	3.351854e-003	-8.468172e-003	9.952672e-001	-1.091558e-001	9.949940e-001	-1.087170e-001	2.640335e-003	-8.078738e-003
6316452.464	3.290774e-003	-8.479768e-003	9.951700e-001	-1.101263e-001	9.947778e-001	-1.099843e-001	2.679359e-003	-8.392849e-003
6378991.548	3.242657e-003	-8.729403e-003	9.950174e-001	-1.115456e-001	9.948617e-001	-1.109190e-001	2.736932e-003	-8.606603e-003
6441530.632	3.174250e-003	-8.894032e-003	9.948029e-001	-1.123521e-001	9.946499e-001	-1.121477e-001	2.754202e-003	-8.587564e-003
6504069.715	3.158198e-003	-9.011643e-003	9.947142e-001	-1.136824e-001	9.947167e-001	-1.131596e-001	2.758364e-003	-8.684163e-003
6566608.799	3.287398e-003	-9.165446e-003	9.946959e-001	-1.148265e-001	9.944202e-001	-1.142808e-001	2.645999e-003	-8.589430e-003
6629147.883	3.223797e-003	-9.111405e-003	9.945152e-001	-1.155687e-001	9.942848e-001	-1.153923e-001	2.726392e-003	-8.814631e-003
6691686.967	3.082503e-003	-9.194798e-003	9.943108e-001	-1.167579e-001	9.941174e-001	-1.164356e-001	2.730095e-003	-8.824581e-003
6754226.051	3.011852e-003	-9.300674e-003	9.941560e-001	-1.179426e-001	9.938944e-001	-1.176757e-001	2.520836e-003	-9.131366e-003
6816765.134	3.094407e-003	-9.400748e-003	9.941100e-001	-1.189691e-001	9.938792e-001	-1.186316e-001	2.557190e-003	-9.030895e-003
6879304.218	2.970574e-003	-9.653285e-003	9.939256e-001	-1.200917e-001	9.937711e-001	-1.196878e-001	2.520099e-003	-9.183491e-003
6941843.302	3.034380e-003	-9.588174e-003	9.937839e-001	-1.212128e-001	9.936333e-001	-1.207659e-001	2.497067e-003	-9.185016e-003
7004382.386	2.816113e-003	-9.606250e-003	9.937502e-001	-1.222137e-001	9.934721e-001	-1.218407e-001	2.394820e-003	-9.247693e-003
7066921.470	2.898865e-003	-9.751741e-003	9.935011e-001	-1.234407e-001	9.933747e-001	-1.227582e-001	2.541361e-003	-9.485523e-003
7129460.553	2.763456e-003	-9.957336e-003	9.934440e-001	-1.243306e-001	9.932389e-001	-1.239920e-001	2.526917e-003	-9.525508e-003
7191999.637	2.741388e-003	-9.809746e-003	9.930624e-001	-1.255475e-001	9.929255e-001	-1.250586e-001	2.370927e-003	-9.615685e-003
7254538.721	2.768709e-003	-1.002101e-002	9.932565e-001	-1.266639e-001	9.929878e-001	-1.262134e-001	2.385299e-003	-9.693316e-003
7317077.805	2.932454e-003	-1.013512e-002	9.930571e-001	-1.276113e-001	9.928643e-001	-1.272158e-001	2.367158e-003	-9.890250e-003
7379616.889	2.780517e-003	-1.022256e-002	9.930552e-001	-1.289085e-001	9.926371e-001	-1.283389e-001	2.288992e-003	-9.951398e-003
7442155.972	2.609990e-003	-1.031243e-002	9.927614e-001	-1.298071e-001	9.925328e-001	-1.293654e-001	2.368850e-003	-9.824675e-003
7504695.056	2.615745e-003	-1.048910e-002	9.925014e-001	-1.308371e-001	9.922902e-001	-1.306275e-001	2.368062e-003	-9.848419e-003
7567234.140	2.773589e-003	-1.065605e-002	9.924940e-001	-1.319235e-001	9.921480e-001	-1.316209e-001	2.277922e-003	-1.004201e-002
7629773.224	2.662162e-003	-1.044240e-002	9.924054e-001	-1.331519e-001	9.921554e-001	-1.326526e-001	2.177143e-003	-1.018217e-002
7692312.308	2.501318e-003	-1.060137e-002	9.922426e-001	-1.342518e-001	9.919065e-001	-1.338439e-001	2.211202e-003	-1.036310e-002
7754851.391	2.464846e-003	-1.084859e-002	9.920594e-001	-1.353627e-001	9.916350e-001	-1.347353e-001	2.126393e-003	-1.031668e-002
7817390.475	2.514823e-003	-1.071640e-002	9.919234e-001	-1.365353e-001	9.915838e-001	-1.360387e-001	2.037619e-003	-1.028838e-002
7879929.559	2.412363e-003	-1.099384e-002	9.916663e-001	-1.376002e-001	9.914077e-001	-1.373212e-001	2.131060e-003	-1.038463e-002
7942468.643	2.344539e-003	-1.113586e-002	9.916246e-001	-1.386059e-001	9.913615e-001	-1.383316e-001	2.086981e-003	-1.064799e-002
8005007.727	2.419411e-003	-1.119240e-002	9.913536e-001	-1.397676e-001	9.912247e-001	-1.393842e-001	1.981521e-003	-1.050811e-002
8067546.811	2.235148e-003	-1.123122e-002	9.912531e-001	-1.407984e-001	9.908952e-001	-1.403774e-001	1.868690e-003	-1.081225e-002
8130085.894	2.284446e-003	-1.139365e-002	9.910530e-001	-1.418144e-001	9.908344e-001	-1.415091e-001	2.044750e-003	-1.095123e-002
8192624.978	2.099040e-003	-1.153110e-002	9.907623e-001	-1.430294e-001	9.906702e-001	-1.425511e-001	2.084059e-003	-1.102982e-002
8255164.062	2.188574e-003	-1.160553e-002	9.907021e-001	-1.440674e-001	9.904735e-001	-1.436609e-001	2.017275e-003	-1.116936e-002
8317703.146	2.049270e-003	-1.157772e-002	9.906132e-001	-1.451704e-001	9.904238e-001	-1.447352e-001	1.821183e-003	-1.120533e-002
8380242.230	2.128972e-003	-1.190152e-002	9.903228e-001	-1.463395e-001	9.901697e-001	-1.457805e-001	1.745858e-003	-1.135260e-002
8442781.313	2.072684e-003	-1.194570e-002	9.903936e-001	-1.473229e-001	9.900363e-001	-1.468640e-001	1.700327e-003	-1.153148e-002
8505320.397	2.034743e-003	-1.190076e-002	9.901632e-001	-1.484639e-001	9.898739e-001	-1.479410e-001	1.624698e-003	-1.155972e-002
8567859.481	1.959632e-003	-1.183521e-002	9.899324e-001	-1.493781e-001	9.897726e-001	-1.490361e-001	1.627241e-003	-1.147249e-002
8630398.565	2.005607e-003	-1.196343e-002	9.896175e-001	-1.504339e-001	9.895851e-001	-1.500312e-001	1.482187e-003	-1.181254e-002
8692937.649	1.921526e-003	-1.226955e-002	9.895323e-001	-1.515416e-001	9.892678e-001	-1.511868e-001	1.380892e-003	-1.181263e-002
8755476.732	1.910831e-003	-1.230195e-002	9.893842e-001	-1.527414e-001	9.891310e-001	-1.521643e-001	1.419717e-003	-1.188012e-002
8818015.816	1.750343e-003	-1.242028e-002	9.891610e-001	-1.537722e-001	9.888107e-001	-1.533125e-001	1.498762e-003	-1.205640e-002
8880554.900	1.939798e-003	-1.246695e-002	9.891263e-001	-1.549042e-001	9.889316e-001	-1.542412e-001	1.328422e-003	-1.230496e-002
8943093.984	1.730566e-003	-1.244939e-002	9.889000e-001	-1.558998e-001	9.887133e-001	-1.553680e-001	1.323184e-003	-1.234110e-002
9005633.068	1.755916e-003	-1.262956e-002	9.886266e-001	-1.570339e-001	9.886441e-001	-1.565608e-001	1.170677e-003	-1.255044e-002
9068172.151	1.572799e-003	-1.272541e-002	9.886089e-001	-1.581097e-001	9.882989e-001	-1.575383e-001	1.197137e-003	-1.258672e-002
9130711.235	1.755692e-003	-1.286076e-002	9.883438e-001	-1.591940e-001	9.881834e-001	-1.586036e-001	1.209702e-003	-1.287840e-002
9193250.319	1.708313e-003	-1.298762e-002	9.883036e-001	-1.601054e-001	9.879519e-001	-1.597573e-001	1.102257e-003	-1.287988e-002
9255789.403	1.563476e-003	-1.321936e-002	9.881392e-001	-1.610983e-001	9.878095e-001	-1.607787e-001	9.241446e-004	-1.291455e-002
9318328.487	1.480489e-003	-1.321746e-002	9.879196e-001	-1.624419e-001	9.877743e-001	-1.617797e-001	1.003722e-003	-1.301034e-002
9380867.570	1.456867e-003	-1.318719e-002	9.877869e-001	-1.635003e-001	9.874190e-001	-1.630379e-001	9.671806e-004	-1.311188e-002
9443406.654	1.467953e-003	-1.327830e-002	9.876123e-001	-1.645208e-001	9.873807e-001	-1.641424e-001	9.597134e-004	-1.327737e-002
9505945.738	1.413309e-003	-1.334244e-002	9.872170e-001	-1.657562e-001	9.872647e-001	-1.651966e-001	8.799267e-004	-1.338067e-002
9568484.822	1.423622e-003	-1.346889e-002	9.871893e-001	-1.667767e-001	9.868375e-001	-1.662786e-001	6.315191e-004	-1.321819e-002
