!Agilent Technologies,E5061B,MY49102235,A.02.00
!Date: Tue Jul 11 15:02:38 2023
!Data & Calibration Information:
!Freq	S11:SOLT2(ON)	S21:SOLT2(ON)	S12:SOLT2(ON)	S22:SOLT2(ON)
# Hz S RI R 50
5.000	-5.220940e-003	-5.637740e-003	1.001610e+000	8.003413e-003	1.000194e+000	1.021560e-002	-1.501401e-003	-7.559917e-003
62544.084	5.833713e-003	-5.600391e-005	1.001342e+000	1.749761e-004	1.000832e+000	7.321514e-004	7.711206e-003	-2.444045e-003
125083.168	5.705133e-003	3.900439e-004	1.000908e+000	-1.686550e-003	1.000787e+000	-1.761585e-003	7.504731e-003	-1.406715e-003
187622.251	5.477336e-003	9.914210e-004	1.000494e+000	-3.468102e-003	1.001080e+000	-2.375392e-003	7.397905e-003	-1.069549e-003
250161.335	5.324510e-003	1.551714e-003	1.000595e+000	-4.804193e-003	1.000738e+000	-4.910645e-003	7.288057e-003	-2.989190e-004
312700.419	5.471426e-003	2.722287e-003	1.000841e+000	-6.013919e-003	1.000557e+000	-5.738195e-003	7.841677e-003	-1.923165e-004
375239.503	5.367002e-003	1.636945e-003	1.001002e+000	-7.805621e-003	1.000601e+000	-7.552058e-003	7.316022e-003	6.292926e-005
437778.587	5.251833e-003	2.460086e-003	1.001154e+000	-8.372466e-003	1.001035e+000	-9.136157e-003	6.689695e-003	7.911209e-004
500317.670	4.705493e-003	3.015796e-003	1.001123e+000	-1.122906e-002	1.001585e+000	-1.107905e-002	4.922912e-003	1.408098e-003
562856.754	6.052132e-003	3.127128e-003	1.001125e+000	-1.309686e-002	1.001104e+000	-1.299513e-002	6.149486e-003	2.307878e-003
625395.838	5.256698e-003	3.693874e-003	1.001982e+000	-1.472261e-002	1.001926e+000	-1.443067e-002	6.277845e-003	3.317473e-003
687934.922	5.328503e-003	3.795136e-003	1.001103e+000	-1.617008e-002	1.001083e+000	-1.631267e-002	5.940180e-003	3.262067e-003
750474.006	4.603610e-003	4.574497e-003	1.000676e+000	-1.595695e-002	1.000768e+000	-1.592592e-002	5.780251e-003	3.891166e-003
813013.089	4.811987e-003	5.003852e-003	1.000844e+000	-1.836605e-002	1.000567e+000	-1.797084e-002	5.166798e-003	4.497489e-003
875552.173	4.574724e-003	5.596753e-003	1.000916e+000	-1.951923e-002	1.000841e+000	-1.964857e-002	5.972859e-003	4.519195e-003
938091.257	4.691837e-003	6.097291e-003	1.000956e+000	-2.148568e-002	1.000933e+000	-2.135217e-002	6.254883e-003	5.509683e-003
1000630.341	4.165103e-003	6.175956e-003	1.000443e+000	-2.321235e-002	1.000797e+000	-2.303064e-002	5.515914e-003	5.241411e-003
1063169.425	4.553251e-003	6.437374e-003	1.000720e+000	-2.519320e-002	1.000436e+000	-2.431176e-002	4.729765e-003	5.356201e-003
1125708.508	4.474037e-003	6.923032e-003	1.000371e+000	-2.665734e-002	1.000486e+000	-2.623472e-002	4.287380e-003	6.083019e-003
1188247.592	5.043266e-003	6.907006e-003	1.000700e+000	-2.817189e-002	1.000737e+000	-2.771332e-002	3.209791e-003	5.956817e-003
1250786.676	4.909847e-003	6.585932e-003	1.000146e+000	-2.856556e-002	1.000470e+000	-2.881921e-002	2.490610e-003	4.747200e-003
1313325.760	5.065089e-003	6.933457e-003	1.000445e+000	-3.048947e-002	1.000538e+000	-3.085279e-002	3.258215e-003	5.378243e-003
1375864.844	4.827283e-003	7.175334e-003	1.000080e+000	-3.283869e-002	1.000117e+000	-3.305176e-002	3.158229e-003	6.092749e-003
1438403.927	4.758920e-003	7.465671e-003	1.000041e+000	-3.396710e-002	1.000469e+000	-3.347734e-002	3.296860e-003	6.797192e-003
1500943.011	5.054569e-003	7.954521e-003	1.000629e+000	-3.541125e-002	1.000923e+000	-3.535781e-002	3.689156e-003	6.832146e-003
1563482.095	5.082835e-003	8.037938e-003	1.000281e+000	-3.712246e-002	1.000030e+000	-3.643273e-002	3.860784e-003	7.480934e-003
1626021.179	4.947228e-003	8.616629e-003	1.000054e+000	-3.883407e-002	1.000298e+000	-3.951059e-002	4.200305e-003	7.873232e-003
1688560.263	4.709906e-003	9.134546e-003	9.996619e-001	-4.110598e-002	1.000667e+000	-4.131198e-002	4.424633e-003	8.305858e-003
1751099.346	4.887602e-003	9.687193e-003	1.000172e+000	-4.270581e-002	9.999275e-001	-4.221281e-002	4.309950e-003	9.605625e-003
1813638.430	4.598331e-003	1.010704e-002	1.000369e+000	-4.456702e-002	1.000183e+000	-4.456931e-002	4.542374e-003	9.676136e-003
1876177.514	4.701325e-003	1.085594e-002	1.000737e+000	-4.596294e-002	1.000406e+000	-4.655500e-002	4.280497e-003	1.082550e-002
1938716.598	4.230721e-003	1.142056e-002	1.000809e+000	-4.729630e-002	1.000371e+000	-4.687974e-002	4.522032e-003	1.167402e-002
2001255.682	4.187533e-003	1.141713e-002	1.000676e+000	-4.922145e-002	1.000145e+000	-4.897303e-002	4.337215e-003	1.169465e-002
2063794.765	4.372627e-003	1.226741e-002	1.000095e+000	-5.070036e-002	9.995367e-001	-5.110776e-002	4.800222e-003	1.206897e-002
2126333.849	3.981985e-003	1.225694e-002	9.995922e-001	-5.248774e-002	9.990536e-001	-5.201283e-002	5.150136e-003	1.279806e-002
2188872.933	4.544497e-003	1.271557e-002	9.992974e-001	-5.407041e-002	9.988039e-001	-5.350014e-002	5.103529e-003	1.323888e-002
2251412.017	4.721348e-003	1.285759e-002	9.990531e-001	-5.599587e-002	9.988804e-001	-5.508372e-002	5.181914e-003	1.361233e-002
2313951.101	5.161790e-003	1.374151e-002	9.982703e-001	-5.751579e-002	9.988447e-001	-5.644592e-002	5.592189e-003	1.402791e-002
2376490.184	5.007253e-003	1.422225e-002	9.981403e-001	-5.838016e-002	9.986295e-001	-5.877961e-002	5.648755e-003	1.453156e-002
2439029.268	5.578647e-003	1.467529e-002	9.979330e-001	-6.078370e-002	9.976368e-001	-6.035263e-002	5.444829e-003	1.515878e-002
2501568.352	5.667534e-003	1.516791e-002	9.975739e-001	-6.133075e-002	9.983197e-001	-6.144463e-002	5.861673e-003	1.561311e-002
2564107.436	5.712084e-003	1.553788e-002	9.977752e-001	-6.378657e-002	9.979031e-001	-6.363420e-002	5.268072e-003	1.576822e-002
2626646.520	6.317034e-003	1.586687e-002	9.975616e-001	-6.522944e-002	9.967897e-001	-6.511845e-002	5.668189e-003	1.621742e-002
2689185.604	6.413291e-003	1.653775e-002	9.977343e-001	-6.659136e-002	9.972911e-001	-6.646086e-002	5.939979e-003	1.677769e-002
2751724.687	6.684340e-003	1.696441e-002	9.974497e-001	-6.787872e-002	9.971937e-001	-6.786581e-002	5.707304e-003	1.727931e-002
2814263.771	6.804480e-003	1.741981e-002	9.963982e-001	-7.025576e-002	9.967541e-001	-6.961919e-002	5.835106e-003	1.767187e-002
2876802.855	6.923479e-003	1.773543e-002	9.962987e-001	-7.212176e-002	9.964715e-001	-7.127664e-002	6.109715e-003	1.831572e-002
2939341.939	7.247491e-003	1.833625e-002	9.966387e-001	-7.318383e-002	9.960978e-001	-7.342667e-002	6.197717e-003	1.873641e-002
3001881.023	7.362598e-003	1.887428e-002	9.961412e-001	-7.481395e-002	9.958498e-001	-7.500002e-002	6.473678e-003	1.911119e-002
3064420.106	7.627505e-003	1.934086e-002	9.963814e-001	-7.640472e-002	9.956247e-001	-7.645836e-002	6.500923e-003	1.952965e-002
3126959.190	8.037025e-003	1.975480e-002	9.957712e-001	-7.818440e-002	9.955829e-001	-7.818325e-002	6.917335e-003	1.997847e-002
3189498.274	8.251386e-003	2.030042e-002	9.954343e-001	-7.973212e-002	9.952609e-001	-7.979483e-002	7.142565e-003	2.044302e-002
3252037.358	8.404455e-003	2.047738e-002	9.952721e-001	-8.145560e-002	9.950403e-001	-8.137485e-002	7.341535e-003	2.101724e-002
3314576.442	8.680986e-003	2.116444e-002	9.948935e-001	-8.298718e-002	9.946941e-001	-8.306658e-002	7.655236e-003	2.142730e-002
3377115.525	8.923288e-003	2.167312e-002	9.944351e-001	-8.454479e-002	9.941857e-001	-8.486225e-002	7.772034e-003	2.182081e-002
3439654.609	9.228842e-003	2.212573e-002	9.939497e-001	-8.624372e-002	9.941283e-001	-8.640678e-002	8.092648e-003	2.251890e-002
3502193.693	9.474841e-003	2.233344e-002	9.936166e-001	-8.800455e-002	9.935124e-001	-8.790720e-002	8.560355e-003	2.297596e-002
3564732.777	9.838460e-003	2.296170e-002	9.933476e-001	-8.951843e-002	9.931587e-001	-8.961079e-002	8.972458e-003	2.349252e-002
3627271.861	1.002343e-002	2.334155e-002	9.930660e-001	-9.124419e-002	9.928959e-001	-9.115415e-002	9.066329e-003	2.378472e-002
3689810.944	1.028110e-002	2.370564e-002	9.924966e-001	-9.291503e-002	9.924496e-001	-9.270865e-002	9.587833e-003	2.427858e-002
3752350.028	1.074604e-002	2.420884e-002	9.920420e-001	-9.425449e-002	9.918725e-001	-9.430715e-002	9.881151e-003	2.470307e-002
3814889.112	1.123992e-002	2.479251e-002	9.915289e-001	-9.594493e-002	9.916788e-001	-9.619496e-002	1.015551e-002	2.504959e-002
3877428.196	1.156794e-002	2.526533e-002	9.912903e-001	-9.758333e-002	9.911360e-001	-9.756166e-002	1.087455e-002	2.549546e-002
3939967.280	1.192363e-002	2.542533e-002	9.907256e-001	-9.926031e-002	9.907534e-001	-9.920749e-002	1.126024e-002	2.603107e-002
4002506.363	1.240485e-002	2.600025e-002	9.903201e-001	-1.007768e-001	9.902321e-001	-1.006441e-001	1.161235e-002	2.641168e-002
4065045.447	1.265177e-002	2.632802e-002	9.896583e-001	-1.024089e-001	9.895948e-001	-1.023078e-001	1.211617e-002	2.671762e-002
4127584.531	1.306457e-002	2.673932e-002	9.891152e-001	-1.039547e-001	9.891429e-001	-1.038183e-001	1.258212e-002	2.722943e-002
4190123.615	1.355145e-002	2.714648e-002	9.886522e-001	-1.056704e-001	9.884658e-001	-1.055146e-001	1.292149e-002	2.740661e-002
4252662.699	1.396118e-002	2.746404e-002	9.882435e-001	-1.072228e-001	9.879060e-001	-1.071653e-001	1.348118e-002	2.781728e-002
4315201.782	1.455150e-002	2.778287e-002	9.876044e-001	-1.085303e-001	9.876128e-001	-1.087091e-001	1.376403e-002	2.801383e-002
4377740.866	1.493619e-002	2.813474e-002	9.871631e-001	-1.102324e-001	9.868396e-001	-1.101925e-001	1.443401e-002	2.864936e-002
4440279.950	1.532054e-002	2.834019e-002	9.865438e-001	-1.115643e-001	9.861771e-001	-1.115815e-001	1.480842e-002	2.884388e-002
4502819.034	1.582340e-002	2.880161e-002	9.857302e-001	-1.131583e-001	9.857273e-001	-1.130832e-001	1.539312e-002	2.931112e-002
4565358.118	1.622859e-002	2.907740e-002	9.851828e-001	-1.145747e-001	9.849877e-001	-1.143530e-001	1.588228e-002	2.952061e-002
4627897.201	1.693007e-002	2.949676e-002	9.847667e-001	-1.160609e-001	9.844410e-001	-1.158448e-001	1.651496e-002	2.991285e-002
4690436.285	1.727013e-002	2.967582e-002	9.841744e-001	-1.175993e-001	9.839084e-001	-1.176583e-001	1.701409e-002	3.001607e-002
4752975.369	1.780338e-002	2.993250e-002	9.833048e-001	-1.190954e-001	9.833615e-001	-1.190010e-001	1.735091e-002	3.024266e-002
4815514.453	1.845066e-002	3.019473e-002	9.829016e-001	-1.204601e-001	9.826985e-001	-1.205093e-001	1.811582e-002	3.058462e-002
4878053.537	1.906332e-002	3.035008e-002	9.822934e-001	-1.217978e-001	9.820586e-001	-1.217427e-001	1.861045e-002	3.076026e-002
4940592.620	1.935046e-002	3.063836e-002	9.815251e-001	-1.232504e-001	9.814718e-001	-1.232646e-001	1.891054e-002	3.097573e-002
5003131.704	1.994663e-002	3.070207e-002	9.808643e-001	-1.246063e-001	9.808727e-001	-1.244356e-001	1.957764e-002	3.112133e-002
5065670.788	2.043167e-002	3.109697e-002	9.801936e-001	-1.260451e-001	9.801692e-001	-1.258678e-001	2.008821e-002	3.136186e-002
5128209.872	2.109086e-002	3.114261e-002	9.797626e-001	-1.273709e-001	9.794967e-001	-1.272286e-001	2.060345e-002	3.135484e-002
5190748.956	2.154867e-002	3.131919e-002	9.789870e-001	-1.287263e-001	9.789234e-001	-1.286981e-001	2.112024e-002	3.164333e-002
5253288.039	2.215390e-002	3.141768e-002	9.784219e-001	-1.300724e-001	9.782392e-001	-1.299690e-001	2.161878e-002	3.187069e-002
5315827.123	2.264983e-002	3.150359e-002	9.775889e-001	-1.313346e-001	9.775579e-001	-1.313071e-001	2.214563e-002	3.190900e-002
5378366.207	2.329314e-002	3.167379e-002	9.770652e-001	-1.326807e-001	9.769466e-001	-1.327852e-001	2.267586e-002	3.196093e-002
5440905.291	2.366730e-002	3.186584e-002	9.764388e-001	-1.339783e-001	9.762949e-001	-1.339371e-001	2.312556e-002	3.211959e-002
5503444.375	2.440668e-002	3.179549e-002	9.757912e-001	-1.352792e-001	9.757336e-001	-1.350797e-001	2.386088e-002	3.212802e-002
5565983.458	2.462375e-002	3.202893e-002	9.751474e-001	-1.364563e-001	9.750089e-001	-1.362857e-001	2.435022e-002	3.236347e-002
5628522.542	2.541495e-002	3.200915e-002	9.745328e-001	-1.376420e-001	9.743572e-001	-1.376762e-001	2.491902e-002	3.230319e-002
5691061.626	2.598996e-002	3.187475e-002	9.737815e-001	-1.390540e-001	9.736522e-001	-1.389581e-001	2.536527e-002	3.241274e-002
5753600.710	2.641137e-002	3.202180e-002	9.730728e-001	-1.401631e-001	9.730031e-001	-1.400969e-001	2.595176e-002	3.232243e-002
5816139.794	2.705190e-002	3.221021e-002	9.725074e-001	-1.413857e-001	9.721536e-001	-1.415012e-001	2.634895e-002	3.240768e-002
5878678.877	2.747402e-002	3.201412e-002	9.718071e-001	-1.425990e-001	9.716556e-001	-1.425921e-001	2.699212e-002	3.228444e-002
5941217.961	2.798207e-002	3.194637e-002	9.711016e-001	-1.438477e-001	9.709786e-001	-1.436335e-001	2.733588e-002	3.239745e-002
6003757.045	2.837502e-002	3.216169e-002	9.703503e-001	-1.448510e-001	9.703715e-001	-1.448085e-001	2.798401e-002	3.235107e-002
6066296.129	2.898176e-002	3.195744e-002	9.699318e-001	-1.460834e-001	9.697246e-001	-1.459002e-001	2.846320e-002	3.230722e-002
6128835.213	2.959123e-002	3.194047e-002	9.693172e-001	-1.469642e-001	9.692278e-001	-1.471804e-001	2.907373e-002	3.226622e-002
6191374.296	3.004321e-002	3.190501e-002	9.685251e-001	-1.483028e-001	9.683945e-001	-1.484547e-001	2.942723e-002	3.232251e-002
6253913.380	3.046369e-002	3.196103e-002	9.679679e-001	-1.494851e-001	9.678211e-001	-1.493931e-001	2.983082e-002	3.238606e-002
6316452.464	3.093430e-002	3.197788e-002	9.673807e-001	-1.504834e-001	9.670781e-001	-1.507000e-001	3.033685e-002	3.211091e-002
6378991.548	3.136818e-002	3.176098e-002	9.667242e-001	-1.519516e-001	9.667176e-001	-1.517114e-001	3.086783e-002	3.192577e-002
6441530.632	3.178102e-002	3.161402e-002	9.660506e-001	-1.527377e-001	9.660174e-001	-1.529186e-001	3.139024e-002	3.194191e-002
6504069.715	3.223997e-002	3.150864e-002	9.654379e-001	-1.541287e-001	9.655093e-001	-1.539595e-001	3.187026e-002	3.185471e-002
6566608.799	3.283456e-002	3.135163e-002	9.649675e-001	-1.552589e-001	9.647540e-001	-1.550544e-001	3.225543e-002	3.196199e-002
6629147.883	3.325277e-002	3.138022e-002	9.643056e-001	-1.559735e-001	9.641755e-001	-1.561221e-001	3.279228e-002	3.172501e-002
6691686.967	3.358902e-002	3.129285e-002	9.636008e-001	-1.571784e-001	9.635408e-001	-1.571640e-001	3.326670e-002	3.168977e-002
6754226.051	3.397332e-002	3.117847e-002	9.630149e-001	-1.583631e-001	9.628284e-001	-1.584013e-001	3.350380e-002	3.139502e-002
6816765.134	3.450847e-002	3.104679e-002	9.624999e-001	-1.593347e-001	9.623782e-001	-1.593247e-001	3.400085e-002	3.145552e-002
6879304.218	3.481762e-002	3.078085e-002	9.618707e-001	-1.604302e-001	9.618375e-001	-1.603692e-001	3.440857e-002	3.126466e-002
6941843.302	3.531781e-002	3.080290e-002	9.612768e-001	-1.614995e-001	9.612496e-001	-1.614077e-001	3.482567e-002	3.122325e-002
7004382.386	3.557440e-002	3.075157e-002	9.608326e-001	-1.624287e-001	9.606125e-001	-1.624126e-001	3.518074e-002	3.114117e-002
7066921.470	3.606261e-002	3.054612e-002	9.601409e-001	-1.636289e-001	9.601572e-001	-1.633220e-001	3.572977e-002	3.083664e-002
7129460.553	3.632936e-002	3.030978e-002	9.596901e-001	-1.644761e-001	9.595941e-001	-1.645101e-001	3.612464e-002	3.075356e-002
7191999.637	3.674851e-002	3.040497e-002	9.589050e-001	-1.656035e-001	9.589036e-001	-1.655042e-001	3.637832e-002	3.061521e-002
7254538.721	3.717203e-002	3.012889e-002	9.586767e-001	-1.666749e-001	9.585283e-001	-1.665772e-001	3.680580e-002	3.049019e-002
7317077.805	3.772032e-002	2.993696e-002	9.580679e-001	-1.675750e-001	9.579694e-001	-1.675450e-001	3.717238e-002	3.023475e-002
7379616.889	3.796302e-002	2.981391e-002	9.576662e-001	-1.688031e-001	9.573656e-001	-1.686177e-001	3.749707e-002	3.010484e-002
7442155.972	3.818578e-002	2.967142e-002	9.569878e-001	-1.696478e-001	9.568852e-001	-1.695586e-001	3.797053e-002	3.013766e-002
7504695.056	3.857896e-002	2.942283e-002	9.563513e-001	-1.705845e-001	9.562128e-001	-1.707005e-001	3.836831e-002	3.004532e-002
7567234.140	3.909233e-002	2.918213e-002	9.559995e-001	-1.715890e-001	9.557121e-001	-1.716946e-001	3.863015e-002	2.979578e-002
7629773.224	3.936627e-002	2.929063e-002	9.554606e-001	-1.727628e-001	9.553361e-001	-1.726444e-001	3.891219e-002	2.958772e-002
7692312.308	3.958027e-002	2.909088e-002	9.549531e-001	-1.737652e-001	9.547262e-001	-1.737175e-001	3.930454e-002	2.933139e-002
7754851.391	3.988689e-002	2.877401e-002	9.544274e-001	-1.747816e-001	9.541284e-001	-1.745322e-001	3.959789e-002	2.929341e-002
7817390.475	4.031745e-002	2.878218e-002	9.539102e-001	-1.759302e-001	9.536433e-001	-1.757557e-001	3.986809e-002	2.923814e-002
7879929.559	4.054316e-002	2.846049e-002	9.533430e-001	-1.769040e-001	9.531503e-001	-1.769003e-001	4.031318e-002	2.905370e-002
7942468.643	4.081064e-002	2.824756e-002	9.529343e-001	-1.778585e-001	9.527355e-001	-1.778563e-001	4.059799e-002	2.871690e-002
8005007.727	4.123005e-002	2.808342e-002	9.523616e-001	-1.788893e-001	9.522519e-001	-1.788588e-001	4.085174e-002	2.876340e-002
8067546.811	4.138716e-002	2.796647e-002	9.518830e-001	-1.798218e-001	9.516293e-001	-1.797482e-001	4.105076e-002	2.840181e-002
8130085.894	4.175987e-002	2.772542e-002	9.513810e-001	-1.807954e-001	9.512342e-001	-1.807586e-001	4.156382e-002	2.816767e-002
8192624.978	4.190016e-002	2.750734e-002	9.507276e-001	-1.819042e-001	9.507301e-001	-1.817352e-001	4.189374e-002	2.798468e-002
8255164.062	4.230316e-002	2.733752e-002	9.504081e-001	-1.828227e-001	9.501930e-001	-1.827716e-001	4.214879e-002	2.775938e-002
8317703.146	4.248767e-002	2.727580e-002	9.499544e-001	-1.838459e-001	9.498571e-001	-1.837326e-001	4.227933e-002	2.765365e-002
8380242.230	4.286277e-002	2.686519e-002	9.493259e-001	-1.849431e-001	9.492657e-001	-1.847077e-001	4.253436e-002	2.740814e-002
8442781.313	4.312019e-002	2.673094e-002	9.491206e-001	-1.858104e-001	9.488401e-001	-1.856771e-001	4.279317e-002	2.716599e-002
8505320.397	4.338984e-002	2.667631e-002	9.485641e-001	-1.868278e-001	9.483250e-001	-1.866717e-001	4.302334e-002	2.703007e-002
8567859.481	4.364670e-002	2.663127e-002	9.480814e-001	-1.876343e-001	9.479548e-001	-1.876533e-001	4.335410e-002	2.699475e-002
8630398.565	4.398090e-002	2.639737e-002	9.474628e-001	-1.886093e-001	9.474943e-001	-1.885849e-001	4.347621e-002	2.659035e-002
8692937.649	4.416340e-002	2.602018e-002	9.470974e-001	-1.896152e-001	9.468762e-001	-1.896151e-001	4.368896e-002	2.649819e-002
8755476.732	4.444168e-002	2.589645e-002	9.466754e-001	-1.907079e-001	9.464468e-001	-1.905056e-001	4.401008e-002	2.632695e-002
8818015.816	4.458069e-002	2.568254e-002	9.461373e-001	-1.916434e-001	9.458687e-001	-1.915642e-001	4.434957e-002	2.605787e-002
8880554.900	4.503566e-002	2.553275e-002	9.458602e-001	-1.926863e-001	9.456895e-001	-1.924077e-001	4.447016e-002	2.572702e-002
8943093.984	4.513006e-002	2.545123e-002	9.453303e-001	-1.935613e-001	9.452118e-001	-1.934246e-001	4.472128e-002	2.559681e-002
9005633.068	4.542397e-002	2.517089e-002	9.447884e-001	-1.946012e-001	9.448365e-001	-1.945428e-001	4.486203e-002	2.529202e-002
9068172.151	4.550333e-002	2.500316e-002	9.445051e-001	-1.955941e-001	9.442553e-001	-1.953773e-001	4.514558e-002	2.515150e-002
9130711.235	4.593133e-002	2.472704e-002	9.439690e-001	-1.965621e-001	9.439003e-001	-1.963707e-001	4.541083e-002	2.479148e-002
9193250.319	4.614929e-002	2.451625e-002	9.436555e-001	-1.973936e-001	9.433809e-001	-1.974175e-001	4.557035e-002	2.467712e-002
9255789.403	4.626022e-002	2.419575e-002	9.432477e-001	-1.983090e-001	9.429601e-001	-1.983212e-001	4.568112e-002	2.455134e-002
9318328.487	4.644720e-002	2.410355e-002	9.427319e-001	-1.995165e-001	9.426710e-001	-1.992632e-001	4.600602e-002	2.435146e-002
9380867.570	4.668187e-002	2.402861e-002	9.423552e-001	-2.004950e-001	9.420556e-001	-2.003650e-001	4.621539e-002	2.414732e-002
9443406.654	4.694560e-002	2.381649e-002	9.419217e-001	-2.013806e-001	9.417806e-001	-2.013625e-001	4.646315e-002	2.387770e-002
9505945.738	4.714012e-002	2.365632e-002	9.413279e-001	-2.024970e-001	9.413692e-001	-2.023409e-001	4.661552e-002	2.368912e-002
9568484.822	4.736987e-002	2.342529e-002	9.410235e-001	-2.034022e-001	9.406843e-001	-2.032870e-001	4.666850e-002	2.374220e-002
9631023.906	4.756644e-002	2.325703e-002	9.406234e-001	-2.043741e-001	9.402866e-001	-2.042840e-001	4.701783e-002	2.324778e-002
9693562.989	4.778973e-002	2.303907e-002	9.400853e-001	-2.053735e-001	9.399709e-001	-2.051737e-001	4.699094e-002	2.317534e-002
9756102.073	4.796250e-002	2.280902e-002	9.398525e-001	-2.063800e-001	9.395639e-001	-2.061091e-001	4.721952e-002	2.286589e-002
