!Agilent Technologies,E5061B,MY49102235,A.02.00
!Date: Tue Jul 11 16:41:21 2023
!Data & Calibration Information:
!Freq	S11:SOLT2(ON)	S21:SOLT2(ON)	S12:SOLT2(ON)	S22:SOLT2(ON)
# Hz S RI R 50
5.000	-5.139536e-003	-5.635375e-003	1.001521e+000	8.014373e-003	1.000264e+000	1.023348e-002	-1.516618e-003	-7.555406e-003
62544.084	5.815988e-003	-5.219680e-004	1.001370e+000	6.706985e-004	1.000870e+000	1.269779e-003	7.688224e-003	-2.883338e-003
125083.168	5.675662e-003	-4.882086e-004	1.000983e+000	-8.584238e-004	1.000815e+000	-8.159135e-004	7.486198e-003	-2.273015e-003
187622.251	5.442838e-003	-3.241358e-004	1.000444e+000	-2.130179e-003	1.000997e+000	-8.915123e-004	7.377520e-003	-2.367062e-003
250161.335	5.276016e-003	-1.533975e-004	1.000507e+000	-3.203976e-003	1.000742e+000	-3.105323e-003	7.255869e-003	-2.023162e-003
312700.419	5.410086e-003	5.650877e-004	1.000856e+000	-3.849103e-003	1.000675e+000	-3.669386e-003	7.772936e-003	-2.309235e-003
375239.503	5.284533e-003	-9.487569e-004	1.001098e+000	-5.203056e-003	1.000648e+000	-4.948937e-003	7.242590e-003	-2.484321e-003
437778.587	5.145405e-003	-5.510429e-004	1.001274e+000	-5.370829e-003	1.001088e+000	-6.125598e-003	6.619768e-003	-2.195973e-003
500317.670	4.596224e-003	-4.396848e-004	1.001134e+000	-7.756754e-003	1.001664e+000	-7.586409e-003	4.817123e-003	-2.027412e-003
562856.754	5.892826e-003	-7.141467e-004	1.001303e+000	-9.346873e-003	1.001162e+000	-9.065255e-003	6.019606e-003	-1.529851e-003
625395.838	5.078185e-003	-5.742899e-004	1.002276e+000	-1.051812e-002	1.002166e+000	-1.010170e-002	6.105864e-003	-9.621412e-004
687934.922	5.133520e-003	-9.199403e-004	1.001241e+000	-1.149012e-002	1.001300e+000	-1.162249e-002	5.739131e-003	-1.419953e-003
750474.006	4.352511e-003	-5.784229e-004	1.000800e+000	-1.091457e-002	1.001155e+000	-1.070188e-002	5.543674e-003	-1.237123e-003
813013.089	4.532140e-003	-5.465120e-004	1.001183e+000	-1.278738e-002	1.000657e+000	-1.242179e-002	4.902725e-003	-1.075372e-003
875552.173	4.262468e-003	-4.097664e-004	1.001096e+000	-1.366931e-002	1.001094e+000	-1.374791e-002	5.687289e-003	-1.461884e-003
938091.257	4.337251e-003	-3.324391e-004	1.001127e+000	-1.513178e-002	1.001073e+000	-1.480262e-002	5.916431e-003	-8.968423e-004
1000630.341	3.801479e-003	-6.879096e-004	1.000706e+000	-1.654774e-002	1.001109e+000	-1.627479e-002	5.159215e-003	-1.605791e-003
1063169.425	4.137158e-003	-8.406339e-004	1.001043e+000	-1.776262e-002	1.000847e+000	-1.685088e-002	4.343160e-003	-1.917400e-003
1125708.508	4.022388e-003	-7.838840e-004	1.000832e+000	-1.888516e-002	1.000854e+000	-1.839568e-002	3.865895e-003	-1.648866e-003
1188247.592	4.572030e-003	-1.247860e-003	1.000974e+000	-2.011672e-002	1.001140e+000	-1.951592e-002	2.761424e-003	-2.218714e-003
1250786.676	4.412506e-003	-1.997176e-003	1.000529e+000	-1.999493e-002	1.000775e+000	-2.017429e-002	2.017427e-003	-3.885041e-003
1313325.760	4.527656e-003	-2.093139e-003	1.000844e+000	-2.160072e-002	1.001101e+000	-2.177975e-002	2.748879e-003	-3.660822e-003
1375864.844	4.245671e-003	-2.291434e-003	1.000476e+000	-2.342705e-002	1.000598e+000	-2.341348e-002	2.601487e-003	-3.398811e-003
1438403.927	4.144218e-003	-2.448381e-003	1.000664e+000	-2.421775e-002	1.000954e+000	-2.327545e-002	2.691053e-003	-3.131738e-003
1500943.011	4.369191e-003	-2.379041e-003	1.001191e+000	-2.500021e-002	1.001496e+000	-2.484988e-002	3.045218e-003	-3.530925e-003
1563482.095	4.363093e-003	-2.757086e-003	1.000816e+000	-2.635325e-002	1.000681e+000	-2.561468e-002	3.173402e-003	-3.349008e-003
1626021.179	4.176701e-003	-2.624954e-003	1.000718e+000	-2.759244e-002	1.001134e+000	-2.818069e-002	3.448845e-003	-3.406552e-003
1688560.263	3.877218e-003	-2.570014e-003	1.000405e+000	-2.935148e-002	1.001427e+000	-2.940561e-002	3.615597e-003	-3.411345e-003
1751099.346	4.001750e-003	-2.487777e-003	1.000982e+000	-3.037623e-002	1.000843e+000	-2.991893e-002	3.421232e-003	-2.568184e-003
1813638.430	3.643169e-003	-2.520110e-003	1.001296e+000	-3.202256e-002	1.001057e+000	-3.178832e-002	3.599970e-003	-2.953695e-003
1876177.514	3.672653e-003	-2.235414e-003	1.001589e+000	-3.289704e-002	1.001433e+000	-3.336017e-002	3.264435e-003	-2.279533e-003
1938716.598	3.138564e-003	-2.166858e-003	1.001787e+000	-3.370275e-002	1.001471e+000	-3.325424e-002	3.430346e-003	-1.899129e-003
2001255.682	3.049135e-003	-2.650712e-003	1.001698e+000	-3.519930e-002	1.001379e+000	-3.478539e-002	3.199731e-003	-2.357961e-003
2063794.765	3.143789e-003	-2.272273e-003	1.001414e+000	-3.612774e-002	1.000806e+000	-3.650037e-002	3.575910e-003	-2.456204e-003
2126333.849	2.675112e-003	-2.792344e-003	1.000873e+000	-3.736464e-002	1.000198e+000	-3.685853e-002	3.835504e-003	-2.198736e-003
2188872.933	3.171681e-003	-2.801647e-003	1.000548e+000	-3.860424e-002	1.000130e+000	-3.785607e-002	3.717861e-003	-2.256109e-003
2251412.017	3.262583e-003	-3.167299e-003	1.000312e+000	-4.010949e-002	1.000268e+000	-3.898153e-002	3.705342e-003	-2.387953e-003
2313951.101	3.597199e-003	-2.735135e-003	9.999197e-001	-4.107695e-002	1.000324e+000	-3.986965e-002	4.011168e-003	-2.453486e-003
2376490.184	3.328763e-003	-2.787115e-003	9.997588e-001	-4.140466e-002	1.000365e+000	-4.173842e-002	3.975195e-003	-2.451963e-003
2439029.268	3.781353e-003	-2.827639e-003	9.996164e-001	-4.322449e-002	9.993626e-001	-4.289687e-002	3.639525e-003	-2.362387e-003
2501568.352	3.749163e-003	-2.836255e-003	9.994143e-001	-4.340403e-002	1.000240e+000	-4.352038e-002	3.937265e-003	-2.394808e-003
2564107.436	3.650330e-003	-2.996718e-003	9.997113e-001	-4.507456e-002	9.999834e-001	-4.501834e-002	3.229885e-003	-2.784148e-003
2626646.520	4.133257e-003	-3.181790e-003	9.995016e-001	-4.624686e-002	9.989825e-001	-4.595372e-002	3.488842e-003	-2.850419e-003
2689185.604	4.093299e-003	-3.018067e-003	9.998775e-001	-4.705216e-002	9.997545e-001	-4.682741e-002	3.608022e-003	-2.807486e-003
2751724.687	4.206066e-003	-3.125715e-003	9.997768e-001	-4.784742e-002	9.996551e-001	-4.779590e-002	3.215860e-003	-2.862819e-003
2814263.771	4.146339e-003	-3.207750e-003	9.990520e-001	-4.962231e-002	9.992670e-001	-4.891312e-002	3.187568e-003	-2.992206e-003
2876802.855	4.089930e-003	-3.418298e-003	9.989364e-001	-5.093442e-002	9.993638e-001	-5.012866e-002	3.272585e-003	-2.883962e-003
2939341.939	4.223236e-003	-3.363473e-003	9.995304e-001	-5.159967e-002	9.991421e-001	-5.155552e-002	3.158540e-003	-2.992212e-003
3001881.023	4.134432e-003	-3.365301e-003	9.992398e-001	-5.265087e-002	9.989648e-001	-5.252279e-002	3.242746e-003	-3.144611e-003
3064420.106	4.176202e-003	-3.416956e-003	9.998466e-001	-5.366513e-002	9.991260e-001	-5.356186e-002	3.080524e-003	-3.291266e-003
3126959.190	4.386439e-003	-3.541795e-003	9.993436e-001	-5.492139e-002	9.992168e-001	-5.476994e-002	3.258566e-003	-3.362840e-003
3189498.274	4.343464e-003	-3.527091e-003	9.992577e-001	-5.588417e-002	9.991503e-001	-5.588857e-002	3.247793e-003	-3.447344e-003
3252037.358	4.266078e-003	-3.917568e-003	9.993294e-001	-5.703682e-002	9.991918e-001	-5.688021e-002	3.184228e-003	-3.402459e-003
3314576.442	4.277773e-003	-3.772583e-003	9.991968e-001	-5.807989e-002	9.991044e-001	-5.800660e-002	3.247789e-003	-3.538606e-003
3377115.525	4.239080e-003	-3.782930e-003	9.990427e-001	-5.906683e-002	9.988723e-001	-5.931577e-002	3.090158e-003	-3.704482e-003
3439654.609	4.240730e-003	-3.878454e-003	9.988241e-001	-6.019502e-002	9.990651e-001	-6.024934e-002	3.103437e-003	-3.541616e-003
3502193.693	4.208242e-003	-4.214602e-003	9.987914e-001	-6.145369e-002	9.987645e-001	-6.121612e-002	3.265353e-003	-3.612649e-003
3564732.777	4.249817e-003	-4.101038e-003	9.988677e-001	-6.245396e-002	9.987736e-001	-6.242427e-002	3.370019e-003	-3.619591e-003
3627271.861	4.095057e-003	-4.262467e-003	9.988794e-001	-6.364854e-002	9.988259e-001	-6.341391e-002	3.134331e-003	-3.872873e-003
3689810.944	3.986674e-003	-4.420589e-003	9.987181e-001	-6.474015e-002	9.987243e-001	-6.449299e-002	3.273965e-003	-3.877982e-003
3752350.028	4.110517e-003	-4.433064e-003	9.986078e-001	-6.558884e-002	9.984460e-001	-6.553966e-002	3.207336e-003	-3.986153e-003
3814889.112	4.209584e-003	-4.351578e-003	9.984614e-001	-6.676101e-002	9.986512e-001	-6.691400e-002	3.131736e-003	-4.157384e-003
3877428.196	4.147201e-003	-4.371525e-003	9.986080e-001	-6.789655e-002	9.985819e-001	-6.779344e-002	3.448822e-003	-4.176406e-003
3939967.280	4.113344e-003	-4.713522e-003	9.984746e-001	-6.906461e-002	9.985358e-001	-6.888283e-002	3.427793e-003	-4.153027e-003
4002506.363	4.177203e-003	-4.630868e-003	9.984585e-001	-7.012048e-002	9.984413e-001	-6.985635e-002	3.363800e-003	-4.264049e-003
4065045.447	4.000427e-003	-4.768701e-003	9.982160e-001	-7.126496e-002	9.982234e-001	-7.107430e-002	3.447258e-003	-4.426004e-003
4127584.531	3.964434e-003	-4.837703e-003	9.981379e-001	-7.231276e-002	9.982005e-001	-7.209513e-002	3.462857e-003	-4.368684e-003
4190123.615	3.994238e-003	-4.876495e-003	9.981515e-001	-7.360712e-002	9.980069e-001	-7.329487e-002	3.355897e-003	-4.653455e-003
4252662.699	3.959325e-003	-5.018619e-003	9.981433e-001	-7.474601e-002	9.979144e-001	-7.452871e-002	3.463878e-003	-4.678357e-003
4315201.782	4.081177e-003	-5.108017e-003	9.980492e-001	-7.554901e-002	9.981373e-001	-7.564686e-002	3.270692e-003	-4.942256e-003
4377740.866	3.992468e-003	-5.196399e-003	9.980574e-001	-7.683844e-002	9.977814e-001	-7.671900e-002	3.446303e-003	-4.705790e-003
4440279.950	3.870665e-003	-5.404219e-003	9.979492e-001	-7.775571e-002	9.976559e-001	-7.768027e-002	3.337251e-003	-4.944167e-003
4502819.034	3.865853e-003	-5.322276e-003	9.975903e-001	-7.894624e-002	9.976438e-001	-7.878175e-002	3.392707e-003	-4.843523e-003
4565358.118	3.775989e-003	-5.427668e-003	9.975547e-001	-7.999865e-002	9.974222e-001	-7.971057e-002	3.402136e-003	-5.013727e-003
4627897.201	3.955642e-003	-5.370388e-003	9.976660e-001	-8.109832e-002	9.974312e-001	-8.080009e-002	3.504224e-003	-4.966388e-003
4690436.285	3.783759e-003	-5.551532e-003	9.976372e-001	-8.226498e-002	9.974383e-001	-8.228529e-002	3.500786e-003	-5.234042e-003
4752975.369	3.771897e-003	-5.639803e-003	9.972777e-001	-8.346729e-002	9.974147e-001	-8.326320e-002	3.321164e-003	-5.361710e-003
4815514.453	3.888685e-003	-5.701505e-003	9.973771e-001	-8.447036e-002	9.972643e-001	-8.446397e-002	3.526924e-003	-5.329613e-003
4878053.537	3.979397e-003	-5.871071e-003	9.973258e-001	-8.553268e-002	9.971771e-001	-8.533153e-002	3.481615e-003	-5.479097e-003
4940592.620	3.703880e-003	-5.898889e-003	9.971300e-001	-8.667957e-002	9.971259e-001	-8.654474e-002	3.248722e-003	-5.592262e-003
5003131.704	3.761022e-003	-6.108192e-003	9.969927e-001	-8.774006e-002	9.970796e-001	-8.746014e-002	3.371294e-003	-5.711346e-003
5065670.788	3.689199e-003	-5.982099e-003	9.969360e-001	-8.891272e-002	9.969123e-001	-8.861636e-002	3.339621e-003	-5.747181e-003
5128209.872	3.807919e-003	-6.177740e-003	9.970009e-001	-8.994256e-002	9.968037e-001	-8.970160e-002	3.304811e-003	-6.017891e-003
5190748.956	3.701201e-003	-6.267021e-003	9.967889e-001	-9.106666e-002	9.968060e-001	-9.093845e-002	3.263826e-003	-5.972629e-003
5253288.039	3.745562e-003	-6.386334e-003	9.968017e-001	-9.215509e-002	9.966891e-001	-9.198023e-002	3.186151e-003	-5.958273e-003
5315827.123	3.707461e-003	-6.525037e-003	9.965024e-001	-9.324812e-002	9.965895e-001	-9.312418e-002	3.161147e-003	-6.139744e-003
5378366.207	3.789000e-003	-6.549996e-003	9.965829e-001	-9.437417e-002	9.965060e-001	-9.441016e-002	3.146724e-003	-6.303803e-003
5440905.291	3.598173e-003	-6.543517e-003	9.965103e-001	-9.545784e-002	9.964261e-001	-9.537482e-002	3.029254e-003	-6.343449e-003
5503444.375	3.808373e-003	-6.784619e-003	9.963666e-001	-9.662680e-002	9.963952e-001	-9.631803e-002	3.221441e-003	-6.492801e-003
5565983.458	3.439559e-003	-6.741227e-003	9.962960e-001	-9.761563e-002	9.962646e-001	-9.734879e-002	3.128660e-003	-6.410542e-003
5628522.542	3.685934e-003	-6.876678e-003	9.962239e-001	-9.862036e-002	9.961338e-001	-9.862584e-002	3.168932e-003	-6.614909e-003
5691061.626	3.743376e-003	-7.145356e-003	9.960301e-001	-9.994829e-002	9.959831e-001	-9.972510e-002	3.067596e-003	-6.653896e-003
5753600.710	3.578625e-003	-7.139255e-003	9.958705e-001	-1.009492e-001	9.959535e-001	-1.007756e-001	3.109481e-003	-6.861521e-003
5816139.794	3.654928e-003	-7.030243e-003	9.958394e-001	-1.020540e-001	9.956536e-001	-1.020807e-001	2.946733e-003	-6.904377e-003
5878678.877	3.549455e-003	-7.340104e-003	9.957224e-001	-1.031699e-001	9.956219e-001	-1.029957e-001	3.062313e-003	-7.114653e-003
5941217.961	3.549739e-003	-7.506844e-003	9.955450e-001	-1.043521e-001	9.955939e-001	-1.039665e-001	2.839483e-003	-7.095185e-003
6003757.045	3.383591e-003	-7.355530e-003	9.952882e-001	-1.052776e-001	9.954115e-001	-1.050361e-001	2.965686e-003	-7.202266e-003
6066296.129	3.497512e-003	-7.620331e-003	9.954367e-001	-1.064113e-001	9.952808e-001	-1.061741e-001	2.945402e-003	-7.302093e-003
6128835.213	3.593968e-003	-7.682573e-003	9.953150e-001	-1.072222e-001	9.953410e-001	-1.074138e-001	3.016956e-003	-7.384684e-003
6191374.296	3.514877e-003	-7.790096e-003	9.951160e-001	-1.085858e-001	9.951014e-001	-1.085671e-001	2.841705e-003	-7.395723e-003
6253913.380	3.418332e-003	-7.748600e-003	9.950850e-001	-1.097346e-001	9.949508e-001	-1.095225e-001	2.729107e-003	-7.366957e-003
6316452.464	3.380768e-003	-7.761888e-003	9.949407e-001	-1.106808e-001	9.947648e-001	-1.108381e-001	2.744722e-003	-7.666628e-003
6378991.548	3.326063e-003	-7.998212e-003	9.947784e-001	-1.121200e-001	9.948092e-001	-1.117731e-001	2.795996e-003	-7.875745e-003
6441530.632	3.250715e-003	-8.157076e-003	9.945969e-001	-1.129245e-001	9.946551e-001	-1.130123e-001	2.824747e-003	-7.837864e-003
6504069.715	3.243923e-003	-8.264884e-003	9.944871e-001	-1.142891e-001	9.946714e-001	-1.139669e-001	2.839871e-003	-7.942320e-003
6566608.799	3.368371e-003	-8.409167e-003	9.945309e-001	-1.153852e-001	9.944172e-001	-1.151503e-001	2.720918e-003	-7.829562e-003
6629147.883	3.295988e-003	-8.348957e-003	9.942946e-001	-1.161605e-001	9.942555e-001	-1.162760e-001	2.797148e-003	-8.062431e-003
6691686.967	3.167319e-003	-8.429680e-003	9.940982e-001	-1.173782e-001	9.940691e-001	-1.173132e-001	2.807654e-003	-8.059791e-003
6754226.051	3.110906e-003	-8.533562e-003	9.939480e-001	-1.186071e-001	9.938705e-001	-1.185381e-001	2.598001e-003	-8.359741e-003
6816765.134	3.180090e-003	-8.611000e-003	9.938568e-001	-1.195538e-001	9.938784e-001	-1.195184e-001	2.643431e-003	-8.244272e-003
6879304.218	3.070515e-003	-8.868446e-003	9.936790e-001	-1.207074e-001	9.937751e-001	-1.205646e-001	2.610045e-003	-8.388135e-003
6941843.302	3.130803e-003	-8.779383e-003	9.935814e-001	-1.218679e-001	9.935967e-001	-1.216339e-001	2.595053e-003	-8.387114e-003
7004382.386	2.900656e-003	-8.798816e-003	9.934937e-001	-1.228739e-001	9.934086e-001	-1.227589e-001	2.492218e-003	-8.432644e-003
7066921.470	2.999188e-003	-8.935182e-003	9.932388e-001	-1.240765e-001	9.933478e-001	-1.237231e-001	2.635057e-003	-8.677201e-003
7129460.553	2.884773e-003	-9.139339e-003	9.932010e-001	-1.249732e-001	9.932056e-001	-1.249202e-001	2.624250e-003	-8.709744e-003
7191999.637	2.845594e-003	-8.998941e-003	9.928420e-001	-1.261970e-001	9.928975e-001	-1.259947e-001	2.465800e-003	-8.781739e-003
7254538.721	2.873886e-003	-9.181052e-003	9.930308e-001	-1.273388e-001	9.929603e-001	-1.271241e-001	2.481289e-003	-8.855430e-003
7317077.805	3.041995e-003	-9.285608e-003	9.928086e-001	-1.282776e-001	9.928359e-001	-1.281730e-001	2.463541e-003	-9.047276e-003
7379616.889	2.877091e-003	-9.378752e-003	9.928064e-001	-1.295993e-001	9.926059e-001	-1.293112e-001	2.389422e-003	-9.102724e-003
7442155.972	2.700315e-003	-9.464692e-003	9.924781e-001	-1.305285e-001	9.924907e-001	-1.303046e-001	2.452912e-003	-8.971452e-003
7504695.056	2.731557e-003	-9.629420e-003	9.922838e-001	-1.315276e-001	9.922354e-001	-1.315605e-001	2.471277e-003	-8.990343e-003
7567234.140	2.885477e-003	-9.791130e-003	9.922574e-001	-1.325713e-001	9.920886e-001	-1.326206e-001	2.369349e-003	-9.177294e-003
7629773.224	2.776500e-003	-9.567049e-003	9.921613e-001	-1.338350e-001	9.920804e-001	-1.336423e-001	2.277289e-003	-9.313064e-003
7692312.308	2.624745e-003	-9.720384e-003	9.919861e-001	-1.349554e-001	9.918244e-001	-1.348147e-001	2.310936e-003	-9.472474e-003
7754851.391	2.592118e-003	-9.947949e-003	9.918069e-001	-1.360600e-001	9.915712e-001	-1.357257e-001	2.237151e-003	-9.421298e-003
7817390.475	2.642185e-003	-9.821408e-003	9.916618e-001	-1.372797e-001	9.915020e-001	-1.370641e-001	2.139354e-003	-9.404313e-003
7879929.559	2.526601e-003	-1.008583e-002	9.914500e-001	-1.383580e-001	9.913344e-001	-1.382895e-001	2.249416e-003	-9.492781e-003
7942468.643	2.458759e-003	-1.022492e-002	9.913693e-001	-1.393874e-001	9.912661e-001	-1.393335e-001	2.206250e-003	-9.739762e-003
8005007.727	2.549274e-003	-1.028466e-002	9.911082e-001	-1.405127e-001	9.911747e-001	-1.404032e-001	2.092126e-003	-9.590741e-003
8067546.811	2.364790e-003	-1.031101e-002	9.910111e-001	-1.415590e-001	9.908129e-001	-1.414002e-001	1.987702e-003	-9.885144e-003
8130085.894	2.406205e-003	-1.046757e-002	9.907924e-001	-1.426051e-001	9.907422e-001	-1.425401e-001	2.173930e-003	-1.001155e-002
8192624.978	2.230722e-003	-1.060338e-002	9.905082e-001	-1.437830e-001	9.906345e-001	-1.435954e-001	2.207059e-003	-1.010471e-002
8255164.062	2.324411e-003	-1.066474e-002	9.904601e-001	-1.448266e-001	9.904026e-001	-1.447066e-001	2.145557e-003	-1.022637e-002
8317703.146	2.178251e-003	-1.062735e-002	9.903515e-001	-1.459246e-001	9.903580e-001	-1.458285e-001	1.940394e-003	-1.025920e-002
8380242.230	2.272382e-003	-1.094211e-002	9.900630e-001	-1.471704e-001	9.900878e-001	-1.468204e-001	1.874886e-003	-1.040028e-002
8442781.313	2.226029e-003	-1.097448e-002	9.901259e-001	-1.480995e-001	9.900000e-001	-1.478887e-001	1.821061e-003	-1.056667e-002
8505320.397	2.193859e-003	-1.093267e-002	9.899286e-001	-1.492841e-001	9.897729e-001	-1.490464e-001	1.749629e-003	-1.058690e-002
8567859.481	2.099978e-003	-1.085035e-002	9.896898e-001	-1.501742e-001	9.896787e-001	-1.500965e-001	1.759430e-003	-1.049574e-002
8630398.565	2.163406e-003	-1.098714e-002	9.893697e-001	-1.512415e-001	9.895216e-001	-1.511155e-001	1.613229e-003	-1.083015e-002
8692937.649	2.076394e-003	-1.127668e-002	9.892797e-001	-1.523284e-001	9.891717e-001	-1.523059e-001	1.523711e-003	-1.081033e-002
8755476.732	2.051768e-003	-1.129458e-002	9.891675e-001	-1.535205e-001	9.890346e-001	-1.532607e-001	1.558917e-003	-1.087774e-002
8818015.816	1.907063e-003	-1.140792e-002	9.888796e-001	-1.546127e-001	9.886843e-001	-1.544328e-001	1.641922e-003	-1.104027e-002
8880554.900	2.093764e-003	-1.145293e-002	9.888659e-001	-1.557575e-001	9.888488e-001	-1.553697e-001	1.470971e-003	-1.128388e-002
8943093.984	1.886046e-003	-1.142455e-002	9.886457e-001	-1.567673e-001	9.886258e-001	-1.564984e-001	1.455683e-003	-1.131699e-002
9005633.068	1.911095e-003	-1.160187e-002	9.883787e-001	-1.578616e-001	9.885210e-001	-1.576596e-001	1.329414e-003	-1.152450e-002
9068172.151	1.734911e-003	-1.167668e-002	9.883433e-001	-1.589802e-001	9.882300e-001	-1.586490e-001	1.348658e-003	-1.156233e-002
9130711.235	1.919654e-003	-1.183479e-002	9.880464e-001	-1.600525e-001	9.880946e-001	-1.597060e-001	1.364611e-003	-1.182544e-002
9193250.319	1.878058e-003	-1.194047e-002	9.880080e-001	-1.609870e-001	9.878532e-001	-1.609319e-001	1.250620e-003	-1.183942e-002
9255789.403	1.729098e-003	-1.217029e-002	9.878710e-001	-1.620258e-001	9.876673e-001	-1.619287e-001	1.078487e-003	-1.186729e-002
9318328.487	1.659806e-003	-1.215308e-002	9.876318e-001	-1.633125e-001	9.876444e-001	-1.629223e-001	1.156262e-003	-1.194430e-002
9380867.570	1.627375e-003	-1.211248e-002	9.874644e-001	-1.644135e-001	9.872983e-001	-1.642054e-001	1.130543e-003	-1.203633e-002
9443406.654	1.642068e-003	-1.220328e-002	9.873177e-001	-1.654171e-001	9.872526e-001	-1.653804e-001	1.119321e-003	-1.219247e-002
9505945.738	1.586119e-003	-1.225103e-002	9.869558e-001	-1.666622e-001	9.871310e-001	-1.663716e-001	1.036417e-003	-1.227695e-002
9568484.822	1.597506e-003	-1.237271e-002	9.869223e-001	-1.676763e-001	9.866985e-001	-1.674556e-001	8.016143e-004	-1.212296e-002
