!Agilent Technologies,E5061B,MY49102235,A.02.00
!Date: Tue Jul 11 16:34:03 2023
!Data & Calibration Information:
!Freq	S11:SOLT2(ON)	S21:SOLT2(ON)	S12:SOLT2(ON)	S22:SOLT2(ON)
# Hz S RI R 50
5.000	-5.225282e-003	-5.633549e-003	1.001796e+000	8.047839e-003	1.000365e+000	1.023809e-002	-1.477207e-003	-7.556655e-003
62544.084	5.824197e-003	-6.215058e-005	1.001275e+000	1.826075e-004	1.000850e+000	6.990612e-004	7.704044e-003	-2.445377e-003
125083.168	5.701140e-003	3.769357e-004	1.000861e+000	-1.637385e-003	1.000785e+000	-1.681258e-003	7.511005e-003	-1.419573e-003
187622.251	5.509213e-003	9.635235e-004	1.000327e+000	-3.332928e-003	1.000909e+000	-2.259574e-003	7.407045e-003	-1.078581e-003
250161.335	5.332480e-003	1.532931e-003	1.000602e+000	-4.825042e-003	1.000642e+000	-4.908457e-003	7.301092e-003	-3.149730e-004
312700.419	5.486632e-003	2.684009e-003	1.000807e+000	-5.921843e-003	1.000689e+000	-5.773258e-003	7.807295e-003	-2.128321e-004
375239.503	5.386623e-003	1.609365e-003	1.000871e+000	-7.892287e-003	1.000554e+000	-7.457058e-003	7.324042e-003	3.684202e-005
437778.587	5.261466e-003	2.421168e-003	1.001155e+000	-8.339773e-003	1.000933e+000	-9.131576e-003	6.707880e-003	7.697376e-004
500317.670	4.709479e-003	2.975701e-003	1.001157e+000	-1.120684e-002	1.001608e+000	-1.101427e-002	4.935204e-003	1.363441e-003
562856.754	6.035556e-003	3.040251e-003	1.001336e+000	-1.298912e-002	1.001170e+000	-1.293826e-002	6.140552e-003	2.269722e-003
625395.838	5.266005e-003	3.655394e-003	1.002032e+000	-1.475580e-002	1.001960e+000	-1.434745e-002	6.299910e-003	3.255799e-003
687934.922	5.344385e-003	3.733219e-003	1.001062e+000	-1.617798e-002	1.001021e+000	-1.621262e-002	5.950217e-003	3.203921e-003
750474.006	4.600281e-003	4.496605e-003	1.000731e+000	-1.604277e-002	1.000713e+000	-1.585603e-002	5.764923e-003	3.803839e-003
813013.089	4.792864e-003	4.919172e-003	1.000836e+000	-1.819599e-002	1.000536e+000	-1.802522e-002	5.164445e-003	4.411056e-003
875552.173	4.568870e-003	5.500722e-003	1.000873e+000	-1.952050e-002	1.000775e+000	-1.959837e-002	5.968453e-003	4.419138e-003
938091.257	4.682432e-003	5.980576e-003	1.000896e+000	-2.148257e-002	1.000821e+000	-2.105066e-002	6.232470e-003	5.408774e-003
1000630.341	4.139428e-003	6.065604e-003	1.000486e+000	-2.317793e-002	1.000779e+000	-2.294951e-002	5.511265e-003	5.129507e-003
1063169.425	4.544448e-003	6.332188e-003	1.000846e+000	-2.488137e-002	1.000401e+000	-2.419361e-002	4.719122e-003	5.220819e-003
1125708.508	4.455947e-003	6.789860e-003	1.000469e+000	-2.650766e-002	1.000424e+000	-2.604738e-002	4.256712e-003	5.958067e-003
1188247.592	5.026775e-003	6.762299e-003	1.000700e+000	-2.813313e-002	1.000768e+000	-2.757362e-002	3.211700e-003	5.823939e-003
1250786.676	4.902535e-003	6.444383e-003	1.000238e+000	-2.831083e-002	1.000342e+000	-2.865960e-002	2.470999e-003	4.602431e-003
1313325.760	5.049772e-003	6.764491e-003	1.000433e+000	-3.047243e-002	1.000569e+000	-3.059648e-002	3.247564e-003	5.226888e-003
1375864.844	4.822590e-003	7.020026e-003	1.000196e+000	-3.280954e-002	1.000047e+000	-3.289754e-002	3.147089e-003	5.940554e-003
1438403.927	4.756377e-003	7.281652e-003	1.000083e+000	-3.395507e-002	1.000532e+000	-3.323194e-002	3.288737e-003	6.625951e-003
1500943.011	5.040582e-003	7.758430e-003	1.000803e+000	-3.528179e-002	1.000788e+000	-3.508098e-002	3.664561e-003	6.644256e-003
1563482.095	5.079156e-003	7.833863e-003	1.000326e+000	-3.712052e-002	1.000079e+000	-3.616123e-002	3.867967e-003	7.292904e-003
1626021.179	4.920507e-003	8.427320e-003	1.000127e+000	-3.856690e-002	1.000315e+000	-3.925147e-002	4.174738e-003	7.671662e-003
1688560.263	4.679936e-003	8.925382e-003	9.997187e-001	-4.086630e-002	1.000779e+000	-4.105036e-002	4.416873e-003	8.106533e-003
1751099.346	4.867591e-003	9.465675e-003	1.000206e+000	-4.246998e-002	9.999331e-001	-4.197056e-002	4.299666e-003	9.381283e-003
1813638.430	4.570605e-003	9.881947e-003	1.000438e+000	-4.438692e-002	1.000130e+000	-4.425265e-002	4.512907e-003	9.459402e-003
1876177.514	4.677405e-003	1.061866e-002	1.000606e+000	-4.580480e-002	1.000436e+000	-4.636187e-002	4.274907e-003	1.058902e-002
1938716.598	4.208971e-003	1.118139e-002	1.000835e+000	-4.707893e-002	1.000367e+000	-4.664257e-002	4.499875e-003	1.141594e-002
2001255.682	4.154920e-003	1.115849e-002	1.000567e+000	-4.891112e-002	1.000246e+000	-4.877279e-002	4.330688e-003	1.143289e-002
2063794.765	4.341387e-003	1.199710e-002	1.000199e+000	-5.056760e-002	9.995407e-001	-5.077230e-002	4.776975e-003	1.180158e-002
2126333.849	3.947147e-003	1.196511e-002	9.996354e-001	-5.218306e-002	9.988447e-001	-5.172004e-002	5.106898e-003	1.250113e-002
2188872.933	4.510830e-003	1.242995e-002	9.991811e-001	-5.377198e-002	9.988342e-001	-5.319736e-002	5.081847e-003	1.295107e-002
2251412.017	4.696861e-003	1.253773e-002	9.989799e-001	-5.581427e-002	9.989107e-001	-5.472541e-002	5.149854e-003	1.331514e-002
2313951.101	5.119353e-003	1.343472e-002	9.983087e-001	-5.726377e-002	9.988544e-001	-5.613637e-002	5.561255e-003	1.371713e-002
2376490.184	4.968328e-003	1.389911e-002	9.980777e-001	-5.817234e-002	9.986929e-001	-5.853656e-002	5.628246e-003	1.420427e-002
2439029.268	5.531396e-003	1.435168e-002	9.980158e-001	-6.050206e-002	9.977402e-001	-6.008079e-002	5.424045e-003	1.481155e-002
2501568.352	5.628761e-003	1.481481e-002	9.975400e-001	-6.108857e-002	9.983716e-001	-6.124766e-002	5.817660e-003	1.527590e-002
2564107.436	5.655658e-003	1.518962e-002	9.977937e-001	-6.331605e-002	9.979545e-001	-6.325556e-002	5.220992e-003	1.540049e-002
2626646.520	6.259896e-003	1.548318e-002	9.974322e-001	-6.503348e-002	9.968309e-001	-6.477356e-002	5.626836e-003	1.583045e-002
2689185.604	6.357189e-003	1.614849e-002	9.977025e-001	-6.617879e-002	9.974881e-001	-6.617420e-002	5.900750e-003	1.638830e-002
2751724.687	6.618237e-003	1.655832e-002	9.973947e-001	-6.760553e-002	9.971849e-001	-6.750455e-002	5.661633e-003	1.687499e-002
2814263.771	6.742207e-003	1.697767e-002	9.963279e-001	-6.996325e-002	9.966533e-001	-6.926941e-002	5.796037e-003	1.724835e-002
2876802.855	6.853905e-003	1.730169e-002	9.963342e-001	-7.171201e-002	9.965161e-001	-7.087623e-002	6.065274e-003	1.787813e-002
2939341.939	7.167040e-003	1.788827e-002	9.967365e-001	-7.290281e-002	9.962599e-001	-7.290130e-002	6.127326e-003	1.829449e-002
3001881.023	7.287780e-003	1.840055e-002	9.960823e-001	-7.447270e-002	9.958194e-001	-7.451663e-002	6.409015e-003	1.863742e-002
3064420.106	7.529206e-003	1.885336e-002	9.965564e-001	-7.603290e-002	9.956334e-001	-7.600643e-002	6.436211e-003	1.903243e-002
3126959.190	7.940340e-003	1.925213e-002	9.958571e-001	-7.779268e-002	9.956982e-001	-7.772479e-002	6.837529e-003	1.947806e-002
3189498.274	8.152699e-003	1.978347e-002	9.955129e-001	-7.928383e-002	9.953748e-001	-7.932893e-002	7.050611e-003	1.992401e-002
3252037.358	8.292876e-003	1.992923e-002	9.953532e-001	-8.096987e-002	9.952055e-001	-8.086981e-002	7.250815e-003	2.047247e-002
3314576.442	8.556908e-003	2.059847e-002	9.950016e-001	-8.252982e-002	9.948113e-001	-8.254669e-002	7.550937e-003	2.087227e-002
3377115.525	8.790117e-003	2.109211e-002	9.945311e-001	-8.404041e-002	9.942655e-001	-8.433646e-002	7.649515e-003	2.122432e-002
3439654.609	9.059888e-003	2.153107e-002	9.940302e-001	-8.567268e-002	9.942886e-001	-8.582936e-002	7.960621e-003	2.192005e-002
3502193.693	9.290868e-003	2.171985e-002	9.937359e-001	-8.746571e-002	9.936843e-001	-8.731930e-002	8.408906e-003	2.234077e-002
3564732.777	9.648821e-003	2.233249e-002	9.934838e-001	-8.899891e-002	9.933706e-001	-8.907763e-002	8.803606e-003	2.284923e-002
3627271.861	9.804794e-003	2.268461e-002	9.932065e-001	-9.070758e-002	9.930816e-001	-9.055086e-002	8.875441e-003	2.312758e-002
3689810.944	1.003567e-002	2.304530e-002	9.927311e-001	-9.231684e-002	9.926434e-001	-9.210530e-002	9.367497e-003	2.360289e-002
3752350.028	1.048986e-002	2.353185e-002	9.922733e-001	-9.365780e-002	9.920776e-001	-9.370581e-002	9.646823e-003	2.401804e-002
3814889.112	1.097213e-002	2.410951e-002	9.917594e-001	-9.529579e-002	9.919349e-001	-9.557174e-002	9.904118e-003	2.435188e-002
3877428.196	1.127017e-002	2.456699e-002	9.915390e-001	-9.696380e-002	9.914378e-001	-9.691046e-002	1.060064e-002	2.477977e-002
3939967.280	1.160801e-002	2.471977e-002	9.910180e-001	-9.865348e-002	9.910685e-001	-9.850533e-002	1.096556e-002	2.530979e-002
4002506.363	1.207208e-002	2.525034e-002	9.906395e-001	-1.001550e-001	9.905505e-001	-9.998785e-002	1.129031e-002	2.566353e-002
4065045.447	1.229206e-002	2.559171e-002	9.899949e-001	-1.017542e-001	9.899159e-001	-1.016713e-001	1.176226e-002	2.595909e-002
4127584.531	1.267049e-002	2.599058e-002	9.894539e-001	-1.032796e-001	9.895077e-001	-1.031223e-001	1.220641e-002	2.647371e-002
4190123.615	1.314202e-002	2.639217e-002	9.890404e-001	-1.050414e-001	9.889007e-001	-1.047787e-001	1.253659e-002	2.663699e-002
4252662.699	1.352205e-002	2.668850e-002	9.886264e-001	-1.065732e-001	9.883245e-001	-1.064053e-001	1.307038e-002	2.703535e-002
4315201.782	1.409783e-002	2.700126e-002	9.880495e-001	-1.078318e-001	9.880825e-001	-1.080008e-001	1.330907e-002	2.722261e-002
4377740.866	1.445829e-002	2.733389e-002	9.876225e-001	-1.095555e-001	9.873205e-001	-1.094486e-001	1.396598e-002	2.785354e-002
4440279.950	1.480599e-002	2.754206e-002	9.870126e-001	-1.108788e-001	9.866821e-001	-1.108446e-001	1.429772e-002	2.803527e-002
4502819.034	1.527980e-002	2.798764e-002	9.862420e-001	-1.124804e-001	9.862960e-001	-1.123540e-001	1.486149e-002	2.850520e-002
4565358.118	1.566273e-002	2.827586e-002	9.857305e-001	-1.138990e-001	9.855345e-001	-1.136147e-001	1.532479e-002	2.870002e-002
4627897.201	1.632413e-002	2.868201e-002	9.853506e-001	-1.153451e-001	9.850400e-001	-1.150666e-001	1.591716e-002	2.910102e-002
4690436.285	1.662458e-002	2.885838e-002	9.847542e-001	-1.168789e-001	9.845227e-001	-1.168992e-001	1.639765e-002	2.917845e-002
4752975.369	1.713175e-002	2.912561e-002	9.839431e-001	-1.183951e-001	9.840024e-001	-1.182416e-001	1.670370e-002	2.941353e-002
4815514.453	1.773040e-002	2.937356e-002	9.835406e-001	-1.197318e-001	9.834007e-001	-1.197347e-001	1.741744e-002	2.975648e-002
4878053.537	1.832189e-002	2.953430e-002	9.829626e-001	-1.210740e-001	9.827700e-001	-1.210093e-001	1.788406e-002	2.993244e-002
4940592.620	1.858355e-002	2.980733e-002	9.822429e-001	-1.225353e-001	9.821977e-001	-1.225328e-001	1.817233e-002	3.013859e-002
5003131.704	1.913200e-002	2.988673e-002	9.816315e-001	-1.239007e-001	9.816565e-001	-1.236689e-001	1.879057e-002	3.029121e-002
5065670.788	1.958989e-002	3.028638e-002	9.810293e-001	-1.253059e-001	9.809643e-001	-1.251447e-001	1.928761e-002	3.053607e-002
5128209.872	2.022031e-002	3.033783e-002	9.805610e-001	-1.266981e-001	9.803707e-001	-1.264674e-001	1.975245e-002	3.053117e-002
5190748.956	2.063487e-002	3.052350e-002	9.798062e-001	-1.280003e-001	9.798135e-001	-1.279577e-001	2.025001e-002	3.082650e-002
5253288.039	2.121450e-002	3.062385e-002	9.793133e-001	-1.294031e-001	9.791151e-001	-1.292987e-001	2.070765e-002	3.106957e-002
5315827.123	2.168533e-002	3.073006e-002	9.784930e-001	-1.306744e-001	9.785318e-001	-1.306095e-001	2.120695e-002	3.112411e-002
5378366.207	2.228918e-002	3.090375e-002	9.780128e-001	-1.320109e-001	9.779174e-001	-1.320926e-001	2.170154e-002	3.117815e-002
5440905.291	2.264304e-002	3.112488e-002	9.774662e-001	-1.333389e-001	9.773093e-001	-1.333068e-001	2.212625e-002	3.135322e-002
5503444.375	2.335016e-002	3.106705e-002	9.767748e-001	-1.346745e-001	9.767838e-001	-1.344322e-001	2.282690e-002	3.138024e-002
5565983.458	2.352728e-002	3.130736e-002	9.761857e-001	-1.358402e-001	9.761079e-001	-1.356535e-001	2.327661e-002	3.163692e-002
5628522.542	2.428991e-002	3.129872e-002	9.755766e-001	-1.370292e-001	9.754803e-001	-1.370518e-001	2.382422e-002	3.159423e-002
5691061.626	2.484565e-002	3.119738e-002	9.748850e-001	-1.384908e-001	9.747523e-001	-1.383382e-001	2.424859e-002	3.171341e-002
5753600.710	2.523390e-002	3.134299e-002	9.741865e-001	-1.396044e-001	9.741687e-001	-1.395030e-001	2.480524e-002	3.164910e-002
5816139.794	2.582781e-002	3.156775e-002	9.735974e-001	-1.408786e-001	9.733594e-001	-1.409282e-001	2.518044e-002	3.174848e-002
5878678.877	2.623380e-002	3.138201e-002	9.729956e-001	-1.420778e-001	9.728626e-001	-1.420160e-001	2.577835e-002	3.163974e-002
5941217.961	2.672126e-002	3.134134e-002	9.723221e-001	-1.434196e-001	9.722683e-001	-1.431077e-001	2.609945e-002	3.177989e-002
6003757.045	2.708315e-002	3.157911e-002	9.715638e-001	-1.444322e-001	9.716503e-001	-1.442438e-001	2.671636e-002	3.175146e-002
6066296.129	2.767286e-002	3.138365e-002	9.711558e-001	-1.455883e-001	9.710008e-001	-1.454207e-001	2.718897e-002	3.172944e-002
6128835.213	2.825329e-002	3.139837e-002	9.705475e-001	-1.464831e-001	9.705339e-001	-1.467154e-001	2.775774e-002	3.172083e-002
6191374.296	2.868016e-002	3.138186e-002	9.698788e-001	-1.479613e-001	9.697696e-001	-1.480288e-001	2.809812e-002	3.179319e-002
6253913.380	2.908016e-002	3.146376e-002	9.692530e-001	-1.491492e-001	9.691711e-001	-1.489954e-001	2.846573e-002	3.188972e-002
6316452.464	2.952340e-002	3.150357e-002	9.687182e-001	-1.501476e-001	9.684822e-001	-1.503602e-001	2.895389e-002	3.163764e-002
6378991.548	2.994844e-002	3.132078e-002	9.680968e-001	-1.516332e-001	9.680925e-001	-1.513807e-001	2.948124e-002	3.146719e-002
6441530.632	3.033561e-002	3.120102e-002	9.673983e-001	-1.524757e-001	9.674269e-001	-1.526313e-001	2.998591e-002	3.151617e-002
6504069.715	3.078551e-002	3.111494e-002	9.668405e-001	-1.538650e-001	9.669729e-001	-1.536846e-001	3.043865e-002	3.145741e-002
6566608.799	3.135647e-002	3.097691e-002	9.663978e-001	-1.550023e-001	9.661859e-001	-1.547957e-001	3.081369e-002	3.156958e-002
6629147.883	3.177558e-002	3.105477e-002	9.657414e-001	-1.558045e-001	9.655955e-001	-1.559249e-001	3.132014e-002	3.137005e-002
6691686.967	3.208273e-002	3.098466e-002	9.650508e-001	-1.570145e-001	9.649775e-001	-1.569952e-001	3.179171e-002	3.137507e-002
6754226.051	3.245275e-002	3.088858e-002	9.644980e-001	-1.582066e-001	9.643246e-001	-1.582608e-001	3.201907e-002	3.110076e-002
6816765.134	3.297597e-002	3.079806e-002	9.640375e-001	-1.592475e-001	9.638928e-001	-1.591849e-001	3.249206e-002	3.118942e-002
6879304.218	3.326878e-002	3.056020e-002	9.633971e-001	-1.603301e-001	9.633463e-001	-1.602411e-001	3.289969e-002	3.103509e-002
6941843.302	3.374555e-002	3.059748e-002	9.627597e-001	-1.614347e-001	9.627687e-001	-1.612878e-001	3.330066e-002	3.101569e-002
7004382.386	3.399154e-002	3.058380e-002	9.623074e-001	-1.624062e-001	9.621785e-001	-1.623679e-001	3.362889e-002	3.095500e-002
7066921.470	3.446579e-002	3.041404e-002	9.616698e-001	-1.636002e-001	9.617240e-001	-1.633116e-001	3.417469e-002	3.068667e-002
7129460.553	3.472999e-002	3.019837e-002	9.612041e-001	-1.645503e-001	9.611237e-001	-1.645007e-001	3.457580e-002	3.062247e-002
7191999.637	3.513425e-002	3.031523e-002	9.604377e-001	-1.656794e-001	9.604505e-001	-1.655374e-001	3.481599e-002	3.051285e-002
7254538.721	3.556895e-002	3.008675e-002	9.602402e-001	-1.667804e-001	9.600708e-001	-1.666330e-001	3.522740e-002	3.041999e-002
7317077.805	3.609333e-002	2.991451e-002	9.596230e-001	-1.677120e-001	9.595298e-001	-1.676548e-001	3.558910e-002	3.018092e-002
7379616.889	3.633567e-002	2.981405e-002	9.592108e-001	-1.689648e-001	9.589844e-001	-1.687341e-001	3.591354e-002	3.009683e-002
7442155.972	3.655224e-002	2.970177e-002	9.585715e-001	-1.698218e-001	9.584815e-001	-1.697284e-001	3.638014e-002	3.016820e-002
7504695.056	3.692632e-002	2.947905e-002	9.579246e-001	-1.707966e-001	9.577838e-001	-1.708791e-001	3.675162e-002	3.008328e-002
7567234.140	3.744015e-002	2.926729e-002	9.575729e-001	-1.718616e-001	9.573249e-001	-1.718906e-001	3.703077e-002	2.986335e-002
7629773.224	3.772758e-002	2.940711e-002	9.570539e-001	-1.730565e-001	9.569371e-001	-1.728880e-001	3.729612e-002	2.968775e-002
7692312.308	3.792442e-002	2.921838e-002	9.565399e-001	-1.740597e-001	9.563243e-001	-1.740207e-001	3.768418e-002	2.946291e-002
7754851.391	3.823153e-002	2.894427e-002	9.560254e-001	-1.751453e-001	9.557493e-001	-1.748167e-001	3.798473e-002	2.945433e-002
7817390.475	3.865298e-002	2.898166e-002	9.555106e-001	-1.762932e-001	9.552595e-001	-1.760823e-001	3.824901e-002	2.941276e-002
7879929.559	3.888108e-002	2.867364e-002	9.549014e-001	-1.773162e-001	9.547513e-001	-1.772752e-001	3.868009e-002	2.925522e-002
7942468.643	3.914525e-002	2.849912e-002	9.545457e-001	-1.782652e-001	9.543373e-001	-1.782279e-001	3.897047e-002	2.894853e-002
8005007.727	3.956189e-002	2.835907e-002	9.539436e-001	-1.793441e-001	9.538876e-001	-1.792604e-001	3.923562e-002	2.902035e-002
8067546.811	3.972216e-002	2.827408e-002	9.534971e-001	-1.803167e-001	9.532610e-001	-1.801824e-001	3.943256e-002	2.869067e-002
8130085.894	4.009487e-002	2.805253e-002	9.529664e-001	-1.812759e-001	9.528491e-001	-1.812203e-001	3.993556e-002	2.847006e-002
8192624.978	4.022409e-002	2.786394e-002	9.523491e-001	-1.823967e-001	9.523563e-001	-1.822497e-001	4.027884e-002	2.830889e-002
8255164.062	4.065206e-002	2.771844e-002	9.519945e-001	-1.834064e-001	9.518394e-001	-1.833010e-001	4.053205e-002	2.811599e-002
8317703.146	4.082456e-002	2.768552e-002	9.515525e-001	-1.844336e-001	9.514463e-001	-1.843077e-001	4.067129e-002	2.802432e-002
8380242.230	4.120483e-002	2.729180e-002	9.509637e-001	-1.855366e-001	9.508630e-001	-1.852633e-001	4.091707e-002	2.782663e-002
8442781.313	4.146159e-002	2.718008e-002	9.507007e-001	-1.864649e-001	9.504566e-001	-1.862701e-001	4.118236e-002	2.760380e-002
8505320.397	4.173402e-002	2.714915e-002	9.501650e-001	-1.874949e-001	9.499589e-001	-1.873108e-001	4.140773e-002	2.747817e-002
8567859.481	4.198427e-002	2.714139e-002	9.496366e-001	-1.883327e-001	9.495725e-001	-1.882990e-001	4.173108e-002	2.746985e-002
8630398.565	4.233856e-002	2.693378e-002	9.490471e-001	-1.893308e-001	9.491110e-001	-1.892867e-001	4.187333e-002	2.708969e-002
8692937.649	4.251840e-002	2.656937e-002	9.486610e-001	-1.903760e-001	9.484722e-001	-1.903355e-001	4.208984e-002	2.702518e-002
8755476.732	4.280821e-002	2.648345e-002	9.482352e-001	-1.914784e-001	9.480420e-001	-1.912301e-001	4.242378e-002	2.688461e-002
8818015.816	4.295513e-002	2.628848e-002	9.476566e-001	-1.924368e-001	9.474193e-001	-1.923275e-001	4.275746e-002	2.662481e-002
8880554.900	4.340471e-002	2.615497e-002	9.473877e-001	-1.934630e-001	9.472564e-001	-1.931705e-001	4.288453e-002	2.633316e-002
8943093.984	4.350246e-002	2.610572e-002	9.468843e-001	-1.944201e-001	9.468233e-001	-1.942262e-001	4.315598e-002	2.621245e-002
9005633.068	4.379873e-002	2.584771e-002	9.463295e-001	-1.954204e-001	9.463721e-001	-1.953453e-001	4.329161e-002	2.594634e-002
9068172.151	4.390385e-002	2.569665e-002	9.460048e-001	-1.965063e-001	9.458391e-001	-1.962463e-001	4.359164e-002	2.582085e-002
9130711.235	4.433417e-002	2.544354e-002	9.454399e-001	-1.974773e-001	9.453850e-001	-1.972129e-001	4.386247e-002	2.547908e-002
9193250.319	4.455834e-002	2.525388e-002	9.451587e-001	-1.983167e-001	9.449174e-001	-1.983280e-001	4.403519e-002	2.537389e-002
9255789.403	4.467230e-002	2.495377e-002	9.447502e-001	-1.992589e-001	9.444597e-001	-1.992409e-001	4.414465e-002	2.528617e-002
9318328.487	4.486596e-002	2.488134e-002	9.442297e-001	-2.004661e-001	9.442015e-001	-2.002010e-001	4.447338e-002	2.509573e-002
9380867.570	4.511382e-002	2.482648e-002	9.438266e-001	-2.014568e-001	9.435708e-001	-2.013272e-001	4.469494e-002	2.491308e-002
9443406.654	4.538144e-002	2.464579e-002	9.434108e-001	-2.023670e-001	9.432869e-001	-2.023538e-001	4.494330e-002	2.467764e-002
9505945.738	4.558543e-002	2.450926e-002	9.427753e-001	-2.035565e-001	9.428546e-001	-2.033709e-001	4.511106e-002	2.450199e-002
9568484.822	4.582755e-002	2.429011e-002	9.424721e-001	-2.044621e-001	9.421949e-001	-2.043249e-001	4.516428e-002	2.457922e-002
9631023.906	4.603286e-002	2.413491e-002	9.421157e-001	-2.054556e-001	9.417736e-001	-2.053832e-001	4.552660e-002	2.410074e-002
9693562.989	4.626341e-002	2.395103e-002	9.415052e-001	-2.064968e-001	9.414270e-001	-2.062857e-001	4.551284e-002	2.406128e-002
9756102.073	4.644880e-002	2.373767e-002	9.412889e-001	-2.074874e-001	9.410165e-001	-2.072213e-001	4.576256e-002	2.375291e-002
