!Agilent Technologies,E5061B,MY49102235,A.02.00
!Date: Tue Jul 11 16:42:59 2023
!Data & Calibration Information:
!Freq	S11:SOLT2(ON)	S21:SOLT2(ON)	S12:SOLT2(ON)	S22:SOLT2(ON)
# Hz S RI R 50
5.000	-5.224960e-003	-5.629372e-003	1.001850e+000	7.948817e-003	1.000482e+000	1.025939e-002	-1.609889e-003	-7.550654e-003
62544.084	5.804526e-003	-4.987877e-004	1.001466e+000	4.549978e-004	1.000871e+000	1.230146e-003	7.694656e-003	-2.880640e-003
125083.168	5.673237e-003	-4.976784e-004	1.001078e+000	-8.788665e-004	1.000733e+000	-8.265072e-004	7.485409e-003	-2.286549e-003
187622.251	5.445352e-003	-3.228141e-004	1.000539e+000	-2.251306e-003	1.000958e+000	-9.512891e-004	7.362610e-003	-2.365814e-003
250161.335	5.277469e-003	-1.838922e-004	1.000653e+000	-3.186235e-003	1.000759e+000	-3.170736e-003	7.238450e-003	-2.033005e-003
312700.419	5.400836e-003	5.364131e-004	1.000990e+000	-3.850668e-003	1.000619e+000	-3.440079e-003	7.768925e-003	-2.357925e-003
375239.503	5.298866e-003	-9.778579e-004	1.001115e+000	-5.278065e-003	1.000476e+000	-4.878840e-003	7.253118e-003	-2.512075e-003
437778.587	5.123712e-003	-5.939519e-004	1.001507e+000	-5.375832e-003	1.001117e+000	-6.077839e-003	6.594146e-003	-2.244962e-003
500317.670	4.610204e-003	-4.549792e-004	1.001155e+000	-7.869482e-003	1.001691e+000	-7.619959e-003	4.804783e-003	-2.049061e-003
562856.754	5.872201e-003	-7.758825e-004	1.001555e+000	-9.407730e-003	1.001227e+000	-9.053403e-003	5.996898e-003	-1.569181e-003
625395.838	5.080197e-003	-6.240220e-004	1.002302e+000	-1.056464e-002	1.002182e+000	-9.968825e-003	6.079752e-003	-1.014317e-003
687934.922	5.111817e-003	-9.943517e-004	1.001450e+000	-1.143774e-002	1.001295e+000	-1.148007e-002	5.732149e-003	-1.503790e-003
750474.006	4.358809e-003	-6.461555e-004	1.001043e+000	-1.087905e-002	1.000924e+000	-1.050820e-002	5.546322e-003	-1.293340e-003
813013.089	4.526187e-003	-6.273110e-004	1.001245e+000	-1.263560e-002	1.000742e+000	-1.230557e-002	4.907833e-003	-1.140219e-003
875552.173	4.251631e-003	-4.597434e-004	1.001307e+000	-1.349369e-002	1.000976e+000	-1.359043e-002	5.687659e-003	-1.551056e-003
938091.257	4.350164e-003	-4.155406e-004	1.001439e+000	-1.510671e-002	1.001073e+000	-1.458384e-002	5.912053e-003	-9.835223e-004
1000630.341	3.782951e-003	-7.755005e-004	1.000908e+000	-1.655398e-002	1.001096e+000	-1.597735e-002	5.168965e-003	-1.687141e-003
1063169.425	4.145211e-003	-9.323194e-004	1.001190e+000	-1.775126e-002	1.000728e+000	-1.694679e-002	4.347735e-003	-2.036594e-003
1125708.508	4.025413e-003	-8.972411e-004	1.001054e+000	-1.901247e-002	1.000698e+000	-1.818523e-002	3.845716e-003	-1.736871e-003
1188247.592	4.563417e-003	-1.355885e-003	1.001083e+000	-2.000147e-002	1.001086e+000	-1.936809e-002	2.747580e-003	-2.336741e-003
1250786.676	4.408601e-003	-2.103747e-003	1.000636e+000	-1.993620e-002	1.000721e+000	-1.999768e-002	2.005269e-003	-3.996499e-003
1313325.760	4.540694e-003	-2.201114e-003	1.001124e+000	-2.154495e-002	1.001002e+000	-2.167962e-002	2.734594e-003	-3.794341e-003
1375864.844	4.246097e-003	-2.411420e-003	1.000810e+000	-2.337293e-002	1.000767e+000	-2.334684e-002	2.613422e-003	-3.514725e-003
1438403.927	4.154178e-003	-2.581387e-003	1.000818e+000	-2.408701e-002	1.000890e+000	-2.326619e-002	2.673258e-003	-3.268081e-003
1500943.011	4.376155e-003	-2.532401e-003	1.001409e+000	-2.507614e-002	1.001475e+000	-2.458197e-002	3.036570e-003	-3.676055e-003
1563482.095	4.364083e-003	-2.891203e-003	1.001065e+000	-2.639476e-002	1.000809e+000	-2.539532e-002	3.169536e-003	-3.480812e-003
1626021.179	4.167646e-003	-2.768687e-003	1.000912e+000	-2.751184e-002	1.001111e+000	-2.788230e-002	3.434494e-003	-3.536851e-003
1688560.263	3.883398e-003	-2.720366e-003	1.000565e+000	-2.942810e-002	1.001416e+000	-2.934566e-002	3.629258e-003	-3.565206e-003
1751099.346	4.006172e-003	-2.632855e-003	1.001130e+000	-3.041714e-002	1.000768e+000	-2.990942e-002	3.429249e-003	-2.733867e-003
1813638.430	3.654444e-003	-2.685665e-003	1.001318e+000	-3.197178e-002	1.001109e+000	-3.155403e-002	3.608692e-003	-3.105796e-003
1876177.514	3.689990e-003	-2.407202e-003	1.001745e+000	-3.285378e-002	1.001360e+000	-3.318139e-002	3.276394e-003	-2.456634e-003
1938716.598	3.128059e-003	-2.341792e-003	1.001800e+000	-3.368403e-002	1.001290e+000	-3.296315e-002	3.437570e-003	-2.080928e-003
2001255.682	3.055955e-003	-2.824809e-003	1.001945e+000	-3.512939e-002	1.001319e+000	-3.465562e-002	3.185802e-003	-2.545929e-003
2063794.765	3.139344e-003	-2.452037e-003	1.001419e+000	-3.607945e-002	1.000868e+000	-3.628265e-002	3.581757e-003	-2.646521e-003
2126333.849	2.659423e-003	-2.985155e-003	1.000845e+000	-3.732110e-002	1.000185e+000	-3.658169e-002	3.835750e-003	-2.404086e-003
2188872.933	3.164712e-003	-2.995402e-003	1.000774e+000	-3.850505e-002	1.000225e+000	-3.764701e-002	3.713746e-003	-2.451323e-003
2251412.017	3.265404e-003	-3.374157e-003	1.000449e+000	-4.004616e-002	1.000208e+000	-3.870003e-002	3.695207e-003	-2.581608e-003
2313951.101	3.579030e-003	-2.956037e-003	9.998832e-001	-4.100883e-002	1.000325e+000	-3.959327e-002	4.011269e-003	-2.664540e-003
2376490.184	3.305785e-003	-3.004489e-003	9.997643e-001	-4.138398e-002	1.000329e+000	-4.144234e-002	3.975023e-003	-2.680642e-003
2439029.268	3.777076e-003	-3.038780e-003	9.998301e-001	-4.312291e-002	9.993412e-001	-4.257995e-002	3.633318e-003	-2.574263e-003
2501568.352	3.733494e-003	-3.055430e-003	9.995764e-001	-4.324389e-002	1.000275e+000	-4.307774e-002	3.921192e-003	-2.619815e-003
2564107.436	3.634136e-003	-3.228027e-003	9.997896e-001	-4.501924e-002	1.000010e+000	-4.454317e-002	3.233979e-003	-3.018660e-003
2626646.520	4.129847e-003	-3.418498e-003	9.996795e-001	-4.618399e-002	9.988427e-001	-4.578372e-002	3.478694e-003	-3.088612e-003
2689185.604	4.090796e-003	-3.271357e-003	9.999988e-001	-4.695052e-002	9.996288e-001	-4.660083e-002	3.607044e-003	-3.052891e-003
2751724.687	4.194519e-003	-3.370495e-003	1.000006e+000	-4.754550e-002	9.994935e-001	-4.736481e-002	3.197817e-003	-3.111462e-003
2814263.771	4.137924e-003	-3.446636e-003	9.990306e-001	-4.934992e-002	9.992520e-001	-4.860845e-002	3.179921e-003	-3.249582e-003
2876802.855	4.090201e-003	-3.676174e-003	9.990695e-001	-5.081191e-002	9.993714e-001	-4.980289e-002	3.249905e-003	-3.144376e-003
2939341.939	4.212067e-003	-3.630408e-003	9.997452e-001	-5.140882e-002	9.991192e-001	-5.124288e-002	3.161746e-003	-3.267780e-003
3001881.023	4.116241e-003	-3.627279e-003	9.994124e-001	-5.250778e-002	9.991013e-001	-5.223229e-002	3.250497e-003	-3.411129e-003
3064420.106	4.173460e-003	-3.702735e-003	1.000003e+000	-5.347059e-002	9.990276e-001	-5.321310e-002	3.071364e-003	-3.566986e-003
3126959.190	4.361529e-003	-3.827279e-003	9.994747e-001	-5.475471e-002	9.992565e-001	-5.440535e-002	3.245267e-003	-3.652895e-003
3189498.274	4.342776e-003	-3.810579e-003	9.993718e-001	-5.568023e-002	9.991126e-001	-5.554528e-002	3.239744e-003	-3.735032e-003
3252037.358	4.262263e-003	-4.205210e-003	9.994596e-001	-5.686468e-002	9.991729e-001	-5.654037e-002	3.184017e-003	-3.712592e-003
3314576.442	4.261342e-003	-4.064543e-003	9.992857e-001	-5.783289e-002	9.990785e-001	-5.768466e-002	3.231211e-003	-3.844239e-003
3377115.525	4.230241e-003	-4.095034e-003	9.991134e-001	-5.887950e-002	9.988292e-001	-5.889467e-002	3.079041e-003	-4.012491e-003
3439654.609	4.219389e-003	-4.175030e-003	9.989173e-001	-6.001555e-002	9.990688e-001	-5.989297e-002	3.074894e-003	-3.850797e-003
3502193.693	4.192718e-003	-4.513775e-003	9.989182e-001	-6.124404e-002	9.988198e-001	-6.087207e-002	3.252319e-003	-3.931502e-003
3564732.777	4.234268e-003	-4.427520e-003	9.989440e-001	-6.222806e-002	9.987709e-001	-6.206603e-002	3.344876e-003	-3.943758e-003
3627271.861	4.069575e-003	-4.615317e-003	9.990222e-001	-6.342969e-002	9.987523e-001	-6.302893e-002	3.117440e-003	-4.203376e-003
3689810.944	3.980227e-003	-4.757009e-003	9.988049e-001	-6.451255e-002	9.987167e-001	-6.408179e-002	3.259048e-003	-4.239488e-003
3752350.028	4.079793e-003	-4.783042e-003	9.987329e-001	-6.535399e-002	9.984253e-001	-6.515645e-002	3.197611e-003	-4.324501e-003
3814889.112	4.193453e-003	-4.697346e-003	9.985635e-001	-6.656827e-002	9.986541e-001	-6.649267e-002	3.109157e-003	-4.494905e-003
3877428.196	4.129138e-003	-4.726366e-003	9.987039e-001	-6.765900e-002	9.985201e-001	-6.738848e-002	3.425671e-003	-4.548396e-003
3939967.280	4.092643e-003	-5.074452e-003	9.985973e-001	-6.882153e-002	9.985059e-001	-6.849758e-002	3.393515e-003	-4.500706e-003
4002506.363	4.154680e-003	-5.004825e-003	9.986092e-001	-6.984367e-002	9.984039e-001	-6.946162e-002	3.343339e-003	-4.637068e-003
4065045.447	3.966550e-003	-5.136432e-003	9.983686e-001	-7.099175e-002	9.982141e-001	-7.063325e-002	3.422443e-003	-4.794258e-003
4127584.531	3.934856e-003	-5.221506e-003	9.982468e-001	-7.206303e-002	9.982012e-001	-7.168562e-002	3.434171e-003	-4.754686e-003
4190123.615	3.968122e-003	-5.252666e-003	9.982490e-001	-7.332604e-002	9.980281e-001	-7.290116e-002	3.334562e-003	-5.046893e-003
4252662.699	3.934596e-003	-5.398548e-003	9.982883e-001	-7.446287e-002	9.978958e-001	-7.408957e-002	3.443575e-003	-5.077108e-003
4315201.782	4.057071e-003	-5.497763e-003	9.981542e-001	-7.526167e-002	9.981003e-001	-7.517732e-002	3.246198e-003	-5.329582e-003
4377740.866	3.962039e-003	-5.593578e-003	9.981749e-001	-7.654248e-002	9.977911e-001	-7.626921e-002	3.432677e-003	-5.108838e-003
4440279.950	3.848223e-003	-5.795016e-003	9.980581e-001	-7.749711e-002	9.976342e-001	-7.721142e-002	3.309710e-003	-5.338756e-003
4502819.034	3.844666e-003	-5.732052e-003	9.977181e-001	-7.864390e-002	9.977072e-001	-7.828561e-002	3.380427e-003	-5.251169e-003
4565358.118	3.740703e-003	-5.853248e-003	9.976691e-001	-7.972851e-002	9.974185e-001	-7.923384e-002	3.378308e-003	-5.423553e-003
4627897.201	3.913153e-003	-5.793365e-003	9.977829e-001	-8.081982e-002	9.974236e-001	-8.030539e-002	3.470369e-003	-5.392937e-003
4690436.285	3.738779e-003	-5.988652e-003	9.977273e-001	-8.198469e-002	9.974215e-001	-8.181554e-002	3.483332e-003	-5.663674e-003
4752975.369	3.746142e-003	-6.081217e-003	9.973863e-001	-8.316936e-002	9.974073e-001	-8.282108e-002	3.300633e-003	-5.786519e-003
4815514.453	3.848253e-003	-6.144683e-003	9.975115e-001	-8.413086e-002	9.972760e-001	-8.392100e-002	3.494325e-003	-5.766654e-003
4878053.537	3.940924e-003	-6.301706e-003	9.974401e-001	-8.514976e-002	9.971462e-001	-8.488771e-002	3.464999e-003	-5.933375e-003
4940592.620	3.674251e-003	-6.344545e-003	9.972427e-001	-8.632390e-002	9.971399e-001	-8.605620e-002	3.219714e-003	-6.042521e-003
5003131.704	3.723446e-003	-6.557658e-003	9.971066e-001	-8.736491e-002	9.971006e-001	-8.690907e-002	3.334719e-003	-6.164116e-003
5065670.788	3.630092e-003	-6.445119e-003	9.970492e-001	-8.849028e-002	9.969260e-001	-8.809018e-002	3.292765e-003	-6.197898e-003
5128209.872	3.761527e-003	-6.653416e-003	9.971477e-001	-8.960227e-002	9.968228e-001	-8.920655e-002	3.276639e-003	-6.475782e-003
5190748.956	3.662163e-003	-6.722867e-003	9.969235e-001	-9.070350e-002	9.968396e-001	-9.043734e-002	3.225489e-003	-6.440586e-003
5253288.039	3.699433e-003	-6.872010e-003	9.968990e-001	-9.176661e-002	9.967157e-001	-9.145604e-002	3.148952e-003	-6.445644e-003
5315827.123	3.659883e-003	-7.012052e-003	9.966206e-001	-9.288998e-002	9.965567e-001	-9.259282e-002	3.120586e-003	-6.628873e-003
5378366.207	3.744170e-003	-7.043603e-003	9.966694e-001	-9.397919e-002	9.965207e-001	-9.384353e-002	3.089554e-003	-6.801833e-003
5440905.291	3.547473e-003	-7.047469e-003	9.966746e-001	-9.505857e-002	9.963905e-001	-9.480184e-002	2.981841e-003	-6.826822e-003
5503444.375	3.750793e-003	-7.268864e-003	9.964992e-001	-9.621096e-002	9.964338e-001	-9.573142e-002	3.177049e-003	-6.990299e-003
5565983.458	3.389608e-003	-7.237504e-003	9.964315e-001	-9.717997e-002	9.962626e-001	-9.679429e-002	3.088143e-003	-6.911093e-003
5628522.542	3.633398e-003	-7.391653e-003	9.963608e-001	-9.824708e-002	9.962125e-001	-9.806367e-002	3.129067e-003	-7.127376e-003
5691061.626	3.692841e-003	-7.651304e-003	9.961517e-001	-9.948232e-002	9.960229e-001	-9.920052e-002	3.011736e-003	-7.162280e-003
5753600.710	3.535139e-003	-7.663414e-003	9.960544e-001	-1.005207e-001	9.959773e-001	-1.002343e-001	3.058859e-003	-7.381666e-003
5816139.794	3.614489e-003	-7.539020e-003	9.960106e-001	-1.016396e-001	9.956662e-001	-1.015019e-001	2.910502e-003	-7.420614e-003
5878678.877	3.514357e-003	-7.881182e-003	9.958729e-001	-1.027614e-001	9.956892e-001	-1.024642e-001	3.011622e-003	-7.642474e-003
5941217.961	3.489553e-003	-8.040702e-003	9.956759e-001	-1.039126e-001	9.955577e-001	-1.033607e-001	2.811531e-003	-7.650117e-003
6003757.045	3.323494e-003	-7.905226e-003	9.954373e-001	-1.048335e-001	9.954154e-001	-1.044567e-001	2.923420e-003	-7.738409e-003
6066296.129	3.447050e-003	-8.169032e-003	9.956040e-001	-1.060037e-001	9.953579e-001	-1.054962e-001	2.883772e-003	-7.862209e-003
6128835.213	3.528020e-003	-8.233564e-003	9.954478e-001	-1.067864e-001	9.953884e-001	-1.067423e-001	2.964271e-003	-7.952640e-003
6191374.296	3.466114e-003	-8.347729e-003	9.952292e-001	-1.080733e-001	9.950300e-001	-1.079892e-001	2.802088e-003	-7.951087e-003
6253913.380	3.364642e-003	-8.323244e-003	9.951811e-001	-1.092501e-001	9.949855e-001	-1.088852e-001	2.658794e-003	-7.930453e-003
6316452.464	3.311215e-003	-8.324726e-003	9.950864e-001	-1.102037e-001	9.947509e-001	-1.101852e-001	2.694305e-003	-8.237772e-003
6378991.548	3.263818e-003	-8.573964e-003	9.949240e-001	-1.116091e-001	9.948620e-001	-1.111629e-001	2.746026e-003	-8.462965e-003
6441530.632	3.199698e-003	-8.738294e-003	9.947440e-001	-1.124286e-001	9.946767e-001	-1.123528e-001	2.766194e-003	-8.434576e-003
6504069.715	3.161720e-003	-8.867480e-003	9.946344e-001	-1.137689e-001	9.946929e-001	-1.133605e-001	2.772054e-003	-8.527562e-003
6566608.799	3.313012e-003	-9.013678e-003	9.946518e-001	-1.148930e-001	9.944325e-001	-1.144866e-001	2.653270e-003	-8.421129e-003
6629147.883	3.241567e-003	-8.948811e-003	9.944168e-001	-1.156443e-001	9.942843e-001	-1.155643e-001	2.735872e-003	-8.662731e-003
6691686.967	3.100092e-003	-9.026321e-003	9.941837e-001	-1.168896e-001	9.941016e-001	-1.166412e-001	2.737239e-003	-8.658281e-003
6754226.051	3.035942e-003	-9.151576e-003	9.940900e-001	-1.180720e-001	9.939052e-001	-1.178972e-001	2.529202e-003	-8.970294e-003
6816765.134	3.103997e-003	-9.238418e-003	9.940546e-001	-1.190699e-001	9.939348e-001	-1.188503e-001	2.575118e-003	-8.861361e-003
6879304.218	2.997349e-003	-9.492676e-003	9.938615e-001	-1.202174e-001	9.938034e-001	-1.198925e-001	2.541330e-003	-9.023755e-003
6941843.302	3.057152e-003	-9.423446e-003	9.936920e-001	-1.213350e-001	9.936120e-001	-1.209537e-001	2.519789e-003	-9.029140e-003
7004382.386	2.836624e-003	-9.435473e-003	9.936668e-001	-1.222916e-001	9.934916e-001	-1.220558e-001	2.423098e-003	-9.070758e-003
7066921.470	2.913189e-003	-9.597187e-003	9.933815e-001	-1.235515e-001	9.933881e-001	-1.230077e-001	2.575248e-003	-9.330351e-003
7129460.553	2.804694e-003	-9.795081e-003	9.933653e-001	-1.244827e-001	9.932538e-001	-1.242209e-001	2.543627e-003	-9.351294e-003
7191999.637	2.763745e-003	-9.634622e-003	9.929862e-001	-1.256372e-001	9.929373e-001	-1.252786e-001	2.382036e-003	-9.442851e-003
7254538.721	2.802319e-003	-9.830641e-003	9.932021e-001	-1.267831e-001	9.930491e-001	-1.264024e-001	2.412683e-003	-9.518363e-003
7317077.805	2.955232e-003	-9.956311e-003	9.929781e-001	-1.277233e-001	9.928685e-001	-1.274330e-001	2.388800e-003	-9.713959e-003
7379616.889	2.789758e-003	-1.004195e-002	9.929848e-001	-1.290100e-001	9.926513e-001	-1.285734e-001	2.317317e-003	-9.771969e-003
7442155.972	2.640284e-003	-1.013319e-002	9.926852e-001	-1.298701e-001	9.925582e-001	-1.295995e-001	2.380402e-003	-9.656700e-003
7504695.056	2.642162e-003	-1.031393e-002	9.924556e-001	-1.309243e-001	9.922743e-001	-1.308060e-001	2.387046e-003	-9.671337e-003
7567234.140	2.810397e-003	-1.046042e-002	9.924541e-001	-1.320149e-001	9.921411e-001	-1.318329e-001	2.287990e-003	-9.855036e-003
7629773.224	2.677082e-003	-1.025198e-002	9.923500e-001	-1.332539e-001	9.921401e-001	-1.328787e-001	2.200239e-003	-1.000476e-002
7692312.308	2.527894e-003	-1.042212e-002	9.921627e-001	-1.343631e-001	9.919087e-001	-1.340758e-001	2.238073e-003	-1.018332e-002
7754851.391	2.495310e-003	-1.066721e-002	9.919926e-001	-1.354500e-001	9.916581e-001	-1.349751e-001	2.160421e-003	-1.012080e-002
7817390.475	2.558353e-003	-1.052110e-002	9.918563e-001	-1.366580e-001	9.915757e-001	-1.363095e-001	2.059300e-003	-1.011172e-002
7879929.559	2.436736e-003	-1.080821e-002	9.915955e-001	-1.377618e-001	9.914024e-001	-1.375610e-001	2.163663e-003	-1.019460e-002
7942468.643	2.357910e-003	-1.094686e-002	9.915561e-001	-1.387282e-001	9.913460e-001	-1.386025e-001	2.113793e-003	-1.045356e-002
8005007.727	2.451714e-003	-1.099989e-002	9.913057e-001	-1.398924e-001	9.912355e-001	-1.396292e-001	2.000381e-003	-1.032201e-002
8067546.811	2.274614e-003	-1.103527e-002	9.912123e-001	-1.409194e-001	9.909103e-001	-1.406052e-001	1.893581e-003	-1.061976e-002
8130085.894	2.319380e-003	-1.119341e-002	9.909869e-001	-1.419586e-001	9.908728e-001	-1.417424e-001	2.083203e-003	-1.075226e-002
8192624.978	2.128013e-003	-1.133433e-002	9.906988e-001	-1.431709e-001	9.906726e-001	-1.427733e-001	2.109379e-003	-1.084247e-002
8255164.062	2.229716e-003	-1.141112e-002	9.906371e-001	-1.441962e-001	9.904489e-001	-1.439117e-001	2.046103e-003	-1.097410e-002
8317703.146	2.066237e-003	-1.137916e-002	9.905553e-001	-1.453127e-001	9.904167e-001	-1.449913e-001	1.846232e-003	-1.100593e-002
8380242.230	2.171432e-003	-1.169406e-002	9.902285e-001	-1.464956e-001	9.901551e-001	-1.460329e-001	1.783932e-003	-1.115216e-002
8442781.313	2.110483e-003	-1.175035e-002	9.903096e-001	-1.474319e-001	9.900391e-001	-1.470971e-001	1.724142e-003	-1.132157e-002
8505320.397	2.069893e-003	-1.170323e-002	9.901005e-001	-1.485897e-001	9.898564e-001	-1.481899e-001	1.641643e-003	-1.136056e-002
8567859.481	1.990587e-003	-1.163698e-002	9.898561e-001	-1.495171e-001	9.898121e-001	-1.492764e-001	1.650879e-003	-1.126739e-002
8630398.565	2.045731e-003	-1.176189e-002	9.895754e-001	-1.505785e-001	9.895865e-001	-1.503005e-001	1.509792e-003	-1.161601e-002
8692937.649	1.962195e-003	-1.206088e-002	9.894539e-001	-1.516559e-001	9.892674e-001	-1.514549e-001	1.415813e-003	-1.161183e-002
8755476.732	1.941767e-003	-1.208617e-002	9.893379e-001	-1.528420e-001	9.891175e-001	-1.523985e-001	1.445597e-003	-1.167136e-002
8818015.816	1.787827e-003	-1.220658e-002	9.890930e-001	-1.539153e-001	9.888351e-001	-1.535409e-001	1.515043e-003	-1.183677e-002
8880554.900	1.965033e-003	-1.224426e-002	9.890787e-001	-1.550640e-001	9.889125e-001	-1.544786e-001	1.363856e-003	-1.210062e-002
8943093.984	1.758786e-003	-1.223323e-002	9.888402e-001	-1.560147e-001	9.887311e-001	-1.556199e-001	1.339138e-003	-1.212655e-002
9005633.068	1.788103e-003	-1.241794e-002	9.885935e-001	-1.571468e-001	9.885979e-001	-1.568349e-001	1.222741e-003	-1.234275e-002
9068172.151	1.606521e-003	-1.249577e-002	9.885546e-001	-1.582502e-001	9.882856e-001	-1.577821e-001	1.227441e-003	-1.237689e-002
9130711.235	1.788953e-003	-1.264934e-002	9.882624e-001	-1.593345e-001	9.881653e-001	-1.588418e-001	1.239195e-003	-1.265920e-002
9193250.319	1.736264e-003	-1.275787e-002	9.882378e-001	-1.602704e-001	9.879459e-001	-1.600508e-001	1.136329e-003	-1.265750e-002
9255789.403	1.596377e-003	-1.300469e-002	9.880754e-001	-1.612507e-001	9.877941e-001	-1.610403e-001	9.606212e-004	-1.269682e-002
9318328.487	1.518951e-003	-1.299293e-002	9.878159e-001	-1.626084e-001	9.877289e-001	-1.620637e-001	1.033606e-003	-1.278076e-002
9380867.570	1.493683e-003	-1.296695e-002	9.877305e-001	-1.636573e-001	9.873970e-001	-1.633020e-001	1.002307e-003	-1.289232e-002
9443406.654	1.509495e-003	-1.305355e-002	9.875278e-001	-1.646545e-001	9.873671e-001	-1.644124e-001	9.983460e-004	-1.305215e-002
9505945.738	1.452596e-003	-1.311327e-002	9.871601e-001	-1.659126e-001	9.872573e-001	-1.654618e-001	9.143747e-004	-1.313948e-002
9568484.822	1.445230e-003	-1.323880e-002	9.871316e-001	-1.669265e-001	9.867976e-001	-1.665222e-001	6.635220e-004	-1.299522e-002
