!Agilent Technologies,E5061B,MY49102235,A.02.00
!Date: Tue Jul 11 15:28:52 2023
!Data & Calibration Information:
!Freq	S11:SOLT2(ON)	S21:SOLT2(ON)	S12:SOLT2(ON)	S22:SOLT2(ON)
# Hz S RI R 50
5.000	-5.187263e-003	-5.630635e-003	1.001662e+000	8.040470e-003	1.000209e+000	1.024400e-002	-1.460783e-003	-7.565991e-003
62544.084	5.800248e-003	-5.083151e-004	1.001339e+000	4.929318e-004	1.000929e+000	1.212075e-003	7.706053e-003	-2.882796e-003
125083.168	5.671039e-003	-5.000571e-004	1.001082e+000	-8.494877e-004	1.000787e+000	-8.291515e-004	7.488058e-003	-2.260974e-003
187622.251	5.454633e-003	-3.090825e-004	1.000392e+000	-2.161185e-003	1.000904e+000	-9.127602e-004	7.389483e-003	-2.359376e-003
250161.335	5.272728e-003	-1.722157e-004	1.000603e+000	-3.181464e-003	1.000782e+000	-3.157182e-003	7.253417e-003	-2.032603e-003
312700.419	5.411006e-003	5.652794e-004	1.000832e+000	-3.838339e-003	1.000612e+000	-3.529219e-003	7.774279e-003	-2.328277e-003
375239.503	5.293248e-003	-9.674714e-004	1.001122e+000	-5.198809e-003	1.000583e+000	-4.944214e-003	7.252443e-003	-2.492945e-003
437778.587	5.138283e-003	-5.578224e-004	1.001319e+000	-5.409675e-003	1.001048e+000	-6.074383e-003	6.599066e-003	-2.205921e-003
500317.670	4.575699e-003	-4.541116e-004	1.001372e+000	-7.719990e-003	1.001651e+000	-7.641882e-003	4.811325e-003	-2.025411e-003
562856.754	5.890887e-003	-7.326138e-004	1.001389e+000	-9.388476e-003	1.001172e+000	-9.165238e-003	6.004340e-003	-1.521523e-003
625395.838	5.073580e-003	-5.690006e-004	1.002239e+000	-1.060066e-002	1.002119e+000	-1.007929e-002	6.098542e-003	-9.576152e-004
687934.922	5.126112e-003	-9.102275e-004	1.001323e+000	-1.152425e-002	1.001243e+000	-1.174475e-002	5.747845e-003	-1.407098e-003
750474.006	4.343282e-003	-5.866141e-004	1.000847e+000	-1.102886e-002	1.000809e+000	-1.071901e-002	5.520566e-003	-1.251961e-003
813013.089	4.516367e-003	-5.674122e-004	1.001220e+000	-1.270727e-002	1.000732e+000	-1.239096e-002	4.880687e-003	-1.063846e-003
875552.173	4.266564e-003	-4.002732e-004	1.001179e+000	-1.365777e-002	1.001112e+000	-1.363491e-002	5.665565e-003	-1.469813e-003
938091.257	4.323496e-003	-3.493860e-004	1.001147e+000	-1.519392e-002	1.001196e+000	-1.481936e-002	5.912533e-003	-9.077204e-004
1000630.341	3.786048e-003	-6.915125e-004	1.000650e+000	-1.658770e-002	1.001085e+000	-1.607950e-002	5.145058e-003	-1.605566e-003
1063169.425	4.132112e-003	-8.511520e-004	1.000962e+000	-1.789321e-002	1.000717e+000	-1.712312e-002	4.320916e-003	-1.934094e-003
1125708.508	4.006647e-003	-8.003426e-004	1.000936e+000	-1.895700e-002	1.000806e+000	-1.823209e-002	3.826462e-003	-1.654401e-003
1188247.592	4.552345e-003	-1.266901e-003	1.000973e+000	-2.026447e-002	1.001096e+000	-1.943308e-002	2.736389e-003	-2.228725e-003
1250786.676	4.396321e-003	-1.999504e-003	1.000605e+000	-2.006383e-002	1.000818e+000	-2.020078e-002	2.003125e-003	-3.880117e-003
1313325.760	4.511048e-003	-2.102001e-003	1.001136e+000	-2.160089e-002	1.001180e+000	-2.174565e-002	2.733433e-003	-3.681243e-003
1375864.844	4.241342e-003	-2.295826e-003	1.000734e+000	-2.348338e-002	1.000663e+000	-2.365504e-002	2.587555e-003	-3.402489e-003
1438403.927	4.131648e-003	-2.461743e-003	1.000587e+000	-2.414284e-002	1.001041e+000	-2.350369e-002	2.661220e-003	-3.146364e-003
1500943.011	4.354666e-003	-2.385939e-003	1.001437e+000	-2.501266e-002	1.001509e+000	-2.508861e-002	3.028662e-003	-3.553452e-003
1563482.095	4.349238e-003	-2.764934e-003	1.000905e+000	-2.642936e-002	1.000732e+000	-2.567261e-002	3.153282e-003	-3.341429e-003
1626021.179	4.153342e-003	-2.634318e-003	1.000768e+000	-2.758238e-002	1.001181e+000	-2.816105e-002	3.415468e-003	-3.399786e-003
1688560.263	3.860138e-003	-2.579164e-003	1.000419e+000	-2.935448e-002	1.001339e+000	-2.948900e-002	3.590839e-003	-3.418335e-003
1751099.346	3.984677e-003	-2.481040e-003	1.000985e+000	-3.044666e-002	1.000897e+000	-2.996126e-002	3.410599e-003	-2.576927e-003
1813638.430	3.637402e-003	-2.545226e-003	1.001394e+000	-3.202158e-002	1.001059e+000	-3.174457e-002	3.577570e-003	-2.956055e-003
1876177.514	3.670714e-003	-2.249004e-003	1.001683e+000	-3.287147e-002	1.001326e+000	-3.338908e-002	3.248310e-003	-2.294746e-003
1938716.598	3.128825e-003	-2.172271e-003	1.001834e+000	-3.375176e-002	1.001431e+000	-3.342011e-002	3.417757e-003	-1.918118e-003
2001255.682	3.034563e-003	-2.657461e-003	1.001683e+000	-3.524753e-002	1.001388e+000	-3.496078e-002	3.181158e-003	-2.370747e-003
2063794.765	3.115896e-003	-2.272464e-003	1.001250e+000	-3.622823e-002	1.000788e+000	-3.658969e-002	3.567100e-003	-2.475180e-003
2126333.849	2.671190e-003	-2.825149e-003	1.000731e+000	-3.757854e-002	1.000171e+000	-3.699445e-002	3.834448e-003	-2.221116e-003
2188872.933	3.139271e-003	-2.809630e-003	1.000671e+000	-3.863574e-002	1.000106e+000	-3.792198e-002	3.697213e-003	-2.272505e-003
2251412.017	3.250495e-003	-3.185863e-003	1.000483e+000	-4.006702e-002	1.000217e+000	-3.897109e-002	3.683667e-003	-2.392319e-003
2313951.101	3.574475e-003	-2.761310e-003	9.998990e-001	-4.108294e-002	1.000321e+000	-3.988461e-002	3.984378e-003	-2.462660e-003
2376490.184	3.305556e-003	-2.814407e-003	9.997519e-001	-4.153027e-002	1.000220e+000	-4.174535e-002	3.959649e-003	-2.467901e-003
2439029.268	3.761686e-003	-2.837744e-003	9.997822e-001	-4.319770e-002	9.993249e-001	-4.296880e-002	3.612759e-003	-2.368789e-003
2501568.352	3.736071e-003	-2.838610e-003	9.995060e-001	-4.340865e-002	1.000295e+000	-4.349488e-002	3.914540e-003	-2.407091e-003
2564107.436	3.650009e-003	-3.019093e-003	9.997675e-001	-4.521898e-002	9.999893e-001	-4.504579e-002	3.206471e-003	-2.790598e-003
2626646.520	4.126387e-003	-3.197124e-003	9.997436e-001	-4.623959e-002	9.989311e-001	-4.611105e-002	3.459957e-003	-2.867268e-003
2689185.604	4.078948e-003	-3.034628e-003	9.999915e-001	-4.700761e-002	9.996375e-001	-4.693156e-002	3.589505e-003	-2.821959e-003
2751724.687	4.194889e-003	-3.146016e-003	9.997758e-001	-4.783839e-002	9.996020e-001	-4.771325e-002	3.194340e-003	-2.876191e-003
2814263.771	4.135618e-003	-3.217885e-003	9.989551e-001	-4.961828e-002	9.992533e-001	-4.900830e-002	3.158950e-003	-3.004600e-003
2876802.855	4.090620e-003	-3.435993e-003	9.989956e-001	-5.102376e-002	9.992312e-001	-5.019021e-002	3.245740e-003	-2.906796e-003
2939341.939	4.210243e-003	-3.370040e-003	9.995817e-001	-5.143509e-002	9.991340e-001	-5.163749e-002	3.126916e-003	-3.002232e-003
3001881.023	4.127030e-003	-3.370317e-003	9.993308e-001	-5.275311e-002	9.990028e-001	-5.268439e-002	3.224040e-003	-3.157839e-003
3064420.106	4.158616e-003	-3.438211e-003	9.997505e-001	-5.370307e-002	9.990278e-001	-5.367671e-002	3.059893e-003	-3.305776e-003
3126959.190	4.365862e-003	-3.558678e-003	9.993952e-001	-5.496800e-002	9.992474e-001	-5.487546e-002	3.225963e-003	-3.370606e-003
3189498.274	4.341250e-003	-3.549882e-003	9.993007e-001	-5.592691e-002	9.991649e-001	-5.593075e-002	3.210241e-003	-3.457030e-003
3252037.358	4.260299e-003	-3.913832e-003	9.993484e-001	-5.709302e-002	9.992003e-001	-5.696486e-002	3.165803e-003	-3.430144e-003
3314576.442	4.266439e-003	-3.789706e-003	9.992637e-001	-5.812691e-002	9.990373e-001	-5.809216e-002	3.223831e-003	-3.558166e-003
3377115.525	4.227454e-003	-3.809687e-003	9.990780e-001	-5.912014e-002	9.988544e-001	-5.934410e-002	3.060260e-003	-3.719326e-003
3439654.609	4.234198e-003	-3.895699e-003	9.988573e-001	-6.025651e-002	9.990458e-001	-6.033199e-002	3.073236e-003	-3.545536e-003
3502193.693	4.191315e-003	-4.224576e-003	9.988709e-001	-6.150826e-002	9.987826e-001	-6.130572e-002	3.232666e-003	-3.622058e-003
3564732.777	4.235640e-003	-4.122937e-003	9.988998e-001	-6.252591e-002	9.987804e-001	-6.253388e-002	3.331970e-003	-3.635015e-003
3627271.861	4.085492e-003	-4.298025e-003	9.989434e-001	-6.369085e-002	9.987931e-001	-6.345874e-002	3.101689e-003	-3.877663e-003
3689810.944	3.987752e-003	-4.445673e-003	9.987244e-001	-6.482414e-002	9.987399e-001	-6.458437e-002	3.249097e-003	-3.901340e-003
3752350.028	4.106589e-003	-4.448759e-003	9.986544e-001	-6.567114e-002	9.985058e-001	-6.562956e-002	3.185466e-003	-3.988158e-003
3814889.112	4.212443e-003	-4.379231e-003	9.985078e-001	-6.683636e-002	9.986816e-001	-6.699667e-002	3.094646e-003	-4.167932e-003
3877428.196	4.140138e-003	-4.399880e-003	9.986495e-001	-6.797648e-002	9.985727e-001	-6.787216e-002	3.427565e-003	-4.197265e-003
3939967.280	4.111167e-003	-4.751520e-003	9.984856e-001	-6.912837e-002	9.985501e-001	-6.901447e-002	3.391807e-003	-4.159389e-003
4002506.363	4.167524e-003	-4.656315e-003	9.985101e-001	-7.017007e-002	9.984387e-001	-6.994725e-002	3.326847e-003	-4.284561e-003
4065045.447	3.976122e-003	-4.797088e-003	9.982171e-001	-7.136346e-002	9.982085e-001	-7.116706e-002	3.421420e-003	-4.436436e-003
4127584.531	3.949343e-003	-4.874072e-003	9.981710e-001	-7.238808e-002	9.981908e-001	-7.219511e-002	3.428533e-003	-4.382495e-003
4190123.615	3.997994e-003	-4.892609e-003	9.981950e-001	-7.372493e-002	9.980287e-001	-7.344513e-002	3.334935e-003	-4.670212e-003
4252662.699	3.949409e-003	-5.037371e-003	9.982033e-001	-7.479481e-002	9.978760e-001	-7.464472e-002	3.443160e-003	-4.693251e-003
4315201.782	4.073083e-003	-5.135751e-003	9.980841e-001	-7.564774e-002	9.981082e-001	-7.570970e-002	3.248679e-003	-4.950871e-003
4377740.866	3.978380e-003	-5.226760e-003	9.981025e-001	-7.692120e-002	9.978254e-001	-7.683235e-002	3.415534e-003	-4.706278e-003
4440279.950	3.869560e-003	-5.429723e-003	9.979695e-001	-7.785028e-002	9.976255e-001	-7.781448e-002	3.299329e-003	-4.941543e-003
4502819.034	3.852684e-003	-5.348878e-003	9.976256e-001	-7.907094e-002	9.976886e-001	-7.888196e-002	3.369167e-003	-4.859035e-003
4565358.118	3.768043e-003	-5.467010e-003	9.976149e-001	-8.012628e-002	9.974264e-001	-7.981866e-002	3.381836e-003	-5.025262e-003
4627897.201	3.935426e-003	-5.400927e-003	9.977456e-001	-8.120658e-002	9.974419e-001	-8.090564e-002	3.472182e-003	-4.984556e-003
4690436.285	3.757103e-003	-5.590533e-003	9.976590e-001	-8.239538e-002	9.973998e-001	-8.239042e-002	3.477527e-003	-5.259987e-003
4752975.369	3.759193e-003	-5.668565e-003	9.972791e-001	-8.357981e-002	9.974192e-001	-8.337517e-002	3.286302e-003	-5.372892e-003
4815514.453	3.870097e-003	-5.732151e-003	9.974457e-001	-8.456453e-002	9.972645e-001	-8.456152e-002	3.498101e-003	-5.341474e-003
4878053.537	3.968662e-003	-5.886230e-003	9.973948e-001	-8.559572e-002	9.971347e-001	-8.548850e-002	3.449189e-003	-5.498174e-003
4940592.620	3.700084e-003	-5.924326e-003	9.971774e-001	-8.676510e-002	9.971279e-001	-8.668173e-002	3.223243e-003	-5.594767e-003
5003131.704	3.752893e-003	-6.141186e-003	9.970315e-001	-8.783091e-002	9.970991e-001	-8.757050e-002	3.335359e-003	-5.732356e-003
5065670.788	3.676984e-003	-6.011938e-003	9.969471e-001	-8.896797e-002	9.969337e-001	-8.874039e-002	3.299674e-003	-5.747929e-003
5128209.872	3.789657e-003	-6.203984e-003	9.970363e-001	-9.003623e-002	9.968030e-001	-8.982732e-002	3.260600e-003	-6.038531e-003
5190748.956	3.694795e-003	-6.299915e-003	9.968277e-001	-9.114854e-002	9.968209e-001	-9.105509e-002	3.229020e-003	-5.978156e-003
5253288.039	3.738689e-003	-6.423661e-003	9.967873e-001	-9.229095e-002	9.967126e-001	-9.209189e-002	3.154679e-003	-5.982926e-003
5315827.123	3.689524e-003	-6.566130e-003	9.965157e-001	-9.338281e-002	9.965475e-001	-9.323170e-002	3.123162e-003	-6.153718e-003
5378366.207	3.776749e-003	-6.584671e-003	9.966133e-001	-9.447876e-002	9.965120e-001	-9.448382e-002	3.108871e-003	-6.318375e-003
5440905.291	3.587159e-003	-6.586163e-003	9.965695e-001	-9.560917e-002	9.964335e-001	-9.544817e-002	2.988187e-003	-6.335606e-003
5503444.375	3.795960e-003	-6.810623e-003	9.963758e-001	-9.674541e-002	9.963770e-001	-9.642250e-002	3.183754e-003	-6.506723e-003
5565983.458	3.435320e-003	-6.759560e-003	9.963652e-001	-9.775604e-002	9.962588e-001	-9.748052e-002	3.083391e-003	-6.427491e-003
5628522.542	3.672162e-003	-6.926346e-003	9.962601e-001	-9.874741e-002	9.961408e-001	-9.874896e-002	3.129149e-003	-6.629817e-003
5691061.626	3.733219e-003	-7.187745e-003	9.960609e-001	-1.000768e-001	9.959762e-001	-9.986238e-002	3.024087e-003	-6.664179e-003
5753600.710	3.574788e-003	-7.169796e-003	9.958906e-001	-1.010590e-001	9.959109e-001	-1.009050e-001	3.064624e-003	-6.871025e-003
5816139.794	3.658793e-003	-7.067491e-003	9.959210e-001	-1.021941e-001	9.956692e-001	-1.021876e-001	2.913712e-003	-6.906738e-003
5878678.877	3.555568e-003	-7.382900e-003	9.958043e-001	-1.032905e-001	9.956433e-001	-1.031797e-001	3.023336e-003	-7.125489e-003
5941217.961	3.534448e-003	-7.531380e-003	9.955533e-001	-1.044960e-001	9.955483e-001	-1.041112e-001	2.813128e-003	-7.112511e-003
6003757.045	3.367631e-003	-7.378197e-003	9.953361e-001	-1.054158e-001	9.954480e-001	-1.051646e-001	2.929138e-003	-7.212179e-003
6066296.129	3.491582e-003	-7.665255e-003	9.954852e-001	-1.065294e-001	9.953266e-001	-1.062986e-001	2.900746e-003	-7.315801e-003
6128835.213	3.583298e-003	-7.717984e-003	9.953194e-001	-1.073402e-001	9.953792e-001	-1.075556e-001	2.976181e-003	-7.390301e-003
6191374.296	3.503123e-003	-7.824756e-003	9.951710e-001	-1.087258e-001	9.950546e-001	-1.086933e-001	2.806429e-003	-7.397206e-003
6253913.380	3.410176e-003	-7.781319e-003	9.950501e-001	-1.098686e-001	9.950130e-001	-1.096454e-001	2.676477e-003	-7.384024e-003
6316452.464	3.360087e-003	-7.785519e-003	9.949922e-001	-1.108386e-001	9.947108e-001	-1.109413e-001	2.729092e-003	-7.678827e-003
6378991.548	3.317635e-003	-8.028955e-003	9.948383e-001	-1.122624e-001	9.948558e-001	-1.119379e-001	2.758231e-003	-7.882707e-003
6441530.632	3.249952e-003	-8.188910e-003	9.946078e-001	-1.130553e-001	9.946745e-001	-1.131175e-001	2.781907e-003	-7.863746e-003
6504069.715	3.227430e-003	-8.302163e-003	9.945045e-001	-1.143985e-001	9.946688e-001	-1.141407e-001	2.794799e-003	-7.945159e-003
6566608.799	3.365135e-003	-8.448553e-003	9.945263e-001	-1.155606e-001	9.944010e-001	-1.152992e-001	2.674355e-003	-7.834272e-003
6629147.883	3.286289e-003	-8.394418e-003	9.943251e-001	-1.163527e-001	9.942332e-001	-1.164060e-001	2.761948e-003	-8.064786e-003
6691686.967	3.159774e-003	-8.469725e-003	9.941254e-001	-1.175257e-001	9.941037e-001	-1.174533e-001	2.779294e-003	-8.070756e-003
6754226.051	3.102436e-003	-8.574644e-003	9.939610e-001	-1.187333e-001	9.938472e-001	-1.187164e-001	2.553274e-003	-8.362194e-003
6816765.134	3.185270e-003	-8.663792e-003	9.939365e-001	-1.197390e-001	9.938745e-001	-1.196532e-001	2.597821e-003	-8.244164e-003
6879304.218	3.064960e-003	-8.913779e-003	9.937298e-001	-1.208677e-001	9.937745e-001	-1.207318e-001	2.572470e-003	-8.397920e-003
6941843.302	3.119874e-003	-8.825727e-003	9.935492e-001	-1.219839e-001	9.936167e-001	-1.217960e-001	2.539978e-003	-8.387212e-003
7004382.386	2.898241e-003	-8.844609e-003	9.935725e-001	-1.229855e-001	9.934333e-001	-1.229254e-001	2.434147e-003	-8.436436e-003
7066921.470	2.985917e-003	-8.985505e-003	9.933236e-001	-1.242220e-001	9.933680e-001	-1.238530e-001	2.602108e-003	-8.677315e-003
7129460.553	2.864631e-003	-9.180592e-003	9.932380e-001	-1.251065e-001	9.931977e-001	-1.250974e-001	2.568396e-003	-8.714348e-003
7191999.637	2.826379e-003	-9.026198e-003	9.929056e-001	-1.263444e-001	9.928793e-001	-1.261675e-001	2.415964e-003	-8.791533e-003
7254538.721	2.879931e-003	-9.219634e-003	9.930638e-001	-1.274762e-001	9.929693e-001	-1.272877e-001	2.441507e-003	-8.867524e-003
7317077.805	3.036198e-003	-9.321450e-003	9.928505e-001	-1.284114e-001	9.928666e-001	-1.283636e-001	2.410347e-003	-9.050972e-003
7379616.889	2.877944e-003	-9.405548e-003	9.928598e-001	-1.297502e-001	9.926131e-001	-1.294771e-001	2.347235e-003	-9.096382e-003
7442155.972	2.707925e-003	-9.503476e-003	9.925471e-001	-1.306810e-001	9.924871e-001	-1.305194e-001	2.405416e-003	-8.979874e-003
7504695.056	2.723209e-003	-9.676216e-003	9.923134e-001	-1.316599e-001	9.922358e-001	-1.317761e-001	2.421826e-003	-8.986674e-003
7567234.140	2.884605e-003	-9.824508e-003	9.923084e-001	-1.327778e-001	9.920943e-001	-1.327783e-001	2.331832e-003	-9.183673e-003
7629773.224	2.770823e-003	-9.607305e-003	9.921873e-001	-1.340424e-001	9.921013e-001	-1.338426e-001	2.237429e-003	-9.316745e-003
7692312.308	2.613932e-003	-9.749905e-003	9.920391e-001	-1.351205e-001	9.918453e-001	-1.349897e-001	2.282928e-003	-9.481556e-003
7754851.391	2.570792e-003	-9.998689e-003	9.918268e-001	-1.362517e-001	9.915960e-001	-1.358840e-001	2.194567e-003	-9.427910e-003
7817390.475	2.638410e-003	-9.863041e-003	9.917073e-001	-1.374669e-001	9.915156e-001	-1.372544e-001	2.099067e-003	-9.401563e-003
7879929.559	2.524360e-003	-1.013621e-002	9.914524e-001	-1.385162e-001	9.913283e-001	-1.384961e-001	2.190274e-003	-9.492901e-003
7942468.643	2.452312e-003	-1.027099e-002	9.913895e-001	-1.395308e-001	9.912272e-001	-1.395173e-001	2.149293e-003	-9.739569e-003
8005007.727	2.529684e-003	-1.031873e-002	9.911458e-001	-1.406923e-001	9.911411e-001	-1.406238e-001	2.037648e-003	-9.592163e-003
8067546.811	2.360601e-003	-1.035506e-002	9.910722e-001	-1.417422e-001	9.908306e-001	-1.416282e-001	1.940701e-003	-9.887673e-003
8130085.894	2.418438e-003	-1.050837e-002	9.908154e-001	-1.428107e-001	9.907571e-001	-1.427563e-001	2.126121e-003	-1.001459e-002
8192624.978	2.223651e-003	-1.065158e-002	9.905054e-001	-1.440059e-001	9.905641e-001	-1.437975e-001	2.148130e-003	-1.010332e-002
8255164.062	2.315785e-003	-1.070068e-002	9.904895e-001	-1.450541e-001	9.903889e-001	-1.448903e-001	2.084616e-003	-1.022556e-002
8317703.146	2.174416e-003	-1.067821e-002	9.904132e-001	-1.461469e-001	9.903406e-001	-1.459972e-001	1.891105e-003	-1.025086e-002
8380242.230	2.277829e-003	-1.098730e-002	9.900892e-001	-1.473790e-001	9.900855e-001	-1.470352e-001	1.833565e-003	-1.040083e-002
8442781.313	2.212234e-003	-1.103748e-002	9.901511e-001	-1.483300e-001	9.899552e-001	-1.481111e-001	1.787793e-003	-1.056198e-002
8505320.397	2.175229e-003	-1.097608e-002	9.899456e-001	-1.494710e-001	9.897653e-001	-1.492578e-001	1.703574e-003	-1.058988e-002
8567859.481	2.087127e-003	-1.089981e-002	9.896856e-001	-1.503794e-001	9.896769e-001	-1.502843e-001	1.705176e-003	-1.049431e-002
8630398.565	2.151873e-003	-1.102959e-002	9.893795e-001	-1.514598e-001	9.895100e-001	-1.513773e-001	1.569671e-003	-1.082927e-002
8692937.649	2.063497e-003	-1.132129e-002	9.893157e-001	-1.525605e-001	9.891966e-001	-1.525145e-001	1.471946e-003	-1.080729e-002
8755476.732	2.045423e-003	-1.133971e-002	9.891256e-001	-1.537705e-001	9.890321e-001	-1.535121e-001	1.509327e-003	-1.086953e-002
8818015.816	1.898810e-003	-1.145350e-002	9.889218e-001	-1.548182e-001	9.887334e-001	-1.546702e-001	1.586953e-003	-1.103958e-002
8880554.900	2.097602e-003	-1.148049e-002	9.889048e-001	-1.559641e-001	9.888118e-001	-1.555591e-001	1.419722e-003	-1.128406e-002
8943093.984	1.884047e-003	-1.147989e-002	9.886313e-001	-1.569192e-001	9.886290e-001	-1.567222e-001	1.404996e-003	-1.131034e-002
9005633.068	1.910445e-003	-1.164057e-002	9.883791e-001	-1.580435e-001	9.885146e-001	-1.579011e-001	1.278760e-003	-1.152081e-002
9068172.151	1.734149e-003	-1.172642e-002	9.883441e-001	-1.592036e-001	9.882068e-001	-1.588941e-001	1.299073e-003	-1.154413e-002
9130711.235	1.911845e-003	-1.188402e-002	9.881101e-001	-1.602828e-001	9.880768e-001	-1.599440e-001	1.306092e-003	-1.182049e-002
9193250.319	1.876248e-003	-1.198295e-002	9.880408e-001	-1.612018e-001	9.878305e-001	-1.611484e-001	1.211732e-003	-1.182501e-002
9255789.403	1.724604e-003	-1.221529e-002	9.878879e-001	-1.622067e-001	9.876922e-001	-1.621357e-001	1.032302e-003	-1.184981e-002
9318328.487	1.646898e-003	-1.219614e-002	9.876668e-001	-1.635329e-001	9.876577e-001	-1.631889e-001	1.108828e-003	-1.193855e-002
9380867.570	1.632763e-003	-1.216028e-002	9.875489e-001	-1.646613e-001	9.872792e-001	-1.644517e-001	1.074738e-003	-1.203287e-002
9443406.654	1.639074e-003	-1.225062e-002	9.873291e-001	-1.656245e-001	9.872633e-001	-1.655539e-001	1.063858e-003	-1.218886e-002
9505945.738	1.587847e-003	-1.229723e-002	9.869899e-001	-1.669083e-001	9.871235e-001	-1.666061e-001	9.944855e-004	-1.228511e-002
9568484.822	1.586424e-003	-1.241806e-002	9.869439e-001	-1.679258e-001	9.866808e-001	-1.677348e-001	7.590664e-004	-1.211582e-002
