!Agilent Technologies,E5061B,MY49102235,A.02.00
!Date: Tue Jul 11 16:35:03 2023
!Data & Calibration Information:
!Freq	S11:SOLT2(ON)	S21:SOLT2(ON)	S12:SOLT2(ON)	S22:SOLT2(ON)
# Hz S RI R 50
5.000	-5.205235e-003	-5.621770e-003	1.001559e+000	8.041118e-003	1.000273e+000	1.019652e-002	-1.480282e-003	-7.547548e-003
62544.084	5.828811e-003	-6.661154e-005	1.001352e+000	1.469497e-004	1.000880e+000	7.631964e-004	7.705473e-003	-2.450179e-003
125083.168	5.698193e-003	3.414305e-004	1.000900e+000	-1.649040e-003	1.000778e+000	-1.603095e-003	7.521161e-003	-1.447935e-003
187622.251	5.484967e-003	9.369740e-004	1.000394e+000	-3.329534e-003	1.001068e+000	-2.267644e-003	7.385214e-003	-1.123947e-003
250161.335	5.330204e-003	1.471422e-003	1.000487e+000	-4.686843e-003	1.000596e+000	-4.727739e-003	7.313516e-003	-3.696350e-004
312700.419	5.498596e-003	2.638813e-003	1.000656e+000	-5.885953e-003	1.000581e+000	-5.697672e-003	7.839690e-003	-2.649873e-004
375239.503	5.372165e-003	1.526840e-003	1.000988e+000	-7.667546e-003	1.000511e+000	-7.449423e-003	7.318864e-003	-2.954178e-005
437778.587	5.248486e-003	2.327586e-003	1.001109e+000	-8.191999e-003	1.000937e+000	-9.038625e-003	6.715699e-003	6.821823e-004
500317.670	4.712201e-003	2.856183e-003	1.001092e+000	-1.099382e-002	1.001554e+000	-1.103698e-002	4.915746e-003	1.292929e-003
562856.754	6.033887e-003	2.957997e-003	1.001223e+000	-1.298663e-002	1.001015e+000	-1.305153e-002	6.144726e-003	2.182541e-003
625395.838	5.254636e-003	3.508588e-003	1.002040e+000	-1.456884e-002	1.002092e+000	-1.416721e-002	6.258406e-003	3.122576e-003
687934.922	5.311680e-003	3.607295e-003	1.001171e+000	-1.610784e-002	1.001071e+000	-1.615090e-002	5.932442e-003	3.088348e-003
750474.006	4.582148e-003	4.340017e-003	1.000599e+000	-1.582287e-002	1.000779e+000	-1.566089e-002	5.768669e-003	3.660271e-003
813013.089	4.786950e-003	4.750516e-003	1.000808e+000	-1.807512e-002	1.000510e+000	-1.774389e-002	5.132086e-003	4.242752e-003
875552.173	4.550605e-003	5.345731e-003	1.000790e+000	-1.941067e-002	1.000748e+000	-1.939706e-002	5.959720e-003	4.234328e-003
938091.257	4.661715e-003	5.804226e-003	1.000790e+000	-2.118170e-002	1.000918e+000	-2.088218e-002	6.224721e-003	5.217389e-003
1000630.341	4.136083e-003	5.869520e-003	1.000380e+000	-2.309490e-002	1.000718e+000	-2.267815e-002	5.493599e-003	4.942073e-003
1063169.425	4.517749e-003	6.111074e-003	1.000630e+000	-2.470208e-002	1.000493e+000	-2.411224e-002	4.695368e-003	5.023507e-003
1125708.508	4.433892e-003	6.558804e-003	1.000459e+000	-2.634181e-002	1.000450e+000	-2.565149e-002	4.244668e-003	5.738968e-003
1188247.592	5.011713e-003	6.523413e-003	1.000589e+000	-2.789749e-002	1.000705e+000	-2.737442e-002	3.176694e-003	5.592134e-003
1250786.676	4.866207e-003	6.203752e-003	1.000110e+000	-2.817601e-002	1.000450e+000	-2.839687e-002	2.448085e-003	4.364697e-003
1313325.760	5.021802e-003	6.514069e-003	1.000499e+000	-3.022673e-002	1.000575e+000	-3.050956e-002	3.226500e-003	4.953636e-003
1375864.844	4.786399e-003	6.743285e-003	1.000065e+000	-3.237665e-002	1.000054e+000	-3.265432e-002	3.114176e-003	5.648334e-003
1438403.927	4.715775e-003	6.991862e-003	1.000025e+000	-3.346888e-002	1.000485e+000	-3.294163e-002	3.251430e-003	6.324735e-003
1500943.011	4.998646e-003	7.473756e-003	1.000709e+000	-3.484960e-002	1.000962e+000	-3.501164e-002	3.642906e-003	6.349852e-003
1563482.095	5.025981e-003	7.516670e-003	1.000338e+000	-3.670424e-002	1.000003e+000	-3.594602e-002	3.816582e-003	6.957649e-003
1626021.179	4.889482e-003	8.093911e-003	1.000119e+000	-3.833136e-002	1.000400e+000	-3.897307e-002	4.148361e-003	7.328984e-003
1688560.263	4.651886e-003	8.567197e-003	9.996934e-001	-4.058199e-002	1.000642e+000	-4.060950e-002	4.361323e-003	7.740455e-003
1751099.346	4.811490e-003	9.088691e-003	1.000313e+000	-4.192858e-002	9.999483e-001	-4.151134e-002	4.239307e-003	9.011207e-003
1813638.430	4.520719e-003	9.468770e-003	1.000432e+000	-4.405739e-002	1.000181e+000	-4.382979e-002	4.467615e-003	9.064429e-003
1876177.514	4.607870e-003	1.021872e-002	1.000609e+000	-4.535412e-002	1.000561e+000	-4.595258e-002	4.221835e-003	1.017472e-002
1938716.598	4.149342e-003	1.073883e-002	1.000808e+000	-4.661803e-002	1.000573e+000	-4.621396e-002	4.445306e-003	1.099200e-002
2001255.682	4.100353e-003	1.071682e-002	1.000744e+000	-4.858877e-002	1.000413e+000	-4.831618e-002	4.265834e-003	1.098991e-002
2063794.765	4.278766e-003	1.153523e-002	1.000290e+000	-5.008026e-002	9.997044e-001	-5.052146e-002	4.703033e-003	1.131760e-002
2126333.849	3.848082e-003	1.147410e-002	9.995524e-001	-5.159927e-002	9.991221e-001	-5.117927e-002	5.029888e-003	1.200230e-002
2188872.933	4.426508e-003	1.190283e-002	9.993897e-001	-5.330620e-002	9.989347e-001	-5.272036e-002	4.999245e-003	1.241698e-002
2251412.017	4.591149e-003	1.198626e-002	9.990830e-001	-5.526865e-002	9.989244e-001	-5.417994e-002	5.051348e-003	1.276515e-002
2313951.101	5.000068e-003	1.285800e-002	9.983332e-001	-5.664392e-002	9.988992e-001	-5.553104e-002	5.443822e-003	1.313779e-002
2376490.184	4.840906e-003	1.329573e-002	9.983463e-001	-5.745730e-002	9.988013e-001	-5.790981e-002	5.490725e-003	1.360693e-002
2439029.268	5.385448e-003	1.372135e-002	9.980438e-001	-5.976662e-002	9.978127e-001	-5.935919e-002	5.269890e-003	1.418642e-002
2501568.352	5.461258e-003	1.418269e-002	9.977942e-001	-6.044627e-002	9.986132e-001	-6.051618e-002	5.671333e-003	1.461048e-002
2564107.436	5.475289e-003	1.451095e-002	9.979382e-001	-6.267511e-002	9.982428e-001	-6.253881e-002	5.047979e-003	1.473750e-002
2626646.520	6.073838e-003	1.476858e-002	9.976250e-001	-6.434671e-002	9.970427e-001	-6.411760e-002	5.434511e-003	1.512089e-002
2689185.604	6.142253e-003	1.543192e-002	9.980655e-001	-6.546062e-002	9.975628e-001	-6.555745e-002	5.677935e-003	1.564340e-002
2751724.687	6.378452e-003	1.579782e-002	9.976372e-001	-6.684133e-002	9.973237e-001	-6.678521e-002	5.400913e-003	1.610324e-002
2814263.771	6.468062e-003	1.621351e-002	9.966203e-001	-6.915439e-002	9.970563e-001	-6.858470e-002	5.520462e-003	1.645440e-002
2876802.855	6.554739e-003	1.647786e-002	9.965915e-001	-7.100962e-002	9.968631e-001	-7.013628e-002	5.763684e-003	1.705968e-002
2939341.939	6.839180e-003	1.705553e-002	9.970451e-001	-7.196562e-002	9.965738e-001	-7.216554e-002	5.804534e-003	1.744308e-002
3001881.023	6.916589e-003	1.753989e-002	9.964535e-001	-7.360020e-002	9.964423e-001	-7.366571e-002	6.060217e-003	1.778654e-002
3064420.106	7.148602e-003	1.795672e-002	9.968407e-001	-7.516701e-002	9.960273e-001	-7.512815e-002	6.043914e-003	1.814142e-002
3126959.190	7.506858e-003	1.833549e-002	9.962295e-001	-7.683572e-002	9.961591e-001	-7.679394e-002	6.407410e-003	1.856122e-002
3189498.274	7.673783e-003	1.884126e-002	9.959759e-001	-7.831128e-002	9.958347e-001	-7.839391e-002	6.583198e-003	1.896566e-002
3252037.358	7.762622e-003	1.896896e-002	9.958454e-001	-7.997115e-002	9.957054e-001	-7.991514e-002	6.731067e-003	1.949504e-002
3314576.442	7.997637e-003	1.961543e-002	9.955782e-001	-8.157628e-002	9.953473e-001	-8.154356e-002	6.986601e-003	1.987342e-002
3377115.525	8.183698e-003	2.009689e-002	9.951131e-001	-8.303393e-002	9.948773e-001	-8.331886e-002	7.046812e-003	2.022217e-002
3439654.609	8.423001e-003	2.050963e-002	9.946843e-001	-8.470466e-002	9.949204e-001	-8.484334e-002	7.311046e-003	2.089036e-002
3502193.693	8.602151e-003	2.067864e-002	9.944591e-001	-8.640118e-002	9.943639e-001	-8.630063e-002	7.703390e-003	2.131460e-002
3564732.777	8.905866e-003	2.127442e-002	9.942294e-001	-8.793587e-002	9.940840e-001	-8.799199e-002	8.058203e-003	2.178787e-002
3627271.861	9.008808e-003	2.161812e-002	9.939564e-001	-8.963695e-002	9.938793e-001	-8.947682e-002	8.086029e-003	2.205269e-002
3689810.944	9.188065e-003	2.195935e-002	9.935578e-001	-9.120961e-002	9.935063e-001	-9.106762e-002	8.497358e-003	2.252193e-002
3752350.028	9.578869e-003	2.243706e-002	9.931744e-001	-9.252850e-002	9.930522e-001	-9.258641e-002	8.734371e-003	2.293406e-002
3814889.112	1.000028e-002	2.301627e-002	9.926892e-001	-9.419509e-002	9.928706e-001	-9.447990e-002	8.943119e-003	2.325051e-002
3877428.196	1.023920e-002	2.346393e-002	9.925658e-001	-9.584807e-002	9.924640e-001	-9.583639e-002	9.559662e-003	2.368152e-002
3939967.280	1.050432e-002	2.360912e-002	9.921030e-001	-9.746971e-002	9.921604e-001	-9.742235e-002	9.855697e-003	2.421535e-002
4002506.363	1.090197e-002	2.416384e-002	9.917569e-001	-9.903290e-002	9.917126e-001	-9.884733e-002	1.013183e-002	2.456153e-002
4065045.447	1.106172e-002	2.450184e-002	9.911527e-001	-1.006418e-001	9.911603e-001	-1.005492e-001	1.055350e-002	2.486690e-002
4127584.531	1.139841e-002	2.489291e-002	9.907059e-001	-1.021639e-001	9.908037e-001	-1.020169e-001	1.092926e-002	2.538483e-002
4190123.615	1.179479e-002	2.531585e-002	9.903303e-001	-1.038958e-001	9.902289e-001	-1.037421e-001	1.118229e-002	2.556208e-002
4252662.699	1.210863e-002	2.562542e-002	9.899820e-001	-1.055199e-001	9.897153e-001	-1.053763e-001	1.165116e-002	2.597385e-002
4315201.782	1.263068e-002	2.595641e-002	9.895365e-001	-1.068167e-001	9.895625e-001	-1.069662e-001	1.183679e-002	2.618183e-002
4377740.866	1.290933e-002	2.632282e-002	9.891282e-001	-1.084757e-001	9.888636e-001	-1.084650e-001	1.242254e-002	2.682317e-002
4440279.950	1.319497e-002	2.655497e-002	9.886214e-001	-1.098735e-001	9.882958e-001	-1.098542e-001	1.268939e-002	2.703349e-002
4502819.034	1.360140e-002	2.702924e-002	9.878475e-001	-1.114834e-001	9.879373e-001	-1.114019e-001	1.319442e-002	2.754079e-002
4565358.118	1.392872e-002	2.733306e-002	9.873892e-001	-1.129125e-001	9.873065e-001	-1.126733e-001	1.358763e-002	2.776348e-002
4627897.201	1.452990e-002	2.777568e-002	9.870866e-001	-1.144145e-001	9.868447e-001	-1.141785e-001	1.413242e-002	2.818049e-002
4690436.285	1.478479e-002	2.800050e-002	9.865636e-001	-1.160099e-001	9.863987e-001	-1.160624e-001	1.454447e-002	2.832421e-002
4752975.369	1.521321e-002	2.829787e-002	9.857982e-001	-1.175568e-001	9.859545e-001	-1.174292e-001	1.479717e-002	2.859212e-002
4815514.453	1.577614e-002	2.860049e-002	9.854983e-001	-1.189243e-001	9.853686e-001	-1.189674e-001	1.545620e-002	2.897418e-002
4878053.537	1.630049e-002	2.878710e-002	9.850095e-001	-1.203159e-001	9.847998e-001	-1.202978e-001	1.586944e-002	2.918759e-002
4940592.620	1.650801e-002	2.912702e-002	9.843143e-001	-1.218614e-001	9.842857e-001	-1.218682e-001	1.609393e-002	2.944915e-002
5003131.704	1.702209e-002	2.926014e-002	9.837473e-001	-1.232379e-001	9.838161e-001	-1.230856e-001	1.667783e-002	2.965973e-002
5065670.788	1.742052e-002	2.970221e-002	9.831794e-001	-1.247215e-001	9.831472e-001	-1.245735e-001	1.711301e-002	2.995229e-002
5128209.872	1.800231e-002	2.980662e-002	9.827698e-001	-1.261254e-001	9.825990e-001	-1.259444e-001	1.753392e-002	2.999552e-002
5190748.956	1.837757e-002	3.003858e-002	9.820728e-001	-1.275247e-001	9.820866e-001	-1.275088e-001	1.797989e-002	3.035507e-002
5253288.039	1.890824e-002	3.022205e-002	9.815885e-001	-1.289491e-001	9.814809e-001	-1.288478e-001	1.838885e-002	3.066652e-002
5315827.123	1.933211e-002	3.036640e-002	9.808368e-001	-1.303096e-001	9.808679e-001	-1.302652e-001	1.885172e-002	3.077961e-002
5378366.207	1.991108e-002	3.061360e-002	9.804015e-001	-1.316856e-001	9.803380e-001	-1.318154e-001	1.932111e-002	3.089209e-002
5440905.291	2.021235e-002	3.088010e-002	9.798465e-001	-1.330736e-001	9.797374e-001	-1.330550e-001	1.970156e-002	3.111960e-002
5503444.375	2.089613e-002	3.088299e-002	9.792434e-001	-1.344776e-001	9.792205e-001	-1.342526e-001	2.036442e-002	3.121189e-002
5565983.458	2.103871e-002	3.119478e-002	9.786252e-001	-1.357221e-001	9.786114e-001	-1.355421e-001	2.079497e-002	3.152381e-002
5628522.542	2.177557e-002	3.126118e-002	9.780578e-001	-1.369504e-001	9.779635e-001	-1.370290e-001	2.131733e-002	3.155105e-002
5691061.626	2.230620e-002	3.121109e-002	9.773603e-001	-1.385061e-001	9.773211e-001	-1.383766e-001	2.171756e-002	3.173768e-002
5753600.710	2.266505e-002	3.142634e-002	9.767221e-001	-1.397174e-001	9.767244e-001	-1.396296e-001	2.224526e-002	3.173792e-002
5816139.794	2.327171e-002	3.173037e-002	9.761829e-001	-1.409940e-001	9.759520e-001	-1.411180e-001	2.260207e-002	3.191558e-002
5878678.877	2.366151e-002	3.160755e-002	9.755642e-001	-1.423372e-001	9.754647e-001	-1.422863e-001	2.319784e-002	3.186347e-002
5941217.961	2.411604e-002	3.162729e-002	9.749072e-001	-1.436204e-001	9.748535e-001	-1.433953e-001	2.349902e-002	3.208048e-002
6003757.045	2.446946e-002	3.193817e-002	9.741967e-001	-1.447154e-001	9.742398e-001	-1.446757e-001	2.411052e-002	3.212659e-002
6066296.129	2.505627e-002	3.182289e-002	9.737897e-001	-1.460912e-001	9.736673e-001	-1.458656e-001	2.457208e-002	3.215366e-002
6128835.213	2.564524e-002	3.189960e-002	9.732061e-001	-1.470611e-001	9.732141e-001	-1.472508e-001	2.514407e-002	3.220486e-002
6191374.296	2.605900e-002	3.192577e-002	9.724742e-001	-1.483937e-001	9.723693e-001	-1.486291e-001	2.546754e-002	3.237801e-002
6253913.380	2.645668e-002	3.209262e-002	9.719054e-001	-1.497810e-001	9.717867e-001	-1.496557e-001	2.585753e-002	3.251548e-002
6316452.464	2.690353e-002	3.220416e-002	9.713590e-001	-1.507972e-001	9.710663e-001	-1.510300e-001	2.633788e-002	3.233284e-002
6378991.548	2.732940e-002	3.207912e-002	9.706906e-001	-1.524001e-001	9.707617e-001	-1.521296e-001	2.686253e-002	3.223414e-002
6441530.632	2.771503e-002	3.201691e-002	9.700301e-001	-1.533002e-001	9.700459e-001	-1.534155e-001	2.737376e-002	3.234440e-002
6504069.715	2.817819e-002	3.200668e-002	9.693928e-001	-1.547475e-001	9.695607e-001	-1.545829e-001	2.784238e-002	3.233891e-002
6566608.799	2.875054e-002	3.193182e-002	9.689517e-001	-1.559597e-001	9.688332e-001	-1.558127e-001	2.823619e-002	3.251904e-002
6629147.883	2.917883e-002	3.205298e-002	9.683200e-001	-1.567579e-001	9.681714e-001	-1.569403e-001	2.874432e-002	3.237301e-002
6691686.967	2.950723e-002	3.204948e-002	9.676011e-001	-1.580548e-001	9.675648e-001	-1.580533e-001	2.922478e-002	3.243899e-002
6754226.051	2.989830e-002	3.202835e-002	9.670244e-001	-1.593155e-001	9.669080e-001	-1.593837e-001	2.945523e-002	3.221661e-002
6816765.134	3.043338e-002	3.198588e-002	9.665408e-001	-1.603727e-001	9.664431e-001	-1.604033e-001	2.996763e-002	3.237445e-002
6879304.218	3.075164e-002	3.178640e-002	9.658968e-001	-1.615633e-001	9.658717e-001	-1.615073e-001	3.037899e-002	3.226061e-002
6941843.302	3.125328e-002	3.188742e-002	9.653073e-001	-1.627552e-001	9.652689e-001	-1.626027e-001	3.080517e-002	3.230472e-002
7004382.386	3.150817e-002	3.192256e-002	9.647818e-001	-1.637335e-001	9.646836e-001	-1.637392e-001	3.115256e-002	3.229791e-002
7066921.470	3.200996e-002	3.179980e-002	9.641276e-001	-1.650021e-001	9.641623e-001	-1.647116e-001	3.172196e-002	3.206984e-002
7129460.553	3.230514e-002	3.163999e-002	9.636564e-001	-1.659361e-001	9.635926e-001	-1.659482e-001	3.213788e-002	3.206973e-002
7191999.637	3.273019e-002	3.180530e-002	9.628658e-001	-1.671393e-001	9.628877e-001	-1.670323e-001	3.241222e-002	3.200421e-002
7254538.721	3.317109e-002	3.161106e-002	9.626229e-001	-1.683030e-001	9.624892e-001	-1.682112e-001	3.284183e-002	3.194845e-002
7317077.805	3.373192e-002	3.149001e-002	9.619840e-001	-1.692795e-001	9.619623e-001	-1.692312e-001	3.323729e-002	3.177631e-002
7379616.889	3.399317e-002	3.144340e-002	9.615682e-001	-1.705762e-001	9.613205e-001	-1.703891e-001	3.356509e-002	3.171141e-002
7442155.972	3.422921e-002	3.136373e-002	9.608582e-001	-1.714765e-001	9.607813e-001	-1.714025e-001	3.406335e-002	3.183356e-002
7504695.056	3.464921e-002	3.118103e-002	9.602162e-001	-1.725058e-001	9.601018e-001	-1.726303e-001	3.447554e-002	3.179117e-002
7567234.140	3.518233e-002	3.101351e-002	9.598129e-001	-1.735728e-001	9.595878e-001	-1.736502e-001	3.477382e-002	3.161676e-002
7629773.224	3.548130e-002	3.119603e-002	9.593022e-001	-1.748461e-001	9.591877e-001	-1.746737e-001	3.507121e-002	3.146542e-002
7692312.308	3.571261e-002	3.104123e-002	9.587527e-001	-1.758489e-001	9.585279e-001	-1.758572e-001	3.548555e-002	3.128748e-002
7754851.391	3.605280e-002	3.081434e-002	9.581829e-001	-1.769810e-001	9.579009e-001	-1.767210e-001	3.580694e-002	3.130567e-002
7817390.475	3.650830e-002	3.088415e-002	9.576261e-001	-1.781811e-001	9.574080e-001	-1.780042e-001	3.610601e-002	3.131255e-002
7879929.559	3.676051e-002	3.060771e-002	9.570210e-001	-1.792125e-001	9.568650e-001	-1.792416e-001	3.657685e-002	3.119173e-002
7942468.643	3.705847e-002	3.045292e-002	9.566067e-001	-1.802118e-001	9.564449e-001	-1.802328e-001	3.688424e-002	3.092178e-002
8005007.727	3.750625e-002	3.036825e-002	9.560022e-001	-1.813233e-001	9.559323e-001	-1.812589e-001	3.716433e-002	3.102928e-002
8067546.811	3.769370e-002	3.029707e-002	9.555237e-001	-1.823345e-001	9.553055e-001	-1.822508e-001	3.740494e-002	3.072062e-002
8130085.894	3.808532e-002	3.011216e-002	9.549682e-001	-1.833646e-001	9.548446e-001	-1.833439e-001	3.794553e-002	3.053695e-002
8192624.978	3.825994e-002	2.996743e-002	9.542678e-001	-1.844967e-001	9.543561e-001	-1.843387e-001	3.830976e-002	3.041393e-002
8255164.062	3.868917e-002	2.983857e-002	9.538961e-001	-1.855156e-001	9.537645e-001	-1.854287e-001	3.860443e-002	3.023672e-002
8317703.146	3.891482e-002	2.982468e-002	9.534494e-001	-1.865989e-001	9.533814e-001	-1.864627e-001	3.875926e-002	3.018003e-002
8380242.230	3.932087e-002	2.947115e-002	9.527854e-001	-1.877064e-001	9.527782e-001	-1.874774e-001	3.904830e-002	3.000242e-002
8442781.313	3.960049e-002	2.937986e-002	9.525102e-001	-1.886349e-001	9.523248e-001	-1.884909e-001	3.933055e-002	2.979955e-002
8505320.397	3.991222e-002	2.937324e-002	9.519611e-001	-1.897244e-001	9.517942e-001	-1.895397e-001	3.960327e-002	2.971940e-002
8567859.481	4.019288e-002	2.938326e-002	9.514049e-001	-1.905711e-001	9.513647e-001	-1.905895e-001	3.994765e-002	2.972149e-002
8630398.565	4.057047e-002	2.920158e-002	9.507652e-001	-1.916243e-001	9.508280e-001	-1.915760e-001	4.011351e-002	2.936433e-002
8692937.649	4.079704e-002	2.886661e-002	9.503788e-001	-1.926783e-001	9.502194e-001	-1.926313e-001	4.036353e-002	2.933564e-002
8755476.732	4.109637e-002	2.880273e-002	9.499014e-001	-1.937880e-001	9.497381e-001	-1.935915e-001	4.072393e-002	2.920726e-002
8818015.816	4.127008e-002	2.863422e-002	9.493579e-001	-1.947798e-001	9.491227e-001	-1.946701e-001	4.108458e-002	2.897895e-002
8880554.900	4.175559e-002	2.851690e-002	9.490200e-001	-1.958275e-001	9.488950e-001	-1.955685e-001	4.125430e-002	2.870638e-002
8943093.984	4.189958e-002	2.849250e-002	9.484475e-001	-1.968216e-001	9.484312e-001	-1.966342e-001	4.153735e-002	2.860731e-002
9005633.068	4.221135e-002	2.825900e-002	9.478700e-001	-1.978355e-001	9.479634e-001	-1.977913e-001	4.170961e-002	2.834863e-002
9068172.151	4.233507e-002	2.812155e-002	9.475459e-001	-1.989078e-001	9.473381e-001	-1.986732e-001	4.204057e-002	2.824728e-002
9130711.235	4.280764e-002	2.788588e-002	9.469677e-001	-1.999189e-001	9.469348e-001	-1.996781e-001	4.233403e-002	2.792610e-002
9193250.319	4.305659e-002	2.771094e-002	9.466755e-001	-2.008024e-001	9.464229e-001	-2.007983e-001	4.252795e-002	2.784569e-002
9255789.403	4.319767e-002	2.743175e-002	9.461910e-001	-2.017441e-001	9.459310e-001	-2.017662e-001	4.267401e-002	2.776147e-002
9318328.487	4.342351e-002	2.739256e-002	9.456450e-001	-2.029679e-001	9.456034e-001	-2.027224e-001	4.303763e-002	2.760502e-002
9380867.570	4.370125e-002	2.734438e-002	9.452255e-001	-2.040020e-001	9.449498e-001	-2.038807e-001	4.327931e-002	2.742084e-002
9443406.654	4.400267e-002	2.716056e-002	9.447762e-001	-2.049143e-001	9.446533e-001	-2.049196e-001	4.355780e-002	2.720095e-002
9505945.738	4.421927e-002	2.704740e-002	9.441266e-001	-2.060671e-001	9.442373e-001	-2.059096e-001	4.377189e-002	2.704289e-002
9568484.822	4.449761e-002	2.684857e-002	9.437870e-001	-2.070700e-001	9.434720e-001	-2.069242e-001	4.384593e-002	2.713275e-002
9631023.906	4.473355e-002	2.671319e-002	9.433436e-001	-2.080340e-001	9.430760e-001	-2.079392e-001	4.423904e-002	2.667108e-002
9693562.989	4.499412e-002	2.653023e-002	9.428118e-001	-2.090837e-001	9.426738e-001	-2.089088e-001	4.423202e-002	2.664045e-002
9756102.073	4.519695e-002	2.633342e-002	9.425347e-001	-2.100872e-001	9.422737e-001	-2.098315e-001	4.451535e-002	2.635491e-002
