!Agilent Technologies,E5061B,MY49102235,A.02.00
!Date: Tue Jul 11 15:28:24 2023
!Data & Calibration Information:
!Freq	S11:SOLT2(ON)	S21:SOLT2(ON)	S12:SOLT2(ON)	S22:SOLT2(ON)
# Hz S RI R 50
5.000	-5.255047e-003	-5.625365e-003	1.001757e+000	7.955168e-003	1.000245e+000	1.022710e-002	-1.492291e-003	-7.558591e-003
62544.084	5.795041e-003	-4.345567e-004	1.001311e+000	3.886871e-004	1.000913e+000	1.130620e-003	7.691251e-003	-2.826812e-003
125083.168	5.681876e-003	-3.887466e-004	1.000912e+000	-9.197912e-004	1.000888e+000	-9.632575e-004	7.480150e-003	-2.173622e-003
187622.251	5.453540e-003	-1.622055e-004	1.000485e+000	-2.305108e-003	1.000898e+000	-1.148494e-003	7.370259e-003	-2.197298e-003
250161.335	5.286740e-003	4.711564e-005	1.000549e+000	-3.366561e-003	1.000748e+000	-3.240566e-003	7.259489e-003	-1.842682e-003
312700.419	5.413219e-003	8.137637e-004	1.000783e+000	-4.073410e-003	1.000688e+000	-3.783331e-003	7.762893e-003	-2.088269e-003
375239.503	5.297121e-003	-6.466622e-004	1.001003e+000	-5.581151e-003	1.000494e+000	-5.167821e-003	7.268886e-003	-2.206840e-003
437778.587	5.138773e-003	-1.696305e-004	1.001307e+000	-5.965257e-003	1.000996e+000	-6.596847e-003	6.622706e-003	-1.822053e-003
500317.670	4.559988e-003	-1.669433e-005	1.001386e+000	-8.315957e-003	1.001573e+000	-8.058061e-003	4.823119e-003	-1.616229e-003
562856.754	5.895251e-003	-2.854850e-004	1.001413e+000	-9.728524e-003	1.001159e+000	-9.581299e-003	6.014818e-003	-1.083407e-003
625395.838	5.081766e-003	-8.457778e-005	1.002232e+000	-1.097591e-002	1.002200e+000	-1.050035e-002	6.112152e-003	-4.707787e-004
687934.922	5.134963e-003	-3.364472e-004	1.001332e+000	-1.221118e-002	1.001241e+000	-1.211745e-002	5.750453e-003	-8.627826e-004
750474.006	4.363429e-003	2.871174e-005	1.000890e+000	-1.158291e-002	1.001020e+000	-1.133693e-002	5.534949e-003	-6.400714e-004
813013.089	4.529884e-003	8.646126e-005	1.001086e+000	-1.342169e-002	1.000777e+000	-1.307759e-002	4.907577e-003	-4.169143e-004
875552.173	4.259002e-003	2.912850e-004	1.001224e+000	-1.429379e-002	1.001081e+000	-1.442655e-002	5.681100e-003	-7.848022e-004
938091.257	4.341836e-003	4.252225e-004	1.001262e+000	-1.577567e-002	1.001258e+000	-1.538280e-002	5.915047e-003	-1.512639e-004
1000630.341	3.794505e-003	1.081502e-004	1.000828e+000	-1.730057e-002	1.001020e+000	-1.705054e-002	5.164843e-003	-7.912032e-004
1063169.425	4.137035e-003	3.003034e-005	1.000981e+000	-1.857485e-002	1.000742e+000	-1.794099e-002	4.346469e-003	-1.083955e-003
1125708.508	4.037944e-003	9.136679e-005	1.000786e+000	-1.994210e-002	1.000718e+000	-1.930809e-002	3.844899e-003	-7.447887e-004
1188247.592	4.567235e-003	-2.964669e-004	1.000916e+000	-2.106253e-002	1.001093e+000	-2.050066e-002	2.750587e-003	-1.254992e-003
1250786.676	4.414481e-003	-9.864783e-004	1.000748e+000	-2.104848e-002	1.000724e+000	-2.114080e-002	2.005392e-003	-2.865768e-003
1313325.760	4.530420e-003	-1.042330e-003	1.000888e+000	-2.274785e-002	1.001228e+000	-2.276180e-002	2.756590e-003	-2.605029e-003
1375864.844	4.254366e-003	-1.177200e-003	1.000652e+000	-2.457831e-002	1.000610e+000	-2.476257e-002	2.607850e-003	-2.292173e-003
1438403.927	4.161885e-003	-1.290804e-003	1.000616e+000	-2.539494e-002	1.001078e+000	-2.466548e-002	2.684948e-003	-1.962081e-003
1500943.011	4.382324e-003	-1.177401e-003	1.001204e+000	-2.627670e-002	1.001527e+000	-2.611181e-002	3.044614e-003	-2.319196e-003
1563482.095	4.382948e-003	-1.495665e-003	1.000977e+000	-2.747560e-002	1.000800e+000	-2.687349e-002	3.195105e-003	-2.079064e-003
1626021.179	4.208736e-003	-1.325821e-003	1.000840e+000	-2.891033e-002	1.001047e+000	-2.953099e-002	3.458497e-003	-2.066696e-003
1688560.263	3.907682e-003	-1.203203e-003	1.000577e+000	-3.075030e-002	1.001396e+000	-3.088570e-002	3.624697e-003	-2.038268e-003
1751099.346	4.032005e-003	-1.054317e-003	1.000917e+000	-3.190523e-002	1.000711e+000	-3.127978e-002	3.430755e-003	-1.154773e-003
1813638.430	3.669223e-003	-1.074012e-003	1.001225e+000	-3.348308e-002	1.001058e+000	-3.331608e-002	3.634622e-003	-1.488272e-003
1876177.514	3.721775e-003	-7.214160e-004	1.001777e+000	-3.454772e-002	1.001331e+000	-3.491628e-002	3.309244e-003	-7.696679e-004
1938716.598	3.174076e-003	-5.897356e-004	1.001661e+000	-3.540516e-002	1.001673e+000	-3.499847e-002	3.492803e-003	-3.361933e-004
2001255.682	3.094624e-003	-1.038443e-003	1.001742e+000	-3.694462e-002	1.001276e+000	-3.660993e-002	3.235258e-003	-7.415556e-004
2063794.765	3.185914e-003	-6.054413e-004	1.001359e+000	-3.788093e-002	1.000807e+000	-3.834623e-002	3.621509e-003	-7.897871e-004
2126333.849	2.728781e-003	-1.065047e-003	1.000918e+000	-3.898595e-002	1.000279e+000	-3.863031e-002	3.880208e-003	-4.822625e-004
2188872.933	3.232660e-003	-1.039599e-003	1.000643e+000	-4.040352e-002	1.000072e+000	-3.973038e-002	3.766630e-003	-4.835242e-004
2251412.017	3.321506e-003	-1.353745e-003	1.000344e+000	-4.194876e-002	1.000077e+000	-4.084823e-002	3.754622e-003	-5.576351e-004
2313951.101	3.644930e-003	-8.741688e-004	9.997706e-001	-4.317582e-002	1.000191e+000	-4.174668e-002	4.054894e-003	-5.844034e-004
2376490.184	3.389638e-003	-8.680988e-004	9.997184e-001	-4.343196e-002	1.000240e+000	-4.380234e-002	4.034322e-003	-5.478583e-004
2439029.268	3.847312e-003	-8.462901e-004	9.997305e-001	-4.528027e-002	9.992921e-001	-4.484619e-002	3.723589e-003	-3.743226e-004
2501568.352	3.841272e-003	-8.209056e-004	9.992029e-001	-4.540289e-002	1.000123e+000	-4.553385e-002	3.996856e-003	-3.787746e-004
2564107.436	3.728726e-003	-9.281099e-004	9.996477e-001	-4.730930e-002	1.000084e+000	-4.714100e-002	3.309274e-003	-7.025208e-004
2626646.520	4.233311e-003	-1.059381e-003	9.995444e-001	-4.852058e-002	9.987776e-001	-4.840542e-002	3.560384e-003	-7.374152e-004
2689185.604	4.187790e-003	-8.583302e-004	9.999419e-001	-4.927605e-002	9.994446e-001	-4.921241e-002	3.695245e-003	-6.266136e-004
2751724.687	4.302269e-003	-9.116464e-004	9.996867e-001	-5.006443e-002	9.994654e-001	-5.003442e-002	3.318225e-003	-6.336037e-004
2814263.771	4.249648e-003	-9.316290e-004	9.988893e-001	-5.201303e-002	9.992798e-001	-5.132485e-002	3.290279e-003	-7.055455e-004
2876802.855	4.196043e-003	-1.110845e-003	9.987580e-001	-5.345708e-002	9.992955e-001	-5.244722e-002	3.363618e-003	-5.525696e-004
2939341.939	4.344958e-003	-9.735025e-004	9.995741e-001	-5.410938e-002	9.990067e-001	-5.409978e-002	3.263568e-003	-6.180826e-004
3001881.023	4.252183e-003	-9.411616e-004	9.990985e-001	-5.500940e-002	9.989939e-001	-5.514797e-002	3.356374e-003	-7.114831e-004
3064420.106	4.301932e-003	-9.516543e-004	9.997573e-001	-5.627064e-002	9.988419e-001	-5.619422e-002	3.202083e-003	-7.971296e-004
3126959.190	4.513533e-003	-1.020054e-003	9.992851e-001	-5.753827e-002	9.991185e-001	-5.736294e-002	3.385140e-003	-8.263619e-004
3189498.274	4.485574e-003	-9.577377e-004	9.991670e-001	-5.854357e-002	9.990222e-001	-5.853825e-002	3.375176e-003	-8.706971e-004
3252037.358	4.415491e-003	-1.273085e-003	9.992211e-001	-5.975858e-002	9.990483e-001	-5.962166e-002	3.324102e-003	-7.849343e-004
3314576.442	4.419272e-003	-1.110713e-003	9.990835e-001	-6.082813e-002	9.989355e-001	-6.083294e-002	3.383400e-003	-8.592606e-004
3377115.525	4.398564e-003	-1.070860e-003	9.988964e-001	-6.191828e-002	9.986558e-001	-6.213009e-002	3.222062e-003	-9.702112e-004
3439654.609	4.416475e-003	-1.104688e-003	9.986935e-001	-6.305453e-002	9.989118e-001	-6.313761e-002	3.248209e-003	-7.538060e-004
3502193.693	4.368949e-003	-1.394758e-003	9.986720e-001	-6.433157e-002	9.986407e-001	-6.418827e-002	3.424219e-003	-7.738329e-004
3564732.777	4.419870e-003	-1.250699e-003	9.987312e-001	-6.544589e-002	9.985456e-001	-6.538518e-002	3.521394e-003	-7.307970e-004
3627271.861	4.267088e-003	-1.352642e-003	9.987237e-001	-6.665262e-002	9.986289e-001	-6.645300e-002	3.284017e-003	-9.332293e-004
3689810.944	4.192918e-003	-1.463926e-003	9.985410e-001	-6.781267e-002	9.984254e-001	-6.757137e-002	3.454558e-003	-8.977769e-004
3752350.028	4.311094e-003	-1.411515e-003	9.985029e-001	-6.871359e-002	9.982856e-001	-6.871275e-002	3.401645e-003	-9.443066e-004
3814889.112	4.418970e-003	-1.283222e-003	9.982760e-001	-6.992231e-002	9.984811e-001	-7.016057e-002	3.306634e-003	-1.070850e-003
3877428.196	4.356992e-003	-1.251284e-003	9.984460e-001	-7.112318e-002	9.983183e-001	-7.099667e-002	3.628912e-003	-1.044796e-003
3939967.280	4.333919e-003	-1.540321e-003	9.982765e-001	-7.238565e-002	9.982955e-001	-7.222361e-002	3.613448e-003	-9.590774e-004
4002506.363	4.398880e-003	-1.397755e-003	9.983158e-001	-7.346396e-002	9.981902e-001	-7.321434e-002	3.563364e-003	-1.047544e-003
4065045.447	4.231668e-003	-1.502325e-003	9.980256e-001	-7.462402e-002	9.980255e-001	-7.448547e-002	3.664589e-003	-1.145143e-003
4127584.531	4.199669e-003	-1.510210e-003	9.979120e-001	-7.582056e-002	9.979806e-001	-7.555223e-002	3.666851e-003	-1.035256e-003
4190123.615	4.250027e-003	-1.494883e-003	9.979384e-001	-7.710379e-002	9.977614e-001	-7.682977e-002	3.585966e-003	-1.273652e-003
4252662.699	4.205147e-003	-1.588318e-003	9.979605e-001	-7.825820e-002	9.976441e-001	-7.807284e-002	3.688341e-003	-1.242143e-003
4315201.782	4.334998e-003	-1.637966e-003	9.978083e-001	-7.919071e-002	9.978333e-001	-7.923246e-002	3.508970e-003	-1.450440e-003
4377740.866	4.254404e-003	-1.657867e-003	9.978780e-001	-8.049592e-002	9.975181e-001	-8.039998e-002	3.692015e-003	-1.162990e-003
4440279.950	4.173636e-003	-1.828986e-003	9.976674e-001	-8.148968e-002	9.973095e-001	-8.146369e-002	3.582936e-003	-1.346727e-003
4502819.034	4.156433e-003	-1.694215e-003	9.974133e-001	-8.271504e-002	9.973632e-001	-8.258894e-002	3.673436e-003	-1.191993e-003
4565358.118	4.074493e-003	-1.758380e-003	9.973081e-001	-8.383840e-002	9.971287e-001	-8.349110e-002	3.673230e-003	-1.326065e-003
4627897.201	4.248091e-003	-1.644342e-003	9.974363e-001	-8.494369e-002	9.971198e-001	-8.469060e-002	3.788270e-003	-1.237229e-003
4690436.285	4.066797e-003	-1.800059e-003	9.973257e-001	-8.621402e-002	9.971372e-001	-8.623454e-002	3.797028e-003	-1.452801e-003
4752975.369	4.086658e-003	-1.810852e-003	9.969867e-001	-8.744560e-002	9.970983e-001	-8.724146e-002	3.611453e-003	-1.510113e-003
4815514.453	4.214535e-003	-1.839862e-003	9.971352e-001	-8.847368e-002	9.969141e-001	-8.850784e-002	3.825296e-003	-1.439414e-003
4878053.537	4.298346e-003	-1.940309e-003	9.970603e-001	-8.959816e-002	9.967985e-001	-8.945119e-002	3.801423e-003	-1.550752e-003
4940592.620	4.044795e-003	-1.927886e-003	9.968223e-001	-9.076859e-002	9.967680e-001	-9.071962e-002	3.570494e-003	-1.601130e-003
5003131.704	4.119798e-003	-2.073310e-003	9.967093e-001	-9.189156e-002	9.967346e-001	-9.159371e-002	3.690143e-003	-1.662456e-003
5065670.788	4.051944e-003	-1.901372e-003	9.965770e-001	-9.312109e-002	9.965495e-001	-9.288933e-002	3.665471e-003	-1.642864e-003
5128209.872	4.184593e-003	-2.050047e-003	9.966682e-001	-9.421516e-002	9.964504e-001	-9.401427e-002	3.645670e-003	-1.876471e-003
5190748.956	4.088828e-003	-2.103122e-003	9.964263e-001	-9.542741e-002	9.963969e-001	-9.528361e-002	3.607424e-003	-1.774932e-003
5253288.039	4.128871e-003	-2.163257e-003	9.964166e-001	-9.656044e-002	9.963083e-001	-9.637038e-002	3.537244e-003	-1.723617e-003
5315827.123	4.100556e-003	-2.245229e-003	9.961041e-001	-9.769379e-002	9.961677e-001	-9.756821e-002	3.526220e-003	-1.853904e-003
5378366.207	4.191722e-003	-2.226404e-003	9.961795e-001	-9.889679e-002	9.961436e-001	-9.886001e-002	3.524511e-003	-1.950960e-003
5440905.291	4.015980e-003	-2.165543e-003	9.961192e-001	-1.000053e-001	9.959782e-001	-9.991538e-002	3.407676e-003	-1.949588e-003
5503444.375	4.221934e-003	-2.339790e-003	9.959731e-001	-1.012398e-001	9.959384e-001	-1.009026e-001	3.605472e-003	-2.054851e-003
5565983.458	3.878331e-003	-2.272266e-003	9.959101e-001	-1.023028e-001	9.958518e-001	-1.020280e-001	3.540728e-003	-1.907825e-003
5628522.542	4.131441e-003	-2.362005e-003	9.958005e-001	-1.033325e-001	9.956871e-001	-1.033131e-001	3.579843e-003	-2.054540e-003
5691061.626	4.200129e-003	-2.553303e-003	9.956105e-001	-1.046875e-001	9.955744e-001	-1.045232e-001	3.485407e-003	-2.048507e-003
5753600.710	4.039273e-003	-2.514358e-003	9.954699e-001	-1.057543e-001	9.954787e-001	-1.055884e-001	3.552775e-003	-2.204408e-003
5816139.794	4.150820e-003	-2.363547e-003	9.954383e-001	-1.069477e-001	9.951603e-001	-1.069254e-001	3.404654e-003	-2.191055e-003
5878678.877	4.046121e-003	-2.617262e-003	9.952486e-001	-1.080956e-001	9.952160e-001	-1.079696e-001	3.486569e-003	-2.358329e-003
5941217.961	4.037152e-003	-2.726923e-003	9.950875e-001	-1.093271e-001	9.949799e-001	-1.089835e-001	3.305832e-003	-2.301784e-003
6003757.045	3.868736e-003	-2.525394e-003	9.948547e-001	-1.103186e-001	9.949260e-001	-1.101361e-001	3.443772e-003	-2.345312e-003
6066296.129	4.019989e-003	-2.752007e-003	9.949730e-001	-1.114376e-001	9.947893e-001	-1.111571e-001	3.423149e-003	-2.401932e-003
6128835.213	4.105647e-003	-2.751754e-003	9.948158e-001	-1.123175e-001	9.947609e-001	-1.124713e-001	3.517562e-003	-2.445700e-003
6191374.296	4.055506e-003	-2.812732e-003	9.946248e-001	-1.137375e-001	9.945829e-001	-1.138281e-001	3.350515e-003	-2.377847e-003
6253913.380	3.967149e-003	-2.731462e-003	9.945460e-001	-1.149559e-001	9.944679e-001	-1.147755e-001	3.232576e-003	-2.310218e-003
6316452.464	3.941165e-003	-2.681951e-003	9.944329e-001	-1.159707e-001	9.941906e-001	-1.160845e-001	3.285838e-003	-2.559401e-003
6378991.548	3.898440e-003	-2.883039e-003	9.942932e-001	-1.174526e-001	9.942690e-001	-1.171390e-001	3.323599e-003	-2.705024e-003
6441530.632	3.839182e-003	-2.978537e-003	9.941105e-001	-1.182862e-001	9.940268e-001	-1.183793e-001	3.380645e-003	-2.648051e-003
6504069.715	3.825906e-003	-3.043914e-003	9.939063e-001	-1.196892e-001	9.940451e-001	-1.194441e-001	3.388602e-003	-2.672637e-003
6566608.799	3.969934e-003	-3.136159e-003	9.939309e-001	-1.208697e-001	9.938355e-001	-1.206348e-001	3.285589e-003	-2.521279e-003
6629147.883	3.921401e-003	-3.042499e-003	9.936854e-001	-1.216615e-001	9.936450e-001	-1.217711e-001	3.379694e-003	-2.698035e-003
6691686.967	3.808716e-003	-3.059539e-003	9.935034e-001	-1.229507e-001	9.934688e-001	-1.229339e-001	3.403123e-003	-2.629788e-003
6754226.051	3.749179e-003	-3.111783e-003	9.933601e-001	-1.242446e-001	9.931848e-001	-1.242401e-001	3.191781e-003	-2.891281e-003
6816765.134	3.835887e-003	-3.154812e-003	9.932715e-001	-1.252948e-001	9.931861e-001	-1.252281e-001	3.241729e-003	-2.735877e-003
6879304.218	3.729419e-003	-3.354892e-003	9.930815e-001	-1.264828e-001	9.931096e-001	-1.263250e-001	3.236234e-003	-2.832467e-003
6941843.302	3.807035e-003	-3.222217e-003	9.928846e-001	-1.276599e-001	9.929130e-001	-1.274769e-001	3.230957e-003	-2.785580e-003
7004382.386	3.603897e-003	-3.191634e-003	9.928653e-001	-1.287067e-001	9.927301e-001	-1.286409e-001	3.129532e-003	-2.776669e-003
7066921.470	3.696015e-003	-3.282053e-003	9.925895e-001	-1.299877e-001	9.926320e-001	-1.296119e-001	3.296854e-003	-2.974947e-003
7129460.553	3.592864e-003	-3.422968e-003	9.925416e-001	-1.309215e-001	9.924787e-001	-1.308616e-001	3.296181e-003	-2.937472e-003
7191999.637	3.574451e-003	-3.215793e-003	9.921673e-001	-1.321608e-001	9.921473e-001	-1.320257e-001	3.145197e-003	-2.982878e-003
7254538.721	3.620113e-003	-3.358113e-003	9.923251e-001	-1.333634e-001	9.921787e-001	-1.332042e-001	3.178144e-003	-2.993545e-003
7317077.805	3.791374e-003	-3.421124e-003	9.921280e-001	-1.344446e-001	9.920556e-001	-1.342837e-001	3.172715e-003	-3.144623e-003
7379616.889	3.655272e-003	-3.450430e-003	9.921865e-001	-1.357464e-001	9.918080e-001	-1.354644e-001	3.111312e-003	-3.148626e-003
7442155.972	3.480846e-003	-3.491774e-003	9.917624e-001	-1.366562e-001	9.917118e-001	-1.365370e-001	3.197636e-003	-2.961366e-003
7504695.056	3.523503e-003	-3.607725e-003	9.914996e-001	-1.377616e-001	9.913715e-001	-1.378438e-001	3.214353e-003	-2.922234e-003
7567234.140	3.708235e-003	-3.728726e-003	9.914996e-001	-1.389065e-001	9.912640e-001	-1.389375e-001	3.150437e-003	-3.065718e-003
7629773.224	3.603687e-003	-3.452314e-003	9.913389e-001	-1.402202e-001	9.912770e-001	-1.400645e-001	3.059494e-003	-3.144979e-003
7692312.308	3.453116e-003	-3.542969e-003	9.912119e-001	-1.413251e-001	9.910107e-001	-1.412799e-001	3.102426e-003	-3.269770e-003
7754851.391	3.422423e-003	-3.742713e-003	9.909746e-001	-1.424953e-001	9.907240e-001	-1.422128e-001	3.033340e-003	-3.161795e-003
7817390.475	3.508339e-003	-3.564336e-003	9.908604e-001	-1.438065e-001	9.906230e-001	-1.435966e-001	2.969702e-003	-3.085438e-003
7879929.559	3.400030e-003	-3.775822e-003	9.905783e-001	-1.449490e-001	9.904061e-001	-1.449004e-001	3.079661e-003	-3.116769e-003
7942468.643	3.349396e-003	-3.854667e-003	9.905170e-001	-1.459812e-001	9.903862e-001	-1.459795e-001	3.044609e-003	-3.327527e-003
8005007.727	3.446094e-003	-3.861220e-003	9.902584e-001	-1.471755e-001	9.902542e-001	-1.470839e-001	2.943325e-003	-3.127263e-003
8067546.811	3.284936e-003	-3.853914e-003	9.901358e-001	-1.482623e-001	9.899049e-001	-1.481449e-001	2.845764e-003	-3.375958e-003
8130085.894	3.354018e-003	-3.957966e-003	9.899017e-001	-1.493518e-001	9.898314e-001	-1.493244e-001	3.070116e-003	-3.449833e-003
8192624.978	3.162201e-003	-4.046507e-003	9.895566e-001	-1.506767e-001	9.896159e-001	-1.504758e-001	3.089901e-003	-3.497703e-003
8255164.062	3.274919e-003	-4.052854e-003	9.895550e-001	-1.517372e-001	9.894266e-001	-1.516328e-001	3.054439e-003	-3.551955e-003
8317703.146	3.148094e-003	-3.960104e-003	9.894345e-001	-1.528965e-001	9.893406e-001	-1.527148e-001	2.864280e-003	-3.536333e-003
8380242.230	3.265303e-003	-4.232967e-003	9.890796e-001	-1.541467e-001	9.890727e-001	-1.538458e-001	2.826003e-003	-3.632568e-003
8442781.313	3.214933e-003	-4.223537e-003	9.891508e-001	-1.551374e-001	9.889634e-001	-1.549465e-001	2.782447e-003	-3.738085e-003
8505320.397	3.194834e-003	-4.118230e-003	9.889371e-001	-1.563821e-001	9.887342e-001	-1.561531e-001	2.730242e-003	-3.723673e-003
8567859.481	3.135699e-003	-3.991345e-003	9.886718e-001	-1.573352e-001	9.886372e-001	-1.572886e-001	2.729670e-003	-3.573271e-003
8630398.565	3.197036e-003	-4.071947e-003	9.883470e-001	-1.584659e-001	9.884106e-001	-1.583543e-001	2.601002e-003	-3.861459e-003
8692937.649	3.121841e-003	-4.319558e-003	9.882651e-001	-1.595839e-001	9.881003e-001	-1.595574e-001	2.536571e-003	-3.794118e-003
8755476.732	3.123865e-003	-4.271688e-003	9.880845e-001	-1.608592e-001	9.879489e-001	-1.605822e-001	2.586154e-003	-3.802273e-003
8818015.816	2.992086e-003	-4.348397e-003	9.878310e-001	-1.619671e-001	9.875975e-001	-1.617869e-001	2.687479e-003	-3.928316e-003
8880554.900	3.193632e-003	-4.348974e-003	9.877718e-001	-1.631254e-001	9.877151e-001	-1.627882e-001	2.526350e-003	-4.120927e-003
8943093.984	3.023521e-003	-4.267269e-003	9.875656e-001	-1.642358e-001	9.874837e-001	-1.639606e-001	2.533726e-003	-4.102330e-003
9005633.068	3.053882e-003	-4.388300e-003	9.872461e-001	-1.653815e-001	9.873301e-001	-1.652137e-001	2.417367e-003	-4.270943e-003
9068172.151	2.895077e-003	-4.421376e-003	9.871906e-001	-1.665508e-001	9.870271e-001	-1.662559e-001	2.461424e-003	-4.239400e-003
9130711.235	3.085534e-003	-4.530137e-003	9.869422e-001	-1.676275e-001	9.868712e-001	-1.673262e-001	2.470707e-003	-4.449898e-003
9193250.319	3.057703e-003	-4.582286e-003	9.868595e-001	-1.686871e-001	9.866585e-001	-1.685756e-001	2.391144e-003	-4.429384e-003
9255789.403	2.937373e-003	-4.764932e-003	9.867145e-001	-1.697355e-001	9.864549e-001	-1.696540e-001	2.226854e-003	-4.381709e-003
9318328.487	2.870669e-003	-4.697193e-003	9.864007e-001	-1.710936e-001	9.863794e-001	-1.707446e-001	2.329137e-003	-4.405690e-003
9380867.570	2.861560e-003	-4.609402e-003	9.862760e-001	-1.722327e-001	9.860135e-001	-1.720110e-001	2.318532e-003	-4.458121e-003
9443406.654	2.895718e-003	-4.647292e-003	9.860900e-001	-1.732839e-001	9.860099e-001	-1.732172e-001	2.315049e-003	-4.574327e-003
9505945.738	2.848391e-003	-4.665308e-003	9.857125e-001	-1.745680e-001	9.858480e-001	-1.742906e-001	2.249896e-003	-4.617456e-003
9568484.822	2.882149e-003	-4.723800e-003	9.856323e-001	-1.756726e-001	9.853805e-001	-1.754631e-001	2.038599e-003	-4.404990e-003
9631023.906	2.842477e-003	-4.742809e-003	9.854397e-001	-1.767834e-001	9.851510e-001	-1.766352e-001	2.201395e-003	-4.752235e-003
