!Agilent Technologies,E5061B,MY49102235,A.02.00
!Date: Tue Jul 11 16:45:29 2023
!Data & Calibration Information:
!Freq	S11:SOLT2(ON)	S21:SOLT2(ON)	S12:SOLT2(ON)	S22:SOLT2(ON)
# Hz S RI R 50
5.000	-5.224705e-003	-5.642158e-003	1.002017e+000	7.826524e-003	1.000541e+000	1.029173e-002	-1.448749e-003	-7.554870e-003
62544.084	5.816135e-003	-5.017576e-004	1.001398e+000	4.723503e-004	1.000705e+000	1.358059e-003	7.703067e-003	-2.882792e-003
125083.168	5.688127e-003	-4.840971e-004	1.000906e+000	-9.682294e-004	1.000837e+000	-7.770511e-004	7.481226e-003	-2.294033e-003
187622.251	5.454597e-003	-3.203999e-004	1.000559e+000	-2.267806e-003	1.000912e+000	-8.469982e-004	7.367900e-003	-2.384248e-003
250161.335	5.270446e-003	-1.984683e-004	1.000800e+000	-3.313987e-003	1.000611e+000	-3.047485e-003	7.242128e-003	-2.039122e-003
312700.419	5.416832e-003	5.195414e-004	1.001033e+000	-3.906203e-003	1.000556e+000	-3.467350e-003	7.761541e-003	-2.350628e-003
375239.503	5.310165e-003	-9.873479e-004	1.001195e+000	-5.392896e-003	1.000449e+000	-4.875819e-003	7.246731e-003	-2.510806e-003
437778.587	5.154896e-003	-6.041292e-004	1.001431e+000	-5.475318e-003	1.000967e+000	-6.017075e-003	6.598023e-003	-2.248139e-003
500317.670	4.600934e-003	-4.935587e-004	1.001382e+000	-7.873856e-003	1.001603e+000	-7.439262e-003	4.799204e-003	-2.060574e-003
562856.754	5.899031e-003	-7.882105e-004	1.001490e+000	-9.411560e-003	1.001075e+000	-8.988468e-003	6.007363e-003	-1.582295e-003
625395.838	5.110787e-003	-6.527173e-004	1.002251e+000	-1.055803e-002	1.002074e+000	-9.967021e-003	6.092405e-003	-1.028196e-003
687934.922	5.157836e-003	-1.001319e-003	1.001338e+000	-1.154495e-002	1.001144e+000	-1.140625e-002	5.756239e-003	-1.503879e-003
750474.006	4.344516e-003	-6.860671e-004	1.001146e+000	-1.101353e-002	1.000663e+000	-1.043330e-002	5.524481e-003	-1.349843e-003
813013.089	4.532895e-003	-6.648472e-004	1.001654e+000	-1.276343e-002	1.000434e+000	-1.215711e-002	4.877999e-003	-1.183779e-003
875552.173	4.263097e-003	-5.183410e-004	1.001423e+000	-1.369204e-002	1.000886e+000	-1.327130e-002	5.673983e-003	-1.589641e-003
938091.257	4.326315e-003	-4.573234e-004	1.001571e+000	-1.517221e-002	1.000977e+000	-1.439633e-002	5.898121e-003	-1.033965e-003
1000630.341	3.791957e-003	-8.177439e-004	1.001144e+000	-1.650452e-002	1.000881e+000	-1.580896e-002	5.148916e-003	-1.749258e-003
1063169.425	4.143361e-003	-9.745787e-004	1.001509e+000	-1.789770e-002	1.000571e+000	-1.665414e-002	4.327736e-003	-2.077924e-003
1125708.508	4.016363e-003	-9.587592e-004	1.001136e+000	-1.893222e-002	1.000604e+000	-1.807073e-002	3.833295e-003	-1.805199e-003
1188247.592	4.558634e-003	-1.411500e-003	1.001418e+000	-2.017455e-002	1.000874e+000	-1.906495e-002	2.740060e-003	-2.370046e-003
1250786.676	4.394851e-003	-2.147835e-003	1.000993e+000	-2.002905e-002	1.000658e+000	-1.978199e-002	1.999217e-003	-4.053346e-003
1313325.760	4.513216e-003	-2.274146e-003	1.001325e+000	-2.162483e-002	1.000875e+000	-2.140638e-002	2.737184e-003	-3.854876e-003
1375864.844	4.242900e-003	-2.481182e-003	1.001077e+000	-2.366765e-002	1.000436e+000	-2.313693e-002	2.590145e-003	-3.582420e-003
1438403.927	4.138501e-003	-2.649443e-003	1.000961e+000	-2.411784e-002	1.000911e+000	-2.308202e-002	2.681225e-003	-3.343275e-003
1500943.011	4.359804e-003	-2.590116e-003	1.001553e+000	-2.521404e-002	1.001326e+000	-2.459128e-002	3.029770e-003	-3.750499e-003
1563482.095	4.353107e-003	-2.972142e-003	1.001260e+000	-2.638538e-002	1.000446e+000	-2.513097e-002	3.148125e-003	-3.557513e-003
1626021.179	4.169756e-003	-2.857164e-003	1.001027e+000	-2.767333e-002	1.000943e+000	-2.771176e-002	3.434954e-003	-3.613285e-003
1688560.263	3.864824e-003	-2.793460e-003	1.000738e+000	-2.932201e-002	1.001252e+000	-2.907614e-002	3.596171e-003	-3.646695e-003
1751099.346	3.993245e-003	-2.710366e-003	1.001319e+000	-3.048285e-002	1.000564e+000	-2.948199e-002	3.412902e-003	-2.822585e-003
1813638.430	3.642402e-003	-2.776724e-003	1.001647e+000	-3.201143e-002	1.000986e+000	-3.123558e-002	3.588088e-003	-3.201681e-003
1876177.514	3.668407e-003	-2.483391e-003	1.001925e+000	-3.284684e-002	1.001380e+000	-3.297156e-002	3.253885e-003	-2.550576e-003
1938716.598	3.141791e-003	-2.430601e-003	1.002141e+000	-3.373317e-002	1.001114e+000	-3.290444e-002	3.423007e-003	-2.183773e-003
2001255.682	3.036137e-003	-2.913680e-003	1.002000e+000	-3.520056e-002	1.001254e+000	-3.445683e-002	3.178324e-003	-2.655610e-003
2063794.765	3.114360e-003	-2.532931e-003	1.001639e+000	-3.601114e-002	1.000784e+000	-3.604173e-002	3.555463e-003	-2.756636e-003
2126333.849	2.656115e-003	-3.081774e-003	1.001120e+000	-3.738713e-002	1.000228e+000	-3.635399e-002	3.818427e-003	-2.498581e-003
2188872.933	3.154299e-003	-3.088646e-003	1.000876e+000	-3.853255e-002	1.000168e+000	-3.743606e-002	3.717897e-003	-2.559989e-003
2251412.017	3.239085e-003	-3.472702e-003	1.000730e+000	-4.000152e-002	1.000181e+000	-3.835809e-002	3.683811e-003	-2.694031e-003
2313951.101	3.569170e-003	-3.054179e-003	1.000105e+000	-4.099748e-002	1.000308e+000	-3.931998e-002	3.986555e-003	-2.765168e-003
2376490.184	3.308720e-003	-3.120234e-003	1.000049e+000	-4.139488e-002	1.000234e+000	-4.119170e-002	3.948614e-003	-2.778367e-003
2439029.268	3.767109e-003	-3.164048e-003	9.999684e-001	-4.321221e-002	9.991606e-001	-4.229832e-002	3.608427e-003	-2.701480e-003
2501568.352	3.742915e-003	-3.176809e-003	9.996811e-001	-4.341684e-002	1.000170e+000	-4.283984e-002	3.909301e-003	-2.741305e-003
2564107.436	3.638433e-003	-3.345255e-003	9.999541e-001	-4.495294e-002	9.998168e-001	-4.447095e-002	3.206652e-003	-3.156349e-003
2626646.520	4.135783e-003	-3.531908e-003	9.999585e-001	-4.609716e-002	9.987695e-001	-4.551910e-002	3.461497e-003	-3.218127e-003
2689185.604	4.075549e-003	-3.391277e-003	1.000259e+000	-4.694793e-002	9.995364e-001	-4.629003e-002	3.588265e-003	-3.185960e-003
2751724.687	4.189554e-003	-3.504531e-003	1.000115e+000	-4.772234e-002	9.994739e-001	-4.709600e-002	3.189452e-003	-3.239016e-003
2814263.771	4.133427e-003	-3.588800e-003	9.991785e-001	-4.949145e-002	9.992372e-001	-4.835210e-002	3.166841e-003	-3.384057e-003
2876802.855	4.083271e-003	-3.823156e-003	9.993102e-001	-5.087070e-002	9.991971e-001	-4.942798e-002	3.240582e-003	-3.286957e-003
2939341.939	4.195617e-003	-3.774441e-003	9.997756e-001	-5.145695e-002	9.990743e-001	-5.085518e-002	3.134308e-003	-3.398043e-003
3001881.023	4.113524e-003	-3.781439e-003	9.994898e-001	-5.249994e-002	9.990424e-001	-5.193584e-002	3.221617e-003	-3.559007e-003
3064420.106	4.154867e-003	-3.848638e-003	1.000140e+000	-5.345347e-002	9.989340e-001	-5.303518e-002	3.057236e-003	-3.715893e-003
3126959.190	4.358138e-003	-3.974994e-003	9.996103e-001	-5.475588e-002	9.991381e-001	-5.417404e-002	3.228129e-003	-3.803352e-003
3189498.274	4.336280e-003	-3.963570e-003	9.995333e-001	-5.568617e-002	9.990321e-001	-5.524175e-002	3.215381e-003	-3.883436e-003
3252037.358	4.235204e-003	-4.352648e-003	9.995892e-001	-5.683699e-002	9.991167e-001	-5.621092e-002	3.158235e-003	-3.872837e-003
3314576.442	4.247361e-003	-4.231124e-003	9.994919e-001	-5.787102e-002	9.989918e-001	-5.737895e-002	3.214001e-003	-4.001280e-003
3377115.525	4.212243e-003	-4.258982e-003	9.992941e-001	-5.887678e-002	9.987155e-001	-5.861156e-002	3.053241e-003	-4.175016e-003
3439654.609	4.213107e-003	-4.353820e-003	9.990768e-001	-5.999762e-002	9.989808e-001	-5.962526e-002	3.069525e-003	-4.022279e-003
3502193.693	4.178481e-003	-4.693701e-003	9.990870e-001	-6.121769e-002	9.986621e-001	-6.059838e-002	3.241446e-003	-4.106068e-003
3564732.777	4.225482e-003	-4.596645e-003	9.991288e-001	-6.223143e-002	9.986630e-001	-6.174674e-002	3.326775e-003	-4.125046e-003
3627271.861	4.061251e-003	-4.762064e-003	9.991554e-001	-6.343218e-002	9.987341e-001	-6.268092e-002	3.095943e-003	-4.387677e-003
3689810.944	3.965596e-003	-4.940016e-003	9.989671e-001	-6.455152e-002	9.986272e-001	-6.377318e-002	3.250736e-003	-4.405256e-003
3752350.028	4.083569e-003	-4.948600e-003	9.988590e-001	-6.534764e-002	9.983819e-001	-6.481066e-002	3.176008e-003	-4.509087e-003
3814889.112	4.179135e-003	-4.874184e-003	9.986927e-001	-6.653465e-002	9.985979e-001	-6.621608e-002	3.089179e-003	-4.693747e-003
3877428.196	4.102115e-003	-4.911360e-003	9.988442e-001	-6.765434e-002	9.984494e-001	-6.702961e-002	3.413412e-003	-4.731949e-003
3939967.280	4.087853e-003	-5.271411e-003	9.987033e-001	-6.885118e-002	9.984584e-001	-6.817133e-002	3.380798e-003	-4.698232e-003
4002506.363	4.141689e-003	-5.177495e-003	9.987246e-001	-6.986890e-002	9.983545e-001	-6.912373e-002	3.323291e-003	-4.831082e-003
4065045.447	3.955533e-003	-5.335781e-003	9.984694e-001	-7.099803e-002	9.981475e-001	-7.031099e-002	3.397956e-003	-4.998347e-003
4127584.531	3.922988e-003	-5.420160e-003	9.983810e-001	-7.203130e-002	9.981158e-001	-7.131191e-002	3.410609e-003	-4.940003e-003
4190123.615	3.967224e-003	-5.450886e-003	9.984027e-001	-7.330034e-002	9.979522e-001	-7.257965e-002	3.319879e-003	-5.242820e-003
4252662.699	3.909987e-003	-5.596312e-003	9.984107e-001	-7.441616e-002	9.978141e-001	-7.376875e-002	3.418994e-003	-5.280629e-003
4315201.782	4.046487e-003	-5.711309e-003	9.983090e-001	-7.524867e-002	9.980062e-001	-7.486558e-002	3.239875e-003	-5.541198e-003
4377740.866	3.938182e-003	-5.798320e-003	9.983179e-001	-7.648925e-002	9.977481e-001	-7.593276e-002	3.394554e-003	-5.318397e-003
4440279.950	3.834664e-003	-6.008392e-003	9.982331e-001	-7.742634e-002	9.975560e-001	-7.689633e-002	3.293576e-003	-5.547992e-003
4502819.034	3.808632e-003	-5.959695e-003	9.978810e-001	-7.861963e-002	9.975997e-001	-7.795956e-002	3.360493e-003	-5.469476e-003
4565358.118	3.725967e-003	-6.076174e-003	9.978274e-001	-7.969023e-002	9.973520e-001	-7.886002e-002	3.364807e-003	-5.660915e-003
4627897.201	3.899568e-003	-6.013308e-003	9.979334e-001	-8.075028e-002	9.973772e-001	-7.995801e-002	3.449997e-003	-5.626789e-003
4690436.285	3.714741e-003	-6.206294e-003	9.978947e-001	-8.192645e-002	9.973430e-001	-8.145952e-002	3.451173e-003	-5.888821e-003
4752975.369	3.717135e-003	-6.301551e-003	9.975259e-001	-8.306329e-002	9.973224e-001	-8.239221e-002	3.270722e-003	-6.030397e-003
4815514.453	3.816874e-003	-6.376499e-003	9.976810e-001	-8.408061e-002	9.972258e-001	-8.358206e-002	3.470700e-003	-6.004098e-003
4878053.537	3.916259e-003	-6.541705e-003	9.976035e-001	-8.510709e-002	9.971086e-001	-8.451838e-002	3.431049e-003	-6.163736e-003
4940592.620	3.649599e-003	-6.592815e-003	9.973593e-001	-8.623339e-002	9.970878e-001	-8.567265e-002	3.185430e-003	-6.285123e-003
5003131.704	3.704667e-003	-6.794228e-003	9.972767e-001	-8.731214e-002	9.970187e-001	-8.654030e-002	3.316927e-003	-6.413072e-003
5065670.788	3.621479e-003	-6.686779e-003	9.971714e-001	-8.848182e-002	9.968641e-001	-8.771847e-002	3.269157e-003	-6.449316e-003
5128209.872	3.737215e-003	-6.906568e-003	9.972889e-001	-8.949743e-002	9.967474e-001	-8.881349e-002	3.239873e-003	-6.741174e-003
5190748.956	3.633021e-003	-6.991678e-003	9.970652e-001	-9.063698e-002	9.967476e-001	-9.004613e-002	3.197985e-003	-6.692735e-003
5253288.039	3.677932e-003	-7.111287e-003	9.970359e-001	-9.165773e-002	9.966471e-001	-9.105513e-002	3.113383e-003	-6.700340e-003
5315827.123	3.644449e-003	-7.272642e-003	9.967729e-001	-9.278008e-002	9.965321e-001	-9.220731e-002	3.096680e-003	-6.889400e-003
5378366.207	3.714954e-003	-7.291493e-003	9.968351e-001	-9.391795e-002	9.964801e-001	-9.345778e-002	3.082876e-003	-7.056733e-003
5440905.291	3.524787e-003	-7.302046e-003	9.968100e-001	-9.497565e-002	9.963568e-001	-9.441072e-002	2.958300e-003	-7.099022e-003
5503444.375	3.726489e-003	-7.541247e-003	9.966345e-001	-9.613521e-002	9.963613e-001	-9.535867e-002	3.151929e-003	-7.261718e-003
5565983.458	3.353142e-003	-7.516881e-003	9.965505e-001	-9.709080e-002	9.962151e-001	-9.642997e-002	3.058768e-003	-7.194303e-003
5628522.542	3.605496e-003	-7.674921e-003	9.964910e-001	-9.811959e-002	9.961365e-001	-9.765322e-002	3.094863e-003	-7.403474e-003
5691061.626	3.655756e-003	-7.926562e-003	9.963038e-001	-9.941555e-002	9.959735e-001	-9.872865e-002	2.994734e-003	-7.438004e-003
5753600.710	3.499401e-003	-7.941609e-003	9.961395e-001	-1.003980e-001	9.958948e-001	-9.978432e-002	3.031369e-003	-7.674711e-003
5816139.794	3.577319e-003	-7.846944e-003	9.961388e-001	-1.015079e-001	9.956364e-001	-1.010755e-001	2.883354e-003	-7.704949e-003
5878678.877	3.478612e-003	-8.161967e-003	9.960197e-001	-1.026523e-001	9.956289e-001	-1.020300e-001	2.979069e-003	-7.925254e-003
5941217.961	3.462295e-003	-8.325322e-003	9.958277e-001	-1.038107e-001	9.955240e-001	-1.029574e-001	2.769933e-003	-7.933600e-003
6003757.045	3.287855e-003	-8.187414e-003	9.955925e-001	-1.047165e-001	9.954145e-001	-1.040517e-001	2.892121e-003	-8.039431e-003
6066296.129	3.404981e-003	-8.476181e-003	9.957617e-001	-1.058430e-001	9.953206e-001	-1.050895e-001	2.857018e-003	-8.157759e-003
6128835.213	3.490715e-003	-8.542536e-003	9.955907e-001	-1.066784e-001	9.953171e-001	-1.063130e-001	2.931093e-003	-8.249848e-003
6191374.296	3.425250e-003	-8.648059e-003	9.953823e-001	-1.080152e-001	9.949928e-001	-1.075287e-001	2.759954e-003	-8.257505e-003
6253913.380	3.309681e-003	-8.629217e-003	9.953509e-001	-1.091045e-001	9.949443e-001	-1.084688e-001	2.636740e-003	-8.233403e-003
6316452.464	3.267242e-003	-8.640846e-003	9.952571e-001	-1.100627e-001	9.947457e-001	-1.097802e-001	2.663844e-003	-8.557142e-003
6378991.548	3.227137e-003	-8.884226e-003	9.951182e-001	-1.115024e-001	9.948373e-001	-1.107199e-001	2.714069e-003	-8.758081e-003
6441530.632	3.156256e-003	-9.049035e-003	9.949232e-001	-1.122858e-001	9.946268e-001	-1.118805e-001	2.734562e-003	-8.747457e-003
6504069.715	3.127120e-003	-9.167600e-003	9.947746e-001	-1.136046e-001	9.946476e-001	-1.129037e-001	2.741884e-003	-8.845780e-003
6566608.799	3.264411e-003	-9.317546e-003	9.948055e-001	-1.147439e-001	9.943954e-001	-1.140438e-001	2.623627e-003	-8.743235e-003
6629147.883	3.191386e-003	-9.275558e-003	9.945764e-001	-1.154898e-001	9.942398e-001	-1.151266e-001	2.698792e-003	-8.984985e-003
6691686.967	3.057414e-003	-9.365955e-003	9.943472e-001	-1.166951e-001	9.940834e-001	-1.161892e-001	2.706355e-003	-8.992400e-003
6754226.051	2.990139e-003	-9.469600e-003	9.942248e-001	-1.179130e-001	9.938804e-001	-1.174238e-001	2.509013e-003	-9.293627e-003
6816765.134	3.079727e-003	-9.572893e-003	9.941728e-001	-1.188931e-001	9.939030e-001	-1.184199e-001	2.528453e-003	-9.190470e-003
6879304.218	2.955487e-003	-9.825668e-003	9.940037e-001	-1.200266e-001	9.937665e-001	-1.194430e-001	2.503786e-003	-9.350510e-003
6941843.302	3.007583e-003	-9.749527e-003	9.938620e-001	-1.211551e-001	9.935918e-001	-1.205181e-001	2.485065e-003	-9.356945e-003
7004382.386	2.797583e-003	-9.779921e-003	9.938082e-001	-1.221461e-001	9.934425e-001	-1.216312e-001	2.381469e-003	-9.418291e-003
7066921.470	2.857162e-003	-9.919791e-003	9.935459e-001	-1.233541e-001	9.933672e-001	-1.225097e-001	2.526141e-003	-9.670153e-003
7129460.553	2.741796e-003	-1.013334e-002	9.935151e-001	-1.242599e-001	9.932334e-001	-1.237036e-001	2.518507e-003	-9.701985e-003
7191999.637	2.726491e-003	-9.995143e-003	9.931562e-001	-1.254782e-001	9.929148e-001	-1.247915e-001	2.351756e-003	-9.796457e-003
7254538.721	2.753317e-003	-1.019563e-002	9.933091e-001	-1.265981e-001	9.929637e-001	-1.259275e-001	2.362968e-003	-9.864383e-003
7317077.805	2.905553e-003	-1.031092e-002	9.931402e-001	-1.275534e-001	9.928407e-001	-1.269422e-001	2.347239e-003	-1.006773e-002
7379616.889	2.747570e-003	-1.039430e-002	9.931578e-001	-1.288546e-001	9.926394e-001	-1.280405e-001	2.275498e-003	-1.013799e-002
7442155.972	2.573359e-003	-1.049316e-002	9.928230e-001	-1.297387e-001	9.925472e-001	-1.291263e-001	2.332080e-003	-1.000717e-002
7504695.056	2.590358e-003	-1.067296e-002	9.925850e-001	-1.307373e-001	9.922763e-001	-1.303623e-001	2.340777e-003	-1.002591e-002
7567234.140	2.753686e-003	-1.083860e-002	9.925599e-001	-1.318062e-001	9.921280e-001	-1.313653e-001	2.256567e-003	-1.023505e-002
7629773.224	2.631011e-003	-1.063054e-002	9.924846e-001	-1.330575e-001	9.921251e-001	-1.323805e-001	2.154548e-003	-1.038281e-002
7692312.308	2.471430e-003	-1.079208e-002	9.922908e-001	-1.341249e-001	9.918800e-001	-1.335664e-001	2.187939e-003	-1.054126e-002
7754851.391	2.436098e-003	-1.104031e-002	9.921274e-001	-1.352816e-001	9.915957e-001	-1.344575e-001	2.102152e-003	-1.049707e-002
7817390.475	2.496435e-003	-1.090593e-002	9.919971e-001	-1.364228e-001	9.915578e-001	-1.357824e-001	2.010448e-003	-1.048374e-002
7879929.559	2.388640e-003	-1.118144e-002	9.917414e-001	-1.375189e-001	9.913828e-001	-1.370102e-001	2.112812e-003	-1.058168e-002
7942468.643	2.317400e-003	-1.132239e-002	9.917250e-001	-1.385142e-001	9.913458e-001	-1.380360e-001	2.069657e-003	-1.084668e-002
8005007.727	2.386974e-003	-1.138353e-002	9.914627e-001	-1.396584e-001	9.911960e-001	-1.391292e-001	1.947605e-003	-1.070809e-002
8067546.811	2.200909e-003	-1.143145e-002	9.913600e-001	-1.407192e-001	9.908931e-001	-1.401204e-001	1.843983e-003	-1.100942e-002
8130085.894	2.257455e-003	-1.159885e-002	9.911439e-001	-1.417508e-001	9.908289e-001	-1.412543e-001	2.038568e-003	-1.114652e-002
8192624.978	2.068907e-003	-1.174325e-002	9.908388e-001	-1.429111e-001	9.906513e-001	-1.422827e-001	2.061252e-003	-1.124733e-002
8255164.062	2.152959e-003	-1.180866e-002	9.907808e-001	-1.439736e-001	9.904301e-001	-1.434024e-001	1.990395e-003	-1.137285e-002
8317703.146	2.007015e-003	-1.178034e-002	9.907270e-001	-1.450355e-001	9.904137e-001	-1.444517e-001	1.787398e-003	-1.140620e-002
8380242.230	2.104349e-003	-1.211165e-002	9.904069e-001	-1.462995e-001	9.901354e-001	-1.455137e-001	1.726511e-003	-1.156361e-002
8442781.313	2.051979e-003	-1.215299e-002	9.904454e-001	-1.472104e-001	9.900619e-001	-1.465576e-001	1.685199e-003	-1.173218e-002
8505320.397	1.997988e-003	-1.211154e-002	9.902666e-001	-1.483445e-001	9.898633e-001	-1.476760e-001	1.590273e-003	-1.176028e-002
8567859.481	1.915503e-003	-1.205048e-002	9.900232e-001	-1.492452e-001	9.897663e-001	-1.487178e-001	1.600361e-003	-1.169667e-002
8630398.565	1.968943e-003	-1.217738e-002	9.897117e-001	-1.503410e-001	9.895875e-001	-1.497499e-001	1.452304e-003	-1.203235e-002
8692937.649	1.894131e-003	-1.247809e-002	9.896279e-001	-1.514187e-001	9.892860e-001	-1.508882e-001	1.355771e-003	-1.202097e-002
8755476.732	1.870042e-003	-1.250740e-002	9.895049e-001	-1.526211e-001	9.891115e-001	-1.518584e-001	1.401418e-003	-1.208599e-002
8818015.816	1.722281e-003	-1.263240e-002	9.892766e-001	-1.536485e-001	9.888179e-001	-1.530409e-001	1.479051e-003	-1.227026e-002
8880554.900	1.896902e-003	-1.267767e-002	9.892411e-001	-1.548140e-001	9.889279e-001	-1.539247e-001	1.302046e-003	-1.251630e-002
8943093.984	1.693391e-003	-1.265626e-002	9.889989e-001	-1.557610e-001	9.887511e-001	-1.550653e-001	1.287915e-003	-1.254648e-002
9005633.068	1.722852e-003	-1.284627e-002	9.887060e-001	-1.569086e-001	9.886022e-001	-1.562487e-001	1.163532e-003	-1.277569e-002
9068172.151	1.530674e-003	-1.293624e-002	9.886709e-001	-1.579946e-001	9.883107e-001	-1.571649e-001	1.168323e-003	-1.282342e-002
9130711.235	1.714193e-003	-1.309171e-002	9.884225e-001	-1.590528e-001	9.881586e-001	-1.582518e-001	1.184698e-003	-1.309554e-002
9193250.319	1.659267e-003	-1.321917e-002	9.883996e-001	-1.599856e-001	9.879319e-001	-1.594620e-001	1.065157e-003	-1.311130e-002
9255789.403	1.522974e-003	-1.345065e-002	9.882356e-001	-1.609763e-001	9.877654e-001	-1.604282e-001	8.911805e-004	-1.314515e-002
9318328.487	1.437464e-003	-1.344232e-002	9.879939e-001	-1.623367e-001	9.877910e-001	-1.614848e-001	9.751823e-004	-1.322297e-002
9380867.570	1.417141e-003	-1.341215e-002	9.878778e-001	-1.633663e-001	9.874344e-001	-1.627125e-001	9.400263e-004	-1.333878e-002
9443406.654	1.433285e-003	-1.351816e-002	9.876761e-001	-1.643450e-001	9.873828e-001	-1.638419e-001	9.259088e-004	-1.350795e-002
9505945.738	1.365146e-003	-1.357598e-002	9.873275e-001	-1.656120e-001	9.872784e-001	-1.648714e-001	8.387449e-004	-1.360870e-002
9568484.822	1.359154e-003	-1.369508e-002	9.873200e-001	-1.666259e-001	9.868086e-001	-1.659648e-001	6.128938e-004	-1.345110e-002
