!Agilent Technologies,E5061B,MY49102235,A.02.00
!Date: Tue Jul 11 16:33:21 2023
!Data & Calibration Information:
!Freq	S11:SOLT2(ON)	S21:SOLT2(ON)	S12:SOLT2(ON)	S22:SOLT2(ON)
# Hz S RI R 50
5.000	-5.231244e-003	-5.652941e-003	1.001657e+000	8.016911e-003	1.000324e+000	1.023049e-002	-1.495709e-003	-7.553052e-003
62544.084	5.826162e-003	-8.085270e-005	1.001307e+000	2.206589e-004	1.000805e+000	7.938408e-004	7.713852e-003	-2.464789e-003
125083.168	5.705716e-003	3.137941e-004	1.000917e+000	-1.590197e-003	1.000746e+000	-1.541046e-003	7.522599e-003	-1.478063e-003
187622.251	5.505451e-003	9.150303e-004	1.000325e+000	-3.300026e-003	1.000961e+000	-2.195889e-003	7.396688e-003	-1.149210e-003
250161.335	5.322964e-003	1.447794e-003	1.000540e+000	-4.759235e-003	1.000760e+000	-4.840079e-003	7.280315e-003	-4.159714e-004
312700.419	5.483029e-003	2.563834e-003	1.000774e+000	-5.802867e-003	1.000630e+000	-5.596310e-003	7.824016e-003	-3.206150e-004
375239.503	5.386340e-003	1.436786e-003	1.000927e+000	-7.501185e-003	1.000512e+000	-7.379237e-003	7.325938e-003	-8.756497e-005
437778.587	5.238528e-003	2.257880e-003	1.001217e+000	-8.248161e-003	1.000927e+000	-8.970581e-003	6.707072e-003	6.038538e-004
500317.670	4.703251e-003	2.747119e-003	1.001223e+000	-1.082414e-002	1.001593e+000	-1.083143e-002	4.906760e-003	1.175581e-003
562856.754	6.031193e-003	2.852332e-003	1.001240e+000	-1.291813e-002	1.001059e+000	-1.273225e-002	6.140472e-003	2.062348e-003
625395.838	5.258141e-003	3.407775e-003	1.002006e+000	-1.449245e-002	1.002019e+000	-1.401532e-002	6.276129e-003	3.009974e-003
687934.922	5.313692e-003	3.471432e-003	1.001165e+000	-1.589792e-002	1.001132e+000	-1.600980e-002	5.920079e-003	2.954574e-003
750474.006	4.583722e-003	4.204719e-003	1.000663e+000	-1.574023e-002	1.000652e+000	-1.552692e-002	5.739082e-003	3.522664e-003
813013.089	4.785641e-003	4.621818e-003	1.000982e+000	-1.789569e-002	1.000566e+000	-1.757115e-002	5.134284e-003	4.105474e-003
875552.173	4.537885e-003	5.173987e-003	1.000768e+000	-1.917529e-002	1.000820e+000	-1.915871e-002	5.946780e-003	4.098478e-003
938091.257	4.650745e-003	5.642195e-003	1.000907e+000	-2.105019e-002	1.000869e+000	-2.072841e-002	6.212735e-003	5.052269e-003
1000630.341	4.120754e-003	5.690975e-003	1.000572e+000	-2.287839e-002	1.000761e+000	-2.262317e-002	5.484680e-003	4.748813e-003
1063169.425	4.519582e-003	5.930359e-003	1.000887e+000	-2.464570e-002	1.000466e+000	-2.392041e-002	4.698219e-003	4.842133e-003
1125708.508	4.434770e-003	6.372470e-003	1.000556e+000	-2.610913e-002	1.000411e+000	-2.548872e-002	4.237585e-003	5.539746e-003
1188247.592	5.001872e-003	6.317074e-003	1.000760e+000	-2.775541e-002	1.000689e+000	-2.711536e-002	3.165070e-003	5.391959e-003
1250786.676	4.861848e-003	5.971485e-003	1.000234e+000	-2.805692e-002	1.000445e+000	-2.815502e-002	2.444616e-003	4.138746e-003
1313325.760	5.021652e-003	6.298519e-003	1.000615e+000	-2.987201e-002	1.000588e+000	-3.017098e-002	3.210381e-003	4.722653e-003
1375864.844	4.793560e-003	6.497681e-003	1.000264e+000	-3.235321e-002	1.000067e+000	-3.229582e-002	3.102311e-003	5.420174e-003
1438403.927	4.711529e-003	6.748526e-003	1.000058e+000	-3.333335e-002	1.000409e+000	-3.268840e-002	3.234306e-003	6.080784e-003
1500943.011	4.991841e-003	7.220063e-003	1.000779e+000	-3.463520e-002	1.000966e+000	-3.470574e-002	3.648011e-003	6.088078e-003
1563482.095	5.012576e-003	7.242818e-003	1.000225e+000	-3.646938e-002	1.000112e+000	-3.565787e-002	3.809832e-003	6.693105e-003
1626021.179	4.883562e-003	7.793222e-003	1.000070e+000	-3.805787e-002	1.000390e+000	-3.861464e-002	4.124640e-003	7.044470e-003
1688560.263	4.617485e-003	8.290084e-003	9.997603e-001	-4.022995e-002	1.000605e+000	-4.031482e-002	4.342019e-003	7.452348e-003
1751099.346	4.817460e-003	8.797647e-003	1.000269e+000	-4.182103e-002	9.999680e-001	-4.134813e-002	4.237129e-003	8.709688e-003
1813638.430	4.503143e-003	9.178636e-003	1.000520e+000	-4.369048e-002	1.000207e+000	-4.356815e-002	4.461315e-003	8.752739e-003
1876177.514	4.610675e-003	9.902719e-003	1.000862e+000	-4.509572e-002	1.000417e+000	-4.567293e-002	4.202984e-003	9.851725e-003
1938716.598	4.128602e-003	1.041940e-002	1.000845e+000	-4.640003e-002	1.000479e+000	-4.593169e-002	4.430719e-003	1.067447e-002
2001255.682	4.082048e-003	1.038511e-002	1.000809e+000	-4.821499e-002	1.000381e+000	-4.802350e-002	4.245493e-003	1.065233e-002
2063794.765	4.250457e-003	1.118780e-002	1.000219e+000	-4.973015e-002	9.997915e-001	-5.006776e-002	4.689579e-003	1.098715e-002
2126333.849	3.830195e-003	1.113836e-002	9.997081e-001	-5.127741e-002	9.991143e-001	-5.081990e-002	5.021724e-003	1.166638e-002
2188872.933	4.399750e-003	1.155670e-002	9.992872e-001	-5.296065e-002	9.989391e-001	-5.238901e-002	4.983611e-003	1.207674e-002
2251412.017	4.582996e-003	1.164430e-002	9.991302e-001	-5.498655e-002	9.990010e-001	-5.387588e-002	5.043588e-003	1.240333e-002
2313951.101	5.003414e-003	1.251193e-002	9.984895e-001	-5.627388e-002	9.988867e-001	-5.518771e-002	5.431478e-003	1.278411e-002
2376490.184	4.848022e-003	1.293949e-002	9.983537e-001	-5.722767e-002	9.986451e-001	-5.749027e-002	5.484099e-003	1.323543e-002
2439029.268	5.381188e-003	1.335488e-002	9.980971e-001	-5.947639e-002	9.978928e-001	-5.903267e-002	5.267426e-003	1.382393e-002
2501568.352	5.471455e-003	1.380741e-002	9.977521e-001	-6.009449e-002	9.985584e-001	-6.013531e-002	5.652533e-003	1.423327e-002
2564107.436	5.474061e-003	1.413463e-002	9.979601e-001	-6.233444e-002	9.983362e-001	-6.209460e-002	5.063055e-003	1.435672e-002
2626646.520	6.071787e-003	1.440067e-002	9.977496e-001	-6.387487e-002	9.968477e-001	-6.368909e-002	5.431291e-003	1.473370e-002
2689185.604	6.157543e-003	1.503406e-002	9.979232e-001	-6.515889e-002	9.976945e-001	-6.502955e-002	5.694887e-003	1.527060e-002
2751724.687	6.401441e-003	1.541534e-002	9.977212e-001	-6.640077e-002	9.973004e-001	-6.627939e-002	5.418588e-003	1.570921e-002
2814263.771	6.492326e-003	1.580593e-002	9.965764e-001	-6.871059e-002	9.970228e-001	-6.808394e-002	5.554571e-003	1.606282e-002
2876802.855	6.594035e-003	1.609587e-002	9.965109e-001	-7.051425e-002	9.968035e-001	-6.970445e-002	5.800993e-003	1.665379e-002
2939341.939	6.872735e-003	1.664401e-002	9.969430e-001	-7.153151e-002	9.965482e-001	-7.162695e-002	5.849344e-003	1.703603e-002
3001881.023	6.985539e-003	1.713241e-002	9.964734e-001	-7.321968e-002	9.962773e-001	-7.321487e-002	6.106790e-003	1.737100e-002
3064420.106	7.214345e-003	1.755391e-002	9.969104e-001	-7.481734e-002	9.960672e-001	-7.479838e-002	6.109937e-003	1.773632e-002
3126959.190	7.588337e-003	1.790866e-002	9.962060e-001	-7.646595e-002	9.960495e-001	-7.636431e-002	6.477891e-003	1.813467e-002
3189498.274	7.765432e-003	1.842312e-002	9.959013e-001	-7.791003e-002	9.957499e-001	-7.794262e-002	6.669918e-003	1.855242e-002
3252037.358	7.871130e-003	1.854876e-002	9.957633e-001	-7.959624e-002	9.955821e-001	-7.948239e-002	6.827968e-003	1.907378e-002
3314576.442	8.123253e-003	1.918245e-002	9.954385e-001	-8.111089e-002	9.952620e-001	-8.111008e-002	7.101845e-003	1.945206e-002
3377115.525	8.317888e-003	1.965153e-002	9.950009e-001	-8.260634e-002	9.947674e-001	-8.284224e-002	7.170565e-003	1.978950e-002
3439654.609	8.571459e-003	2.006073e-002	9.945282e-001	-8.422584e-002	9.947800e-001	-8.437065e-002	7.449258e-003	2.044756e-002
3502193.693	8.763176e-003	2.022819e-002	9.942961e-001	-8.597896e-002	9.941784e-001	-8.581878e-002	7.868814e-003	2.085260e-002
3564732.777	9.087382e-003	2.083037e-002	9.940554e-001	-8.747539e-002	9.939245e-001	-8.749436e-002	8.230018e-003	2.133055e-002
3627271.861	9.215584e-003	2.114714e-002	9.937843e-001	-8.916238e-002	9.937108e-001	-8.898766e-002	8.271625e-003	2.158954e-002
3689810.944	9.405038e-003	2.147830e-002	9.933238e-001	-9.076508e-002	9.933040e-001	-9.057391e-002	8.738659e-003	2.204829e-002
3752350.028	9.817812e-003	2.195349e-002	9.929120e-001	-9.206239e-002	9.927995e-001	-9.210648e-002	8.967997e-003	2.244707e-002
3814889.112	1.025965e-002	2.249811e-002	9.924822e-001	-9.371036e-002	9.926363e-001	-9.394309e-002	9.188951e-003	2.275092e-002
3877428.196	1.052303e-002	2.294985e-002	9.922926e-001	-9.530911e-002	9.921915e-001	-9.528713e-002	9.837830e-003	2.316670e-002
3939967.280	1.081359e-002	2.307022e-002	9.918502e-001	-9.700501e-002	9.918499e-001	-9.687839e-002	1.015659e-002	2.366994e-002
4002506.363	1.123316e-002	2.362037e-002	9.914734e-001	-9.854891e-002	9.913428e-001	-9.830905e-002	1.044960e-002	2.401447e-002
4065045.447	1.140961e-002	2.395028e-002	9.908238e-001	-1.000797e-001	9.907920e-001	-9.997379e-002	1.088575e-002	2.430155e-002
4127584.531	1.175666e-002	2.432276e-002	9.903792e-001	-1.016007e-001	9.904002e-001	-1.014202e-001	1.128776e-002	2.481288e-002
4190123.615	1.217475e-002	2.472163e-002	9.899834e-001	-1.033116e-001	9.898359e-001	-1.031188e-001	1.155800e-002	2.497230e-002
4252662.699	1.251850e-002	2.500721e-002	9.896368e-001	-1.048844e-001	9.893142e-001	-1.047523e-001	1.205766e-002	2.536413e-002
4315201.782	1.306297e-002	2.532889e-002	9.891294e-001	-1.061424e-001	9.891080e-001	-1.062933e-001	1.226834e-002	2.554800e-002
4377740.866	1.335049e-002	2.567270e-002	9.887381e-001	-1.078224e-001	9.883888e-001	-1.077543e-001	1.286809e-002	2.617705e-002
4440279.950	1.368589e-002	2.587559e-002	9.881545e-001	-1.091776e-001	9.878255e-001	-1.091375e-001	1.317906e-002	2.636634e-002
4502819.034	1.411212e-002	2.632952e-002	9.873937e-001	-1.107943e-001	9.874111e-001	-1.106791e-001	1.369010e-002	2.683234e-002
4565358.118	1.446070e-002	2.660286e-002	9.869361e-001	-1.121963e-001	9.867157e-001	-1.119244e-001	1.412798e-002	2.703616e-002
4627897.201	1.508438e-002	2.702729e-002	9.865824e-001	-1.136950e-001	9.862952e-001	-1.134049e-001	1.467747e-002	2.744320e-002
4690436.285	1.535794e-002	2.721785e-002	9.860025e-001	-1.152340e-001	9.857956e-001	-1.152460e-001	1.511694e-002	2.754316e-002
4752975.369	1.581650e-002	2.748910e-002	9.852477e-001	-1.167696e-001	9.853263e-001	-1.166124e-001	1.538864e-002	2.778915e-002
4815514.453	1.639762e-002	2.775161e-002	9.848966e-001	-1.180980e-001	9.847364e-001	-1.181387e-001	1.607564e-002	2.814091e-002
4878053.537	1.695330e-002	2.791845e-002	9.844003e-001	-1.194674e-001	9.841398e-001	-1.193564e-001	1.650201e-002	2.832348e-002
4940592.620	1.717959e-002	2.821935e-002	9.836646e-001	-1.209444e-001	9.836248e-001	-1.209134e-001	1.676516e-002	2.854621e-002
5003131.704	1.770904e-002	2.830791e-002	9.830509e-001	-1.223136e-001	9.831305e-001	-1.221112e-001	1.735218e-002	2.871109e-002
5065670.788	1.812525e-002	2.872045e-002	9.824853e-001	-1.237521e-001	9.824390e-001	-1.235296e-001	1.780846e-002	2.897166e-002
5128209.872	1.872468e-002	2.879416e-002	9.820731e-001	-1.251044e-001	9.818283e-001	-1.249340e-001	1.826691e-002	2.898094e-002
5190748.956	1.911732e-002	2.898150e-002	9.813492e-001	-1.265277e-001	9.813092e-001	-1.264306e-001	1.873014e-002	2.928869e-002
5253288.039	1.968053e-002	2.912557e-002	9.808412e-001	-1.278718e-001	9.807092e-001	-1.277130e-001	1.915471e-002	2.956670e-002
5315827.123	2.012353e-002	2.923087e-002	9.800552e-001	-1.291862e-001	9.800764e-001	-1.290980e-001	1.963144e-002	2.963184e-002
5378366.207	2.071638e-002	2.942499e-002	9.796222e-001	-1.305582e-001	9.794988e-001	-1.305778e-001	2.011534e-002	2.969083e-002
5440905.291	2.104024e-002	2.966251e-002	9.790512e-001	-1.318918e-001	9.788893e-001	-1.317837e-001	2.051388e-002	2.990080e-002
5503444.375	2.171853e-002	2.961714e-002	9.783948e-001	-1.332284e-001	9.783761e-001	-1.329664e-001	2.119371e-002	2.993304e-002
5565983.458	2.187927e-002	2.988356e-002	9.778286e-001	-1.344102e-001	9.777378e-001	-1.342055e-001	2.163875e-002	3.021166e-002
5628522.542	2.264385e-002	2.990047e-002	9.772456e-001	-1.356224e-001	9.771419e-001	-1.356288e-001	2.216210e-002	3.018226e-002
5691061.626	2.317051e-002	2.980802e-002	9.765634e-001	-1.371011e-001	9.764245e-001	-1.369299e-001	2.256891e-002	3.032549e-002
5753600.710	2.354225e-002	2.998370e-002	9.758797e-001	-1.382452e-001	9.758939e-001	-1.381161e-001	2.312116e-002	3.027714e-002
5816139.794	2.414654e-002	3.022812e-002	9.753384e-001	-1.395069e-001	9.750383e-001	-1.395698e-001	2.347795e-002	3.039567e-002
5878678.877	2.453441e-002	3.005493e-002	9.746859e-001	-1.407898e-001	9.745992e-001	-1.406787e-001	2.408108e-002	3.030836e-002
5941217.961	2.501300e-002	3.001522e-002	9.740283e-001	-1.420407e-001	9.739560e-001	-1.417821e-001	2.438599e-002	3.045478e-002
6003757.045	2.537168e-002	3.028271e-002	9.732709e-001	-1.430731e-001	9.733272e-001	-1.429870e-001	2.499624e-002	3.046399e-002
6066296.129	2.595511e-002	3.011225e-002	9.729426e-001	-1.443651e-001	9.727641e-001	-1.441046e-001	2.545535e-002	3.044720e-002
6128835.213	2.652413e-002	3.013510e-002	9.723418e-001	-1.452534e-001	9.722969e-001	-1.454650e-001	2.603051e-002	3.044694e-002
6191374.296	2.695985e-002	3.013589e-002	9.715625e-001	-1.466402e-001	9.714675e-001	-1.467820e-001	2.635575e-002	3.054727e-002
6253913.380	2.735219e-002	3.022981e-002	9.710547e-001	-1.478981e-001	9.709142e-001	-1.477462e-001	2.673719e-002	3.065714e-002
6316452.464	2.779104e-002	3.029011e-002	9.704931e-001	-1.489289e-001	9.702033e-001	-1.491091e-001	2.720910e-002	3.040836e-002
6378991.548	2.821170e-002	3.010853e-002	9.698314e-001	-1.504564e-001	9.698327e-001	-1.501410e-001	2.772355e-002	3.024932e-002
6441530.632	2.860226e-002	3.000061e-002	9.692010e-001	-1.512604e-001	9.691616e-001	-1.514073e-001	2.824051e-002	3.032052e-002
6504069.715	2.904667e-002	2.993127e-002	9.685811e-001	-1.526753e-001	9.687146e-001	-1.524592e-001	2.869352e-002	3.027389e-002
6566608.799	2.961829e-002	2.981297e-002	9.681315e-001	-1.538285e-001	9.679395e-001	-1.536245e-001	2.906958e-002	3.040759e-002
6629147.883	3.003289e-002	2.988058e-002	9.674754e-001	-1.546105e-001	9.673667e-001	-1.547352e-001	2.958586e-002	3.020254e-002
6691686.967	3.034111e-002	2.983155e-002	9.668195e-001	-1.558485e-001	9.667320e-001	-1.558051e-001	3.004234e-002	3.020577e-002
6754226.051	3.071994e-002	2.974959e-002	9.662074e-001	-1.570598e-001	9.660807e-001	-1.570826e-001	3.025787e-002	2.995060e-002
6816765.134	3.121702e-002	2.965161e-002	9.657378e-001	-1.580839e-001	9.656355e-001	-1.580443e-001	3.076149e-002	3.005075e-002
6879304.218	3.153503e-002	2.942156e-002	9.651164e-001	-1.592163e-001	9.651098e-001	-1.591106e-001	3.115287e-002	2.989582e-002
6941843.302	3.202341e-002	2.948303e-002	9.645340e-001	-1.603326e-001	9.644931e-001	-1.601546e-001	3.156252e-002	2.988677e-002
7004382.386	3.226474e-002	2.945774e-002	9.640457e-001	-1.612860e-001	9.639154e-001	-1.612658e-001	3.190071e-002	2.983679e-002
7066921.470	3.273517e-002	2.929169e-002	9.634180e-001	-1.625128e-001	9.634428e-001	-1.621929e-001	3.243489e-002	2.956419e-002
7129460.553	3.300918e-002	2.909172e-002	9.629830e-001	-1.634057e-001	9.628781e-001	-1.633800e-001	3.283332e-002	2.951788e-002
7191999.637	3.340807e-002	2.920964e-002	9.621711e-001	-1.645493e-001	9.621717e-001	-1.644295e-001	3.307754e-002	2.940431e-002
7254538.721	3.382712e-002	2.897564e-002	9.619713e-001	-1.656769e-001	9.618182e-001	-1.655447e-001	3.350160e-002	2.930588e-002
7317077.805	3.436787e-002	2.882454e-002	9.613738e-001	-1.665750e-001	9.612819e-001	-1.665346e-001	3.385891e-002	2.908287e-002
7379616.889	3.461270e-002	2.871612e-002	9.609628e-001	-1.678807e-001	9.606953e-001	-1.676168e-001	3.417698e-002	2.898549e-002
7442155.972	3.481789e-002	2.860201e-002	9.602634e-001	-1.687144e-001	9.601687e-001	-1.685836e-001	3.464202e-002	2.906243e-002
7504695.056	3.521028e-002	2.837996e-002	9.596591e-001	-1.696854e-001	9.595408e-001	-1.698108e-001	3.503267e-002	2.897722e-002
7567234.140	3.572472e-002	2.816381e-002	9.593143e-001	-1.707288e-001	9.590323e-001	-1.707601e-001	3.529607e-002	2.876395e-002
7629773.224	3.599478e-002	2.830319e-002	9.587990e-001	-1.719107e-001	9.586917e-001	-1.717624e-001	3.557584e-002	2.859543e-002
7692312.308	3.620374e-002	2.811816e-002	9.582581e-001	-1.729601e-001	9.580555e-001	-1.728846e-001	3.595555e-002	2.836373e-002
7754851.391	3.651696e-002	2.784338e-002	9.577184e-001	-1.740309e-001	9.574470e-001	-1.737399e-001	3.624466e-002	2.835017e-002
7817390.475	3.693424e-002	2.788817e-002	9.572417e-001	-1.751476e-001	9.569891e-001	-1.749932e-001	3.652253e-002	2.831134e-002
7879929.559	3.715391e-002	2.757906e-002	9.566439e-001	-1.761659e-001	9.564712e-001	-1.761278e-001	3.695842e-002	2.814911e-002
7942468.643	3.743018e-002	2.738062e-002	9.562970e-001	-1.771153e-001	9.560827e-001	-1.771276e-001	3.724817e-002	2.784796e-002
8005007.727	3.783748e-002	2.725681e-002	9.557145e-001	-1.782011e-001	9.555952e-001	-1.781374e-001	3.749632e-002	2.791414e-002
8067546.811	3.800196e-002	2.715674e-002	9.552171e-001	-1.791941e-001	9.549625e-001	-1.790412e-001	3.770234e-002	2.757484e-002
8130085.894	3.837171e-002	2.694209e-002	9.546995e-001	-1.801395e-001	9.545680e-001	-1.801005e-001	3.820972e-002	2.735953e-002
8192624.978	3.850882e-002	2.673399e-002	9.540478e-001	-1.813071e-001	9.540866e-001	-1.810950e-001	3.855411e-002	2.718967e-002
8255164.062	3.892014e-002	2.659465e-002	9.537156e-001	-1.822593e-001	9.535784e-001	-1.821591e-001	3.881382e-002	2.699234e-002
8317703.146	3.910535e-002	2.655630e-002	9.533274e-001	-1.833271e-001	9.531561e-001	-1.831635e-001	3.893382e-002	2.690679e-002
8380242.230	3.948668e-002	2.616476e-002	9.526555e-001	-1.843974e-001	9.525965e-001	-1.841152e-001	3.918079e-002	2.668846e-002
8442781.313	3.973138e-002	2.604370e-002	9.524319e-001	-1.853080e-001	9.522018e-001	-1.851267e-001	3.943947e-002	2.646717e-002
8505320.397	4.000743e-002	2.600655e-002	9.518853e-001	-1.863682e-001	9.516795e-001	-1.861539e-001	3.967192e-002	2.635124e-002
8567859.481	4.025325e-002	2.599655e-002	9.513846e-001	-1.871733e-001	9.513039e-001	-1.871579e-001	3.999412e-002	2.633148e-002
8630398.565	4.059281e-002	2.577866e-002	9.507734e-001	-1.881676e-001	9.508264e-001	-1.881199e-001	4.013001e-002	2.593774e-002
8692937.649	4.078313e-002	2.542416e-002	9.504408e-001	-1.892012e-001	9.502352e-001	-1.891583e-001	4.034152e-002	2.588611e-002
8755476.732	4.105547e-002	2.532000e-002	9.499713e-001	-1.903143e-001	9.497660e-001	-1.900741e-001	4.065926e-002	2.573464e-002
8818015.816	4.119657e-002	2.513329e-002	9.494700e-001	-1.912578e-001	9.491862e-001	-1.911202e-001	4.099563e-002	2.547600e-002
8880554.900	4.164605e-002	2.498763e-002	9.491622e-001	-1.922968e-001	9.490275e-001	-1.919921e-001	4.111747e-002	2.517088e-002
8943093.984	4.174430e-002	2.494013e-002	9.486564e-001	-1.932576e-001	9.485638e-001	-1.930525e-001	4.138597e-002	2.504986e-002
9005633.068	4.203803e-002	2.467985e-002	9.481073e-001	-1.942588e-001	9.481551e-001	-1.941467e-001	4.151272e-002	2.477456e-002
9068172.151	4.213532e-002	2.451302e-002	9.478020e-001	-1.953000e-001	9.476076e-001	-1.950341e-001	4.181139e-002	2.464521e-002
9130711.235	4.256648e-002	2.425386e-002	9.472308e-001	-1.962920e-001	9.471919e-001	-1.960237e-001	4.206639e-002	2.429396e-002
9193250.319	4.276861e-002	2.406642e-002	9.469385e-001	-1.971319e-001	9.467236e-001	-1.971031e-001	4.223890e-002	2.419857e-002
9255789.403	4.288967e-002	2.376692e-002	9.465496e-001	-1.980592e-001	9.462574e-001	-1.980265e-001	4.234746e-002	2.409416e-002
9318328.487	4.307654e-002	2.369136e-002	9.460486e-001	-1.992958e-001	9.459880e-001	-1.989761e-001	4.266625e-002	2.391849e-002
9380867.570	4.332044e-002	2.364332e-002	9.456371e-001	-2.002761e-001	9.453883e-001	-2.000955e-001	4.288897e-002	2.372132e-002
9443406.654	4.357487e-002	2.345040e-002	9.451956e-001	-2.011801e-001	9.450822e-001	-2.011463e-001	4.313150e-002	2.347652e-002
9505945.738	4.377665e-002	2.330484e-002	9.445960e-001	-2.023172e-001	9.446760e-001	-2.021295e-001	4.328797e-002	2.329125e-002
9568484.822	4.401642e-002	2.307500e-002	9.443276e-001	-2.032707e-001	9.439936e-001	-2.030834e-001	4.334262e-002	2.336812e-002
9631023.906	4.420666e-002	2.293146e-002	9.439102e-001	-2.042367e-001	9.436180e-001	-2.041145e-001	4.369316e-002	2.288242e-002
9693562.989	4.443283e-002	2.273448e-002	9.433739e-001	-2.052620e-001	9.432612e-001	-2.050230e-001	4.366569e-002	2.283477e-002
9756102.073	4.461093e-002	2.251785e-002	9.431583e-001	-2.062600e-001	9.428692e-001	-2.059725e-001	4.391343e-002	2.252828e-002
