!Agilent Technologies,E5061B,MY49102235,A.02.00
!Date: Tue Jul 11 15:29:55 2023
!Data & Calibration Information:
!Freq	S11:SOLT2(ON)	S21:SOLT2(ON)	S12:SOLT2(ON)	S22:SOLT2(ON)
# Hz S RI R 50
5.000	-5.172549e-003	-5.638203e-003	1.001610e+000	8.007428e-003	1.000243e+000	1.025177e-002	-1.502005e-003	-7.546886e-003
62544.084	5.811539e-003	-4.893094e-004	1.001266e+000	5.352888e-004	1.000833e+000	1.223202e-003	7.700780e-003	-2.882213e-003
125083.168	5.677918e-003	-5.088639e-004	1.000959e+000	-8.483387e-004	1.000722e+000	-6.767318e-004	7.509139e-003	-2.284002e-003
187622.251	5.462686e-003	-3.594922e-004	1.000438e+000	-2.143539e-003	1.000932e+000	-9.535032e-004	7.374497e-003	-2.376793e-003
250161.335	5.274178e-003	-2.134983e-004	1.000623e+000	-3.194088e-003	1.000736e+000	-3.151494e-003	7.251005e-003	-2.057121e-003
312700.419	5.415568e-003	5.204920e-004	1.000774e+000	-3.849053e-003	1.000638e+000	-3.526528e-003	7.769267e-003	-2.371782e-003
375239.503	5.290839e-003	-1.003775e-003	1.001101e+000	-5.255558e-003	1.000577e+000	-4.859893e-003	7.251989e-003	-2.565367e-003
437778.587	5.133726e-003	-6.193649e-004	1.001346e+000	-5.377029e-003	1.000992e+000	-6.069142e-003	6.613951e-003	-2.260809e-003
500317.670	4.578546e-003	-5.098470e-004	1.001226e+000	-7.809318e-003	1.001610e+000	-7.494620e-003	4.817787e-003	-2.105678e-003
562856.754	5.879706e-003	-8.260861e-004	1.001369e+000	-9.263570e-003	1.001233e+000	-8.982357e-003	5.994944e-003	-1.622388e-003
625395.838	5.080687e-003	-6.880482e-004	1.002263e+000	-1.043983e-002	1.002268e+000	-9.864987e-003	6.099747e-003	-1.088485e-003
687934.922	5.127156e-003	-1.020353e-003	1.001367e+000	-1.140364e-002	1.001281e+000	-1.142492e-002	5.751497e-003	-1.549200e-003
750474.006	4.352926e-003	-7.020889e-004	1.000763e+000	-1.091085e-002	1.000855e+000	-1.045943e-002	5.525416e-003	-1.363507e-003
813013.089	4.514399e-003	-6.929768e-004	1.001157e+000	-1.259269e-002	1.000616e+000	-1.227699e-002	4.873664e-003	-1.203212e-003
875552.173	4.251242e-003	-5.218798e-004	1.001185e+000	-1.349383e-002	1.001110e+000	-1.350668e-002	5.669930e-003	-1.634492e-003
938091.257	4.335198e-003	-5.045497e-004	1.001077e+000	-1.506087e-002	1.001228e+000	-1.444807e-002	5.898995e-003	-1.054777e-003
1000630.341	3.763839e-003	-8.616380e-004	1.000793e+000	-1.623483e-002	1.001143e+000	-1.612194e-002	5.155992e-003	-1.777071e-003
1063169.425	4.134125e-003	-1.017332e-003	1.001168e+000	-1.763981e-002	1.000918e+000	-1.686451e-002	4.321036e-003	-2.099945e-003
1125708.508	4.006610e-003	-9.982583e-004	1.000871e+000	-1.880698e-002	1.000878e+000	-1.818163e-002	3.825192e-003	-1.832880e-003
1188247.592	4.550079e-003	-1.449011e-003	1.001086e+000	-1.991076e-002	1.001219e+000	-1.934106e-002	2.742888e-003	-2.407093e-003
1250786.676	4.399414e-003	-2.206242e-003	1.000595e+000	-1.984651e-002	1.000827e+000	-1.989105e-002	1.996165e-003	-4.089208e-003
1313325.760	4.510497e-003	-2.309417e-003	1.001034e+000	-2.144811e-002	1.001146e+000	-2.152349e-002	2.735206e-003	-3.887273e-003
1375864.844	4.240215e-003	-2.525235e-003	1.000681e+000	-2.326262e-002	1.000630e+000	-2.346640e-002	2.587484e-003	-3.630969e-003
1438403.927	4.128428e-003	-2.689110e-003	1.000629e+000	-2.393424e-002	1.001088e+000	-2.331625e-002	2.667281e-003	-3.388289e-003
1500943.011	4.358612e-003	-2.621177e-003	1.001435e+000	-2.480926e-002	1.001453e+000	-2.464608e-002	3.009759e-003	-3.795358e-003
1563482.095	4.345311e-003	-3.011628e-003	1.000905e+000	-2.609968e-002	1.000699e+000	-2.539862e-002	3.164110e-003	-3.611061e-003
1626021.179	4.162211e-003	-2.913140e-003	1.000724e+000	-2.738705e-002	1.001204e+000	-2.787993e-002	3.414942e-003	-3.664044e-003
1688560.263	3.866442e-003	-2.853932e-003	1.000495e+000	-2.925026e-002	1.001382e+000	-2.915844e-002	3.588633e-003	-3.685376e-003
1751099.346	3.981656e-003	-2.779998e-003	1.000911e+000	-3.022571e-002	1.000806e+000	-2.963915e-002	3.397589e-003	-2.858318e-003
1813638.430	3.630460e-003	-2.827426e-003	1.001260e+000	-3.178916e-002	1.001075e+000	-3.155443e-002	3.581057e-003	-3.262874e-003
1876177.514	3.664039e-003	-2.547780e-003	1.001661e+000	-3.260332e-002	1.001406e+000	-3.326596e-002	3.247279e-003	-2.600738e-003
1938716.598	3.119507e-003	-2.498323e-003	1.001797e+000	-3.361425e-002	1.001468e+000	-3.297444e-002	3.423657e-003	-2.219255e-003
2001255.682	3.035082e-003	-2.976962e-003	1.001923e+000	-3.490231e-002	1.001412e+000	-3.456390e-002	3.168688e-003	-2.702730e-003
2063794.765	3.112892e-003	-2.617267e-003	1.001403e+000	-3.581816e-002	1.000773e+000	-3.609327e-002	3.539691e-003	-2.796304e-003
2126333.849	2.655644e-003	-3.146297e-003	1.000799e+000	-3.709187e-002	1.000334e+000	-3.659900e-002	3.816518e-003	-2.565744e-003
2188872.933	3.152142e-003	-3.161575e-003	1.000663e+000	-3.835398e-002	1.000154e+000	-3.759516e-002	3.683208e-003	-2.618871e-003
2251412.017	3.232503e-003	-3.532873e-003	1.000503e+000	-3.978948e-002	1.000412e+000	-3.861097e-002	3.677004e-003	-2.751696e-003
2313951.101	3.552471e-003	-3.135973e-003	9.997895e-001	-4.070553e-002	1.000355e+000	-3.958288e-002	3.973559e-003	-2.841533e-003
2376490.184	3.294077e-003	-3.178050e-003	9.997816e-001	-4.114232e-002	1.000357e+000	-4.149695e-002	3.938604e-003	-2.851372e-003
2439029.268	3.761226e-003	-3.234047e-003	9.997600e-001	-4.294835e-002	9.993802e-001	-4.247126e-002	3.606622e-003	-2.766863e-003
2501568.352	3.719115e-003	-3.252189e-003	9.994189e-001	-4.308158e-002	1.000387e+000	-4.303043e-002	3.899658e-003	-2.812050e-003
2564107.436	3.625807e-003	-3.405034e-003	9.998297e-001	-4.481527e-002	1.000138e+000	-4.463698e-002	3.199031e-003	-3.199491e-003
2626646.520	4.122218e-003	-3.616259e-003	9.996658e-001	-4.594114e-002	9.987844e-001	-4.570487e-002	3.441760e-003	-3.281627e-003
2689185.604	4.073519e-003	-3.481831e-003	1.000066e+000	-4.666000e-002	9.997814e-001	-4.652153e-002	3.568744e-003	-3.246688e-003
2751724.687	4.179548e-003	-3.578608e-003	9.999447e-001	-4.747569e-002	9.997075e-001	-4.725841e-002	3.175636e-003	-3.308840e-003
2814263.771	4.118595e-003	-3.675791e-003	9.989067e-001	-4.931488e-002	9.992542e-001	-4.863173e-002	3.147518e-003	-3.451603e-003
2876802.855	4.071228e-003	-3.911165e-003	9.990670e-001	-5.060143e-002	9.991806e-001	-4.955207e-002	3.208182e-003	-3.353673e-003
2939341.939	4.187982e-003	-3.848390e-003	9.996353e-001	-5.117255e-002	9.991427e-001	-5.113815e-002	3.111646e-003	-3.466895e-003
3001881.023	4.102421e-003	-3.860756e-003	9.992639e-001	-5.221892e-002	9.991448e-001	-5.213691e-002	3.198533e-003	-3.637433e-003
3064420.106	4.146162e-003	-3.933777e-003	9.998418e-001	-5.327585e-002	9.990870e-001	-5.299808e-002	3.031103e-003	-3.780590e-003
3126959.190	4.343660e-003	-4.060924e-003	9.994022e-001	-5.448785e-002	9.992644e-001	-5.431174e-002	3.202351e-003	-3.872024e-003
3189498.274	4.312958e-003	-4.051421e-003	9.993233e-001	-5.543832e-002	9.991578e-001	-5.538286e-002	3.196533e-003	-3.961457e-003
3252037.358	4.225579e-003	-4.447134e-003	9.993810e-001	-5.660920e-002	9.992452e-001	-5.639324e-002	3.134670e-003	-3.942417e-003
3314576.442	4.236718e-003	-4.313177e-003	9.992908e-001	-5.761790e-002	9.990997e-001	-5.754453e-002	3.184733e-003	-4.082244e-003
3377115.525	4.194985e-003	-4.339502e-003	9.990584e-001	-5.861805e-002	9.988506e-001	-5.877850e-002	3.031715e-003	-4.260079e-003
3439654.609	4.200439e-003	-4.445888e-003	9.988862e-001	-5.972050e-002	9.991207e-001	-5.972281e-002	3.043247e-003	-4.101833e-003
3502193.693	4.171325e-003	-4.780733e-003	9.989168e-001	-6.096153e-002	9.988161e-001	-6.073361e-002	3.209512e-003	-4.180867e-003
3564732.777	4.220570e-003	-4.692296e-003	9.989314e-001	-6.197052e-002	9.988060e-001	-6.191978e-002	3.296856e-003	-4.203549e-003
3627271.861	4.047896e-003	-4.875198e-003	9.989313e-001	-6.317280e-002	9.988527e-001	-6.289737e-002	3.070943e-003	-4.465296e-003
3689810.944	3.966517e-003	-5.039367e-003	9.987459e-001	-6.423720e-002	9.987687e-001	-6.395452e-002	3.226201e-003	-4.489606e-003
3752350.028	4.063964e-003	-5.061668e-003	9.986617e-001	-6.507748e-002	9.985459e-001	-6.499349e-002	3.135822e-003	-4.596551e-003
3814889.112	4.174035e-003	-4.983871e-003	9.985332e-001	-6.623055e-002	9.986754e-001	-6.638286e-002	3.058235e-003	-4.775908e-003
3877428.196	4.109233e-003	-5.030701e-003	9.986693e-001	-6.739696e-002	9.986148e-001	-6.720875e-002	3.375083e-003	-4.818701e-003
3939967.280	4.058019e-003	-5.376042e-003	9.985591e-001	-6.851848e-002	9.985955e-001	-6.835098e-002	3.347129e-003	-4.784077e-003
4002506.363	4.123244e-003	-5.287711e-003	9.985257e-001	-6.954815e-002	9.984745e-001	-6.929250e-002	3.290791e-003	-4.919267e-003
4065045.447	3.950720e-003	-5.452107e-003	9.982699e-001	-7.074194e-002	9.982491e-001	-7.052562e-002	3.370335e-003	-5.091417e-003
4127584.531	3.913733e-003	-5.527512e-003	9.981689e-001	-7.176228e-002	9.982729e-001	-7.147292e-002	3.369600e-003	-5.039949e-003
4190123.615	3.949775e-003	-5.573185e-003	9.982469e-001	-7.306036e-002	9.980678e-001	-7.275478e-002	3.277307e-003	-5.340701e-003
4252662.699	3.899265e-003	-5.718539e-003	9.982449e-001	-7.416208e-002	9.979374e-001	-7.394534e-002	3.379274e-003	-5.374928e-003
4315201.782	4.029579e-003	-5.821617e-003	9.981389e-001	-7.499984e-002	9.981736e-001	-7.502716e-002	3.199206e-003	-5.634730e-003
4377740.866	3.930591e-003	-5.908499e-003	9.981551e-001	-7.622814e-002	9.978643e-001	-7.611101e-002	3.368659e-003	-5.414906e-003
4440279.950	3.818063e-003	-6.132728e-003	9.980280e-001	-7.712457e-002	9.977281e-001	-7.704568e-002	3.239359e-003	-5.655927e-003
4502819.034	3.806088e-003	-6.081573e-003	9.976848e-001	-7.837366e-002	9.977343e-001	-7.812419e-002	3.313416e-003	-5.569486e-003
4565358.118	3.720017e-003	-6.179543e-003	9.976559e-001	-7.941236e-002	9.974880e-001	-7.906562e-002	3.309549e-003	-5.764289e-003
4627897.201	3.892764e-003	-6.143108e-003	9.977747e-001	-8.046569e-002	9.975068e-001	-8.015980e-002	3.410697e-003	-5.732112e-003
4690436.285	3.699011e-003	-6.337563e-003	9.977230e-001	-8.165662e-002	9.975090e-001	-8.159148e-002	3.404794e-003	-5.987118e-003
4752975.369	3.707698e-003	-6.423226e-003	9.973766e-001	-8.284231e-002	9.974487e-001	-8.257657e-002	3.214401e-003	-6.126741e-003
4815514.453	3.813801e-003	-6.510657e-003	9.975269e-001	-8.378507e-002	9.973757e-001	-8.375889e-002	3.420964e-003	-6.111355e-003
4878053.537	3.910599e-003	-6.668309e-003	9.974285e-001	-8.483478e-002	9.972428e-001	-8.467751e-002	3.376638e-003	-6.261040e-003
4940592.620	3.638230e-003	-6.716574e-003	9.972144e-001	-8.603716e-002	9.972036e-001	-8.588505e-002	3.141883e-003	-6.380498e-003
5003131.704	3.695034e-003	-6.931093e-003	9.970969e-001	-8.704752e-002	9.971614e-001	-8.673915e-002	3.265380e-003	-6.515700e-003
5065670.788	3.617926e-003	-6.803626e-003	9.970231e-001	-8.819628e-002	9.969798e-001	-8.787194e-002	3.212499e-003	-6.556340e-003
5128209.872	3.729546e-003	-7.029445e-003	9.970862e-001	-8.925719e-002	9.968845e-001	-8.896316e-002	3.191489e-003	-6.845240e-003
5190748.956	3.618049e-003	-7.136254e-003	9.968964e-001	-9.038997e-002	9.968699e-001	-9.018942e-002	3.139779e-003	-6.802052e-003
5253288.039	3.665587e-003	-7.247840e-003	9.968744e-001	-9.144538e-002	9.967993e-001	-9.124713e-002	3.077338e-003	-6.818872e-003
5315827.123	3.635120e-003	-7.399758e-003	9.965941e-001	-9.256113e-002	9.966577e-001	-9.238692e-002	3.053056e-003	-7.003703e-003
5378366.207	3.708374e-003	-7.424780e-003	9.967078e-001	-9.363941e-002	9.965738e-001	-9.359297e-002	3.018991e-003	-7.176215e-003
5440905.291	3.511538e-003	-7.442089e-003	9.966447e-001	-9.470727e-002	9.965082e-001	-9.455501e-002	2.906996e-003	-7.213539e-003
5503444.375	3.718642e-003	-7.694031e-003	9.964949e-001	-9.591752e-002	9.964524e-001	-9.551345e-002	3.096793e-003	-7.376025e-003
5565983.458	3.352367e-003	-7.661683e-003	9.963748e-001	-9.686322e-002	9.963740e-001	-9.658008e-002	3.002907e-003	-7.302932e-003
5628522.542	3.601240e-003	-7.820287e-003	9.963442e-001	-9.785389e-002	9.962586e-001	-9.782436e-002	3.033355e-003	-7.517953e-003
5691061.626	3.651880e-003	-8.077442e-003	9.961461e-001	-9.916566e-002	9.960872e-001	-9.889826e-002	2.923359e-003	-7.555291e-003
5753600.710	3.492665e-003	-8.089282e-003	9.960368e-001	-1.001264e-001	9.960115e-001	-9.991351e-002	2.961535e-003	-7.781574e-003
5816139.794	3.556198e-003	-7.994190e-003	9.959910e-001	-1.012419e-001	9.957486e-001	-1.012347e-001	2.820566e-003	-7.828244e-003
5878678.877	3.463389e-003	-8.311293e-003	9.958560e-001	-1.023458e-001	9.957557e-001	-1.021901e-001	2.915128e-003	-8.049613e-003
5941217.961	3.452429e-003	-8.486705e-003	9.957132e-001	-1.035289e-001	9.956601e-001	-1.031580e-001	2.719455e-003	-8.045379e-003
6003757.045	3.277161e-003	-8.350246e-003	9.954841e-001	-1.044645e-001	9.954809e-001	-1.042138e-001	2.820503e-003	-8.156784e-003
6066296.129	3.410116e-003	-8.624016e-003	9.955560e-001	-1.055880e-001	9.954398e-001	-1.052772e-001	2.793299e-003	-8.274007e-003
6128835.213	3.487656e-003	-8.681233e-003	9.954111e-001	-1.063743e-001	9.954486e-001	-1.065074e-001	2.870679e-003	-8.370370e-003
6191374.296	3.408697e-003	-8.818760e-003	9.952729e-001	-1.077081e-001	9.951774e-001	-1.077104e-001	2.703073e-003	-8.388927e-003
6253913.380	3.312747e-003	-8.782264e-003	9.951906e-001	-1.089170e-001	9.950939e-001	-1.086417e-001	2.566960e-003	-8.367455e-003
6316452.464	3.266669e-003	-8.796450e-003	9.951253e-001	-1.098287e-001	9.948602e-001	-1.099223e-001	2.608053e-003	-8.673817e-003
6378991.548	3.218805e-003	-9.041299e-003	9.949461e-001	-1.112684e-001	9.949559e-001	-1.108305e-001	2.645166e-003	-8.892897e-003
6441530.632	3.147008e-003	-9.217278e-003	9.947548e-001	-1.120478e-001	9.947545e-001	-1.120639e-001	2.670529e-003	-8.871045e-003
6504069.715	3.139252e-003	-9.336055e-003	9.946274e-001	-1.133735e-001	9.947978e-001	-1.130905e-001	2.660192e-003	-8.972851e-003
6566608.799	3.262739e-003	-9.495995e-003	9.946500e-001	-1.145201e-001	9.945193e-001	-1.142321e-001	2.540735e-003	-8.884419e-003
6629147.883	3.175593e-003	-9.448380e-003	9.944441e-001	-1.152820e-001	9.943648e-001	-1.153071e-001	2.629800e-003	-9.108044e-003
6691686.967	3.048774e-003	-9.534372e-003	9.942476e-001	-1.165005e-001	9.942376e-001	-1.163449e-001	2.647634e-003	-9.129334e-003
6754226.051	2.980850e-003	-9.639785e-003	9.941106e-001	-1.176612e-001	9.939950e-001	-1.176297e-001	2.424191e-003	-9.442527e-003
6816765.134	3.069739e-003	-9.745640e-003	9.940368e-001	-1.186840e-001	9.939993e-001	-1.185588e-001	2.458764e-003	-9.319719e-003
6879304.218	2.950894e-003	-1.000174e-002	9.938764e-001	-1.197864e-001	9.938997e-001	-1.196298e-001	2.428624e-003	-9.478136e-003
6941843.302	2.997225e-003	-9.936915e-003	9.937063e-001	-1.209012e-001	9.937509e-001	-1.207184e-001	2.412051e-003	-9.491449e-003
7004382.386	2.772706e-003	-9.963511e-003	9.936759e-001	-1.218986e-001	9.935536e-001	-1.217828e-001	2.307143e-003	-9.550352e-003
7066921.470	2.863614e-003	-1.011680e-002	9.934334e-001	-1.231401e-001	9.934886e-001	-1.227161e-001	2.451372e-003	-9.800698e-003
7129460.553	2.738098e-003	-1.032315e-002	9.933711e-001	-1.240156e-001	9.933333e-001	-1.239168e-001	2.425931e-003	-9.838064e-003
7191999.637	2.705154e-003	-1.017135e-002	9.930316e-001	-1.252329e-001	9.930336e-001	-1.249998e-001	2.274046e-003	-9.936016e-003
7254538.721	2.748250e-003	-1.037539e-002	9.931964e-001	-1.263501e-001	9.931141e-001	-1.261252e-001	2.294045e-003	-1.001684e-002
7317077.805	2.898037e-003	-1.050757e-002	9.929951e-001	-1.273061e-001	9.929622e-001	-1.271679e-001	2.265349e-003	-1.021227e-002
7379616.889	2.744597e-003	-1.059275e-002	9.930288e-001	-1.285993e-001	9.927642e-001	-1.282843e-001	2.185777e-003	-1.028621e-002
7442155.972	2.564098e-003	-1.069524e-002	9.926453e-001	-1.294931e-001	9.926616e-001	-1.293061e-001	2.247816e-003	-1.015566e-002
7504695.056	2.595864e-003	-1.087166e-002	9.924532e-001	-1.304853e-001	9.923476e-001	-1.305027e-001	2.249287e-003	-1.018547e-002
7567234.140	2.746899e-003	-1.103014e-002	9.924366e-001	-1.315840e-001	9.922496e-001	-1.315821e-001	2.179801e-003	-1.037516e-002
7629773.224	2.621334e-003	-1.082247e-002	9.923159e-001	-1.328319e-001	9.922675e-001	-1.325765e-001	2.062951e-003	-1.052400e-002
7692312.308	2.466815e-003	-1.097928e-002	9.921520e-001	-1.339071e-001	9.920244e-001	-1.337484e-001	2.102424e-003	-1.070029e-002
7754851.391	2.427379e-003	-1.123196e-002	9.919922e-001	-1.350321e-001	9.917438e-001	-1.346363e-001	2.024490e-003	-1.066453e-002
7817390.475	2.483065e-003	-1.111956e-002	9.918663e-001	-1.362281e-001	9.916773e-001	-1.359618e-001	1.924273e-003	-1.063106e-002
7879929.559	2.376820e-003	-1.138537e-002	9.916146e-001	-1.373069e-001	9.915077e-001	-1.372138e-001	2.022808e-003	-1.074337e-002
7942468.643	2.300719e-003	-1.153349e-002	9.915662e-001	-1.382718e-001	9.914640e-001	-1.382003e-001	1.979089e-003	-1.099605e-002
8005007.727	2.380005e-003	-1.158933e-002	9.913149e-001	-1.394611e-001	9.913164e-001	-1.392732e-001	1.862543e-003	-1.086730e-002
8067546.811	2.205116e-003	-1.163855e-002	9.912006e-001	-1.404640e-001	9.909995e-001	-1.403123e-001	1.751723e-003	-1.116534e-002
8130085.894	2.253304e-003	-1.179467e-002	9.910059e-001	-1.414947e-001	9.909409e-001	-1.414001e-001	1.943585e-003	-1.129530e-002
8192624.978	2.062900e-003	-1.195310e-002	9.907223e-001	-1.427341e-001	9.907649e-001	-1.424339e-001	1.965046e-003	-1.139754e-002
8255164.062	2.151948e-003	-1.201371e-002	9.906618e-001	-1.437471e-001	9.905723e-001	-1.435448e-001	1.903053e-003	-1.153580e-002
8317703.146	1.999734e-003	-1.198234e-002	9.905975e-001	-1.448336e-001	9.905587e-001	-1.446412e-001	1.694056e-003	-1.157550e-002
8380242.230	2.102238e-003	-1.232889e-002	9.902663e-001	-1.460523e-001	9.902463e-001	-1.456763e-001	1.635283e-003	-1.171450e-002
8442781.313	2.040196e-003	-1.238653e-002	9.903641e-001	-1.469745e-001	9.901632e-001	-1.467507e-001	1.583186e-003	-1.188902e-002
8505320.397	1.986901e-003	-1.233004e-002	9.900775e-001	-1.481295e-001	9.899514e-001	-1.478546e-001	1.493014e-003	-1.192561e-002
8567859.481	1.915695e-003	-1.226002e-002	9.899147e-001	-1.490431e-001	9.898748e-001	-1.489346e-001	1.508676e-003	-1.185020e-002
8630398.565	1.964175e-003	-1.240137e-002	9.895942e-001	-1.501199e-001	9.897306e-001	-1.499584e-001	1.350803e-003	-1.219630e-002
8692937.649	1.880166e-003	-1.270235e-002	9.894747e-001	-1.512134e-001	9.894121e-001	-1.510831e-001	1.258512e-003	-1.217605e-002
8755476.732	1.862536e-003	-1.272865e-002	9.893834e-001	-1.523707e-001	9.892344e-001	-1.520400e-001	1.293352e-003	-1.226622e-002
8818015.816	1.708450e-003	-1.285811e-002	9.891192e-001	-1.534090e-001	9.889242e-001	-1.532202e-001	1.370435e-003	-1.243865e-002
8880554.900	1.890202e-003	-1.290791e-002	9.890820e-001	-1.545806e-001	9.890087e-001	-1.541571e-001	1.203621e-003	-1.268635e-002
8943093.984	1.689673e-003	-1.289160e-002	9.888782e-001	-1.555162e-001	9.888475e-001	-1.552447e-001	1.184245e-003	-1.272492e-002
9005633.068	1.700534e-003	-1.307348e-002	9.886241e-001	-1.566954e-001	9.887170e-001	-1.564574e-001	1.056262e-003	-1.293767e-002
9068172.151	1.524558e-003	-1.317427e-002	9.885538e-001	-1.577814e-001	9.884113e-001	-1.574119e-001	1.058628e-003	-1.297686e-002
9130711.235	1.711530e-003	-1.333000e-002	9.883310e-001	-1.588614e-001	9.883073e-001	-1.584940e-001	1.083253e-003	-1.327125e-002
9193250.319	1.659509e-003	-1.345492e-002	9.882554e-001	-1.597777e-001	9.880665e-001	-1.596626e-001	9.685762e-004	-1.327995e-002
9255789.403	1.514204e-003	-1.367995e-002	9.881413e-001	-1.607837e-001	9.879221e-001	-1.606765e-001	8.123670e-004	-1.332245e-002
9318328.487	1.431804e-003	-1.369951e-002	9.878744e-001	-1.620621e-001	9.879010e-001	-1.616972e-001	8.712104e-004	-1.339354e-002
9380867.570	1.412559e-003	-1.364919e-002	9.877473e-001	-1.631843e-001	9.875001e-001	-1.629199e-001	8.292438e-004	-1.351764e-002
9443406.654	1.420435e-003	-1.375244e-002	9.875897e-001	-1.641428e-001	9.875023e-001	-1.640228e-001	8.186886e-004	-1.367848e-002
9505945.738	1.359771e-003	-1.382149e-002	9.872174e-001	-1.654044e-001	9.873942e-001	-1.651071e-001	7.367173e-004	-1.377643e-002
9568484.822	1.358514e-003	-1.394595e-002	9.871792e-001	-1.664131e-001	9.869376e-001	-1.661495e-001	4.954611e-004	-1.363283e-002
