!Agilent Technologies,E5061B,MY49102235,A.02.00
!Date: Tue Jul 11 16:36:21 2023
!Data & Calibration Information:
!Freq	S11:SOLT2(ON)	S21:SOLT2(ON)	S12:SOLT2(ON)	S22:SOLT2(ON)
# Hz S RI R 50
5.000	-5.180331e-003	-5.629180e-003	1.001680e+000	8.063324e-003	1.000275e+000	1.023996e-002	-1.488187e-003	-7.551869e-003
62544.084	5.821417e-003	-7.062541e-005	1.001261e+000	1.674534e-004	1.000999e+000	7.900184e-004	7.709622e-003	-2.468165e-003
125083.168	5.714926e-003	3.402150e-004	1.000868e+000	-1.605172e-003	1.000705e+000	-1.717373e-003	7.507451e-003	-1.445198e-003
187622.251	5.493395e-003	9.232005e-004	1.000356e+000	-3.305817e-003	1.000979e+000	-2.147392e-003	7.408638e-003	-1.135036e-003
250161.335	5.330082e-003	1.448253e-003	1.000537e+000	-4.755747e-003	1.000589e+000	-4.739229e-003	7.315709e-003	-3.902129e-004
312700.419	5.479701e-003	2.591128e-003	1.000757e+000	-5.808248e-003	1.000607e+000	-5.508361e-003	7.833000e-003	-3.177627e-004
375239.503	5.366178e-003	1.507304e-003	1.001037e+000	-7.730286e-003	1.000451e+000	-7.385804e-003	7.333448e-003	-4.793309e-005
437778.587	5.234741e-003	2.284948e-003	1.001213e+000	-8.204562e-003	1.000859e+000	-8.933173e-003	6.715369e-003	6.445746e-004
500317.670	4.690959e-003	2.812125e-003	1.001185e+000	-1.095060e-002	1.001589e+000	-1.094470e-002	4.908570e-003	1.223623e-003
562856.754	6.017435e-003	2.907531e-003	1.001290e+000	-1.294668e-002	1.001037e+000	-1.290011e-002	6.141415e-003	2.123844e-003
625395.838	5.241016e-003	3.468763e-003	1.002042e+000	-1.454477e-002	1.002053e+000	-1.408235e-002	6.267485e-003	3.073345e-003
687934.922	5.321066e-003	3.537493e-003	1.001115e+000	-1.596539e-002	1.001113e+000	-1.615227e-002	5.917763e-003	3.013393e-003
750474.006	4.571172e-003	4.288139e-003	1.000627e+000	-1.574711e-002	1.000713e+000	-1.550356e-002	5.737155e-003	3.597178e-003
813013.089	4.761347e-003	4.676748e-003	1.000829e+000	-1.793676e-002	1.000564e+000	-1.755574e-002	5.125176e-003	4.176129e-003
875552.173	4.531929e-003	5.260327e-003	1.000866e+000	-1.925132e-002	1.000867e+000	-1.927597e-002	5.930887e-003	4.169119e-003
938091.257	4.634316e-003	5.705300e-003	1.000839e+000	-2.113495e-002	1.000944e+000	-2.081595e-002	6.192365e-003	5.136059e-003
1000630.341	4.108299e-003	5.772491e-003	1.000556e+000	-2.302349e-002	1.000763e+000	-2.256891e-002	5.458659e-003	4.839851e-003
1063169.425	4.477360e-003	5.998378e-003	1.000729e+000	-2.474785e-002	1.000550e+000	-2.387305e-002	4.666266e-003	4.928549e-003
1125708.508	4.395302e-003	6.447872e-003	1.000407e+000	-2.626575e-002	1.000590e+000	-2.566406e-002	4.221470e-003	5.620667e-003
1188247.592	4.969460e-003	6.388122e-003	1.000560e+000	-2.778348e-002	1.000714e+000	-2.709933e-002	3.146544e-003	5.464781e-003
1250786.676	4.836022e-003	6.059048e-003	1.000259e+000	-2.807974e-002	1.000424e+000	-2.824004e-002	2.416497e-003	4.211722e-003
1313325.760	4.979709e-003	6.363547e-003	1.000517e+000	-2.996750e-002	1.000615e+000	-3.030608e-002	3.185882e-003	4.797313e-003
1375864.844	4.746050e-003	6.568062e-003	1.000304e+000	-3.232511e-002	1.000127e+000	-3.238349e-002	3.074908e-003	5.486526e-003
1438403.927	4.666028e-003	6.811841e-003	1.000176e+000	-3.337296e-002	1.000526e+000	-3.278108e-002	3.206594e-003	6.152920e-003
1500943.011	4.948199e-003	7.284423e-003	1.000845e+000	-3.473505e-002	1.000851e+000	-3.463681e-002	3.587634e-003	6.152582e-003
1563482.095	4.959567e-003	7.309553e-003	1.000387e+000	-3.652591e-002	1.000244e+000	-3.571412e-002	3.769227e-003	6.750665e-003
1626021.179	4.829763e-003	7.856543e-003	1.000281e+000	-3.810278e-002	1.000421e+000	-3.875268e-002	4.087241e-003	7.109553e-003
1688560.263	4.567608e-003	8.313910e-003	9.998078e-001	-4.034401e-002	1.000732e+000	-4.037281e-002	4.298004e-003	7.488570e-003
1751099.346	4.744646e-003	8.809354e-003	1.000229e+000	-4.178564e-002	1.000023e+000	-4.135473e-002	4.173284e-003	8.730683e-003
1813638.430	4.441127e-003	9.169253e-003	1.000502e+000	-4.383920e-002	1.000225e+000	-4.352297e-002	4.383078e-003	8.759789e-003
1876177.514	4.523358e-003	9.894647e-003	1.000850e+000	-4.490489e-002	1.000595e+000	-4.572928e-002	4.117765e-003	9.838269e-003
1938716.598	4.032438e-003	1.037782e-002	1.000892e+000	-4.632206e-002	1.000658e+000	-4.588293e-002	4.349312e-003	1.063101e-002
2001255.682	3.959953e-003	1.031410e-002	1.000816e+000	-4.819371e-002	1.000520e+000	-4.787025e-002	4.143045e-003	1.059909e-002
2063794.765	4.128763e-003	1.110644e-002	1.000310e+000	-4.945168e-002	9.998752e-001	-4.997607e-002	4.577082e-003	1.089318e-002
2126333.849	3.715792e-003	1.101179e-002	9.998425e-001	-5.123637e-002	9.991662e-001	-5.075386e-002	4.889984e-003	1.156692e-002
2188872.933	4.256039e-003	1.142027e-002	9.995883e-001	-5.284298e-002	9.990751e-001	-5.205410e-002	4.821792e-003	1.193877e-002
2251412.017	4.394334e-003	1.147732e-002	9.992625e-001	-5.462186e-002	9.992129e-001	-5.359210e-002	4.870082e-003	1.223324e-002
2313951.101	4.805944e-003	1.228267e-002	9.985911e-001	-5.609281e-002	9.991556e-001	-5.495535e-002	5.240689e-003	1.257549e-002
2376490.184	4.612179e-003	1.267790e-002	9.984883e-001	-5.702422e-002	9.990210e-001	-5.731591e-002	5.280857e-003	1.299208e-002
2439029.268	5.133975e-003	1.305827e-002	9.983141e-001	-5.914676e-002	9.981149e-001	-5.890909e-002	5.025499e-003	1.352918e-002
2501568.352	5.176816e-003	1.346877e-002	9.980759e-001	-5.979778e-002	9.989532e-001	-5.978280e-002	5.368284e-003	1.390645e-002
2564107.436	5.155271e-003	1.375509e-002	9.983667e-001	-6.193846e-002	9.985244e-001	-6.184053e-002	4.734419e-003	1.396840e-002
2626646.520	5.702221e-003	1.397056e-002	9.981145e-001	-6.346037e-002	9.973363e-001	-6.337446e-002	5.071126e-003	1.431887e-002
2689185.604	5.730103e-003	1.456069e-002	9.983608e-001	-6.455354e-002	9.980476e-001	-6.458562e-002	5.268429e-003	1.479007e-002
2751724.687	5.911669e-003	1.489419e-002	9.981525e-001	-6.585986e-002	9.979150e-001	-6.573357e-002	4.944917e-003	1.520630e-002
2814263.771	5.954602e-003	1.525580e-002	9.971288e-001	-6.805408e-002	9.976576e-001	-6.763313e-002	5.018169e-003	1.550196e-002
2876802.855	5.983794e-003	1.546633e-002	9.970611e-001	-6.987371e-002	9.973827e-001	-6.903222e-002	5.178468e-003	1.603015e-002
2939341.939	6.186597e-003	1.597630e-002	9.975374e-001	-7.086170e-002	9.972908e-001	-7.101389e-002	5.161778e-003	1.637553e-002
3001881.023	6.212827e-003	1.641566e-002	9.972436e-001	-7.246215e-002	9.970359e-001	-7.249052e-002	5.331203e-003	1.665754e-002
3064420.106	6.355773e-003	1.680518e-002	9.977020e-001	-7.400152e-002	9.968967e-001	-7.386451e-002	5.241972e-003	1.697655e-002
3126959.190	6.646498e-003	1.711218e-002	9.971032e-001	-7.562391e-002	9.969936e-001	-7.550788e-002	5.533164e-003	1.733560e-002
3189498.274	6.725901e-003	1.757896e-002	9.969207e-001	-7.702973e-002	9.967847e-001	-7.714621e-002	5.638643e-003	1.769988e-002
3252037.358	6.724462e-003	1.764924e-002	9.968883e-001	-7.868929e-002	9.967092e-001	-7.855064e-002	5.676394e-003	1.818402e-002
3314576.442	6.859262e-003	1.823625e-002	9.966807e-001	-8.015184e-002	9.964766e-001	-8.016449e-002	5.847987e-003	1.850455e-002
3377115.525	6.933342e-003	1.868074e-002	9.963510e-001	-8.161805e-002	9.961926e-001	-8.188053e-002	5.797953e-003	1.880855e-002
3439654.609	7.072258e-003	1.904609e-002	9.960756e-001	-8.323261e-002	9.962960e-001	-8.332612e-002	5.948232e-003	1.942573e-002
3502193.693	7.136643e-003	1.918423e-002	9.959427e-001	-8.493248e-002	9.958249e-001	-8.477423e-002	6.233948e-003	1.980047e-002
3564732.777	7.310395e-003	1.972596e-002	9.958305e-001	-8.637306e-002	9.956895e-001	-8.641152e-002	6.456276e-003	2.024259e-002
3627271.861	7.279741e-003	2.002729e-002	9.957253e-001	-8.806888e-002	9.956268e-001	-8.787410e-002	6.342135e-003	2.048687e-002
3689810.944	7.327313e-003	2.034943e-002	9.954316e-001	-8.959716e-002	9.953990e-001	-8.936593e-002	6.635960e-003	2.090827e-002
3752350.028	7.572135e-003	2.079303e-002	9.951835e-001	-9.091751e-002	9.950176e-001	-9.093901e-002	6.704584e-003	2.129072e-002
3814889.112	7.832185e-003	2.136072e-002	9.948529e-001	-9.254255e-002	9.950666e-001	-9.274900e-002	6.767828e-003	2.159190e-002
3877428.196	7.923518e-003	2.179650e-002	9.948879e-001	-9.417917e-002	9.947725e-001	-9.413713e-002	7.235757e-003	2.201418e-002
3939967.280	8.032378e-003	2.192887e-002	9.946133e-001	-9.583100e-002	9.946604e-001	-9.573768e-002	7.374699e-003	2.253007e-002
4002506.363	8.261312e-003	2.248580e-002	9.944110e-001	-9.734746e-002	9.943524e-001	-9.713009e-002	7.482071e-003	2.287836e-002
4065045.447	8.250875e-003	2.283021e-002	9.940064e-001	-9.896445e-002	9.939679e-001	-9.885074e-002	7.725374e-003	2.320787e-002
4127584.531	8.394475e-003	2.324424e-002	9.936939e-001	-1.005349e-001	9.938326e-001	-1.003411e-001	7.927980e-003	2.373090e-002
4190123.615	8.624576e-003	2.368314e-002	9.935501e-001	-1.022950e-001	9.934203e-001	-1.020770e-001	8.001670e-003	2.393273e-002
4252662.699	8.758213e-003	2.402888e-002	9.934157e-001	-1.038926e-001	9.931184e-001	-1.037543e-001	8.287801e-003	2.437366e-002
4315201.782	9.093573e-003	2.439589e-002	9.930886e-001	-1.051809e-001	9.931066e-001	-1.053807e-001	8.282223e-003	2.461554e-002
4377740.866	9.185920e-003	2.481578e-002	9.929024e-001	-1.069530e-001	9.926278e-001	-1.068897e-001	8.682459e-003	2.532340e-002
4440279.950	9.287147e-003	2.509248e-002	9.925836e-001	-1.083764e-001	9.922163e-001	-1.083606e-001	8.768468e-003	2.558909e-002
4502819.034	9.480857e-003	2.565080e-002	9.920041e-001	-1.100510e-001	9.920720e-001	-1.099578e-001	9.081300e-003	2.615560e-002
4565358.118	9.628692e-003	2.602124e-002	9.917935e-001	-1.115649e-001	9.916046e-001	-1.113481e-001	9.286436e-003	2.645579e-002
4627897.201	1.004933e-002	2.655219e-002	9.916357e-001	-1.131908e-001	9.913572e-001	-1.129296e-001	9.622530e-003	2.696996e-002
4690436.285	1.010269e-002	2.685514e-002	9.913045e-001	-1.148827e-001	9.910356e-001	-1.148854e-001	9.849028e-003	2.719339e-002
4752975.369	1.033040e-002	2.725888e-002	9.907203e-001	-1.165137e-001	9.908262e-001	-1.163432e-001	9.899345e-003	2.756064e-002
4815514.453	1.070671e-002	2.766711e-002	9.905999e-001	-1.179955e-001	9.904638e-001	-1.180185e-001	1.038196e-002	2.807087e-002
4878053.537	1.106363e-002	2.797488e-002	9.903018e-001	-1.195305e-001	9.900597e-001	-1.194424e-001	1.059679e-002	2.839265e-002
4940592.620	1.106381e-002	2.845310e-002	9.898063e-001	-1.211353e-001	9.897464e-001	-1.211086e-001	1.062106e-002	2.879075e-002
5003131.704	1.137755e-002	2.872277e-002	9.894169e-001	-1.227125e-001	9.895053e-001	-1.224785e-001	1.102366e-002	2.914867e-002
5065670.788	1.161049e-002	2.933675e-002	9.889742e-001	-1.243226e-001	9.890095e-001	-1.241138e-001	1.129025e-002	2.958846e-002
5128209.872	1.201325e-002	2.958755e-002	9.888011e-001	-1.258994e-001	9.885899e-001	-1.257367e-001	1.153084e-002	2.979375e-002
5190748.956	1.222096e-002	2.997171e-002	9.882755e-001	-1.275230e-001	9.882941e-001	-1.274240e-001	1.180447e-002	3.032733e-002
5253288.039	1.257591e-002	3.034503e-002	9.880181e-001	-1.290592e-001	9.878960e-001	-1.289685e-001	1.204621e-002	3.079858e-002
5315827.123	1.283938e-002	3.067442e-002	9.873645e-001	-1.306064e-001	9.874209e-001	-1.305505e-001	1.233512e-002	3.108868e-002
5378366.207	1.326622e-002	3.111159e-002	9.870833e-001	-1.321882e-001	9.870036e-001	-1.322889e-001	1.264601e-002	3.140140e-002
5440905.291	1.340965e-002	3.159518e-002	9.867407e-001	-1.337452e-001	9.865336e-001	-1.337271e-001	1.287721e-002	3.184836e-002
5503444.375	1.394462e-002	3.179893e-002	9.862458e-001	-1.353912e-001	9.862174e-001	-1.351406e-001	1.340793e-002	3.214179e-002
5565983.458	1.395309e-002	3.231852e-002	9.857766e-001	-1.368853e-001	9.857168e-001	-1.366536e-001	1.369767e-002	3.267551e-002
5628522.542	1.457341e-002	3.260482e-002	9.853544e-001	-1.383507e-001	9.852440e-001	-1.383865e-001	1.408804e-002	3.290483e-002
5691061.626	1.497873e-002	3.279249e-002	9.848045e-001	-1.401039e-001	9.846955e-001	-1.399360e-001	1.435954e-002	3.334249e-002
5753600.710	1.521615e-002	3.325498e-002	9.842600e-001	-1.415145e-001	9.842557e-001	-1.414380e-001	1.478147e-002	3.357930e-002
5816139.794	1.570986e-002	3.377378e-002	9.837966e-001	-1.430851e-001	9.835958e-001	-1.431581e-001	1.502521e-002	3.396401e-002
5878678.877	1.599221e-002	3.389950e-002	9.832988e-001	-1.446492e-001	9.831477e-001	-1.445577e-001	1.552642e-002	3.417344e-002
5941217.961	1.637370e-002	3.417700e-002	9.827018e-001	-1.462484e-001	9.826622e-001	-1.459361e-001	1.573415e-002	3.463620e-002
6003757.045	1.664855e-002	3.474964e-002	9.820625e-001	-1.475810e-001	9.821124e-001	-1.474725e-001	1.627287e-002	3.494670e-002
6066296.129	1.717510e-002	3.486507e-002	9.817448e-001	-1.491055e-001	9.816080e-001	-1.489128e-001	1.665938e-002	3.523440e-002
6128835.213	1.768010e-002	3.520453e-002	9.811856e-001	-1.503038e-001	9.812128e-001	-1.505636e-001	1.717594e-002	3.554807e-002
6191374.296	1.804259e-002	3.551049e-002	9.805377e-001	-1.520938e-001	9.804185e-001	-1.521647e-001	1.745260e-002	3.597060e-002
6253913.380	1.841269e-002	3.592728e-002	9.800249e-001	-1.536284e-001	9.799204e-001	-1.535263e-001	1.778584e-002	3.637898e-002
6316452.464	1.882265e-002	3.629881e-002	9.794988e-001	-1.549769e-001	9.791909e-001	-1.551727e-001	1.823853e-002	3.645158e-002
6378991.548	1.923208e-002	3.643721e-002	9.788693e-001	-1.567779e-001	9.788866e-001	-1.564931e-001	1.873436e-002	3.662250e-002
6441530.632	1.961116e-002	3.664009e-002	9.782079e-001	-1.579364e-001	9.781923e-001	-1.580684e-001	1.924930e-002	3.700004e-002
6504069.715	2.006638e-002	3.688781e-002	9.775968e-001	-1.596375e-001	9.777458e-001	-1.594485e-001	1.971181e-002	3.726124e-002
6566608.799	2.066280e-002	3.707843e-002	9.771297e-001	-1.611202e-001	9.769880e-001	-1.609025e-001	2.010500e-002	3.771185e-002
6629147.883	2.109530e-002	3.745022e-002	9.764744e-001	-1.622051e-001	9.763663e-001	-1.623543e-001	2.062540e-002	3.780481e-002
6691686.967	2.144524e-002	3.771694e-002	9.757790e-001	-1.637468e-001	9.757249e-001	-1.637758e-001	2.114428e-002	3.813410e-002
6754226.051	2.185656e-002	3.792915e-002	9.751225e-001	-1.652584e-001	9.749679e-001	-1.653355e-001	2.139449e-002	3.818346e-002
6816765.134	2.243472e-002	3.812362e-002	9.745764e-001	-1.666101e-001	9.744974e-001	-1.665673e-001	2.195516e-002	3.858210e-002
6879304.218	2.278896e-002	3.820304e-002	9.739010e-001	-1.680104e-001	9.739164e-001	-1.679674e-001	2.241199e-002	3.872228e-002
6941843.302	2.335370e-002	3.855444e-002	9.732351e-001	-1.694561e-001	9.732258e-001	-1.693054e-001	2.288712e-002	3.899611e-002
7004382.386	2.366843e-002	3.882868e-002	9.726868e-001	-1.707047e-001	9.725383e-001	-1.706989e-001	2.330577e-002	3.924857e-002
7066921.470	2.423976e-002	3.895325e-002	9.719553e-001	-1.722033e-001	9.719896e-001	-1.718708e-001	2.392594e-002	3.925979e-002
7129460.553	2.460209e-002	3.901848e-002	9.714249e-001	-1.733809e-001	9.713911e-001	-1.733813e-001	2.441573e-002	3.947609e-002
7191999.637	2.510294e-002	3.942191e-002	9.705315e-001	-1.748161e-001	9.705597e-001	-1.747151e-001	2.475746e-002	3.966239e-002
7254538.721	2.562471e-002	3.945339e-002	9.702150e-001	-1.761612e-001	9.700986e-001	-1.761083e-001	2.530348e-002	3.983036e-002
7317077.805	2.627727e-002	3.955554e-002	9.695086e-001	-1.774122e-001	9.694536e-001	-1.773586e-001	2.577952e-002	3.986849e-002
7379616.889	2.663638e-002	3.972321e-002	9.689450e-001	-1.789140e-001	9.687201e-001	-1.786875e-001	2.619831e-002	4.004243e-002
7442155.972	2.696254e-002	3.986350e-002	9.681529e-001	-1.800691e-001	9.680936e-001	-1.799503e-001	2.679997e-002	4.036439e-002
7504695.056	2.749196e-002	3.988410e-002	9.674489e-001	-1.812786e-001	9.673095e-001	-1.813884e-001	2.732398e-002	4.055531e-002
7567234.140	2.813491e-002	3.992406e-002	9.668891e-001	-1.825204e-001	9.666871e-001	-1.826251e-001	2.772448e-002	4.057017e-002
7629773.224	2.854311e-002	4.031014e-002	9.662806e-001	-1.840265e-001	9.661485e-001	-1.838582e-001	2.814003e-002	4.063736e-002
7692312.308	2.890661e-002	4.036233e-002	9.656002e-001	-1.852518e-001	9.653998e-001	-1.852184e-001	2.866176e-002	4.064694e-002
7754851.391	2.934735e-002	4.030936e-002	9.649142e-001	-1.865829e-001	9.646477e-001	-1.862970e-001	2.910643e-002	4.087166e-002
7817390.475	2.992327e-002	4.058332e-002	9.642698e-001	-1.879135e-001	9.640308e-001	-1.877578e-001	2.953091e-002	4.105481e-002
7879929.559	3.029857e-002	4.049404e-002	9.635318e-001	-1.891768e-001	9.633508e-001	-1.891760e-001	3.012164e-002	4.111546e-002
7942468.643	3.072946e-002	4.052739e-002	9.630389e-001	-1.903643e-001	9.628428e-001	-1.903379e-001	3.055831e-002	4.101802e-002
8005007.727	3.129187e-002	4.059954e-002	9.622350e-001	-1.916031e-001	9.621385e-001	-1.915557e-001	3.097658e-002	4.131720e-002
8067546.811	3.162031e-002	4.070901e-002	9.616230e-001	-1.928694e-001	9.613893e-001	-1.926964e-001	3.134027e-002	4.117230e-002
8130085.894	3.215272e-002	4.068258e-002	9.609486e-001	-1.939502e-001	9.608171e-001	-1.939984e-001	3.201758e-002	4.115434e-002
8192624.978	3.246615e-002	4.067904e-002	9.601168e-001	-1.953561e-001	9.601692e-001	-1.951694e-001	3.252201e-002	4.118203e-002
8255164.062	3.303509e-002	4.072348e-002	9.596269e-001	-1.964919e-001	9.594584e-001	-1.963928e-001	3.294225e-002	4.117817e-002
8317703.146	3.339025e-002	4.088497e-002	9.589783e-001	-1.977146e-001	9.589112e-001	-1.975871e-001	3.325892e-002	4.129527e-002
8380242.230	3.393522e-002	4.066687e-002	9.581971e-001	-1.990055e-001	9.581432e-001	-1.987121e-001	3.367002e-002	4.125954e-002
8442781.313	3.438521e-002	4.073034e-002	9.578016e-001	-2.000690e-001	9.575739e-001	-1.998981e-001	3.410821e-002	4.120397e-002
8505320.397	3.483962e-002	4.086850e-002	9.570649e-001	-2.013345e-001	9.568706e-001	-2.010986e-001	3.452219e-002	4.125856e-002
8567859.481	3.527320e-002	4.101806e-002	9.563490e-001	-2.023124e-001	9.562960e-001	-2.023150e-001	3.503007e-002	4.141952e-002
8630398.565	3.579146e-002	4.096531e-002	9.555871e-001	-2.034484e-001	9.556509e-001	-2.034206e-001	3.534197e-002	4.119192e-002
8692937.649	3.615324e-002	4.075580e-002	9.550365e-001	-2.046412e-001	9.548322e-001	-2.046152e-001	3.573813e-002	4.128722e-002
8755476.732	3.661738e-002	4.081839e-002	9.544211e-001	-2.058873e-001	9.542354e-001	-2.056752e-001	3.624811e-002	4.128577e-002
8818015.816	3.694389e-002	4.077732e-002	9.536865e-001	-2.070287e-001	9.534430e-001	-2.068740e-001	3.677848e-002	4.117612e-002
8880554.900	3.758588e-002	4.076148e-002	9.531752e-001	-2.081994e-001	9.530675e-001	-2.079159e-001	3.707184e-002	4.102116e-002
8943093.984	3.786555e-002	4.086835e-002	9.525035e-001	-2.092616e-001	9.524476e-001	-2.090919e-001	3.752736e-002	4.104067e-002
9005633.068	3.835047e-002	4.073190e-002	9.517886e-001	-2.104350e-001	9.518566e-001	-2.103918e-001	3.785440e-002	4.089970e-002
9068172.151	3.863136e-002	4.071708e-002	9.512536e-001	-2.115951e-001	9.510832e-001	-2.113498e-001	3.833786e-002	4.089902e-002
9130711.235	3.926217e-002	4.057982e-002	9.505472e-001	-2.127141e-001	9.505178e-001	-2.124901e-001	3.878247e-002	4.068844e-002
9193250.319	3.965860e-002	4.050225e-002	9.500857e-001	-2.137039e-001	9.498319e-001	-2.137047e-001	3.914634e-002	4.070120e-002
9255789.403	3.994436e-002	4.034191e-002	9.494596e-001	-2.147398e-001	9.491852e-001	-2.147449e-001	3.944864e-002	4.072234e-002
9318328.487	4.033438e-002	4.036514e-002	9.487455e-001	-2.160562e-001	9.487155e-001	-2.158055e-001	3.995268e-002	4.065337e-002
9380867.570	4.076236e-002	4.042394e-002	9.481292e-001	-2.172239e-001	9.478878e-001	-2.170447e-001	4.035748e-002	4.057089e-002
9443406.654	4.122099e-002	4.034357e-002	9.475256e-001	-2.181798e-001	9.474156e-001	-2.181945e-001	4.081136e-002	4.043590e-002
9505945.738	4.161981e-002	4.028477e-002	9.467373e-001	-2.194472e-001	9.468188e-001	-2.192787e-001	4.115759e-002	4.034731e-002
9568484.822	4.204323e-002	4.017849e-002	9.462487e-001	-2.204834e-001	9.459661e-001	-2.203421e-001	4.140738e-002	4.053470e-002
9631023.906	4.243299e-002	4.011231e-002	9.456530e-001	-2.215583e-001	9.453746e-001	-2.214723e-001	4.193846e-002	4.013663e-002
9693562.989	4.284674e-002	4.001541e-002	9.449361e-001	-2.226490e-001	9.448274e-001	-2.224196e-001	4.211271e-002	4.019948e-002
9756102.073	4.321419e-002	3.989515e-002	9.445227e-001	-2.237250e-001	9.442486e-001	-2.235008e-001	4.254096e-002	3.997475e-002
