!Agilent Technologies,E5061B,MY49102235,A.02.00
!Date: Tue Jul 11 16:43:24 2023
!Data & Calibration Information:
!Freq	S11:SOLT2(ON)	S21:SOLT2(ON)	S12:SOLT2(ON)	S22:SOLT2(ON)
# Hz S RI R 50
5.000	-5.183850e-003	-5.643853e-003	1.001884e+000	7.904953e-003	1.000437e+000	1.026709e-002	-1.533274e-003	-7.544261e-003
62544.084	5.806411e-003	-5.006984e-004	1.001449e+000	4.621021e-004	1.000892e+000	1.260341e-003	7.692753e-003	-2.887334e-003
125083.168	5.676748e-003	-4.962522e-004	1.001018e+000	-9.023432e-004	1.000671e+000	-7.852232e-004	7.491028e-003	-2.286585e-003
187622.251	5.451191e-003	-3.211530e-004	1.000510e+000	-2.229191e-003	1.000921e+000	-8.058135e-004	7.374493e-003	-2.380295e-003
250161.335	5.285820e-003	-1.964345e-004	1.000683e+000	-3.251110e-003	1.000691e+000	-2.956042e-003	7.248631e-003	-2.053433e-003
312700.419	5.428198e-003	5.383530e-004	1.000876e+000	-3.869510e-003	1.000596e+000	-3.590341e-003	7.759739e-003	-2.347071e-003
375239.503	5.309421e-003	-9.904659e-004	1.001090e+000	-5.299489e-003	1.000599e+000	-4.841481e-003	7.246644e-003	-2.529446e-003
437778.587	5.147029e-003	-5.927012e-004	1.001346e+000	-5.459372e-003	1.000938e+000	-5.960035e-003	6.617621e-003	-2.226155e-003
500317.670	4.600573e-003	-4.651052e-004	1.001235e+000	-7.885883e-003	1.001624e+000	-7.465628e-003	4.802272e-003	-2.080245e-003
562856.754	5.888381e-003	-7.756447e-004	1.001485e+000	-9.401144e-003	1.001178e+000	-9.088427e-003	5.998321e-003	-1.579176e-003
625395.838	5.075149e-003	-6.437194e-004	1.002353e+000	-1.052075e-002	1.002063e+000	-9.960536e-003	6.097891e-003	-1.005313e-003
687934.922	5.120509e-003	-9.916852e-004	1.001458e+000	-1.141742e-002	1.001292e+000	-1.150634e-002	5.734767e-003	-1.482889e-003
750474.006	4.363237e-003	-6.571005e-004	1.000901e+000	-1.100890e-002	1.000797e+000	-1.055422e-002	5.541946e-003	-1.321804e-003
813013.089	4.532847e-003	-6.344586e-004	1.001435e+000	-1.264934e-002	1.000647e+000	-1.225927e-002	4.889323e-003	-1.149689e-003
875552.173	4.261960e-003	-4.886374e-004	1.001268e+000	-1.369537e-002	1.000982e+000	-1.352787e-002	5.679110e-003	-1.554679e-003
938091.257	4.341602e-003	-4.216228e-004	1.001419e+000	-1.514734e-002	1.001131e+000	-1.462750e-002	5.914371e-003	-9.919771e-004
1000630.341	3.786907e-003	-7.898829e-004	1.000972e+000	-1.641144e-002	1.000959e+000	-1.593911e-002	5.156768e-003	-1.710964e-003
1063169.425	4.153092e-003	-9.625930e-004	1.001382e+000	-1.790583e-002	1.000793e+000	-1.687353e-002	4.348330e-003	-2.033735e-003
1125708.508	4.023855e-003	-9.178028e-004	1.000918e+000	-1.892175e-002	1.000748e+000	-1.811093e-002	3.845823e-003	-1.753851e-003
1188247.592	4.567935e-003	-1.367128e-003	1.001234e+000	-2.014050e-002	1.001062e+000	-1.916935e-002	2.745558e-003	-2.340951e-003
1250786.676	4.414147e-003	-2.121910e-003	1.000709e+000	-1.998547e-002	1.000669e+000	-1.992414e-002	2.013033e-003	-4.018290e-003
1313325.760	4.516718e-003	-2.219337e-003	1.001192e+000	-2.153284e-002	1.001012e+000	-2.154762e-002	2.753582e-003	-3.812823e-003
1375864.844	4.248557e-003	-2.432256e-003	1.000790e+000	-2.345514e-002	1.000518e+000	-2.334379e-002	2.614716e-003	-3.523118e-003
1438403.927	4.150387e-003	-2.599515e-003	1.000854e+000	-2.406110e-002	1.000821e+000	-2.328740e-002	2.672679e-003	-3.295823e-003
1500943.011	4.366276e-003	-2.531906e-003	1.001578e+000	-2.499499e-002	1.001430e+000	-2.461487e-002	3.029425e-003	-3.693697e-003
1563482.095	4.362793e-003	-2.918368e-003	1.001129e+000	-2.639661e-002	1.000693e+000	-2.524673e-002	3.160290e-003	-3.499308e-003
1626021.179	4.165777e-003	-2.799036e-003	1.000903e+000	-2.751401e-002	1.001003e+000	-2.802340e-002	3.440955e-003	-3.564925e-003
1688560.263	3.870454e-003	-2.738234e-003	1.000589e+000	-2.923624e-002	1.001315e+000	-2.910364e-002	3.617048e-003	-3.594003e-003
1751099.346	3.991223e-003	-2.660831e-003	1.001192e+000	-3.048574e-002	1.000697e+000	-2.968806e-002	3.416165e-003	-2.748348e-003
1813638.430	3.644385e-003	-2.709882e-003	1.001483e+000	-3.197379e-002	1.001025e+000	-3.148609e-002	3.611219e-003	-3.151858e-003
1876177.514	3.687588e-003	-2.443366e-003	1.001952e+000	-3.295876e-002	1.001347e+000	-3.309314e-002	3.268545e-003	-2.485850e-003
1938716.598	3.125333e-003	-2.358852e-003	1.001990e+000	-3.367245e-002	1.001458e+000	-3.304382e-002	3.446521e-003	-2.113043e-003
2001255.682	3.037898e-003	-2.850781e-003	1.001846e+000	-3.503039e-002	1.001290e+000	-3.461671e-002	3.188922e-003	-2.573258e-003
2063794.765	3.127086e-003	-2.480237e-003	1.001536e+000	-3.613878e-002	1.000771e+000	-3.618908e-002	3.582431e-003	-2.675131e-003
2126333.849	2.678281e-003	-3.015303e-003	1.000963e+000	-3.731268e-002	1.000176e+000	-3.662297e-002	3.833811e-003	-2.433578e-003
2188872.933	3.145550e-003	-3.018211e-003	1.000637e+000	-3.846885e-002	1.000253e+000	-3.756786e-002	3.719235e-003	-2.489816e-003
2251412.017	3.260563e-003	-3.403109e-003	1.000522e+000	-4.002801e-002	1.000224e+000	-3.866669e-002	3.707957e-003	-2.615857e-003
2313951.101	3.564707e-003	-2.989359e-003	9.998717e-001	-4.099451e-002	1.000279e+000	-3.950352e-002	4.015299e-003	-2.699154e-003
2376490.184	3.314010e-003	-3.020889e-003	9.998985e-001	-4.129671e-002	1.000219e+000	-4.162820e-002	3.973046e-003	-2.713672e-003
2439029.268	3.766826e-003	-3.088298e-003	9.997949e-001	-4.316483e-002	9.992879e-001	-4.250067e-002	3.627073e-003	-2.621099e-003
2501568.352	3.737623e-003	-3.084865e-003	9.995961e-001	-4.330409e-002	1.000114e+000	-4.307187e-002	3.913924e-003	-2.653200e-003
2564107.436	3.648870e-003	-3.259756e-003	9.998585e-001	-4.506416e-002	9.999296e-001	-4.474441e-002	3.235986e-003	-3.057446e-003
2626646.520	4.132486e-003	-3.448771e-003	9.997952e-001	-4.609480e-002	9.988981e-001	-4.569480e-002	3.484729e-003	-3.111299e-003
2689185.604	4.077283e-003	-3.305614e-003	1.000080e+000	-4.688312e-002	9.995570e-001	-4.641333e-002	3.587201e-003	-3.086764e-003
2751724.687	4.188727e-003	-3.416657e-003	9.999441e-001	-4.759730e-002	9.995140e-001	-4.724120e-002	3.196804e-003	-3.149794e-003
2814263.771	4.138694e-003	-3.497722e-003	9.991056e-001	-4.949008e-002	9.993141e-001	-4.860032e-002	3.168940e-003	-3.277035e-003
2876802.855	4.086161e-003	-3.725702e-003	9.991054e-001	-5.081964e-002	9.992954e-001	-4.973181e-002	3.257198e-003	-3.183247e-003
2939341.939	4.203744e-003	-3.666188e-003	9.997710e-001	-5.131657e-002	9.989767e-001	-5.111275e-002	3.142950e-003	-3.297364e-003
3001881.023	4.124439e-003	-3.674627e-003	9.994143e-001	-5.253095e-002	9.990363e-001	-5.219588e-002	3.231764e-003	-3.464638e-003
3064420.106	4.175667e-003	-3.729863e-003	9.999628e-001	-5.353024e-002	9.991235e-001	-5.321713e-002	3.067484e-003	-3.600093e-003
3126959.190	4.354276e-003	-3.861261e-003	9.995420e-001	-5.469480e-002	9.992114e-001	-5.437184e-002	3.244498e-003	-3.691329e-003
3189498.274	4.348095e-003	-3.858546e-003	9.993983e-001	-5.571376e-002	9.991025e-001	-5.548382e-002	3.233845e-003	-3.780528e-003
3252037.358	4.239261e-003	-4.251073e-003	9.995126e-001	-5.682812e-002	9.991913e-001	-5.643764e-002	3.170309e-003	-3.746573e-003
3314576.442	4.258482e-003	-4.103175e-003	9.993940e-001	-5.784230e-002	9.990223e-001	-5.762032e-002	3.234003e-003	-3.877005e-003
3377115.525	4.225402e-003	-4.137637e-003	9.991790e-001	-5.885977e-002	9.988197e-001	-5.885756e-002	3.074755e-003	-4.047647e-003
3439654.609	4.225148e-003	-4.234809e-003	9.989514e-001	-5.996055e-002	9.990693e-001	-5.984149e-002	3.080501e-003	-3.902672e-003
3502193.693	4.187712e-003	-4.568309e-003	9.989899e-001	-6.122467e-002	9.987516e-001	-6.079180e-002	3.243048e-003	-3.976098e-003
3564732.777	4.227999e-003	-4.475722e-003	9.990060e-001	-6.221986e-002	9.987548e-001	-6.199496e-002	3.335426e-003	-3.998151e-003
3627271.861	4.073470e-003	-4.647384e-003	9.990253e-001	-6.339590e-002	9.987987e-001	-6.296576e-002	3.106839e-003	-4.250348e-003
3689810.944	3.968235e-003	-4.807425e-003	9.988677e-001	-6.452860e-002	9.986560e-001	-6.403380e-002	3.257260e-003	-4.280733e-003
3752350.028	4.086711e-003	-4.832020e-003	9.987600e-001	-6.534655e-002	9.984335e-001	-6.506454e-002	3.191863e-003	-4.377940e-003
3814889.112	4.191486e-003	-4.743310e-003	9.985886e-001	-6.650510e-002	9.986522e-001	-6.642233e-002	3.094426e-003	-4.562135e-003
3877428.196	4.130969e-003	-4.779189e-003	9.987621e-001	-6.767076e-002	9.985282e-001	-6.730864e-002	3.426474e-003	-4.586330e-003
3939967.280	4.091602e-003	-5.126318e-003	9.986157e-001	-6.881718e-002	9.985333e-001	-6.841521e-002	3.391444e-003	-4.563163e-003
4002506.363	4.151217e-003	-5.051700e-003	9.986006e-001	-6.984392e-002	9.983904e-001	-6.936955e-002	3.331062e-003	-4.691119e-003
4065045.447	3.964977e-003	-5.196335e-003	9.983431e-001	-7.101269e-002	9.981933e-001	-7.059735e-002	3.424507e-003	-4.852367e-003
4127584.531	3.937223e-003	-5.273362e-003	9.982726e-001	-7.202044e-002	9.981885e-001	-7.154487e-002	3.421372e-003	-4.803623e-003
4190123.615	3.961445e-003	-5.312033e-003	9.982865e-001	-7.327597e-002	9.979953e-001	-7.279013e-002	3.336274e-003	-5.087850e-003
4252662.699	3.917313e-003	-5.451318e-003	9.983205e-001	-7.441577e-002	9.978861e-001	-7.404562e-002	3.435384e-003	-5.131013e-003
4315201.782	4.054261e-003	-5.561969e-003	9.981623e-001	-7.524811e-002	9.980812e-001	-7.511419e-002	3.246009e-003	-5.388625e-003
4377740.866	3.949431e-003	-5.662551e-003	9.982225e-001	-7.650475e-002	9.977373e-001	-7.619073e-002	3.416785e-003	-5.163085e-003
4440279.950	3.834980e-003	-5.854668e-003	9.980920e-001	-7.743954e-002	9.975885e-001	-7.718202e-002	3.304680e-003	-5.396601e-003
4502819.034	3.828747e-003	-5.793304e-003	9.977631e-001	-7.864918e-002	9.976563e-001	-7.825416e-002	3.363824e-003	-5.320111e-003
4565358.118	3.742576e-003	-5.909222e-003	9.977347e-001	-7.966483e-002	9.974180e-001	-7.913047e-002	3.369532e-003	-5.497932e-003
4627897.201	3.917807e-003	-5.846408e-003	9.978285e-001	-8.076122e-002	9.974093e-001	-8.023854e-002	3.480706e-003	-5.457937e-003
4690436.285	3.741759e-003	-6.044777e-003	9.977707e-001	-8.194539e-002	9.974079e-001	-8.171144e-002	3.464908e-003	-5.716261e-003
4752975.369	3.728214e-003	-6.136622e-003	9.974341e-001	-8.311061e-002	9.973881e-001	-8.270096e-002	3.290383e-003	-5.853205e-003
4815514.453	3.836532e-003	-6.208045e-003	9.975316e-001	-8.412125e-002	9.972407e-001	-8.389944e-002	3.489627e-003	-5.830835e-003
4878053.537	3.933209e-003	-6.372889e-003	9.975013e-001	-8.512456e-002	9.971803e-001	-8.479294e-002	3.454520e-003	-5.996203e-003
4940592.620	3.659149e-003	-6.404902e-003	9.972705e-001	-8.628955e-002	9.970820e-001	-8.597132e-002	3.216540e-003	-6.105105e-003
5003131.704	3.724578e-003	-6.616709e-003	9.971604e-001	-8.732894e-002	9.970735e-001	-8.683345e-002	3.329429e-003	-6.233716e-003
5065670.788	3.639312e-003	-6.497531e-003	9.970892e-001	-8.851766e-002	9.969397e-001	-8.798351e-002	3.303667e-003	-6.279179e-003
5128209.872	3.757594e-003	-6.722603e-003	9.971663e-001	-8.955490e-002	9.967803e-001	-8.910542e-002	3.261932e-003	-6.555253e-003
5190748.956	3.670944e-003	-6.811773e-003	9.969226e-001	-9.067800e-002	9.968169e-001	-9.032938e-002	3.217701e-003	-6.517010e-003
5253288.039	3.699662e-003	-6.935613e-003	9.969475e-001	-9.172875e-002	9.966842e-001	-9.136815e-002	3.140893e-003	-6.510734e-003
5315827.123	3.661526e-003	-7.081996e-003	9.966502e-001	-9.281403e-002	9.965645e-001	-9.247831e-002	3.116956e-003	-6.692982e-003
5378366.207	3.741890e-003	-7.107245e-003	9.967437e-001	-9.393179e-002	9.964839e-001	-9.377724e-002	3.089103e-003	-6.869207e-003
5440905.291	3.539562e-003	-7.116198e-003	9.966770e-001	-9.504545e-002	9.963932e-001	-9.472319e-002	2.983135e-003	-6.908491e-003
5503444.375	3.734079e-003	-7.345749e-003	9.965151e-001	-9.620406e-002	9.964112e-001	-9.566921e-002	3.166459e-003	-7.067478e-003
5565983.458	3.379212e-003	-7.319281e-003	9.964843e-001	-9.718894e-002	9.962624e-001	-9.670383e-002	3.082576e-003	-6.993291e-003
5628522.542	3.622344e-003	-7.466555e-003	9.963933e-001	-9.818059e-002	9.961777e-001	-9.792923e-002	3.126663e-003	-7.203346e-003
5691061.626	3.680442e-003	-7.728057e-003	9.962138e-001	-9.947958e-002	9.960079e-001	-9.907536e-002	3.009213e-003	-7.228261e-003
5753600.710	3.524561e-003	-7.732214e-003	9.960577e-001	-1.004543e-001	9.959262e-001	-1.000914e-001	3.057507e-003	-7.459575e-003
5816139.794	3.612401e-003	-7.640008e-003	9.960502e-001	-1.015327e-001	9.956947e-001	-1.014122e-001	2.905646e-003	-7.496935e-003
5878678.877	3.499354e-003	-7.961923e-003	9.958967e-001	-1.027164e-001	9.956684e-001	-1.023177e-001	3.007843e-003	-7.719900e-003
5941217.961	3.479180e-003	-8.115661e-003	9.957463e-001	-1.038905e-001	9.955396e-001	-1.033071e-001	2.796273e-003	-7.718114e-003
6003757.045	3.320340e-003	-7.980452e-003	9.955075e-001	-1.048126e-001	9.954286e-001	-1.043665e-001	2.909621e-003	-7.816098e-003
6066296.129	3.435658e-003	-8.256295e-003	9.955939e-001	-1.059509e-001	9.953395e-001	-1.054397e-001	2.885920e-003	-7.948802e-003
6128835.213	3.515025e-003	-8.320783e-003	9.954567e-001	-1.067413e-001	9.953707e-001	-1.066153e-001	2.966333e-003	-8.034485e-003
6191374.296	3.440452e-003	-8.437262e-003	9.952792e-001	-1.080614e-001	9.950694e-001	-1.079232e-001	2.782380e-003	-8.032304e-003
6253913.380	3.347542e-003	-8.401973e-003	9.952298e-001	-1.091774e-001	9.949886e-001	-1.087880e-001	2.664002e-003	-8.025902e-003
6316452.464	3.301512e-003	-8.405089e-003	9.951173e-001	-1.101468e-001	9.947534e-001	-1.101002e-001	2.694093e-003	-8.324978e-003
6378991.548	3.262729e-003	-8.661695e-003	9.949861e-001	-1.115907e-001	9.948693e-001	-1.110268e-001	2.735618e-003	-8.545645e-003
6441530.632	3.192437e-003	-8.826206e-003	9.947519e-001	-1.123788e-001	9.946597e-001	-1.122035e-001	2.772939e-003	-8.516408e-003
6504069.715	3.170454e-003	-8.939023e-003	9.946795e-001	-1.137184e-001	9.946846e-001	-1.132485e-001	2.772321e-003	-8.616592e-003
6566608.799	3.287407e-003	-9.093973e-003	9.946864e-001	-1.148456e-001	9.944344e-001	-1.143945e-001	2.647641e-003	-8.510191e-003
6629147.883	3.225922e-003	-9.039786e-003	9.944780e-001	-1.156214e-001	9.942679e-001	-1.154839e-001	2.727272e-003	-8.749774e-003
6691686.967	3.094028e-003	-9.116544e-003	9.942358e-001	-1.168110e-001	9.941001e-001	-1.165099e-001	2.739825e-003	-8.758878e-003
6754226.051	3.024628e-003	-9.229479e-003	9.941312e-001	-1.180191e-001	9.938863e-001	-1.177880e-001	2.523684e-003	-9.050778e-003
6816765.134	3.112332e-003	-9.332089e-003	9.940793e-001	-1.189987e-001	9.939125e-001	-1.187452e-001	2.555382e-003	-8.944210e-003
6879304.218	2.980020e-003	-9.581076e-003	9.939051e-001	-1.201290e-001	9.938104e-001	-1.197763e-001	2.538453e-003	-9.106414e-003
6941843.302	3.037299e-003	-9.512346e-003	9.937537e-001	-1.212903e-001	9.936352e-001	-1.208533e-001	2.517985e-003	-9.119446e-003
7004382.386	2.826566e-003	-9.537090e-003	9.936939e-001	-1.222333e-001	9.934373e-001	-1.219713e-001	2.405453e-003	-9.177549e-003
7066921.470	2.905376e-003	-9.688699e-003	9.935007e-001	-1.235104e-001	9.933949e-001	-1.228516e-001	2.558432e-003	-9.411566e-003
7129460.553	2.777595e-003	-9.884667e-003	9.933805e-001	-1.243829e-001	9.932547e-001	-1.240689e-001	2.541144e-003	-9.448349e-003
7191999.637	2.753639e-003	-9.738683e-003	9.930616e-001	-1.255577e-001	9.929373e-001	-1.251578e-001	2.376036e-003	-9.538504e-003
7254538.721	2.787312e-003	-9.931382e-003	9.932247e-001	-1.267040e-001	9.930031e-001	-1.262739e-001	2.400623e-003	-9.614882e-003
7317077.805	2.942761e-003	-1.005843e-002	9.929940e-001	-1.276721e-001	9.928486e-001	-1.273342e-001	2.368440e-003	-9.812893e-003
7379616.889	2.793019e-003	-1.014084e-002	9.930268e-001	-1.289450e-001	9.926443e-001	-1.284489e-001	2.297377e-003	-9.870165e-003
7442155.972	2.617135e-003	-1.023225e-002	9.927157e-001	-1.298576e-001	9.925721e-001	-1.294801e-001	2.370032e-003	-9.741923e-003
7504695.056	2.635627e-003	-1.041988e-002	9.924772e-001	-1.308571e-001	9.922756e-001	-1.306901e-001	2.376506e-003	-9.766997e-003
7567234.140	2.790308e-003	-1.056885e-002	9.924645e-001	-1.319220e-001	9.921348e-001	-1.317277e-001	2.277505e-003	-9.967187e-003
7629773.224	2.674547e-003	-1.036849e-002	9.923379e-001	-1.332342e-001	9.921528e-001	-1.327658e-001	2.184228e-003	-1.010969e-002
7692312.308	2.517101e-003	-1.051434e-002	9.922139e-001	-1.342798e-001	9.919092e-001	-1.339849e-001	2.220510e-003	-1.027859e-002
7754851.391	2.478991e-003	-1.077378e-002	9.920137e-001	-1.353592e-001	9.916456e-001	-1.348654e-001	2.139289e-003	-1.023165e-002
7817390.475	2.531792e-003	-1.063558e-002	9.918797e-001	-1.366000e-001	9.915662e-001	-1.361714e-001	2.038829e-003	-1.020968e-002
7879929.559	2.418041e-003	-1.090899e-002	9.916271e-001	-1.376945e-001	9.913808e-001	-1.373938e-001	2.142670e-003	-1.030316e-002
7942468.643	2.358977e-003	-1.105353e-002	9.916085e-001	-1.386476e-001	9.913406e-001	-1.384155e-001	2.099742e-003	-1.056203e-002
8005007.727	2.441389e-003	-1.109788e-002	9.913293e-001	-1.398515e-001	9.912297e-001	-1.394490e-001	1.978284e-003	-1.042482e-002
8067546.811	2.258674e-003	-1.115111e-002	9.912358e-001	-1.408443e-001	9.908708e-001	-1.404874e-001	1.867335e-003	-1.072660e-002
8130085.894	2.305462e-003	-1.129080e-002	9.910336e-001	-1.418420e-001	9.908452e-001	-1.416189e-001	2.074633e-003	-1.085581e-002
8192624.978	2.116665e-003	-1.145167e-002	9.907095e-001	-1.430860e-001	9.906636e-001	-1.426509e-001	2.086110e-003	-1.096622e-002
8255164.062	2.207711e-003	-1.152324e-002	9.906811e-001	-1.441219e-001	9.904977e-001	-1.437863e-001	2.030711e-003	-1.108794e-002
8317703.146	2.057837e-003	-1.148901e-002	9.906027e-001	-1.452193e-001	9.903952e-001	-1.448650e-001	1.820891e-003	-1.110937e-002
8380242.230	2.154219e-003	-1.181535e-002	9.902749e-001	-1.464041e-001	9.901391e-001	-1.458593e-001	1.764089e-003	-1.126183e-002
8442781.313	2.092088e-003	-1.185675e-002	9.903528e-001	-1.473917e-001	9.900719e-001	-1.469566e-001	1.714849e-003	-1.143725e-002
8505320.397	2.054845e-003	-1.181462e-002	9.901353e-001	-1.485279e-001	9.898666e-001	-1.480965e-001	1.639496e-003	-1.146626e-002
8567859.481	1.969735e-003	-1.174671e-002	9.898906e-001	-1.494519e-001	9.897839e-001	-1.491586e-001	1.650962e-003	-1.139143e-002
8630398.565	2.022857e-003	-1.188010e-002	9.895702e-001	-1.504989e-001	9.896182e-001	-1.501736e-001	1.487753e-003	-1.172303e-002
8692937.649	1.941529e-003	-1.218816e-002	9.894920e-001	-1.515955e-001	9.892736e-001	-1.513160e-001	1.399742e-003	-1.172094e-002
8755476.732	1.921672e-003	-1.219588e-002	9.894072e-001	-1.527864e-001	9.891116e-001	-1.522574e-001	1.436432e-003	-1.178242e-002
8818015.816	1.780099e-003	-1.232144e-002	9.891270e-001	-1.538438e-001	9.887796e-001	-1.534564e-001	1.516222e-003	-1.195436e-002
8880554.900	1.945205e-003	-1.237045e-002	9.890894e-001	-1.549604e-001	9.889230e-001	-1.543531e-001	1.346969e-003	-1.221150e-002
8943093.984	1.747795e-003	-1.234623e-002	9.889153e-001	-1.559531e-001	9.887435e-001	-1.554639e-001	1.332646e-003	-1.223098e-002
9005633.068	1.767147e-003	-1.253459e-002	9.885947e-001	-1.570840e-001	9.885969e-001	-1.566680e-001	1.195490e-003	-1.245697e-002
9068172.151	1.592166e-003	-1.262509e-002	9.885529e-001	-1.581524e-001	9.882689e-001	-1.576427e-001	1.213890e-003	-1.249212e-002
9130711.235	1.773560e-003	-1.277278e-002	9.883008e-001	-1.592659e-001	9.881666e-001	-1.586864e-001	1.228544e-003	-1.277353e-002
9193250.319	1.725019e-003	-1.288443e-002	9.882709e-001	-1.601931e-001	9.879625e-001	-1.598959e-001	1.116093e-003	-1.278589e-002
9255789.403	1.585605e-003	-1.312429e-002	9.881022e-001	-1.611834e-001	9.877822e-001	-1.608814e-001	9.426326e-004	-1.281918e-002
9318328.487	1.497108e-003	-1.312019e-002	9.878496e-001	-1.625064e-001	9.877524e-001	-1.619329e-001	1.022978e-003	-1.290293e-002
9380867.570	1.470147e-003	-1.309005e-002	9.877473e-001	-1.635700e-001	9.873965e-001	-1.631506e-001	9.794490e-004	-1.301013e-002
9443406.654	1.477162e-003	-1.317361e-002	9.875694e-001	-1.645593e-001	9.873816e-001	-1.642683e-001	9.814099e-004	-1.317626e-002
9505945.738	1.419966e-003	-1.324606e-002	9.872011e-001	-1.658268e-001	9.872294e-001	-1.653047e-001	8.957914e-004	-1.327742e-002
9568484.822	1.428467e-003	-1.336658e-002	9.871787e-001	-1.668536e-001	9.867941e-001	-1.663637e-001	6.523886e-004	-1.311741e-002
