!Agilent Technologies,E5061B,MY49102235,A.02.00
!Date: Tue Jul 11 16:38:29 2023
!Data & Calibration Information:
!Freq	S11:SOLT2(ON)	S21:SOLT2(ON)	S12:SOLT2(ON)	S22:SOLT2(ON)
# Hz S RI R 50
5.000	-5.248972e-003	-5.646831e-003	1.001637e+000	7.998732e-003	1.000348e+000	1.022934e-002	-1.523587e-003	-7.539372e-003
62544.084	5.811124e-003	-4.613031e-004	1.001388e+000	5.895724e-004	1.000890e+000	1.156587e-003	7.695763e-003	-2.848813e-003
125083.168	5.671525e-003	-4.157828e-004	1.000941e+000	-8.959640e-004	1.000868e+000	-8.943718e-004	7.479896e-003	-2.221416e-003
187622.251	5.444469e-003	-2.030266e-004	1.000505e+000	-2.281227e-003	1.000985e+000	-9.648604e-004	7.383520e-003	-2.265567e-003
250161.335	5.292128e-003	-2.661628e-005	1.000569e+000	-3.204881e-003	1.000752e+000	-3.344588e-003	7.243088e-003	-1.872345e-003
312700.419	5.434742e-003	7.318890e-004	1.000802e+000	-3.918332e-003	1.000595e+000	-3.696290e-003	7.783670e-003	-2.146311e-003
375239.503	5.289225e-003	-7.383895e-004	1.001137e+000	-5.463267e-003	1.000507e+000	-5.159828e-003	7.271893e-003	-2.270913e-003
437778.587	5.149300e-003	-3.073782e-004	1.001323e+000	-5.588094e-003	1.000937e+000	-6.443709e-003	6.630877e-003	-1.933538e-003
500317.670	4.564767e-003	-1.365559e-004	1.001342e+000	-8.089285e-003	1.001726e+000	-7.925622e-003	4.805268e-003	-1.736341e-003
562856.754	5.891627e-003	-3.988409e-004	1.001432e+000	-9.741416e-003	1.001108e+000	-9.450203e-003	6.030800e-003	-1.195454e-003
625395.838	5.071294e-003	-2.251122e-004	1.002240e+000	-1.089573e-002	1.002286e+000	-1.037175e-002	6.086144e-003	-6.149565e-004
687934.922	5.130247e-003	-5.439151e-004	1.001407e+000	-1.172661e-002	1.001298e+000	-1.198336e-002	5.739435e-003	-1.040970e-003
750474.006	4.359148e-003	-1.430037e-004	1.000844e+000	-1.143443e-002	1.000799e+000	-1.110734e-002	5.538890e-003	-8.119032e-004
813013.089	4.527383e-003	-9.464227e-005	1.001075e+000	-1.310862e-002	1.000679e+000	-1.288943e-002	4.909865e-003	-5.960365e-004
875552.173	4.267596e-003	1.131716e-004	1.001119e+000	-1.408749e-002	1.001046e+000	-1.412534e-002	5.679050e-003	-9.734729e-004
938091.257	4.364085e-003	2.195976e-004	1.001250e+000	-1.570797e-002	1.001344e+000	-1.536797e-002	5.932508e-003	-3.494816e-004
1000630.341	3.799055e-003	-1.154911e-004	1.000799e+000	-1.709679e-002	1.001144e+000	-1.652442e-002	5.175310e-003	-1.018615e-003
1063169.425	4.167654e-003	-2.197884e-004	1.001135e+000	-1.848754e-002	1.000802e+000	-1.760650e-002	4.352438e-003	-1.313907e-003
1125708.508	4.055222e-003	-1.547146e-004	1.000935e+000	-1.959111e-002	1.000711e+000	-1.885359e-002	3.855083e-003	-9.939217e-004
1188247.592	4.595096e-003	-5.666732e-004	1.001099e+000	-2.092024e-002	1.001097e+000	-2.013654e-002	2.765984e-003	-1.529363e-003
1250786.676	4.429216e-003	-1.262812e-003	1.000808e+000	-2.065702e-002	1.000850e+000	-2.086618e-002	2.019117e-003	-3.153744e-003
1313325.760	4.555337e-003	-1.330562e-003	1.000976e+000	-2.225714e-002	1.001055e+000	-2.254213e-002	2.763218e-003	-2.918986e-003
1375864.844	4.268376e-003	-1.500885e-003	1.000738e+000	-2.428741e-002	1.000669e+000	-2.429536e-002	2.623467e-003	-2.596530e-003
1438403.927	4.167917e-003	-1.622109e-003	1.000690e+000	-2.501236e-002	1.000935e+000	-2.424948e-002	2.702215e-003	-2.309148e-003
1500943.011	4.393678e-003	-1.521689e-003	1.001365e+000	-2.591449e-002	1.001417e+000	-2.588422e-002	3.064625e-003	-2.687595e-003
1563482.095	4.394074e-003	-1.863233e-003	1.000834e+000	-2.729007e-002	1.000700e+000	-2.649957e-002	3.189832e-003	-2.448439e-003
1626021.179	4.200599e-003	-1.696646e-003	1.000859e+000	-2.865472e-002	1.001182e+000	-2.906381e-002	3.474562e-003	-2.442081e-003
1688560.263	3.905827e-003	-1.598192e-003	1.000542e+000	-3.027401e-002	1.001329e+000	-3.044468e-002	3.636119e-003	-2.445557e-003
1751099.346	4.036585e-003	-1.463788e-003	1.001085e+000	-3.153307e-002	1.000745e+000	-3.099594e-002	3.457478e-003	-1.566352e-003
1813638.430	3.676484e-003	-1.472355e-003	1.001426e+000	-3.307427e-002	1.001093e+000	-3.298194e-002	3.638923e-003	-1.920966e-003
1876177.514	3.727146e-003	-1.154969e-003	1.001676e+000	-3.400821e-002	1.001354e+000	-3.449228e-002	3.294225e-003	-1.198491e-003
1938716.598	3.185439e-003	-1.047479e-003	1.001867e+000	-3.489345e-002	1.001477e+000	-3.437144e-002	3.479778e-003	-7.839002e-004
2001255.682	3.075179e-003	-1.488134e-003	1.001716e+000	-3.635017e-002	1.001331e+000	-3.601773e-002	3.228097e-003	-1.215590e-003
2063794.765	3.182184e-003	-1.077468e-003	1.001332e+000	-3.743616e-002	1.000752e+000	-3.765040e-002	3.626101e-003	-1.267358e-003
2126333.849	2.725468e-003	-1.569490e-003	1.000837e+000	-3.870639e-002	1.000202e+000	-3.817597e-002	3.882591e-003	-9.963933e-004
2188872.933	3.218772e-003	-1.538601e-003	1.000642e+000	-3.989106e-002	1.000044e+000	-3.898310e-002	3.767830e-003	-9.999082e-004
2251412.017	3.313659e-003	-1.876777e-003	1.000345e+000	-4.140786e-002	1.000292e+000	-4.028220e-002	3.753354e-003	-1.093014e-003
2313951.101	3.641066e-003	-1.416739e-003	9.997752e-001	-4.244345e-002	1.000165e+000	-4.121214e-002	4.060235e-003	-1.140330e-003
2376490.184	3.393511e-003	-1.415043e-003	9.998438e-001	-4.275177e-002	1.000081e+000	-4.307186e-002	4.024384e-003	-1.095082e-003
2439029.268	3.831571e-003	-1.422018e-003	9.996346e-001	-4.468354e-002	9.994119e-001	-4.419236e-002	3.694525e-003	-9.510322e-004
2501568.352	3.812895e-003	-1.383410e-003	9.995280e-001	-4.478879e-002	1.000224e+000	-4.483454e-002	3.980772e-003	-9.565369e-004
2564107.436	3.721418e-003	-1.521595e-003	9.997307e-001	-4.668888e-002	9.998684e-001	-4.636269e-002	3.296809e-003	-1.310202e-003
2626646.520	4.214710e-003	-1.665527e-003	9.996231e-001	-4.779936e-002	9.988507e-001	-4.771260e-002	3.559532e-003	-1.353430e-003
2689185.604	4.175298e-003	-1.497210e-003	9.999379e-001	-4.852381e-002	9.995720e-001	-4.835340e-002	3.671627e-003	-1.266980e-003
2751724.687	4.282016e-003	-1.541837e-003	9.999274e-001	-4.941533e-002	9.994171e-001	-4.928421e-002	3.282855e-003	-1.281994e-003
2814263.771	4.238328e-003	-1.596498e-003	9.989193e-001	-5.128214e-002	9.992210e-001	-5.057555e-002	3.268014e-003	-1.376694e-003
2876802.855	4.183561e-003	-1.774419e-003	9.989504e-001	-5.276353e-002	9.990497e-001	-5.186234e-002	3.353978e-003	-1.229291e-003
2939341.939	4.297919e-003	-1.663657e-003	9.994872e-001	-5.320209e-002	9.990601e-001	-5.333186e-002	3.255484e-003	-1.312303e-003
3001881.023	4.234046e-003	-1.642115e-003	9.993150e-001	-5.444434e-002	9.988688e-001	-5.432707e-002	3.337838e-003	-1.427821e-003
3064420.106	4.289267e-003	-1.668031e-003	9.997107e-001	-5.544227e-002	9.988871e-001	-5.539554e-002	3.172789e-003	-1.523286e-003
3126959.190	4.479213e-003	-1.753316e-003	9.993362e-001	-5.672358e-002	9.991381e-001	-5.659086e-002	3.355372e-003	-1.567688e-003
3189498.274	4.450983e-003	-1.701467e-003	9.991707e-001	-5.774515e-002	9.990802e-001	-5.767674e-002	3.351495e-003	-1.616546e-003
3252037.358	4.372352e-003	-2.044164e-003	9.992858e-001	-5.892903e-002	9.990720e-001	-5.874226e-002	3.292730e-003	-1.540467e-003
3314576.442	4.379008e-003	-1.868136e-003	9.991656e-001	-5.998276e-002	9.989757e-001	-5.992414e-002	3.360247e-003	-1.639818e-003
3377115.525	4.355321e-003	-1.843999e-003	9.989550e-001	-6.098304e-002	9.986881e-001	-6.119940e-002	3.198394e-003	-1.762815e-003
3439654.609	4.364052e-003	-1.909230e-003	9.987807e-001	-6.220355e-002	9.989728e-001	-6.224906e-002	3.212780e-003	-1.571301e-003
3502193.693	4.322591e-003	-2.197048e-003	9.987382e-001	-6.348720e-002	9.986422e-001	-6.324328e-002	3.388987e-003	-1.607489e-003
3564732.777	4.375302e-003	-2.045399e-003	9.987998e-001	-6.451434e-002	9.986289e-001	-6.447267e-002	3.486514e-003	-1.577528e-003
3627271.861	4.223178e-003	-2.195628e-003	9.988231e-001	-6.570517e-002	9.986558e-001	-6.550123e-002	3.259859e-003	-1.785803e-003
3689810.944	4.133800e-003	-2.313267e-003	9.986444e-001	-6.685209e-002	9.985596e-001	-6.659766e-002	3.412792e-003	-1.781915e-003
3752350.028	4.251013e-003	-2.277567e-003	9.985258e-001	-6.773486e-002	9.983279e-001	-6.771060e-002	3.351198e-003	-1.820983e-003
3814889.112	4.362563e-003	-2.157700e-003	9.983848e-001	-6.891597e-002	9.985020e-001	-6.912069e-002	3.263179e-003	-1.959011e-003
3877428.196	4.304444e-003	-2.156030e-003	9.984978e-001	-7.014991e-002	9.983681e-001	-7.000908e-002	3.593063e-003	-1.960614e-003
3939967.280	4.277459e-003	-2.460348e-003	9.983869e-001	-7.134066e-002	9.983889e-001	-7.116175e-002	3.573750e-003	-1.884397e-003
4002506.363	4.331933e-003	-2.339025e-003	9.983254e-001	-7.242921e-002	9.982296e-001	-7.216311e-002	3.516502e-003	-1.978321e-003
4065045.447	4.155910e-003	-2.441003e-003	9.981049e-001	-7.358045e-002	9.980272e-001	-7.341420e-002	3.606677e-003	-2.099421e-003
4127584.531	4.140612e-003	-2.492302e-003	9.980044e-001	-7.472019e-002	9.980112e-001	-7.443144e-002	3.621393e-003	-2.000513e-003
4190123.615	4.180297e-003	-2.471235e-003	9.980358e-001	-7.604696e-002	9.978478e-001	-7.572302e-002	3.545018e-003	-2.264051e-003
4252662.699	4.128316e-003	-2.580146e-003	9.980683e-001	-7.716496e-002	9.976689e-001	-7.694668e-002	3.654280e-003	-2.248483e-003
4315201.782	4.267367e-003	-2.643086e-003	9.978803e-001	-7.805278e-002	9.979079e-001	-7.808932e-002	3.462017e-003	-2.471481e-003
4377740.866	4.179165e-003	-2.679856e-003	9.979091e-001	-7.936320e-002	9.975766e-001	-7.918254e-002	3.644586e-003	-2.196596e-003
4440279.950	4.073014e-003	-2.849514e-003	9.978234e-001	-8.031172e-002	9.974180e-001	-8.023163e-002	3.524358e-003	-2.390264e-003
4502819.034	4.065666e-003	-2.751439e-003	9.974318e-001	-8.159420e-002	9.974569e-001	-8.135114e-002	3.610706e-003	-2.265091e-003
4565358.118	3.965282e-003	-2.824703e-003	9.974082e-001	-8.263458e-002	9.971965e-001	-8.232744e-002	3.618690e-003	-2.404127e-003
4627897.201	4.166926e-003	-2.724722e-003	9.975332e-001	-8.377336e-002	9.972186e-001	-8.346870e-002	3.723855e-003	-2.326495e-003
4690436.285	3.988551e-003	-2.890473e-003	9.974207e-001	-8.495741e-002	9.971570e-001	-8.498721e-002	3.718433e-003	-2.563194e-003
4752975.369	3.991716e-003	-2.911546e-003	9.970765e-001	-8.622244e-002	9.971604e-001	-8.598320e-002	3.548219e-003	-2.655529e-003
4815514.453	4.101642e-003	-2.950515e-003	9.972197e-001	-8.723325e-002	9.970128e-001	-8.720592e-002	3.764629e-003	-2.582803e-003
4878053.537	4.204972e-003	-3.080608e-003	9.971836e-001	-8.833915e-002	9.969087e-001	-8.813086e-002	3.725446e-003	-2.693344e-003
4940592.620	3.939226e-003	-3.063627e-003	9.969502e-001	-8.949854e-002	9.968781e-001	-8.940325e-002	3.478035e-003	-2.756791e-003
5003131.704	4.012615e-003	-3.239874e-003	9.968123e-001	-9.062214e-002	9.968208e-001	-9.029857e-002	3.619861e-003	-2.854924e-003
5065670.788	3.936794e-003	-3.082493e-003	9.966824e-001	-9.179143e-002	9.966513e-001	-9.149462e-002	3.593825e-003	-2.840801e-003
5128209.872	4.068007e-003	-3.254988e-003	9.968112e-001	-9.290751e-002	9.965605e-001	-9.266975e-002	3.565026e-003	-3.085633e-003
5190748.956	3.969113e-003	-3.312159e-003	9.965560e-001	-9.402936e-002	9.965053e-001	-9.388880e-002	3.536277e-003	-2.993968e-003
5253288.039	4.011937e-003	-3.387478e-003	9.965648e-001	-9.520326e-002	9.964096e-001	-9.496694e-002	3.458199e-003	-2.956340e-003
5315827.123	3.975049e-003	-3.488558e-003	9.962700e-001	-9.631386e-002	9.962673e-001	-9.613263e-002	3.439577e-003	-3.104662e-003
5378366.207	4.071416e-003	-3.473588e-003	9.962748e-001	-9.747960e-002	9.962109e-001	-9.744813e-002	3.434879e-003	-3.236314e-003
5440905.291	3.884317e-003	-3.428352e-003	9.962622e-001	-9.859603e-002	9.960964e-001	-9.844231e-002	3.317823e-003	-3.220921e-003
5503444.375	4.090166e-003	-3.634602e-003	9.961362e-001	-9.982835e-002	9.960811e-001	-9.942840e-002	3.520973e-003	-3.340788e-003
5565983.458	3.739356e-003	-3.546440e-003	9.960406e-001	-1.008162e-001	9.959598e-001	-1.005230e-001	3.437043e-003	-3.221110e-003
5628522.542	3.985255e-003	-3.671196e-003	9.959486e-001	-1.018700e-001	9.958412e-001	-1.018435e-001	3.474695e-003	-3.409629e-003
5691061.626	4.057019e-003	-3.906217e-003	9.957753e-001	-1.032569e-001	9.956643e-001	-1.029595e-001	3.382713e-003	-3.398101e-003
5753600.710	3.895173e-003	-3.850089e-003	9.956115e-001	-1.042333e-001	9.956021e-001	-1.040452e-001	3.446780e-003	-3.567010e-003
5816139.794	4.003968e-003	-3.709055e-003	9.955584e-001	-1.054014e-001	9.952731e-001	-1.053832e-001	3.297670e-003	-3.567924e-003
5878678.877	3.899384e-003	-3.993381e-003	9.954301e-001	-1.065114e-001	9.953124e-001	-1.064208e-001	3.395934e-003	-3.748015e-003
5941217.961	3.889473e-003	-4.102143e-003	9.952867e-001	-1.077866e-001	9.951759e-001	-1.073547e-001	3.207279e-003	-3.712032e-003
6003757.045	3.729001e-003	-3.937439e-003	9.950265e-001	-1.087299e-001	9.950316e-001	-1.084938e-001	3.337924e-003	-3.771221e-003
6066296.129	3.867055e-003	-4.174604e-003	9.950686e-001	-1.098972e-001	9.949882e-001	-1.096090e-001	3.298335e-003	-3.849347e-003
6128835.213	3.956271e-003	-4.173546e-003	9.949500e-001	-1.107531e-001	9.949930e-001	-1.108588e-001	3.397555e-003	-3.893350e-003
6191374.296	3.879640e-003	-4.254402e-003	9.948089e-001	-1.121143e-001	9.946537e-001	-1.121591e-001	3.233694e-003	-3.858152e-003
6253913.380	3.792149e-003	-4.196975e-003	9.947321e-001	-1.133265e-001	9.945956e-001	-1.131011e-001	3.105784e-003	-3.799639e-003
6316452.464	3.750398e-003	-4.145248e-003	9.946244e-001	-1.143278e-001	9.943540e-001	-1.144376e-001	3.151109e-003	-4.064238e-003
6378991.548	3.723863e-003	-4.358710e-003	9.944794e-001	-1.158115e-001	9.944237e-001	-1.154205e-001	3.210218e-003	-4.236557e-003
6441530.632	3.662391e-003	-4.474753e-003	9.942241e-001	-1.166613e-001	9.942303e-001	-1.166769e-001	3.220955e-003	-4.175400e-003
6504069.715	3.642800e-003	-4.559071e-003	9.941295e-001	-1.179829e-001	9.942509e-001	-1.177381e-001	3.254716e-003	-4.226171e-003
6566608.799	3.794186e-003	-4.663138e-003	9.941541e-001	-1.191739e-001	9.939346e-001	-1.189099e-001	3.146255e-003	-4.086522e-003
6629147.883	3.744505e-003	-4.582387e-003	9.939014e-001	-1.199641e-001	9.937863e-001	-1.200451e-001	3.231542e-003	-4.290823e-003
6691686.967	3.612356e-003	-4.615139e-003	9.936677e-001	-1.212090e-001	9.936253e-001	-1.211312e-001	3.247896e-003	-4.250032e-003
6754226.051	3.551490e-003	-4.690558e-003	9.935450e-001	-1.224769e-001	9.933621e-001	-1.224116e-001	3.045596e-003	-4.511274e-003
6816765.134	3.634355e-003	-4.737768e-003	9.934822e-001	-1.235069e-001	9.934155e-001	-1.233604e-001	3.099899e-003	-4.340074e-003
6879304.218	3.526375e-003	-4.951056e-003	9.932602e-001	-1.246822e-001	9.932649e-001	-1.244817e-001	3.079333e-003	-4.479434e-003
6941843.302	3.602701e-003	-4.841085e-003	9.931167e-001	-1.258894e-001	9.930973e-001	-1.256089e-001	3.058277e-003	-4.442420e-003
7004382.386	3.397307e-003	-4.816783e-003	9.930502e-001	-1.268860e-001	9.928843e-001	-1.267597e-001	2.967846e-003	-4.453814e-003
7066921.470	3.486169e-003	-4.915785e-003	9.928424e-001	-1.281392e-001	9.928385e-001	-1.277053e-001	3.125394e-003	-4.648474e-003
7129460.553	3.360448e-003	-5.084544e-003	9.927786e-001	-1.290838e-001	9.926706e-001	-1.290185e-001	3.117979e-003	-4.650282e-003
7191999.637	3.346444e-003	-4.886540e-003	9.923839e-001	-1.303228e-001	9.924031e-001	-1.300818e-001	2.968093e-003	-4.682721e-003
7254538.721	3.398440e-003	-5.045998e-003	9.925928e-001	-1.314833e-001	9.924367e-001	-1.312835e-001	3.008892e-003	-4.718316e-003
7317077.805	3.568965e-003	-5.135893e-003	9.923561e-001	-1.324953e-001	9.923044e-001	-1.323473e-001	2.991179e-003	-4.881568e-003
7379616.889	3.410281e-003	-5.169108e-003	9.923396e-001	-1.338265e-001	9.920655e-001	-1.335084e-001	2.923026e-003	-4.903359e-003
7442155.972	3.258231e-003	-5.218659e-003	9.920057e-001	-1.347728e-001	9.919698e-001	-1.345690e-001	3.010488e-003	-4.730263e-003
7504695.056	3.285114e-003	-5.358693e-003	9.917737e-001	-1.358238e-001	9.916511e-001	-1.358600e-001	3.023150e-003	-4.718746e-003
7567234.140	3.452889e-003	-5.482880e-003	9.917609e-001	-1.369072e-001	9.915023e-001	-1.369555e-001	2.938593e-003	-4.871280e-003
7629773.224	3.354997e-003	-5.222594e-003	9.916137e-001	-1.382207e-001	9.915055e-001	-1.379827e-001	2.848567e-003	-4.963098e-003
7692312.308	3.201845e-003	-5.337595e-003	9.914563e-001	-1.393218e-001	9.912442e-001	-1.392157e-001	2.902293e-003	-5.102256e-003
7754851.391	3.169837e-003	-5.533374e-003	9.912604e-001	-1.405269e-001	9.909755e-001	-1.401610e-001	2.832249e-003	-5.016520e-003
7817390.475	3.237879e-003	-5.382985e-003	9.911350e-001	-1.417870e-001	9.908752e-001	-1.415510e-001	2.738933e-003	-4.944279e-003
7879929.559	3.136662e-003	-5.601877e-003	9.908743e-001	-1.428799e-001	9.906837e-001	-1.427791e-001	2.853033e-003	-4.998804e-003
7942468.643	3.078424e-003	-5.706522e-003	9.908277e-001	-1.439068e-001	9.906778e-001	-1.438108e-001	2.828930e-003	-5.221142e-003
8005007.727	3.164008e-003	-5.719629e-003	9.905520e-001	-1.450887e-001	9.905238e-001	-1.449488e-001	2.719162e-003	-5.044034e-003
8067546.811	2.988563e-003	-5.721214e-003	9.904229e-001	-1.461579e-001	9.902083e-001	-1.460021e-001	2.622501e-003	-5.288717e-003
8130085.894	3.061891e-003	-5.843324e-003	9.902011e-001	-1.472826e-001	9.900920e-001	-1.471910e-001	2.825836e-003	-5.392816e-003
8192624.978	2.873699e-003	-5.945908e-003	9.899245e-001	-1.484993e-001	9.899005e-001	-1.482436e-001	2.866298e-003	-5.442312e-003
8255164.062	2.988506e-003	-5.960713e-003	9.898285e-001	-1.495748e-001	9.896887e-001	-1.494284e-001	2.809677e-003	-5.543748e-003
8317703.146	2.852773e-003	-5.905664e-003	9.897122e-001	-1.507368e-001	9.896585e-001	-1.505252e-001	2.614526e-003	-5.523173e-003
8380242.230	2.963473e-003	-6.179464e-003	9.893923e-001	-1.519579e-001	9.893495e-001	-1.515952e-001	2.574678e-003	-5.626199e-003
8442781.313	2.908456e-003	-6.179466e-003	9.894773e-001	-1.529338e-001	9.892716e-001	-1.527198e-001	2.533183e-003	-5.766357e-003
8505320.397	2.882244e-003	-6.087972e-003	9.892434e-001	-1.541413e-001	9.890565e-001	-1.539141e-001	2.452921e-003	-5.756905e-003
8567859.481	2.808442e-003	-5.990298e-003	9.890302e-001	-1.550924e-001	9.889528e-001	-1.550090e-001	2.483234e-003	-5.623941e-003
8630398.565	2.877288e-003	-6.073815e-003	9.886763e-001	-1.561935e-001	9.887745e-001	-1.560444e-001	2.345433e-003	-5.939932e-003
8692937.649	2.802313e-003	-6.345320e-003	9.885755e-001	-1.573104e-001	9.883960e-001	-1.572372e-001	2.247322e-003	-5.880968e-003
8755476.732	2.794085e-003	-6.318479e-003	9.884270e-001	-1.585230e-001	9.882563e-001	-1.582557e-001	2.311465e-003	-5.899073e-003
8818015.816	2.669870e-003	-6.404863e-003	9.881916e-001	-1.596215e-001	9.879171e-001	-1.594542e-001	2.406965e-003	-6.036541e-003
8880554.900	2.856558e-003	-6.415486e-003	9.881325e-001	-1.608378e-001	9.880284e-001	-1.604192e-001	2.239267e-003	-6.242021e-003
8943093.984	2.665369e-003	-6.349145e-003	9.879085e-001	-1.618438e-001	9.878366e-001	-1.615777e-001	2.238869e-003	-6.236066e-003
9005633.068	2.699624e-003	-6.494434e-003	9.876085e-001	-1.630220e-001	9.877380e-001	-1.628157e-001	2.116914e-003	-6.407905e-003
9068172.151	2.531092e-003	-6.526255e-003	9.875738e-001	-1.641626e-001	9.873791e-001	-1.638193e-001	2.156343e-003	-6.406403e-003
9130711.235	2.722211e-003	-6.644137e-003	9.872806e-001	-1.652935e-001	9.872514e-001	-1.649295e-001	2.167073e-003	-6.649184e-003
9193250.319	2.690575e-003	-6.721822e-003	9.872206e-001	-1.662677e-001	9.869961e-001	-1.661296e-001	2.074101e-003	-6.612757e-003
9255789.403	2.567853e-003	-6.917582e-003	9.870571e-001	-1.672953e-001	9.868212e-001	-1.672089e-001	1.919606e-003	-6.605644e-003
9318328.487	2.491560e-003	-6.862755e-003	9.868114e-001	-1.686411e-001	9.867823e-001	-1.682689e-001	2.001399e-003	-6.646161e-003
9380867.570	2.475268e-003	-6.792105e-003	9.866995e-001	-1.697741e-001	9.864346e-001	-1.695380e-001	1.986442e-003	-6.725375e-003
9443406.654	2.510875e-003	-6.845506e-003	9.864686e-001	-1.707954e-001	9.863722e-001	-1.706916e-001	1.978820e-003	-6.838809e-003
9505945.738	2.465830e-003	-6.859140e-003	9.860964e-001	-1.721281e-001	9.862135e-001	-1.717940e-001	1.914700e-003	-6.895239e-003
9568484.822	2.481036e-003	-6.945637e-003	9.860499e-001	-1.731680e-001	9.857879e-001	-1.729111e-001	1.697244e-003	-6.695687e-003
