!Agilent Technologies,E5061B,MY49102235,A.02.00
!Date: Tue Jul 11 16:35:54 2023
!Data & Calibration Information:
!Freq	S11:SOLT2(ON)	S21:SOLT2(ON)	S12:SOLT2(ON)	S22:SOLT2(ON)
# Hz S RI R 50
5.000	-5.127196e-003	-5.639254e-003	1.001655e+000	8.126530e-003	1.000312e+000	1.023086e-002	-1.525226e-003	-7.557585e-003
62544.084	5.829106e-003	-6.552907e-005	1.001213e+000	1.900079e-004	1.000742e+000	6.780786e-004	7.697663e-003	-2.458668e-003
125083.168	5.690145e-003	3.431715e-004	1.001098e+000	-1.683942e-003	1.000767e+000	-1.614218e-003	7.506257e-003	-1.439261e-003
187622.251	5.497711e-003	9.503378e-004	1.000329e+000	-3.361361e-003	1.000939e+000	-2.221287e-003	7.409005e-003	-1.121016e-003
250161.335	5.318736e-003	1.486605e-003	1.000537e+000	-4.868697e-003	1.000645e+000	-4.826263e-003	7.301526e-003	-3.571074e-004
312700.419	5.499197e-003	2.615550e-003	1.000760e+000	-5.814221e-003	1.000553e+000	-5.615514e-003	7.842733e-003	-2.625592e-004
375239.503	5.384621e-003	1.508394e-003	1.000926e+000	-7.611079e-003	1.000480e+000	-7.427448e-003	7.326832e-003	-2.261440e-005
437778.587	5.218309e-003	2.321175e-003	1.001376e+000	-8.290555e-003	1.000941e+000	-9.009112e-003	6.705273e-003	6.740325e-004
500317.670	4.699488e-003	2.878631e-003	1.001096e+000	-1.107743e-002	1.001710e+000	-1.093071e-002	4.911724e-003	1.265577e-003
562856.754	6.018758e-003	2.983943e-003	1.001260e+000	-1.308927e-002	1.001075e+000	-1.286978e-002	6.140778e-003	2.164430e-003
625395.838	5.259451e-003	3.554236e-003	1.001887e+000	-1.472102e-002	1.002151e+000	-1.422090e-002	6.247964e-003	3.137816e-003
687934.922	5.310859e-003	3.601017e-003	1.001205e+000	-1.604204e-002	1.001139e+000	-1.607603e-002	5.933053e-003	3.071263e-003
750474.006	4.589600e-003	4.344096e-003	1.000734e+000	-1.604559e-002	1.000670e+000	-1.570179e-002	5.759543e-003	3.673783e-003
813013.089	4.776303e-003	4.770429e-003	1.000835e+000	-1.798432e-002	1.000537e+000	-1.778673e-002	5.146574e-003	4.260206e-003
875552.173	4.544367e-003	5.333868e-003	1.000772e+000	-1.947104e-002	1.000777e+000	-1.944690e-002	5.953715e-003	4.256593e-003
938091.257	4.649489e-003	5.808766e-003	1.000941e+000	-2.125618e-002	1.000885e+000	-2.099056e-002	6.216261e-003	5.219218e-003
1000630.341	4.115881e-003	5.866387e-003	1.000441e+000	-2.309178e-002	1.000725e+000	-2.273870e-002	5.486157e-003	4.936267e-003
1063169.425	4.501538e-003	6.116555e-003	1.000718e+000	-2.473894e-002	1.000502e+000	-2.405758e-002	4.700423e-003	5.018376e-003
1125708.508	4.430462e-003	6.577155e-003	1.000488e+000	-2.641295e-002	1.000417e+000	-2.578390e-002	4.237261e-003	5.732791e-003
1188247.592	4.992616e-003	6.517866e-003	1.000504e+000	-2.797061e-002	1.000823e+000	-2.727262e-002	3.179382e-003	5.598080e-003
1250786.676	4.861657e-003	6.192851e-003	1.000297e+000	-2.812297e-002	1.000526e+000	-2.832046e-002	2.431644e-003	4.359817e-003
1313325.760	5.007991e-003	6.505758e-003	1.000477e+000	-3.012040e-002	1.000646e+000	-3.038904e-002	3.199023e-003	4.951020e-003
1375864.844	4.775606e-003	6.715413e-003	1.000169e+000	-3.258936e-002	1.000073e+000	-3.265432e-002	3.104765e-003	5.649265e-003
1438403.927	4.710090e-003	6.982980e-003	1.000108e+000	-3.363561e-002	1.000580e+000	-3.302232e-002	3.248000e-003	6.327769e-003
1500943.011	4.961848e-003	7.449408e-003	1.000706e+000	-3.482824e-002	1.000969e+000	-3.488321e-002	3.624880e-003	6.320483e-003
1563482.095	5.011614e-003	7.486517e-003	1.000202e+000	-3.677458e-002	1.000140e+000	-3.601461e-002	3.818143e-003	6.940177e-003
1626021.179	4.854234e-003	8.044828e-003	1.000121e+000	-3.834133e-002	1.000498e+000	-3.888513e-002	4.117336e-003	7.296742e-003
1688560.263	4.611098e-003	8.522718e-003	9.996448e-001	-4.041204e-002	1.000719e+000	-4.069884e-002	4.341344e-003	7.685990e-003
1751099.346	4.787711e-003	9.036100e-003	1.000269e+000	-4.186996e-002	1.000039e+000	-4.144870e-002	4.212674e-003	8.946379e-003
1813638.430	4.483477e-003	9.432719e-003	1.000469e+000	-4.393384e-002	1.000186e+000	-4.390135e-002	4.444382e-003	8.985254e-003
1876177.514	4.564866e-003	1.013303e-002	1.000726e+000	-4.515313e-002	1.000553e+000	-4.576564e-002	4.167972e-003	1.010054e-002
1938716.598	4.100406e-003	1.064749e-002	1.000910e+000	-4.654807e-002	1.000575e+000	-4.622680e-002	4.407245e-003	1.091311e-002
2001255.682	4.038330e-003	1.059822e-002	1.000760e+000	-4.841069e-002	1.000354e+000	-4.820359e-002	4.207723e-003	1.087533e-002
2063794.765	4.214085e-003	1.141413e-002	1.000348e+000	-4.984276e-002	9.997321e-001	-5.017292e-002	4.637753e-003	1.121572e-002
2126333.849	3.793383e-003	1.132853e-002	9.996518e-001	-5.156873e-002	9.991620e-001	-5.103659e-002	4.973674e-003	1.186916e-002
2188872.933	4.347078e-003	1.174821e-002	9.994486e-001	-5.315452e-002	9.990943e-001	-5.251075e-002	4.912479e-003	1.227485e-002
2251412.017	4.502333e-003	1.180950e-002	9.992102e-001	-5.518313e-002	9.991647e-001	-5.398708e-002	4.971269e-003	1.260258e-002
2313951.101	4.912220e-003	1.267440e-002	9.985231e-001	-5.641378e-002	9.990632e-001	-5.537782e-002	5.345304e-003	1.294874e-002
2376490.184	4.733461e-003	1.309122e-002	9.983384e-001	-5.741453e-002	9.989229e-001	-5.759344e-002	5.393201e-003	1.339716e-002
2439029.268	5.261780e-003	1.348378e-002	9.981924e-001	-5.952162e-002	9.980343e-001	-5.922388e-002	5.142945e-003	1.395908e-002
2501568.352	5.319490e-003	1.391673e-002	9.978658e-001	-6.019877e-002	9.986826e-001	-6.029761e-002	5.526642e-003	1.434363e-002
2564107.436	5.322819e-003	1.422224e-002	9.980234e-001	-6.238013e-002	9.983302e-001	-6.233489e-002	4.894155e-003	1.444360e-002
2626646.520	5.890648e-003	1.446971e-002	9.980096e-001	-6.395438e-002	9.970922e-001	-6.388751e-002	5.246641e-003	1.481309e-002
2689185.604	5.939397e-003	1.509600e-002	9.981010e-001	-6.514153e-002	9.978473e-001	-6.514875e-002	5.478082e-003	1.531323e-002
2751724.687	6.162436e-003	1.544321e-002	9.978858e-001	-6.647622e-002	9.976000e-001	-6.643966e-002	5.181524e-003	1.575774e-002
2814263.771	6.201482e-003	1.583014e-002	9.969158e-001	-6.869474e-002	9.973874e-001	-6.827691e-002	5.265784e-003	1.606968e-002
2876802.855	6.274792e-003	1.607607e-002	9.969281e-001	-7.057604e-002	9.970999e-001	-6.979363e-002	5.468324e-003	1.664238e-002
2939341.939	6.504027e-003	1.659529e-002	9.972279e-001	-7.150127e-002	9.969470e-001	-7.172884e-002	5.479283e-003	1.700382e-002
3001881.023	6.559979e-003	1.707092e-002	9.968405e-001	-7.320628e-002	9.967662e-001	-7.302553e-002	5.686379e-003	1.732872e-002
3064420.106	6.727495e-003	1.747703e-002	9.972327e-001	-7.468871e-002	9.965006e-001	-7.462363e-002	5.642659e-003	1.764992e-002
3126959.190	7.055092e-003	1.781824e-002	9.966859e-001	-7.635808e-002	9.965771e-001	-7.629842e-002	5.953498e-003	1.803485e-002
3189498.274	7.177384e-003	1.830066e-002	9.964720e-001	-7.780441e-002	9.963404e-001	-7.783293e-002	6.072061e-003	1.844027e-002
3252037.358	7.222177e-003	1.840421e-002	9.963978e-001	-7.945794e-002	9.962542e-001	-7.935459e-002	6.167630e-003	1.894175e-002
3314576.442	7.391680e-003	1.902479e-002	9.961217e-001	-8.094097e-002	9.960107e-001	-8.097285e-002	6.386416e-003	1.929381e-002
3377115.525	7.507191e-003	1.948199e-002	9.957894e-001	-8.247359e-002	9.955803e-001	-8.268675e-002	6.386368e-003	1.961573e-002
3439654.609	7.693656e-003	1.986675e-002	9.953889e-001	-8.406819e-002	9.956854e-001	-8.416846e-002	6.583443e-003	2.025954e-002
3502193.693	7.803531e-003	2.001919e-002	9.952310e-001	-8.576368e-002	9.951459e-001	-8.566440e-002	6.910646e-003	2.065556e-002
3564732.777	8.050378e-003	2.061557e-002	9.951197e-001	-8.728170e-002	9.949817e-001	-8.730195e-002	7.187267e-003	2.112250e-002
3627271.861	8.077301e-003	2.092749e-002	9.949499e-001	-8.897152e-002	9.948505e-001	-8.877372e-002	7.119702e-003	2.137868e-002
3689810.944	8.172610e-003	2.126074e-002	9.945733e-001	-9.051576e-002	9.945764e-001	-9.032825e-002	7.478109e-003	2.183208e-002
3752350.028	8.487881e-003	2.174336e-002	9.943054e-001	-9.186579e-002	9.941543e-001	-9.188189e-002	7.630572e-003	2.223588e-002
3814889.112	8.806909e-003	2.228891e-002	9.938993e-001	-9.349214e-002	9.940992e-001	-9.377298e-002	7.724962e-003	2.252556e-002
3877428.196	8.958045e-003	2.275604e-002	9.938331e-001	-9.513623e-002	9.937585e-001	-9.512918e-002	8.271673e-003	2.297923e-002
3939967.280	9.128682e-003	2.288971e-002	9.934588e-001	-9.678904e-002	9.935537e-001	-9.667461e-002	8.490422e-003	2.349352e-002
4002506.363	9.437776e-003	2.345790e-002	9.932240e-001	-9.836981e-002	9.931966e-001	-9.814778e-002	8.651858e-003	2.385269e-002
4065045.447	9.492595e-003	2.381131e-002	9.927571e-001	-9.998781e-002	9.927167e-001	-9.987747e-002	8.960188e-003	2.418272e-002
4127584.531	9.721949e-003	2.422543e-002	9.924290e-001	-1.014927e-001	9.925186e-001	-1.013829e-001	9.250963e-003	2.472634e-002
4190123.615	1.001781e-002	2.466995e-002	9.921527e-001	-1.032752e-001	9.919948e-001	-1.030793e-001	9.393416e-003	2.491907e-002
4252662.699	1.023626e-002	2.501656e-002	9.919154e-001	-1.048761e-001	9.916173e-001	-1.047484e-001	9.763534e-003	2.537022e-002
4315201.782	1.064762e-002	2.537600e-002	9.915018e-001	-1.062156e-001	9.915781e-001	-1.063222e-001	9.862733e-003	2.560244e-002
4377740.866	1.082308e-002	2.577305e-002	9.912479e-001	-1.079359e-001	9.909198e-001	-1.078677e-001	1.032750e-002	2.628793e-002
4440279.950	1.101031e-002	2.604233e-002	9.908488e-001	-1.093547e-001	9.905080e-001	-1.093128e-001	1.050032e-002	2.654320e-002
4502819.034	1.131190e-002	2.658486e-002	9.901963e-001	-1.110274e-001	9.902563e-001	-1.109407e-001	1.087993e-002	2.709376e-002
4565358.118	1.151527e-002	2.694465e-002	9.898228e-001	-1.125137e-001	9.896358e-001	-1.122815e-001	1.118674e-002	2.737909e-002
4627897.201	1.202279e-002	2.745202e-002	9.896447e-001	-1.140900e-001	9.893477e-001	-1.138566e-001	1.161796e-002	2.786483e-002
4690436.285	1.217954e-002	2.773397e-002	9.892159e-001	-1.157303e-001	9.889836e-001	-1.158014e-001	1.192551e-002	2.806187e-002
4752975.369	1.250153e-002	2.810483e-002	9.885170e-001	-1.173754e-001	9.886344e-001	-1.172387e-001	1.207452e-002	2.840828e-002
4815514.453	1.295934e-002	2.847037e-002	9.883322e-001	-1.188370e-001	9.881885e-001	-1.188970e-001	1.264783e-002	2.887084e-002
4878053.537	1.339976e-002	2.874931e-002	9.879048e-001	-1.203222e-001	9.877351e-001	-1.202134e-001	1.294677e-002	2.917050e-002
4940592.620	1.349699e-002	2.918781e-002	9.873612e-001	-1.218961e-001	9.873119e-001	-1.218623e-001	1.306979e-002	2.951062e-002
5003131.704	1.391618e-002	2.939059e-002	9.868771e-001	-1.234073e-001	9.869242e-001	-1.231978e-001	1.356810e-002	2.981572e-002
5065670.788	1.423437e-002	2.995107e-002	9.864245e-001	-1.249692e-001	9.863798e-001	-1.248023e-001	1.391312e-002	3.021963e-002
5128209.872	1.472270e-002	3.015065e-002	9.860936e-001	-1.264767e-001	9.858789e-001	-1.263301e-001	1.425676e-002	3.035818e-002
5190748.956	1.501544e-002	3.049867e-002	9.854989e-001	-1.279945e-001	9.854706e-001	-1.279508e-001	1.460906e-002	3.082569e-002
5253288.039	1.545757e-002	3.077750e-002	9.850515e-001	-1.295053e-001	9.849532e-001	-1.293979e-001	1.495460e-002	3.124243e-002
5315827.123	1.580893e-002	3.105666e-002	9.843565e-001	-1.310165e-001	9.844326e-001	-1.308997e-001	1.532009e-002	3.146840e-002
5378366.207	1.633100e-002	3.141055e-002	9.840423e-001	-1.325354e-001	9.839501e-001	-1.326222e-001	1.572155e-002	3.170621e-002
5440905.291	1.654861e-002	3.182025e-002	9.835459e-001	-1.340299e-001	9.834118e-001	-1.339686e-001	1.601693e-002	3.206828e-002
5503444.375	1.717184e-002	3.194050e-002	9.829738e-001	-1.355321e-001	9.829525e-001	-1.352908e-001	1.663300e-002	3.226762e-002
5565983.458	1.725924e-002	3.238777e-002	9.824457e-001	-1.369228e-001	9.823953e-001	-1.367401e-001	1.700824e-002	3.273098e-002
5628522.542	1.793519e-002	3.257977e-002	9.819458e-001	-1.383099e-001	9.818466e-001	-1.383557e-001	1.747278e-002	3.288453e-002
5691061.626	1.842692e-002	3.267425e-002	9.813419e-001	-1.399554e-001	9.812331e-001	-1.398168e-001	1.782596e-002	3.321053e-002
5753600.710	1.873679e-002	3.303063e-002	9.807219e-001	-1.413174e-001	9.807008e-001	-1.411921e-001	1.830095e-002	3.335225e-002
5816139.794	1.929462e-002	3.345856e-002	9.801975e-001	-1.427524e-001	9.799400e-001	-1.428649e-001	1.861643e-002	3.364782e-002
5878678.877	1.964612e-002	3.348728e-002	9.795920e-001	-1.442291e-001	9.795149e-001	-1.441818e-001	1.918226e-002	3.375655e-002
5941217.961	2.007921e-002	3.365129e-002	9.789713e-001	-1.457078e-001	9.789165e-001	-1.454224e-001	1.945013e-002	3.411300e-002
6003757.045	2.041337e-002	3.410548e-002	9.782847e-001	-1.469210e-001	9.783209e-001	-1.468248e-001	2.003545e-002	3.430321e-002
6066296.129	2.098844e-002	3.413444e-002	9.779057e-001	-1.483948e-001	9.777510e-001	-1.481743e-001	2.049734e-002	3.447766e-002
6128835.213	2.155572e-002	3.435543e-002	9.773129e-001	-1.495108e-001	9.773003e-001	-1.496733e-001	2.105090e-002	3.468961e-002
6191374.296	2.196414e-002	3.453373e-002	9.766062e-001	-1.511024e-001	9.764982e-001	-1.512334e-001	2.136650e-002	3.499518e-002
6253913.380	2.235757e-002	3.484045e-002	9.760476e-001	-1.525425e-001	9.759387e-001	-1.524064e-001	2.175237e-002	3.529863e-002
6316452.464	2.280917e-002	3.508893e-002	9.754511e-001	-1.537567e-001	9.752129e-001	-1.539987e-001	2.224548e-002	3.524183e-002
6378991.548	2.324704e-002	3.511457e-002	9.747934e-001	-1.554697e-001	9.748192e-001	-1.552186e-001	2.276690e-002	3.527694e-002
6441530.632	2.365793e-002	3.519113e-002	9.741508e-001	-1.564673e-001	9.741172e-001	-1.566318e-001	2.329450e-002	3.554842e-002
6504069.715	2.413020e-002	3.531497e-002	9.734723e-001	-1.580987e-001	9.736489e-001	-1.578924e-001	2.378591e-002	3.567944e-002
6566608.799	2.474383e-002	3.538629e-002	9.729987e-001	-1.594411e-001	9.728667e-001	-1.592320e-001	2.418571e-002	3.600785e-002
6629147.883	2.518523e-002	3.564912e-002	9.723513e-001	-1.604087e-001	9.722391e-001	-1.605391e-001	2.473637e-002	3.599486e-002
6691686.967	2.555731e-002	3.578141e-002	9.716375e-001	-1.618079e-001	9.715644e-001	-1.618477e-001	2.525872e-002	3.618518e-002
6754226.051	2.595856e-002	3.588170e-002	9.709273e-001	-1.631934e-001	9.708407e-001	-1.632519e-001	2.551995e-002	3.610986e-002
6816765.134	2.654390e-002	3.597595e-002	9.704546e-001	-1.644264e-001	9.703696e-001	-1.643985e-001	2.608316e-002	3.639334e-002
6879304.218	2.690681e-002	3.590073e-002	9.697503e-001	-1.657248e-001	9.697613e-001	-1.656262e-001	2.652919e-002	3.641617e-002
6941843.302	2.745253e-002	3.614037e-002	9.690834e-001	-1.670158e-001	9.690619e-001	-1.669111e-001	2.701988e-002	3.657813e-002
7004382.386	2.775534e-002	3.630488e-002	9.685319e-001	-1.681889e-001	9.684221e-001	-1.681353e-001	2.741596e-002	3.669251e-002
7066921.470	2.832019e-002	3.630208e-002	9.678121e-001	-1.695554e-001	9.678785e-001	-1.692353e-001	2.802551e-002	3.659919e-002
7129460.553	2.865770e-002	3.625181e-002	9.672985e-001	-1.706117e-001	9.672268e-001	-1.706286e-001	2.850101e-002	3.670958e-002
7191999.637	2.914568e-002	3.654784e-002	9.664574e-001	-1.719170e-001	9.664552e-001	-1.718235e-001	2.883111e-002	3.675590e-002
7254538.721	2.965600e-002	3.647013e-002	9.661344e-001	-1.732355e-001	9.659925e-001	-1.731004e-001	2.933782e-002	3.681821e-002
7317077.805	3.027241e-002	3.646335e-002	9.654310e-001	-1.743075e-001	9.653928e-001	-1.742570e-001	2.977785e-002	3.674684e-002
7379616.889	3.060453e-002	3.650699e-002	9.649412e-001	-1.757255e-001	9.647279e-001	-1.754665e-001	3.019300e-002	3.680563e-002
7442155.972	3.091706e-002	3.653889e-002	9.641833e-001	-1.767328e-001	9.641221e-001	-1.765729e-001	3.074813e-002	3.704351e-002
7504695.056	3.140163e-002	3.646666e-002	9.634781e-001	-1.778133e-001	9.633445e-001	-1.779464e-001	3.123509e-002	3.710055e-002
7567234.140	3.199988e-002	3.639158e-002	9.630271e-001	-1.789924e-001	9.627643e-001	-1.790768e-001	3.159881e-002	3.702128e-002
7629773.224	3.239375e-002	3.667565e-002	9.623826e-001	-1.803619e-001	9.623220e-001	-1.802318e-001	3.197206e-002	3.698078e-002
7692312.308	3.268892e-002	3.663015e-002	9.617584e-001	-1.814922e-001	9.615730e-001	-1.815428e-001	3.246493e-002	3.688192e-002
7754851.391	3.310029e-002	3.646332e-002	9.611174e-001	-1.827185e-001	9.608486e-001	-1.824348e-001	3.286269e-002	3.699901e-002
7817390.475	3.363718e-002	3.664618e-002	9.605300e-001	-1.839947e-001	9.603056e-001	-1.838373e-001	3.324387e-002	3.710718e-002
7879929.559	3.397509e-002	3.646087e-002	9.598437e-001	-1.851302e-001	9.596993e-001	-1.850969e-001	3.378590e-002	3.706571e-002
7942468.643	3.433235e-002	3.639465e-002	9.593473e-001	-1.861805e-001	9.591822e-001	-1.862023e-001	3.418862e-002	3.687806e-002
8005007.727	3.485810e-002	3.638267e-002	9.586781e-001	-1.873961e-001	9.585720e-001	-1.873372e-001	3.454898e-002	3.706986e-002
8067546.811	3.513660e-002	3.640816e-002	9.580954e-001	-1.885111e-001	9.578843e-001	-1.883832e-001	3.486635e-002	3.684635e-002
8130085.894	3.561703e-002	3.628749e-002	9.574549e-001	-1.895702e-001	9.573427e-001	-1.895544e-001	3.547773e-002	3.674427e-002
8192624.978	3.585686e-002	3.620086e-002	9.566793e-001	-1.908299e-001	9.567463e-001	-1.906583e-001	3.592374e-002	3.667679e-002
8255164.062	3.639567e-002	3.616083e-002	9.562695e-001	-1.919061e-001	9.560974e-001	-1.917789e-001	3.629324e-002	3.659413e-002
8317703.146	3.669548e-002	3.623894e-002	9.556780e-001	-1.930110e-001	9.556249e-001	-1.928947e-001	3.655276e-002	3.662034e-002
8380242.230	3.718476e-002	3.592911e-002	9.549368e-001	-1.942119e-001	9.549298e-001	-1.939722e-001	3.690369e-002	3.649490e-002
8442781.313	3.755582e-002	3.592045e-002	9.545925e-001	-1.952172e-001	9.544115e-001	-1.950432e-001	3.728167e-002	3.636369e-002
8505320.397	3.795085e-002	3.597720e-002	9.539262e-001	-1.964005e-001	9.537401e-001	-1.961798e-001	3.763698e-002	3.633161e-002
8567859.481	3.831714e-002	3.605099e-002	9.532989e-001	-1.973043e-001	9.532515e-001	-1.972782e-001	3.807853e-002	3.643000e-002
8630398.565	3.876471e-002	3.592571e-002	9.525704e-001	-1.983628e-001	9.526461e-001	-1.983263e-001	3.832499e-002	3.611900e-002
8692937.649	3.907405e-002	3.564588e-002	9.520766e-001	-1.994720e-001	9.518924e-001	-1.994900e-001	3.866804e-002	3.614887e-002
8755476.732	3.946947e-002	3.563136e-002	9.515481e-001	-2.006819e-001	9.513963e-001	-2.004957e-001	3.910952e-002	3.607510e-002
8818015.816	3.972660e-002	3.553786e-002	9.508867e-001	-2.016990e-001	9.506748e-001	-2.016082e-001	3.956632e-002	3.590087e-002
8880554.900	4.030761e-002	3.545524e-002	9.505097e-001	-2.028459e-001	9.503490e-001	-2.025531e-001	3.979619e-002	3.567113e-002
8943093.984	4.051771e-002	3.548668e-002	9.498313e-001	-2.038262e-001	9.497795e-001	-2.036469e-001	4.019357e-002	3.563261e-002
9005633.068	4.094779e-002	3.529290e-002	9.491396e-001	-2.049550e-001	9.492845e-001	-2.048910e-001	4.044975e-002	3.542288e-002
9068172.151	4.114977e-002	3.521803e-002	9.487220e-001	-2.060598e-001	9.485517e-001	-2.058226e-001	4.085426e-002	3.536109e-002
9130711.235	4.170300e-002	3.500956e-002	9.480665e-001	-2.071096e-001	9.480739e-001	-2.068933e-001	4.123407e-002	3.508355e-002
9193250.319	4.203773e-002	3.488278e-002	9.476617e-001	-2.080144e-001	9.474272e-001	-2.080245e-001	4.153377e-002	3.503730e-002
9255789.403	4.226295e-002	3.465603e-002	9.471349e-001	-2.090102e-001	9.468695e-001	-2.089896e-001	4.175220e-002	3.501775e-002
9318328.487	4.258659e-002	3.463158e-002	9.464950e-001	-2.102674e-001	9.464528e-001	-2.100389e-001	4.220415e-002	3.489828e-002
9380867.570	4.294637e-002	3.463191e-002	9.459434e-001	-2.113615e-001	9.457152e-001	-2.112185e-001	4.253208e-002	3.474405e-002
9443406.654	4.332722e-002	3.449383e-002	9.454283e-001	-2.123127e-001	9.453159e-001	-2.122853e-001	4.291641e-002	3.456588e-002
9505945.738	4.364694e-002	3.440344e-002	9.446578e-001	-2.135074e-001	9.447846e-001	-2.133379e-001	4.318585e-002	3.443793e-002
9568484.822	4.400530e-002	3.424043e-002	9.442680e-001	-2.145071e-001	9.440040e-001	-2.143415e-001	4.336301e-002	3.456264e-002
9631023.906	4.432581e-002	3.412653e-002	9.437546e-001	-2.155264e-001	9.434993e-001	-2.154499e-001	4.383867e-002	3.413020e-002
9693562.989	4.466401e-002	3.397844e-002	9.430757e-001	-2.165692e-001	9.429969e-001	-2.163936e-001	4.392462e-002	3.412598e-002
9756102.073	4.496641e-002	3.380974e-002	9.427493e-001	-2.176297e-001	9.424765e-001	-2.173891e-001	4.428707e-002	3.386982e-002
