!Agilent Technologies,E5061B,MY49102235,A.02.00
!Date: Tue Jul 11 16:37:17 2023
!Data & Calibration Information:
!Freq	S11:SOLT2(ON)	S21:SOLT2(ON)	S12:SOLT2(ON)	S22:SOLT2(ON)
# Hz S RI R 50
5.000	-5.249073e-003	-5.634151e-003	1.001646e+000	7.994392e-003	1.000326e+000	1.022197e-002	-1.522879e-003	-7.556252e-003
62544.084	5.807089e-003	-2.372507e-004	1.001379e+000	2.787639e-004	1.000852e+000	9.389677e-004	7.705972e-003	-2.615430e-003
125083.168	5.690960e-003	5.256766e-005	1.000883e+000	-1.309529e-003	1.000778e+000	-1.272992e-003	7.504639e-003	-1.755199e-003
187622.251	5.474158e-003	4.907557e-004	1.000333e+000	-2.909818e-003	1.000949e+000	-1.869290e-003	7.377100e-003	-1.561537e-003
250161.335	5.284292e-003	9.099366e-004	1.000572e+000	-4.336069e-003	1.000737e+000	-4.255142e-003	7.262548e-003	-9.677723e-004
312700.419	5.436936e-003	1.878835e-003	1.000919e+000	-5.121395e-003	1.000643e+000	-4.750038e-003	7.791135e-003	-1.041845e-003
375239.503	5.326682e-003	6.136500e-004	1.001124e+000	-6.707854e-003	1.000669e+000	-6.475900e-003	7.263259e-003	-9.300039e-004
437778.587	5.173148e-003	1.289761e-003	1.001303e+000	-7.238281e-003	1.000952e+000	-7.914098e-003	6.661340e-003	-3.487440e-004
500317.670	4.628462e-003	1.682677e-003	1.001277e+000	-9.866588e-003	1.001661e+000	-9.745192e-003	4.845208e-003	9.065814e-005
562856.754	5.944205e-003	1.648036e-003	1.001385e+000	-1.175862e-002	1.001100e+000	-1.145674e-002	6.061179e-003	8.363111e-004
625395.838	5.133668e-003	2.065343e-003	1.002267e+000	-1.324228e-002	1.002123e+000	-1.277202e-002	6.168856e-003	1.674934e-003
687934.922	5.213359e-003	1.990793e-003	1.001238e+000	-1.445243e-002	1.001218e+000	-1.448938e-002	5.819929e-003	1.453602e-003
750474.006	4.458196e-003	2.567220e-003	1.000888e+000	-1.419167e-002	1.000828e+000	-1.388544e-002	5.627642e-003	1.908958e-003
813013.089	4.635510e-003	2.852605e-003	1.001036e+000	-1.610681e-002	1.000581e+000	-1.593798e-002	5.005408e-003	2.348682e-003
875552.173	4.381434e-003	3.271431e-003	1.000957e+000	-1.731924e-002	1.001058e+000	-1.733506e-002	5.814037e-003	2.202766e-003
938091.257	4.478603e-003	3.605233e-003	1.001117e+000	-1.906643e-002	1.001005e+000	-1.863446e-002	6.040219e-003	3.025633e-003
1000630.341	3.925587e-003	3.516611e-003	1.000626e+000	-2.057435e-002	1.000878e+000	-2.036559e-002	5.299424e-003	2.587928e-003
1063169.425	4.312530e-003	3.612305e-003	1.001005e+000	-2.239595e-002	1.000673e+000	-2.144194e-002	4.482874e-003	2.542597e-003
1125708.508	4.202100e-003	3.926720e-003	1.000840e+000	-2.367194e-002	1.000673e+000	-2.312144e-002	4.018558e-003	3.075854e-003
1188247.592	4.763508e-003	3.734515e-003	1.000930e+000	-2.516347e-002	1.000906e+000	-2.453736e-002	2.931532e-003	2.789415e-003
1250786.676	4.606367e-003	3.248726e-003	1.000482e+000	-2.526852e-002	1.000633e+000	-2.547063e-002	2.201095e-003	1.389271e-003
1313325.760	4.741290e-003	3.402118e-003	1.000906e+000	-2.724011e-002	1.000899e+000	-2.729093e-002	2.936492e-003	1.856457e-003
1375864.844	4.477372e-003	3.486014e-003	1.000573e+000	-2.925663e-002	1.000565e+000	-2.929437e-002	2.822209e-003	2.400435e-003
1438403.927	4.387430e-003	3.590131e-003	1.000547e+000	-3.012925e-002	1.000729e+000	-2.947810e-002	2.915463e-003	2.914585e-003
1500943.011	4.640210e-003	3.900018e-003	1.001175e+000	-3.139389e-002	1.001145e+000	-3.122294e-002	3.283209e-003	2.754273e-003
1563482.095	4.654282e-003	3.784671e-003	1.000730e+000	-3.296397e-002	1.000367e+000	-3.210714e-002	3.454680e-003	3.226316e-003
1626021.179	4.483717e-003	4.177248e-003	1.000630e+000	-3.452042e-002	1.000730e+000	-3.496582e-002	3.735800e-003	3.435859e-003
1688560.263	4.198131e-003	4.497999e-003	1.000097e+000	-3.633288e-002	1.001059e+000	-3.645300e-002	3.920910e-003	3.669737e-003
1751099.346	4.358214e-003	4.858003e-003	1.000748e+000	-3.787645e-002	1.000448e+000	-3.739180e-002	3.791792e-003	4.772837e-003
1813638.430	4.035247e-003	5.084148e-003	1.001056e+000	-3.971584e-002	1.000783e+000	-3.948913e-002	3.983111e-003	4.648624e-003
1876177.514	4.088805e-003	5.625795e-003	1.001342e+000	-4.076767e-002	1.000911e+000	-4.128000e-002	3.664059e-003	5.572306e-003
1938716.598	3.563522e-003	5.972046e-003	1.001463e+000	-4.190068e-002	1.001047e+000	-4.143492e-002	3.875632e-003	6.223571e-003
2001255.682	3.495717e-003	5.767156e-003	1.001441e+000	-4.352562e-002	1.000949e+000	-4.330307e-002	3.652064e-003	6.026277e-003
2063794.765	3.620051e-003	6.391167e-003	1.000959e+000	-4.487048e-002	1.000252e+000	-4.526339e-002	4.058687e-003	6.189973e-003
2126333.849	3.174583e-003	6.140930e-003	1.000299e+000	-4.636033e-002	9.997916e-001	-4.577044e-002	4.351189e-003	6.693504e-003
2188872.933	3.690600e-003	6.385767e-003	1.000112e+000	-4.777378e-002	9.996499e-001	-4.697648e-002	4.249500e-003	6.915367e-003
2251412.017	3.811395e-003	6.276064e-003	9.998762e-001	-4.958128e-002	9.998548e-001	-4.840242e-002	4.264503e-003	7.047639e-003
2313951.101	4.175773e-003	6.951910e-003	9.992208e-001	-5.073123e-002	9.997944e-001	-4.967639e-002	4.603687e-003	7.232780e-003
2376490.184	3.950032e-003	7.178257e-003	9.992862e-001	-5.142106e-002	9.997060e-001	-5.171503e-002	4.597025e-003	7.493663e-003
2439029.268	4.428306e-003	7.393395e-003	9.990915e-001	-5.345150e-002	9.988284e-001	-5.302090e-002	4.296963e-003	7.859211e-003
2501568.352	4.436859e-003	7.645570e-003	9.988572e-001	-5.385007e-002	9.995582e-001	-5.399141e-002	4.625544e-003	8.070817e-003
2564107.436	4.369275e-003	7.759379e-003	9.990839e-001	-5.581367e-002	9.992735e-001	-5.575402e-002	3.936393e-003	7.977754e-003
2626646.520	4.874334e-003	7.822780e-003	9.988461e-001	-5.723472e-002	9.981762e-001	-5.718662e-002	4.236109e-003	8.150067e-003
2689185.604	4.864249e-003	8.232081e-003	9.991735e-001	-5.835661e-002	9.988615e-001	-5.819746e-002	4.390721e-003	8.458650e-003
2751724.687	5.021230e-003	8.384442e-003	9.991468e-001	-5.941804e-002	9.987721e-001	-5.919007e-002	4.012067e-003	8.697664e-003
2814263.771	5.003882e-003	8.572015e-003	9.981109e-001	-6.149166e-002	9.984989e-001	-6.085548e-002	4.043935e-003	8.814453e-003
2876802.855	4.981291e-003	8.625500e-003	9.981670e-001	-6.310163e-002	9.983122e-001	-6.217618e-002	4.153042e-003	9.190396e-003
2939341.939	5.126704e-003	8.967843e-003	9.986808e-001	-6.392147e-002	9.983641e-001	-6.400624e-002	4.096079e-003	9.339606e-003
3001881.023	5.083095e-003	9.227467e-003	9.983343e-001	-6.519160e-002	9.981778e-001	-6.519817e-002	4.203996e-003	9.454480e-003
3064420.106	5.182517e-003	9.428916e-003	9.989422e-001	-6.657288e-002	9.980352e-001	-6.647909e-002	4.066391e-003	9.578001e-003
3126959.190	5.423890e-003	9.558847e-003	9.984047e-001	-6.810086e-002	9.982166e-001	-6.794728e-002	4.292443e-003	9.760643e-003
3189498.274	5.426573e-003	9.837353e-003	9.982549e-001	-6.930359e-002	9.980555e-001	-6.931020e-002	4.324861e-003	9.949561e-003
3252037.358	5.369707e-003	9.730213e-003	9.982952e-001	-7.075377e-002	9.980917e-001	-7.058680e-002	4.308563e-003	1.024799e-002
3314576.442	5.433529e-003	1.013127e-002	9.981639e-001	-7.203377e-002	9.979149e-001	-7.201447e-002	4.400469e-003	1.037520e-002
3377115.525	5.431438e-003	1.038430e-002	9.978987e-001	-7.329954e-002	9.976507e-001	-7.349634e-002	4.279833e-003	1.049053e-002
3439654.609	5.485634e-003	1.055500e-002	9.976429e-001	-7.470433e-002	9.978782e-001	-7.477568e-002	4.341883e-003	1.091307e-002
3502193.693	5.483305e-003	1.049334e-002	9.976370e-001	-7.621113e-002	9.974956e-001	-7.603596e-002	4.550758e-003	1.111104e-002
3564732.777	5.575735e-003	1.087185e-002	9.976568e-001	-7.749422e-002	9.974458e-001	-7.748462e-002	4.690124e-003	1.137204e-002
3627271.861	5.455004e-003	1.096392e-002	9.975830e-001	-7.897023e-002	9.974627e-001	-7.872999e-002	4.500635e-003	1.138549e-002
3689810.944	5.400147e-003	1.108153e-002	9.973757e-001	-8.031031e-002	9.972798e-001	-8.009063e-002	4.689926e-003	1.163752e-002
3752350.028	5.561136e-003	1.132301e-002	9.972399e-001	-8.142733e-002	9.970507e-001	-8.139652e-002	4.683098e-003	1.181744e-002
3814889.112	5.721664e-003	1.168458e-002	9.970169e-001	-8.287783e-002	9.971576e-001	-8.305313e-002	4.641005e-003	1.191584e-002
3877428.196	5.712063e-003	1.193182e-002	9.971381e-001	-8.429863e-002	9.970098e-001	-8.419001e-002	5.003813e-003	1.214723e-002
3939967.280	5.718259e-003	1.186059e-002	9.969399e-001	-8.574734e-002	9.969660e-001	-8.556766e-002	5.035601e-003	1.245135e-002
4002506.363	5.828818e-003	1.222021e-002	9.969259e-001	-8.702259e-002	9.967697e-001	-8.679147e-002	5.020119e-003	1.259603e-002
4065045.447	5.698954e-003	1.234900e-002	9.966043e-001	-8.847172e-002	9.965289e-001	-8.830581e-002	5.148796e-003	1.269738e-002
4127584.531	5.720872e-003	1.255493e-002	9.964518e-001	-8.980374e-002	9.964824e-001	-8.954487e-002	5.217974e-003	1.304191e-002
4190123.615	5.808598e-003	1.278686e-002	9.964002e-001	-9.136781e-002	9.962358e-001	-9.106784e-002	5.157571e-003	1.302344e-002
4252662.699	5.811761e-003	1.292486e-002	9.963943e-001	-9.276118e-002	9.960433e-001	-9.257157e-002	5.331434e-003	1.327253e-002
4315201.782	6.004917e-003	1.308046e-002	9.962308e-001	-9.387957e-002	9.961953e-001	-9.394822e-002	5.182134e-003	1.329306e-002
4377740.866	5.953027e-003	1.328360e-002	9.961713e-001	-9.539623e-002	9.958251e-001	-9.531447e-002	5.434046e-003	1.378660e-002
4440279.950	5.898635e-003	1.335361e-002	9.959522e-001	-9.659950e-002	9.956313e-001	-9.653155e-002	5.359970e-003	1.384083e-002
4502819.034	5.951942e-003	1.370203e-002	9.955904e-001	-9.809433e-002	9.955926e-001	-9.792016e-002	5.499231e-003	1.420318e-002
4565358.118	5.919882e-003	1.386545e-002	9.955111e-001	-9.944528e-002	9.953165e-001	-9.908439e-002	5.555387e-003	1.429800e-002
4627897.201	6.158714e-003	1.419318e-002	9.955244e-001	-1.008193e-001	9.952276e-001	-1.004790e-001	5.722951e-003	1.461268e-002
4690436.285	6.038245e-003	1.429394e-002	9.954350e-001	-1.022845e-001	9.951404e-001	-1.022442e-001	5.760307e-003	1.461895e-002
4752975.369	6.092770e-003	1.449400e-002	9.950136e-001	-1.037167e-001	9.950666e-001	-1.034711e-001	5.635582e-003	1.478581e-002
4815514.453	6.269637e-003	1.469138e-002	9.950638e-001	-1.049610e-001	9.948735e-001	-1.049511e-001	5.909342e-003	1.508796e-002
4878053.537	6.435104e-003	1.481203e-002	9.949641e-001	-1.062873e-001	9.947219e-001	-1.061640e-001	5.933952e-003	1.521422e-002
4940592.620	6.227918e-003	1.506850e-002	9.946385e-001	-1.077163e-001	9.946141e-001	-1.076621e-001	5.760060e-003	1.539092e-002
5003131.704	6.340814e-003	1.514782e-002	9.944952e-001	-1.090758e-001	9.945173e-001	-1.088013e-001	5.946283e-003	1.554931e-002
5065670.788	6.337727e-003	1.554420e-002	9.943151e-001	-1.105193e-001	9.942990e-001	-1.102553e-001	5.985259e-003	1.579965e-002
5128209.872	6.520660e-003	1.561705e-002	9.943451e-001	-1.118463e-001	9.941015e-001	-1.116375e-001	6.002232e-003	1.580264e-002
5190748.956	6.490440e-003	1.582161e-002	9.940773e-001	-1.132731e-001	9.940219e-001	-1.131390e-001	6.045322e-003	1.613378e-002
5253288.039	6.602296e-003	1.596849e-002	9.939812e-001	-1.146731e-001	9.938441e-001	-1.144802e-001	6.033177e-003	1.642429e-002
5315827.123	6.625175e-003	1.612532e-002	9.936847e-001	-1.160303e-001	9.936566e-001	-1.159172e-001	6.086298e-003	1.653442e-002
5378366.207	6.781139e-003	1.637609e-002	9.936458e-001	-1.174382e-001	9.934760e-001	-1.174366e-001	6.142372e-003	1.664415e-002
5440905.291	6.672697e-003	1.667400e-002	9.935161e-001	-1.187822e-001	9.933143e-001	-1.186978e-001	6.094577e-003	1.691529e-002
5503444.375	6.949437e-003	1.671822e-002	9.933041e-001	-1.202184e-001	9.932429e-001	-1.199209e-001	6.351978e-003	1.703422e-002
5565983.458	6.673775e-003	1.706343e-002	9.931601e-001	-1.215338e-001	9.930359e-001	-1.213024e-001	6.366604e-003	1.740208e-002
5628522.542	6.993147e-003	1.718027e-002	9.930175e-001	-1.228540e-001	9.928269e-001	-1.228241e-001	6.480257e-003	1.746690e-002
5691061.626	7.133256e-003	1.720462e-002	9.927070e-001	-1.244546e-001	9.926204e-001	-1.242361e-001	6.449212e-003	1.774213e-002
5753600.710	7.051953e-003	1.751312e-002	9.925100e-001	-1.257153e-001	9.924505e-001	-1.255501e-001	6.569452e-003	1.781197e-002
5816139.794	7.250811e-003	1.789499e-002	9.923220e-001	-1.271251e-001	9.920793e-001	-1.271202e-001	6.498603e-003	1.806444e-002
5878678.877	7.207448e-003	1.788186e-002	9.921707e-001	-1.285540e-001	9.920075e-001	-1.284056e-001	6.689254e-003	1.814623e-002
5941217.961	7.266897e-003	1.800737e-002	9.918800e-001	-1.299781e-001	9.918080e-001	-1.296215e-001	6.578076e-003	1.845063e-002
6003757.045	7.213088e-003	1.844988e-002	9.915786e-001	-1.311910e-001	9.915963e-001	-1.310347e-001	6.790649e-003	1.863296e-002
6066296.129	7.400460e-003	1.845652e-002	9.916269e-001	-1.326498e-001	9.914384e-001	-1.324141e-001	6.833494e-003	1.881013e-002
6128835.213	7.590613e-003	1.869712e-002	9.913699e-001	-1.337562e-001	9.914034e-001	-1.339159e-001	7.010728e-003	1.901603e-002
6191374.296	7.634356e-003	1.888007e-002	9.910653e-001	-1.353435e-001	9.909232e-001	-1.354082e-001	6.951644e-003	1.932492e-002
6253913.380	7.615577e-003	1.921701e-002	9.909214e-001	-1.368481e-001	9.907677e-001	-1.366424e-001	6.920769e-003	1.965726e-002
6316452.464	7.672842e-003	1.950331e-002	9.907326e-001	-1.381178e-001	9.904114e-001	-1.382370e-001	7.039805e-003	1.962930e-002
6378991.548	7.726487e-003	1.956211e-002	9.904566e-001	-1.398362e-001	9.904457e-001	-1.395095e-001	7.191041e-003	1.971267e-002
6441530.632	7.762322e-003	1.969124e-002	9.901822e-001	-1.409631e-001	9.901450e-001	-1.409886e-001	7.320097e-003	2.003314e-002
6504069.715	7.843720e-003	1.988484e-002	9.899395e-001	-1.425521e-001	9.900262e-001	-1.423292e-001	7.428833e-003	2.023208e-002
6566608.799	8.084813e-003	2.002228e-002	9.898219e-001	-1.439964e-001	9.896728e-001	-1.437445e-001	7.446184e-003	2.064787e-002
6629147.883	8.136448e-003	2.037567e-002	9.895196e-001	-1.450646e-001	9.894084e-001	-1.451462e-001	7.617055e-003	2.070957e-002
6691686.967	8.117970e-003	2.060552e-002	9.891838e-001	-1.465683e-001	9.891104e-001	-1.464980e-001	7.747724e-003	2.100428e-002
6754226.051	8.166466e-003	2.080704e-002	9.889511e-001	-1.480704e-001	9.887828e-001	-1.480858e-001	7.636707e-003	2.101753e-002
6816765.134	8.363987e-003	2.099154e-002	9.887817e-001	-1.493647e-001	9.886777e-001	-1.493349e-001	7.808269e-003	2.142200e-002
6879304.218	8.348667e-003	2.105474e-002	9.884766e-001	-1.507894e-001	9.884315e-001	-1.506934e-001	7.901296e-003	2.156600e-002
6941843.302	8.548599e-003	2.141665e-002	9.881970e-001	-1.522603e-001	9.881613e-001	-1.520583e-001	8.001263e-003	2.185611e-002
7004382.386	8.464505e-003	2.170614e-002	9.880110e-001	-1.535232e-001	9.878605e-001	-1.534400e-001	8.020117e-003	2.212562e-002
7066921.470	8.679034e-003	2.186156e-002	9.876598e-001	-1.550632e-001	9.876707e-001	-1.546870e-001	8.289503e-003	2.216219e-002
7129460.553	8.666964e-003	2.197167e-002	9.874575e-001	-1.562380e-001	9.873739e-001	-1.562044e-001	8.407486e-003	2.243838e-002
7191999.637	8.794036e-003	2.242197e-002	9.869668e-001	-1.577761e-001	9.869368e-001	-1.575923e-001	8.374265e-003	2.265465e-002
7254538.721	8.953827e-003	2.251322e-002	9.870121e-001	-1.592062e-001	9.868817e-001	-1.590103e-001	8.543341e-003	2.288100e-002
7317077.805	9.247170e-003	2.269338e-002	9.866515e-001	-1.604504e-001	9.865803e-001	-1.603387e-001	8.658986e-003	2.299164e-002
7379616.889	9.241762e-003	2.291349e-002	9.864972e-001	-1.620653e-001	9.862472e-001	-1.618058e-001	8.714234e-003	2.322764e-002
7442155.972	9.206977e-003	2.313631e-002	9.861001e-001	-1.632660e-001	9.859933e-001	-1.630993e-001	8.935781e-003	2.366062e-002
7504695.056	9.353515e-003	2.326008e-002	9.856923e-001	-1.645439e-001	9.855332e-001	-1.646272e-001	9.097106e-003	2.392268e-002
7567234.140	9.664564e-003	2.338855e-002	9.855600e-001	-1.659802e-001	9.852834e-001	-1.659702e-001	9.144998e-003	2.404396e-002
7629773.224	9.721849e-003	2.390008e-002	9.852421e-001	-1.675441e-001	9.851256e-001	-1.673192e-001	9.204211e-003	2.421749e-002
7692312.308	9.718024e-003	2.405435e-002	9.849439e-001	-1.688928e-001	9.847256e-001	-1.687962e-001	9.381552e-003	2.433084e-002
7754851.391	9.824957e-003	2.411547e-002	9.845777e-001	-1.703223e-001	9.843164e-001	-1.699920e-001	9.472837e-003	2.467978e-002
7817390.475	1.006102e-002	2.451928e-002	9.843094e-001	-1.718054e-001	9.840694e-001	-1.716335e-001	9.549945e-003	2.500781e-002
7879929.559	1.009453e-002	2.455783e-002	9.838960e-001	-1.732167e-001	9.837412e-001	-1.731287e-001	9.803797e-003	2.520093e-002
7942468.643	1.018371e-002	2.471389e-002	9.837119e-001	-1.745238e-001	9.835239e-001	-1.744291e-001	9.905183e-003	2.524040e-002
8005007.727	1.042227e-002	2.496211e-002	9.832676e-001	-1.759344e-001	9.831986e-001	-1.758356e-001	9.990188e-003	2.569211e-002
8067546.811	1.042309e-002	2.520862e-002	9.830177e-001	-1.773000e-001	9.827290e-001	-1.771169e-001	1.001832e-002	2.569697e-002
8130085.894	1.063534e-002	2.534526e-002	9.826257e-001	-1.786034e-001	9.824870e-001	-1.785521e-001	1.038078e-002	2.583902e-002
8192624.978	1.061606e-002	2.551005e-002	9.821508e-001	-1.800986e-001	9.821427e-001	-1.798986e-001	1.057169e-002	2.603527e-002
8255164.062	1.089644e-002	2.572527e-002	9.819375e-001	-1.814506e-001	9.817852e-001	-1.813118e-001	1.069755e-002	2.619928e-002
8317703.146	1.093241e-002	2.605029e-002	9.816539e-001	-1.828681e-001	9.815490e-001	-1.826713e-001	1.066245e-002	2.647378e-002
8380242.230	1.118891e-002	2.600829e-002	9.811352e-001	-1.843387e-001	9.811147e-001	-1.839946e-001	1.078188e-002	2.661073e-002
8442781.313	1.131514e-002	2.625538e-002	9.810471e-001	-1.855600e-001	9.808080e-001	-1.853657e-001	1.092044e-002	2.674991e-002
8505320.397	1.147381e-002	2.658843e-002	9.806424e-001	-1.870013e-001	9.804346e-001	-1.867608e-001	1.102696e-002	2.700419e-002
8567859.481	1.159668e-002	2.695296e-002	9.802385e-001	-1.881979e-001	9.801786e-001	-1.881280e-001	1.122585e-002	2.736797e-002
8630398.565	1.184450e-002	2.709562e-002	9.797281e-001	-1.895379e-001	9.797869e-001	-1.894491e-001	1.125013e-002	2.732104e-002
8692937.649	1.193001e-002	2.708919e-002	9.794684e-001	-1.909497e-001	9.792558e-001	-1.908648e-001	1.136651e-002	2.763406e-002
8755476.732	1.210971e-002	2.735417e-002	9.791276e-001	-1.924311e-001	9.789149e-001	-1.921376e-001	1.159887e-002	2.784788e-002
8818015.816	1.215595e-002	2.752158e-002	9.786741e-001	-1.937410e-001	9.783982e-001	-1.935585e-001	1.186018e-002	2.794114e-002
8880554.900	1.254247e-002	2.773438e-002	9.784361e-001	-1.951634e-001	9.783273e-001	-1.948234e-001	1.187794e-002	2.799781e-002
8943093.984	1.254956e-002	2.806110e-002	9.780402e-001	-1.964506e-001	9.779511e-001	-1.962137e-001	1.207221e-002	2.824683e-002
9005633.068	1.277365e-002	2.815086e-002	9.775478e-001	-1.978063e-001	9.776264e-001	-1.976729e-001	1.213900e-002	2.831167e-002
9068172.151	1.278862e-002	2.834971e-002	9.772965e-001	-1.991851e-001	9.770770e-001	-1.989450e-001	1.236252e-002	2.855426e-002
9130711.235	1.318535e-002	2.845516e-002	9.768307e-001	-2.005712e-001	9.767867e-001	-2.002411e-001	1.256367e-002	2.856069e-002
9193250.319	1.334352e-002	2.861516e-002	9.765848e-001	-2.017704e-001	9.763499e-001	-2.017055e-001	1.267501e-002	2.882346e-002
9255789.403	1.339937e-002	2.866643e-002	9.762262e-001	-2.030541e-001	9.759337e-001	-2.030065e-001	1.271556e-002	2.907704e-002
9318328.487	1.353909e-002	2.895356e-002	9.757566e-001	-2.046601e-001	9.757037e-001	-2.043153e-001	1.299911e-002	2.926398e-002
9380867.570	1.373939e-002	2.925718e-002	9.753904e-001	-2.060175e-001	9.751549e-001	-2.058096e-001	1.318696e-002	2.941863e-002
9443406.654	1.397557e-002	2.941904e-002	9.750064e-001	-2.072794e-001	9.748538e-001	-2.072049e-001	1.339590e-002	2.953762e-002
9505945.738	1.413149e-002	2.962547e-002	9.744138e-001	-2.087654e-001	9.745438e-001	-2.085571e-001	1.353430e-002	2.971553e-002
9568484.822	1.436447e-002	2.976483e-002	9.741493e-001	-2.101042e-001	9.738333e-001	-2.098661e-001	1.353752e-002	3.014441e-002
9631023.906	1.453312e-002	2.995628e-002	9.737511e-001	-2.114177e-001	9.734464e-001	-2.112416e-001	1.388478e-002	3.000773e-002
9693562.989	1.473611e-002	3.011133e-002	9.732107e-001	-2.127733e-001	9.731316e-001	-2.125240e-001	1.382856e-002	3.031040e-002
9756102.073	1.490790e-002	3.023850e-002	9.730663e-001	-2.141323e-001	9.727638e-001	-2.138290e-001	1.405335e-002	3.035810e-002
