!Agilent Technologies,E5061B,MY49102235,A.02.00
!Date: Tue Jul 11 15:06:09 2023
!Data & Calibration Information:
!Freq	S11:SOLT2(ON)	S21:SOLT2(ON)	S12:SOLT2(ON)	S22:SOLT2(ON)
# Hz S RI R 50
5.000	-5.217797e-003	-5.652439e-003	1.001379e+000	7.987239e-003	1.000138e+000	1.026166e-002	-1.585665e-003	-7.553957e-003
62544.084	5.805270e-003	-5.082332e-004	1.001326e+000	5.537889e-004	1.000887e+000	1.217927e-003	7.697364e-003	-2.881959e-003
125083.168	5.674046e-003	-5.119381e-004	1.000978e+000	-7.783144e-004	1.000842e+000	-8.601245e-004	7.483397e-003	-2.290600e-003
187622.251	5.455586e-003	-3.449171e-004	1.000363e+000	-2.100206e-003	1.001023e+000	-9.801530e-004	7.372886e-003	-2.395768e-003
250161.335	5.267919e-003	-1.978505e-004	1.000499e+000	-3.204327e-003	1.000751e+000	-3.048307e-003	7.264940e-003	-2.071274e-003
312700.419	5.404459e-003	5.149322e-004	1.000848e+000	-3.784709e-003	1.000696e+000	-3.442473e-003	7.772121e-003	-2.390006e-003
375239.503	5.291456e-003	-9.956130e-004	1.000930e+000	-5.207002e-003	1.000588e+000	-4.959525e-003	7.249768e-003	-2.546702e-003
437778.587	5.121036e-003	-6.229814e-004	1.001281e+000	-5.331901e-003	1.001093e+000	-6.063683e-003	6.608279e-003	-2.268386e-003
500317.670	4.585105e-003	-5.010892e-004	1.001111e+000	-7.685313e-003	1.001660e+000	-7.528280e-003	4.821516e-003	-2.109856e-003
562856.754	5.873474e-003	-8.131269e-004	1.001397e+000	-9.238644e-003	1.001251e+000	-9.074977e-003	5.993538e-003	-1.616716e-003
625395.838	5.053735e-003	-6.668657e-004	1.002215e+000	-1.041788e-002	1.002228e+000	-9.905198e-003	6.108133e-003	-1.078486e-003
687934.922	5.125701e-003	-1.015466e-003	1.001205e+000	-1.133131e-002	1.001288e+000	-1.148367e-002	5.741991e-003	-1.554823e-003
750474.006	4.365100e-003	-6.987808e-004	1.000690e+000	-1.077827e-002	1.001010e+000	-1.066431e-002	5.565553e-003	-1.348524e-003
813013.089	4.537762e-003	-6.835650e-004	1.000979e+000	-1.260811e-002	1.000757e+000	-1.232673e-002	4.902231e-003	-1.187107e-003
875552.173	4.265038e-003	-5.238827e-004	1.000942e+000	-1.340808e-002	1.001098e+000	-1.351127e-002	5.689954e-003	-1.598726e-003
938091.257	4.343279e-003	-4.669254e-004	1.001112e+000	-1.492986e-002	1.001262e+000	-1.471466e-002	5.924584e-003	-1.037010e-003
1000630.341	3.796348e-003	-8.402207e-004	1.000648e+000	-1.625860e-002	1.001136e+000	-1.597242e-002	5.162312e-003	-1.755670e-003
1063169.425	4.147664e-003	-1.003414e-003	1.001031e+000	-1.765161e-002	1.000868e+000	-1.693234e-002	4.344985e-003	-2.088104e-003
1125708.508	4.026667e-003	-9.698667e-004	1.000833e+000	-1.867677e-002	1.000791e+000	-1.820752e-002	3.847137e-003	-1.810617e-003
1188247.592	4.565686e-003	-1.422787e-003	1.001010e+000	-1.994662e-002	1.001092e+000	-1.926691e-002	2.747626e-003	-2.376962e-003
1250786.676	4.400082e-003	-2.183334e-003	1.000483e+000	-1.973053e-002	1.000778e+000	-2.000204e-002	2.002970e-003	-4.066963e-003
1313325.760	4.523893e-003	-2.270663e-003	1.000994e+000	-2.133475e-002	1.001222e+000	-2.153551e-002	2.740117e-003	-3.865007e-003
1375864.844	4.250577e-003	-2.483136e-003	1.000713e+000	-2.329338e-002	1.000669e+000	-2.328549e-002	2.600184e-003	-3.591965e-003
1438403.927	4.146678e-003	-2.646595e-003	1.000680e+000	-2.373373e-002	1.001107e+000	-2.325665e-002	2.680752e-003	-3.345190e-003
1500943.011	4.371413e-003	-2.604317e-003	1.001231e+000	-2.487498e-002	1.001531e+000	-2.470235e-002	3.031784e-003	-3.751776e-003
1563482.095	4.359059e-003	-2.980746e-003	1.000869e+000	-2.615715e-002	1.000753e+000	-2.543512e-002	3.166166e-003	-3.568875e-003
1626021.179	4.171443e-003	-2.858430e-003	1.000745e+000	-2.739756e-002	1.001171e+000	-2.800895e-002	3.429811e-003	-3.619956e-003
1688560.263	3.861250e-003	-2.801489e-003	1.000389e+000	-2.906387e-002	1.001535e+000	-2.927081e-002	3.601613e-003	-3.647351e-003
1751099.346	3.995607e-003	-2.739147e-003	1.000992e+000	-3.015541e-002	1.000940e+000	-2.966158e-002	3.410356e-003	-2.820952e-003
1813638.430	3.651724e-003	-2.786084e-003	1.001232e+000	-3.163284e-002	1.001054e+000	-3.163701e-002	3.587423e-003	-3.216763e-003
1876177.514	3.675196e-003	-2.506036e-003	1.001629e+000	-3.255527e-002	1.001497e+000	-3.314300e-002	3.253798e-003	-2.547545e-003
1938716.598	3.138873e-003	-2.441105e-003	1.001817e+000	-3.339154e-002	1.001455e+000	-3.303536e-002	3.421348e-003	-2.185662e-003
2001255.682	3.043019e-003	-2.934167e-003	1.001782e+000	-3.471947e-002	1.001346e+000	-3.456324e-002	3.172589e-003	-2.659629e-003
2063794.765	3.128053e-003	-2.558110e-003	1.001253e+000	-3.573242e-002	1.000821e+000	-3.618114e-002	3.564435e-003	-2.753810e-003
2126333.849	2.676746e-003	-3.103990e-003	1.000776e+000	-3.705373e-002	1.000262e+000	-3.659613e-002	3.821865e-003	-2.506520e-003
2188872.933	3.147972e-003	-3.112045e-003	1.000539e+000	-3.817672e-002	1.000274e+000	-3.760026e-002	3.699089e-003	-2.570559e-003
2251412.017	3.250485e-003	-3.484227e-003	1.000396e+000	-3.969124e-002	1.000393e+000	-3.857824e-002	3.671850e-003	-2.696093e-003
2313951.101	3.565956e-003	-3.074537e-003	9.997696e-001	-4.071734e-002	1.000344e+000	-3.962969e-002	3.994317e-003	-2.781346e-003
2376490.184	3.307173e-003	-3.125210e-003	9.997026e-001	-4.098505e-002	1.000413e+000	-4.137015e-002	3.960128e-003	-2.795321e-003
2439029.268	3.759867e-003	-3.173800e-003	9.997127e-001	-4.287668e-002	9.994660e-001	-4.245243e-002	3.606460e-003	-2.692050e-003
2501568.352	3.725327e-003	-3.181635e-003	9.994003e-001	-4.290112e-002	1.000352e+000	-4.306213e-002	3.900726e-003	-2.743950e-003
2564107.436	3.640680e-003	-3.360747e-003	9.997236e-001	-4.475992e-002	1.000105e+000	-4.465678e-002	3.199533e-003	-3.139151e-003
2626646.520	4.118237e-003	-3.548997e-003	9.996273e-001	-4.576055e-002	9.989641e-001	-4.568255e-002	3.447287e-003	-3.220827e-003
2689185.604	4.084776e-003	-3.403690e-003	1.000064e+000	-4.655076e-002	9.997419e-001	-4.640839e-002	3.570482e-003	-3.177153e-003
2751724.687	4.183069e-003	-3.513248e-003	9.998353e-001	-4.730860e-002	9.995767e-001	-4.719463e-002	3.173072e-003	-3.239679e-003
2814263.771	4.129228e-003	-3.603877e-003	9.988612e-001	-4.910491e-002	9.993886e-001	-4.855009e-002	3.151755e-003	-3.380441e-003
2876802.855	4.079366e-003	-3.840526e-003	9.989346e-001	-5.052668e-002	9.993801e-001	-4.965221e-002	3.219188e-003	-3.280511e-003
2939341.939	4.196440e-003	-3.762178e-003	9.995319e-001	-5.091693e-002	9.994059e-001	-5.113626e-002	3.124299e-003	-3.395227e-003
3001881.023	4.109923e-003	-3.785963e-003	9.993050e-001	-5.211888e-002	9.991866e-001	-5.210728e-002	3.200519e-003	-3.557948e-003
3064420.106	4.157320e-003	-3.864329e-003	9.997981e-001	-5.308322e-002	9.990346e-001	-5.307443e-002	3.025192e-003	-3.714965e-003
3126959.190	4.351919e-003	-3.985040e-003	9.993966e-001	-5.436887e-002	9.993197e-001	-5.431629e-002	3.201523e-003	-3.791953e-003
3189498.274	4.339495e-003	-3.972045e-003	9.992893e-001	-5.533293e-002	9.991851e-001	-5.537218e-002	3.203411e-003	-3.897957e-003
3252037.358	4.236672e-003	-4.364055e-003	9.993540e-001	-5.647354e-002	9.992889e-001	-5.635421e-002	3.146569e-003	-3.857085e-003
3314576.442	4.245301e-003	-4.228628e-003	9.992196e-001	-5.747800e-002	9.991634e-001	-5.750837e-002	3.196870e-003	-3.990492e-003
3377115.525	4.218833e-003	-4.252576e-003	9.990796e-001	-5.851508e-002	9.988846e-001	-5.876447e-002	3.041530e-003	-4.173147e-003
3439654.609	4.222374e-003	-4.364502e-003	9.988302e-001	-5.962309e-002	9.991846e-001	-5.973320e-002	3.052708e-003	-4.013726e-003
3502193.693	4.183110e-003	-4.705264e-003	9.988709e-001	-6.084219e-002	9.988241e-001	-6.067195e-002	3.212230e-003	-4.093974e-003
3564732.777	4.229172e-003	-4.593411e-003	9.989103e-001	-6.185923e-002	9.988510e-001	-6.189109e-002	3.293815e-003	-4.107899e-003
3627271.861	4.061282e-003	-4.778195e-003	9.989417e-001	-6.304740e-002	9.988724e-001	-6.281278e-002	3.070905e-003	-4.369495e-003
3689810.944	3.963125e-003	-4.954545e-003	9.987897e-001	-6.412525e-002	9.988310e-001	-6.389949e-002	3.221508e-003	-4.399755e-003
3752350.028	4.075804e-003	-4.973253e-003	9.986380e-001	-6.493025e-002	9.985585e-001	-6.493132e-002	3.135149e-003	-4.493493e-003
3814889.112	4.192317e-003	-4.887135e-003	9.985050e-001	-6.612303e-002	9.987652e-001	-6.634467e-002	3.073360e-003	-4.674262e-003
3877428.196	4.101698e-003	-4.929932e-003	9.986321e-001	-6.724363e-002	9.986382e-001	-6.719966e-002	3.392214e-003	-4.714543e-003
3939967.280	4.079699e-003	-5.268947e-003	9.985130e-001	-6.841143e-002	9.986230e-001	-6.828864e-002	3.357028e-003	-4.683596e-003
4002506.363	4.138327e-003	-5.182532e-003	9.985218e-001	-6.945076e-002	9.985189e-001	-6.924391e-002	3.292007e-003	-4.827747e-003
4065045.447	3.956329e-003	-5.346238e-003	9.982587e-001	-7.061243e-002	9.983159e-001	-7.044461e-002	3.368350e-003	-4.993970e-003
4127584.531	3.927337e-003	-5.421206e-003	9.981913e-001	-7.162441e-002	9.983030e-001	-7.143890e-002	3.386207e-003	-4.935840e-003
4190123.615	3.957104e-003	-5.473558e-003	9.981714e-001	-7.287045e-002	9.981053e-001	-7.269679e-002	3.286107e-003	-5.231553e-003
4252662.699	3.913969e-003	-5.603518e-003	9.982409e-001	-7.397927e-002	9.979747e-001	-7.385271e-002	3.386298e-003	-5.268646e-003
4315201.782	4.047494e-003	-5.710304e-003	9.980717e-001	-7.485084e-002	9.982030e-001	-7.493931e-002	3.206692e-003	-5.527325e-003
4377740.866	3.948958e-003	-5.804120e-003	9.981594e-001	-7.608136e-002	9.978812e-001	-7.600560e-002	3.375172e-003	-5.293806e-003
4440279.950	3.837344e-003	-6.014975e-003	9.980302e-001	-7.699665e-002	9.977252e-001	-7.700377e-002	3.254495e-003	-5.546436e-003
4502819.034	3.823871e-003	-5.960313e-003	9.976698e-001	-7.820809e-002	9.977887e-001	-7.810506e-002	3.324960e-003	-5.453474e-003
4565358.118	3.726588e-003	-6.086391e-003	9.976386e-001	-7.924641e-002	9.975478e-001	-7.897631e-002	3.325918e-003	-5.629133e-003
4627897.201	3.894014e-003	-6.015904e-003	9.977781e-001	-8.034535e-002	9.975382e-001	-8.007618e-002	3.422987e-003	-5.610532e-003
4690436.285	3.721928e-003	-6.215706e-003	9.976676e-001	-8.151186e-002	9.975160e-001	-8.153880e-002	3.418850e-003	-5.879246e-003
4752975.369	3.720722e-003	-6.297088e-003	9.973511e-001	-8.268568e-002	9.974900e-001	-8.253532e-002	3.233735e-003	-6.007195e-003
4815514.453	3.833023e-003	-6.385112e-003	9.974255e-001	-8.365816e-002	9.974028e-001	-8.369979e-002	3.432126e-003	-5.983228e-003
4878053.537	3.919271e-003	-6.545545e-003	9.974201e-001	-8.468016e-002	9.972782e-001	-8.461525e-002	3.397753e-003	-6.141896e-003
4940592.620	3.652610e-003	-6.586749e-003	9.972136e-001	-8.587047e-002	9.972386e-001	-8.578919e-002	3.155886e-003	-6.257826e-003
5003131.704	3.711871e-003	-6.804217e-003	9.970912e-001	-8.688498e-002	9.972135e-001	-8.666663e-002	3.271879e-003	-6.389813e-003
5065670.788	3.631277e-003	-6.687166e-003	9.969839e-001	-8.805600e-002	9.970424e-001	-8.783189e-002	3.238955e-003	-6.428398e-003
5128209.872	3.744859e-003	-6.895301e-003	9.971081e-001	-8.910552e-002	9.969248e-001	-8.892961e-002	3.206557e-003	-6.721442e-003
5190748.956	3.643233e-003	-7.004225e-003	9.968783e-001	-9.020083e-002	9.969120e-001	-9.012661e-002	3.158552e-003	-6.674510e-003
5253288.039	3.692910e-003	-7.119860e-003	9.968899e-001	-9.133303e-002	9.968544e-001	-9.114608e-002	3.068808e-003	-6.679989e-003
5315827.123	3.646525e-003	-7.264005e-003	9.966034e-001	-9.238880e-002	9.966902e-001	-9.227196e-002	3.052084e-003	-6.855376e-003
5378366.207	3.718144e-003	-7.300385e-003	9.966701e-001	-9.347745e-002	9.966263e-001	-9.354988e-002	3.036669e-003	-7.033297e-003
5440905.291	3.533628e-003	-7.304685e-003	9.966395e-001	-9.457495e-002	9.965410e-001	-9.451196e-002	2.914724e-003	-7.072567e-003
5503444.375	3.726704e-003	-7.554830e-003	9.964807e-001	-9.571941e-002	9.965270e-001	-9.544975e-002	3.105383e-003	-7.233183e-003
5565983.458	3.368386e-003	-7.513545e-003	9.963962e-001	-9.665437e-002	9.963973e-001	-9.647828e-002	3.017698e-003	-7.178004e-003
5628522.542	3.613807e-003	-7.668113e-003	9.963171e-001	-9.768202e-002	9.962685e-001	-9.772743e-002	3.047531e-003	-7.371424e-003
5691061.626	3.673175e-003	-7.936229e-003	9.961415e-001	-9.902713e-002	9.961394e-001	-9.885594e-002	2.935995e-003	-7.413009e-003
5753600.710	3.506275e-003	-7.944528e-003	9.959749e-001	-1.000043e-001	9.960816e-001	-9.985099e-002	2.984434e-003	-7.635157e-003
5816139.794	3.598088e-003	-7.835145e-003	9.959460e-001	-1.011284e-001	9.958080e-001	-1.011833e-001	2.822986e-003	-7.674917e-003
5878678.877	3.495135e-003	-8.161023e-003	9.958582e-001	-1.022069e-001	9.958342e-001	-1.021270e-001	2.931314e-003	-7.900738e-003
5941217.961	3.471424e-003	-8.334540e-003	9.956801e-001	-1.033538e-001	9.956788e-001	-1.030709e-001	2.723796e-003	-7.898272e-003
6003757.045	3.304173e-003	-8.200307e-003	9.954400e-001	-1.042783e-001	9.955709e-001	-1.041319e-001	2.830534e-003	-8.003217e-003
6066296.129	3.409004e-003	-8.467341e-003	9.955611e-001	-1.054043e-001	9.954895e-001	-1.051297e-001	2.799388e-003	-8.124399e-003
6128835.213	3.499650e-003	-8.533640e-003	9.954290e-001	-1.062327e-001	9.955197e-001	-1.063806e-001	2.880997e-003	-8.226635e-003
6191374.296	3.435692e-003	-8.661021e-003	9.952512e-001	-1.075260e-001	9.952014e-001	-1.076667e-001	2.705696e-003	-8.212372e-003
6253913.380	3.322436e-003	-8.635504e-003	9.951491e-001	-1.087072e-001	9.951704e-001	-1.085152e-001	2.578923e-003	-8.197184e-003
6316452.464	3.281277e-003	-8.633325e-003	9.950986e-001	-1.096561e-001	9.949162e-001	-1.098167e-001	2.612346e-003	-8.510466e-003
6378991.548	3.243661e-003	-8.877058e-003	9.949397e-001	-1.110869e-001	9.950254e-001	-1.107715e-001	2.657752e-003	-8.728404e-003
6441530.632	3.163153e-003	-9.054595e-003	9.947692e-001	-1.118635e-001	9.948118e-001	-1.119831e-001	2.674967e-003	-8.712929e-003
6504069.715	3.148979e-003	-9.171664e-003	9.946505e-001	-1.132161e-001	9.948479e-001	-1.129650e-001	2.685840e-003	-8.806569e-003
6566608.799	3.286265e-003	-9.319195e-003	9.946301e-001	-1.143324e-001	9.945777e-001	-1.140878e-001	2.568997e-003	-8.712051e-003
6629147.883	3.212219e-003	-9.276943e-003	9.944476e-001	-1.151081e-001	9.944271e-001	-1.151723e-001	2.641525e-003	-8.941433e-003
6691686.967	3.072901e-003	-9.360768e-003	9.942076e-001	-1.163011e-001	9.942643e-001	-1.162554e-001	2.643048e-003	-8.952496e-003
6754226.051	3.005812e-003	-9.476581e-003	9.940911e-001	-1.174777e-001	9.940410e-001	-1.175080e-001	2.439460e-003	-9.254386e-003
6816765.134	3.084237e-003	-9.574978e-003	9.940540e-001	-1.184898e-001	9.940386e-001	-1.183945e-001	2.466314e-003	-9.156181e-003
6879304.218	2.963489e-003	-9.831352e-003	9.938591e-001	-1.195856e-001	9.939261e-001	-1.194890e-001	2.445757e-003	-9.309250e-003
6941843.302	3.025976e-003	-9.756199e-003	9.937075e-001	-1.207178e-001	9.938086e-001	-1.205540e-001	2.414720e-003	-9.320322e-003
7004382.386	2.794822e-003	-9.784550e-003	9.937060e-001	-1.217269e-001	9.936213e-001	-1.216465e-001	2.310066e-003	-9.381599e-003
7066921.470	2.878286e-003	-9.928898e-003	9.934333e-001	-1.229512e-001	9.935718e-001	-1.225600e-001	2.467830e-003	-9.624082e-003
7129460.553	2.760027e-003	-1.013626e-002	9.933864e-001	-1.238298e-001	9.933683e-001	-1.238195e-001	2.439625e-003	-9.661971e-003
7191999.637	2.737587e-003	-9.987896e-003	9.930292e-001	-1.249809e-001	9.931429e-001	-1.248671e-001	2.283315e-003	-9.748712e-003
7254538.721	2.763064e-003	-1.019520e-002	9.932251e-001	-1.261195e-001	9.931668e-001	-1.259989e-001	2.302997e-003	-9.825081e-003
7317077.805	2.917592e-003	-1.031563e-002	9.929924e-001	-1.271079e-001	9.930326e-001	-1.270372e-001	2.269874e-003	-1.002224e-002
7379616.889	2.768608e-003	-1.041602e-002	9.930258e-001	-1.283810e-001	9.928206e-001	-1.281440e-001	2.193958e-003	-1.008782e-002
7442155.972	2.590970e-003	-1.050417e-002	9.926942e-001	-1.293045e-001	9.927178e-001	-1.291623e-001	2.265127e-003	-9.960130e-003
7504695.056	2.614623e-003	-1.068535e-002	9.924467e-001	-1.302779e-001	9.924461e-001	-1.303997e-001	2.263960e-003	-9.988803e-003
7567234.140	2.776534e-003	-1.084185e-002	9.924398e-001	-1.313858e-001	9.922948e-001	-1.314346e-001	2.179768e-003	-1.018853e-002
7629773.224	2.644462e-003	-1.062777e-002	9.923592e-001	-1.326435e-001	9.923363e-001	-1.324489e-001	2.081265e-003	-1.032586e-002
7692312.308	2.486127e-003	-1.078729e-002	9.921950e-001	-1.336992e-001	9.920632e-001	-1.336154e-001	2.120212e-003	-1.050149e-002
7754851.391	2.450225e-003	-1.103495e-002	9.919982e-001	-1.347832e-001	9.917819e-001	-1.345294e-001	2.036557e-003	-1.045575e-002
7817390.475	2.507182e-003	-1.091967e-002	9.918946e-001	-1.360134e-001	9.917413e-001	-1.358379e-001	1.934982e-003	-1.043501e-002
7879929.559	2.399789e-003	-1.119425e-002	9.916318e-001	-1.370925e-001	9.915620e-001	-1.370772e-001	2.033615e-003	-1.052791e-002
7942468.643	2.328429e-003	-1.133486e-002	9.915934e-001	-1.380673e-001	9.915310e-001	-1.380931e-001	1.988428e-003	-1.079572e-002
8005007.727	2.406942e-003	-1.139064e-002	9.913404e-001	-1.392222e-001	9.913977e-001	-1.391488e-001	1.869997e-003	-1.066399e-002
8067546.811	2.230992e-003	-1.143849e-002	9.912361e-001	-1.402509e-001	9.910965e-001	-1.401509e-001	1.761055e-003	-1.096019e-002
8130085.894	2.277690e-003	-1.159365e-002	9.910422e-001	-1.412825e-001	9.910021e-001	-1.412594e-001	1.955675e-003	-1.109145e-002
8192624.978	2.085952e-003	-1.174385e-002	9.907434e-001	-1.425132e-001	9.908385e-001	-1.423203e-001	1.979962e-003	-1.118784e-002
8255164.062	2.181445e-003	-1.180427e-002	9.907055e-001	-1.435183e-001	9.906737e-001	-1.434284e-001	1.911515e-003	-1.131181e-002
8317703.146	2.023406e-003	-1.178769e-002	9.905802e-001	-1.446277e-001	9.905893e-001	-1.444989e-001	1.710732e-003	-1.135011e-002
8380242.230	2.126688e-003	-1.211384e-002	9.902591e-001	-1.458257e-001	9.903133e-001	-1.455023e-001	1.647394e-003	-1.150692e-002
8442781.313	2.068660e-003	-1.216365e-002	9.903645e-001	-1.467773e-001	9.902259e-001	-1.465969e-001	1.596982e-003	-1.168098e-002
8505320.397	2.024373e-003	-1.212354e-002	9.901514e-001	-1.478852e-001	9.900509e-001	-1.476948e-001	1.514042e-003	-1.171314e-002
8567859.481	1.938115e-003	-1.204895e-002	9.899234e-001	-1.488141e-001	9.899496e-001	-1.487764e-001	1.519344e-003	-1.162871e-002
8630398.565	1.996362e-003	-1.219073e-002	9.895787e-001	-1.498567e-001	9.898002e-001	-1.497929e-001	1.372762e-003	-1.197259e-002
8692937.649	1.905772e-003	-1.247930e-002	9.894921e-001	-1.509360e-001	9.894484e-001	-1.509320e-001	1.270490e-003	-1.197036e-002
8755476.732	1.894726e-003	-1.250804e-002	9.894119e-001	-1.521494e-001	9.893196e-001	-1.519163e-001	1.305487e-003	-1.203775e-002
8818015.816	1.737970e-003	-1.263819e-002	9.891535e-001	-1.531841e-001	9.889931e-001	-1.530466e-001	1.381478e-003	-1.221461e-002
8880554.900	1.926501e-003	-1.268205e-002	9.891319e-001	-1.543305e-001	9.891055e-001	-1.539758e-001	1.219895e-003	-1.245965e-002
8943093.984	1.724244e-003	-1.266764e-002	9.888952e-001	-1.552948e-001	9.889021e-001	-1.550892e-001	1.200724e-003	-1.248488e-002
9005633.068	1.754592e-003	-1.285597e-002	9.886218e-001	-1.564184e-001	9.887895e-001	-1.563016e-001	1.074722e-003	-1.271731e-002
9068172.151	1.560668e-003	-1.294695e-002	9.886013e-001	-1.575342e-001	9.884865e-001	-1.572545e-001	1.089126e-003	-1.275145e-002
9130711.235	1.742013e-003	-1.309811e-002	9.883188e-001	-1.586031e-001	9.883380e-001	-1.583215e-001	1.089453e-003	-1.302197e-002
9193250.319	1.689165e-003	-1.320534e-002	9.882930e-001	-1.595512e-001	9.881209e-001	-1.594998e-001	9.926981e-004	-1.304226e-002
9255789.403	1.548440e-003	-1.344827e-002	9.881347e-001	-1.605091e-001	9.879775e-001	-1.604978e-001	8.159054e-004	-1.308185e-002
9318328.487	1.459284e-003	-1.345138e-002	9.879168e-001	-1.618431e-001	9.879302e-001	-1.615157e-001	8.880902e-004	-1.316194e-002
9380867.570	1.438549e-003	-1.342167e-002	9.877986e-001	-1.629307e-001	9.876034e-001	-1.627662e-001	8.472336e-004	-1.327064e-002
9443406.654	1.457229e-003	-1.350833e-002	9.876425e-001	-1.639076e-001	9.875424e-001	-1.638431e-001	8.385058e-004	-1.344369e-002
9505945.738	1.395320e-003	-1.357571e-002	9.872357e-001	-1.651606e-001	9.874527e-001	-1.649157e-001	7.655564e-004	-1.353512e-002
9568484.822	1.398565e-003	-1.369913e-002	9.872184e-001	-1.661825e-001	9.870175e-001	-1.659691e-001	5.206807e-004	-1.338881e-002
