!Agilent Technologies,E5061B,MY49102235,A.02.00
!Date: Tue Jul 11 15:39:37 2023
!Data & Calibration Information:
!Freq	S11:SOLT2(ON)	S21:SOLT2(ON)	S12:SOLT2(ON)	S22:SOLT2(ON)
# Hz S RI R 50
5.000	-5.266567e-003	-5.640899e-003	1.001797e+000	7.946768e-003	1.000363e+000	1.025605e-002	-1.520069e-003	-7.542187e-003
62544.084	5.816204e-003	-5.033117e-004	1.001353e+000	5.420559e-004	1.000818e+000	1.187311e-003	7.701801e-003	-2.885166e-003
125083.168	5.668030e-003	-4.889193e-004	1.000990e+000	-8.942499e-004	1.000825e+000	-8.318954e-004	7.486127e-003	-2.288675e-003
187622.251	5.461969e-003	-3.349332e-004	1.000493e+000	-2.108629e-003	1.001032e+000	-8.428861e-004	7.382838e-003	-2.392345e-003
250161.335	5.274173e-003	-2.028288e-004	1.000585e+000	-3.222724e-003	1.000662e+000	-3.055398e-003	7.270679e-003	-2.045890e-003
312700.419	5.415521e-003	5.038659e-004	1.000970e+000	-3.804043e-003	1.000625e+000	-3.476536e-003	7.764280e-003	-2.365765e-003
375239.503	5.310063e-003	-9.932541e-004	1.000980e+000	-5.246555e-003	1.000521e+000	-4.886844e-003	7.257505e-003	-2.530813e-003
437778.587	5.154628e-003	-6.067864e-004	1.001279e+000	-5.375209e-003	1.001063e+000	-6.056316e-003	6.609685e-003	-2.249867e-003
500317.670	4.583845e-003	-4.880849e-004	1.001267e+000	-7.862632e-003	1.001748e+000	-7.567326e-003	4.801111e-003	-2.093681e-003
562856.754	5.906205e-003	-7.948240e-004	1.001338e+000	-9.389368e-003	1.001176e+000	-8.915761e-003	6.020152e-003	-1.610255e-003
625395.838	5.087825e-003	-6.514124e-004	1.002218e+000	-1.052874e-002	1.002129e+000	-1.003207e-002	6.100638e-003	-1.027801e-003
687934.922	5.130581e-003	-9.985456e-004	1.001395e+000	-1.152106e-002	1.001349e+000	-1.148008e-002	5.740093e-003	-1.528372e-003
750474.006	4.328915e-003	-6.890888e-004	1.001023e+000	-1.093272e-002	1.000828e+000	-1.064308e-002	5.505375e-003	-1.346810e-003
813013.089	4.491394e-003	-6.744685e-004	1.001213e+000	-1.255550e-002	1.000715e+000	-1.223960e-002	4.882194e-003	-1.180727e-003
875552.173	4.240209e-003	-5.080724e-004	1.001229e+000	-1.359265e-002	1.001007e+000	-1.354855e-002	5.665320e-003	-1.592980e-003
938091.257	4.308355e-003	-4.623169e-004	1.001343e+000	-1.505853e-002	1.001160e+000	-1.450645e-002	5.878647e-003	-1.041085e-003
1000630.341	3.770027e-003	-8.461612e-004	1.000786e+000	-1.635684e-002	1.001053e+000	-1.589812e-002	5.135336e-003	-1.743703e-003
1063169.425	4.109064e-003	-9.906830e-004	1.001151e+000	-1.775323e-002	1.000737e+000	-1.682610e-002	4.311817e-003	-2.081495e-003
1125708.508	3.996583e-003	-9.550725e-004	1.001006e+000	-1.893925e-002	1.000768e+000	-1.822060e-002	3.808656e-003	-1.792017e-003
1188247.592	4.526339e-003	-1.407347e-003	1.001133e+000	-2.004645e-002	1.001111e+000	-1.934897e-002	2.724775e-003	-2.375056e-003
1250786.676	4.375384e-003	-2.162883e-003	1.000610e+000	-1.990062e-002	1.000747e+000	-2.000377e-002	1.994976e-003	-4.052361e-003
1313325.760	4.487969e-003	-2.269897e-003	1.001138e+000	-2.153509e-002	1.000989e+000	-2.161369e-002	2.714294e-003	-3.855421e-003
1375864.844	4.215969e-003	-2.475789e-003	1.000799e+000	-2.342700e-002	1.000673e+000	-2.334262e-002	2.578455e-003	-3.572277e-003
1438403.927	4.119601e-003	-2.634247e-003	1.000829e+000	-2.406097e-002	1.000954e+000	-2.318942e-002	2.652585e-003	-3.332856e-003
1500943.011	4.353282e-003	-2.587676e-003	1.001487e+000	-2.496574e-002	1.001326e+000	-2.474588e-002	3.002376e-003	-3.744678e-003
1563482.095	4.341910e-003	-2.970787e-003	1.000926e+000	-2.645888e-002	1.000649e+000	-2.538535e-002	3.144117e-003	-3.547440e-003
1626021.179	4.147124e-003	-2.844598e-003	1.000836e+000	-2.740108e-002	1.001046e+000	-2.785514e-002	3.406860e-003	-3.618320e-003
1688560.263	3.841243e-003	-2.791133e-003	1.000585e+000	-2.919337e-002	1.001378e+000	-2.926732e-002	3.587189e-003	-3.637658e-003
1751099.346	3.977195e-003	-2.709897e-003	1.001174e+000	-3.036942e-002	1.000841e+000	-2.975888e-002	3.402143e-003	-2.801223e-003
1813638.430	3.618331e-003	-2.786071e-003	1.001416e+000	-3.199021e-002	1.001113e+000	-3.154327e-002	3.567815e-003	-3.202077e-003
1876177.514	3.643463e-003	-2.491969e-003	1.001726e+000	-3.272561e-002	1.001382e+000	-3.321233e-002	3.236106e-003	-2.546769e-003
1938716.598	3.111260e-003	-2.429694e-003	1.001951e+000	-3.366579e-002	1.001577e+000	-3.293692e-002	3.408232e-003	-2.154782e-003
2001255.682	3.013212e-003	-2.917798e-003	1.001851e+000	-3.500136e-002	1.001443e+000	-3.458104e-002	3.168823e-003	-2.633926e-003
2063794.765	3.095427e-003	-2.542238e-003	1.001454e+000	-3.605554e-002	1.000934e+000	-3.635919e-002	3.546618e-003	-2.732899e-003
2126333.849	2.634312e-003	-3.075322e-003	1.000845e+000	-3.730404e-002	1.000225e+000	-3.660029e-002	3.807823e-003	-2.493803e-003
2188872.933	3.130765e-003	-3.081627e-003	1.000798e+000	-3.837023e-002	1.000180e+000	-3.763508e-002	3.685527e-003	-2.548583e-003
2251412.017	3.236728e-003	-3.466258e-003	1.000516e+000	-3.996827e-002	1.000313e+000	-3.872825e-002	3.671927e-003	-2.685271e-003
2313951.101	3.542274e-003	-3.044882e-003	9.999197e-001	-4.097576e-002	1.000324e+000	-3.960378e-002	3.973061e-003	-2.761413e-003
2376490.184	3.286047e-003	-3.101522e-003	9.998872e-001	-4.132085e-002	1.000309e+000	-4.152915e-002	3.933976e-003	-2.765185e-003
2439029.268	3.738209e-003	-3.159361e-003	9.997860e-001	-4.305847e-002	9.994129e-001	-4.249765e-002	3.587267e-003	-2.673645e-003
2501568.352	3.686798e-003	-3.161160e-003	9.994780e-001	-4.324461e-002	1.000319e+000	-4.306112e-002	3.887025e-003	-2.727245e-003
2564107.436	3.620405e-003	-3.332375e-003	9.998074e-001	-4.497867e-002	9.999583e-001	-4.475189e-002	3.193328e-003	-3.119437e-003
2626646.520	4.104595e-003	-3.526620e-003	9.996669e-001	-4.609539e-002	9.989113e-001	-4.577153e-002	3.441892e-003	-3.196497e-003
2689185.604	4.053864e-003	-3.376621e-003	1.000125e+000	-4.680062e-002	9.997460e-001	-4.664197e-002	3.566231e-003	-3.158511e-003
2751724.687	4.164069e-003	-3.501376e-003	1.000028e+000	-4.759312e-002	9.995545e-001	-4.736454e-002	3.166731e-003	-3.233527e-003
2814263.771	4.101681e-003	-3.581617e-003	9.990137e-001	-4.951725e-002	9.993158e-001	-4.868394e-002	3.150187e-003	-3.366940e-003
2876802.855	4.057443e-003	-3.823759e-003	9.990519e-001	-5.077909e-002	9.993371e-001	-4.975254e-002	3.217954e-003	-3.263841e-003
2939341.939	4.167682e-003	-3.742710e-003	9.996302e-001	-5.124726e-002	9.991578e-001	-5.125916e-002	3.112539e-003	-3.383545e-003
3001881.023	4.090996e-003	-3.765513e-003	9.993533e-001	-5.262615e-002	9.990484e-001	-5.220383e-002	3.196062e-003	-3.532996e-003
3064420.106	4.133699e-003	-3.831394e-003	9.998197e-001	-5.350249e-002	9.989840e-001	-5.325700e-002	3.033552e-003	-3.698208e-003
3126959.190	4.336162e-003	-3.944375e-003	9.995039e-001	-5.472319e-002	9.992286e-001	-5.442231e-002	3.195516e-003	-3.768356e-003
3189498.274	4.308651e-003	-3.937337e-003	9.993891e-001	-5.564491e-002	9.991069e-001	-5.553588e-002	3.192354e-003	-3.865220e-003
3252037.358	4.221028e-003	-4.340611e-003	9.994297e-001	-5.679677e-002	9.991763e-001	-5.650926e-002	3.125253e-003	-3.854957e-003
3314576.442	4.219192e-003	-4.200675e-003	9.993044e-001	-5.781452e-002	9.990785e-001	-5.767135e-002	3.191131e-003	-3.982253e-003
3377115.525	4.188110e-003	-4.226541e-003	9.990984e-001	-5.885207e-002	9.988152e-001	-5.891851e-002	3.026829e-003	-4.156524e-003
3439654.609	4.200060e-003	-4.313920e-003	9.989499e-001	-5.995477e-002	9.990903e-001	-5.990823e-002	3.040829e-003	-3.997079e-003
3502193.693	4.142960e-003	-4.674638e-003	9.989561e-001	-6.119154e-002	9.987599e-001	-6.086598e-002	3.214117e-003	-4.073785e-003
3564732.777	4.190966e-003	-4.579980e-003	9.989640e-001	-6.220138e-002	9.987482e-001	-6.204208e-002	3.289749e-003	-4.098989e-003
3627271.861	4.034411e-003	-4.760044e-003	9.989821e-001	-6.336884e-002	9.987884e-001	-6.302937e-002	3.059400e-003	-4.352780e-003
3689810.944	3.946215e-003	-4.919722e-003	9.988302e-001	-6.450199e-002	9.986976e-001	-6.409503e-002	3.219465e-003	-4.371792e-003
3752350.028	4.055453e-003	-4.936733e-003	9.987538e-001	-6.532181e-002	9.984753e-001	-6.514564e-002	3.135945e-003	-4.467108e-003
3814889.112	4.163049e-003	-4.866142e-003	9.985870e-001	-6.647379e-002	9.986683e-001	-6.654817e-002	3.064891e-003	-4.661046e-003
3877428.196	4.100385e-003	-4.895649e-003	9.987366e-001	-6.766115e-002	9.985500e-001	-6.741394e-002	3.387546e-003	-4.704830e-003
3939967.280	4.057490e-003	-5.239503e-003	9.986087e-001	-6.877195e-002	9.985631e-001	-6.848416e-002	3.347138e-003	-4.663990e-003
4002506.363	4.113555e-003	-5.152176e-003	9.986015e-001	-6.986361e-002	9.984342e-001	-6.943827e-002	3.292555e-003	-4.808151e-003
4065045.447	3.935427e-003	-5.319216e-003	9.983251e-001	-7.097643e-002	9.982063e-001	-7.064802e-002	3.366344e-003	-4.967083e-003
4127584.531	3.893996e-003	-5.387069e-003	9.982618e-001	-7.204255e-002	9.981974e-001	-7.163298e-002	3.384258e-003	-4.914818e-003
4190123.615	3.946507e-003	-5.430090e-003	9.982826e-001	-7.332516e-002	9.979963e-001	-7.289836e-002	3.276782e-003	-5.207658e-003
4252662.699	3.888026e-003	-5.573743e-003	9.982808e-001	-7.441188e-002	9.979146e-001	-7.410033e-002	3.380298e-003	-5.246773e-003
4315201.782	4.009059e-003	-5.688328e-003	9.982003e-001	-7.526051e-002	9.980858e-001	-7.519432e-002	3.203679e-003	-5.514773e-003
4377740.866	3.916816e-003	-5.774400e-003	9.981960e-001	-7.651206e-002	9.977955e-001	-7.628368e-002	3.365628e-003	-5.281932e-003
4440279.950	3.812051e-003	-5.979125e-003	9.980494e-001	-7.741278e-002	9.976218e-001	-7.721768e-002	3.248785e-003	-5.518601e-003
4502819.034	3.798725e-003	-5.924411e-003	9.977135e-001	-7.867003e-002	9.976655e-001	-7.832474e-002	3.313789e-003	-5.447349e-003
4565358.118	3.704412e-003	-6.047120e-003	9.976873e-001	-7.966700e-002	9.974276e-001	-7.924061e-002	3.322956e-003	-5.627554e-003
4627897.201	3.867398e-003	-5.985331e-003	9.978122e-001	-8.077615e-002	9.974571e-001	-8.036335e-002	3.432319e-003	-5.584477e-003
4690436.285	3.689076e-003	-6.184555e-003	9.977421e-001	-8.194199e-002	9.974189e-001	-8.181309e-002	3.405709e-003	-5.852933e-003
4752975.369	3.694157e-003	-6.279979e-003	9.974158e-001	-8.314383e-002	9.973895e-001	-8.277314e-002	3.225878e-003	-5.987746e-003
4815514.453	3.800820e-003	-6.344569e-003	9.975301e-001	-8.409452e-002	9.973148e-001	-8.396014e-002	3.433440e-003	-5.965492e-003
4878053.537	3.897079e-003	-6.507939e-003	9.974846e-001	-8.512453e-002	9.971731e-001	-8.487529e-002	3.397934e-003	-6.120987e-003
4940592.620	3.630017e-003	-6.552588e-003	9.972401e-001	-8.629533e-002	9.971370e-001	-8.605904e-002	3.147688e-003	-6.234863e-003
5003131.704	3.686819e-003	-6.770848e-003	9.971060e-001	-8.733899e-002	9.970911e-001	-8.692739e-002	3.267263e-003	-6.359104e-003
5065670.788	3.602251e-003	-6.653760e-003	9.970521e-001	-8.848891e-002	9.969057e-001	-8.808324e-002	3.232953e-003	-6.409957e-003
5128209.872	3.720453e-003	-6.861547e-003	9.971355e-001	-8.954418e-002	9.968415e-001	-8.916143e-002	3.202128e-003	-6.689344e-003
5190748.956	3.619364e-003	-6.961507e-003	9.969145e-001	-9.067202e-002	9.968023e-001	-9.042562e-002	3.160121e-003	-6.637981e-003
5253288.039	3.658381e-003	-7.087577e-003	9.968903e-001	-9.175314e-002	9.967403e-001	-9.146892e-002	3.083827e-003	-6.659403e-003
5315827.123	3.613506e-003	-7.229186e-003	9.966651e-001	-9.286201e-002	9.966137e-001	-9.258192e-002	3.053625e-003	-6.835019e-003
5378366.207	3.695359e-003	-7.258638e-003	9.967326e-001	-9.395489e-002	9.965355e-001	-9.385475e-002	3.040071e-003	-7.017579e-003
5440905.291	3.508457e-003	-7.256169e-003	9.966505e-001	-9.501845e-002	9.964402e-001	-9.482595e-002	2.915361e-003	-7.043178e-003
5503444.375	3.702731e-003	-7.500559e-003	9.965030e-001	-9.624314e-002	9.964473e-001	-9.575710e-002	3.107009e-003	-7.207387e-003
5565983.458	3.338171e-003	-7.473184e-003	9.964518e-001	-9.719747e-002	9.962915e-001	-9.684718e-002	3.024169e-003	-7.135833e-003
5628522.542	3.585536e-003	-7.630845e-003	9.963252e-001	-9.821499e-002	9.961739e-001	-9.806930e-002	3.048013e-003	-7.354793e-003
5691061.626	3.646389e-003	-7.891416e-003	9.961832e-001	-9.952511e-002	9.960514e-001	-9.916258e-002	2.949840e-003	-7.389124e-003
5753600.710	3.468977e-003	-7.900766e-003	9.959994e-001	-1.004799e-001	9.959707e-001	-1.002046e-001	2.985277e-003	-7.618511e-003
5816139.794	3.557187e-003	-7.806719e-003	9.960401e-001	-1.016206e-001	9.957032e-001	-1.015191e-001	2.833124e-003	-7.652565e-003
5878678.877	3.447330e-003	-8.123165e-003	9.958827e-001	-1.026852e-001	9.956829e-001	-1.024213e-001	2.932761e-003	-7.876314e-003
5941217.961	3.443034e-003	-8.275390e-003	9.956977e-001	-1.038956e-001	9.955980e-001	-1.033872e-001	2.722968e-003	-7.874634e-003
6003757.045	3.274622e-003	-8.151019e-003	9.954687e-001	-1.048213e-001	9.954720e-001	-1.045125e-001	2.841028e-003	-7.974809e-003
6066296.129	3.391345e-003	-8.428158e-003	9.955964e-001	-1.058689e-001	9.953841e-001	-1.055106e-001	2.805752e-003	-8.101128e-003
6128835.213	3.485384e-003	-8.503133e-003	9.954408e-001	-1.067407e-001	9.954170e-001	-1.067644e-001	2.883306e-003	-8.183093e-003
6191374.296	3.395632e-003	-8.604504e-003	9.953199e-001	-1.081083e-001	9.950851e-001	-1.079977e-001	2.717394e-003	-8.193354e-003
6253913.380	3.288084e-003	-8.580152e-003	9.952264e-001	-1.092421e-001	9.950311e-001	-1.089096e-001	2.584401e-003	-8.172228e-003
6316452.464	3.254735e-003	-8.603911e-003	9.951222e-001	-1.101847e-001	9.948471e-001	-1.102167e-001	2.619619e-003	-8.489764e-003
6378991.548	3.200500e-003	-8.829961e-003	9.949805e-001	-1.116806e-001	9.948884e-001	-1.111357e-001	2.663459e-003	-8.700141e-003
6441530.632	3.134895e-003	-9.012948e-003	9.947818e-001	-1.124406e-001	9.946887e-001	-1.123805e-001	2.686465e-003	-8.682659e-003
6504069.715	3.116643e-003	-9.116966e-003	9.946164e-001	-1.137863e-001	9.947388e-001	-1.133808e-001	2.695461e-003	-8.784737e-003
6566608.799	3.258057e-003	-9.267523e-003	9.946319e-001	-1.149195e-001	9.944638e-001	-1.145238e-001	2.573208e-003	-8.688336e-003
6629147.883	3.175851e-003	-9.233956e-003	9.944462e-001	-1.156506e-001	9.943086e-001	-1.155977e-001	2.641331e-003	-8.920476e-003
6691686.967	3.044704e-003	-9.318117e-003	9.942634e-001	-1.168811e-001	9.941411e-001	-1.166634e-001	2.653229e-003	-8.922721e-003
6754226.051	2.970497e-003	-9.427181e-003	9.941193e-001	-1.180584e-001	9.938746e-001	-1.179172e-001	2.436700e-003	-9.233320e-003
6816765.134	3.063629e-003	-9.523473e-003	9.940692e-001	-1.190465e-001	9.939197e-001	-1.188725e-001	2.478441e-003	-9.128026e-003
6879304.218	2.933540e-003	-9.777744e-003	9.938565e-001	-1.201765e-001	9.937951e-001	-1.199471e-001	2.454127e-003	-9.279269e-003
6941843.302	2.979135e-003	-9.708958e-003	9.937229e-001	-1.213071e-001	9.936634e-001	-1.210069e-001	2.433242e-003	-9.286712e-003
7004382.386	2.775902e-003	-9.726117e-003	9.936638e-001	-1.222821e-001	9.934919e-001	-1.220597e-001	2.329930e-003	-9.355683e-003
7066921.470	2.853227e-003	-9.870795e-003	9.934284e-001	-1.235362e-001	9.934391e-001	-1.229966e-001	2.467349e-003	-9.598551e-003
7129460.553	2.726543e-003	-1.008823e-002	9.934051e-001	-1.244249e-001	9.932564e-001	-1.242499e-001	2.452402e-003	-9.634617e-003
7191999.637	2.695306e-003	-9.933741e-003	9.930312e-001	-1.256254e-001	9.929541e-001	-1.252945e-001	2.292409e-003	-9.715378e-003
7254538.721	2.726912e-003	-1.013701e-002	9.931885e-001	-1.267241e-001	9.930532e-001	-1.264433e-001	2.315113e-003	-9.790554e-003
7317077.805	2.893100e-003	-1.025783e-002	9.930129e-001	-1.277129e-001	9.928940e-001	-1.274606e-001	2.286601e-003	-9.993949e-003
7379616.889	2.733422e-003	-1.034596e-002	9.930036e-001	-1.289870e-001	9.926797e-001	-1.286244e-001	2.211633e-003	-1.005405e-002
7442155.972	2.557717e-003	-1.044703e-002	9.926714e-001	-1.299187e-001	9.925786e-001	-1.296028e-001	2.285581e-003	-9.934903e-003
7504695.056	2.577549e-003	-1.062895e-002	9.924355e-001	-1.309138e-001	9.922914e-001	-1.308675e-001	2.284854e-003	-9.951967e-003
7567234.140	2.738279e-003	-1.079175e-002	9.924531e-001	-1.320069e-001	9.921559e-001	-1.319096e-001	2.197786e-003	-1.014876e-002
7629773.224	2.613072e-003	-1.058012e-002	9.923231e-001	-1.332694e-001	9.921348e-001	-1.329116e-001	2.093357e-003	-1.028825e-002
7692312.308	2.464188e-003	-1.073289e-002	9.921738e-001	-1.343261e-001	9.919343e-001	-1.341049e-001	2.128670e-003	-1.047908e-002
7754851.391	2.418298e-003	-1.097541e-002	9.919598e-001	-1.354458e-001	9.916912e-001	-1.349807e-001	2.060053e-003	-1.041772e-002
7817390.475	2.472980e-003	-1.084524e-002	9.918832e-001	-1.366415e-001	9.915614e-001	-1.363101e-001	1.951925e-003	-1.040268e-002
7879929.559	2.366408e-003	-1.112937e-002	9.915905e-001	-1.377705e-001	9.914237e-001	-1.375420e-001	2.047069e-003	-1.050336e-002
7942468.643	2.296554e-003	-1.126781e-002	9.915685e-001	-1.387287e-001	9.913427e-001	-1.385860e-001	2.009036e-003	-1.076526e-002
8005007.727	2.366088e-003	-1.132528e-002	9.913093e-001	-1.398622e-001	9.912245e-001	-1.396166e-001	1.894845e-003	-1.062358e-002
8067546.811	2.191745e-003	-1.137069e-002	9.912165e-001	-1.409428e-001	9.909243e-001	-1.406439e-001	1.787646e-003	-1.092773e-002
8130085.894	2.239468e-003	-1.153566e-002	9.910021e-001	-1.419633e-001	9.908715e-001	-1.417953e-001	1.970634e-003	-1.105506e-002
8192624.978	2.048671e-003	-1.168090e-002	9.907068e-001	-1.431682e-001	9.907048e-001	-1.428300e-001	1.995419e-003	-1.114984e-002
8255164.062	2.147162e-003	-1.175250e-002	9.906823e-001	-1.442071e-001	9.904794e-001	-1.439503e-001	1.929074e-003	-1.128691e-002
8317703.146	1.990743e-003	-1.173660e-002	9.905810e-001	-1.453211e-001	9.904500e-001	-1.450194e-001	1.732510e-003	-1.132601e-002
8380242.230	2.084392e-003	-1.205419e-002	9.902288e-001	-1.465161e-001	9.901696e-001	-1.460464e-001	1.663748e-003	-1.146842e-002
8442781.313	2.039926e-003	-1.210108e-002	9.903453e-001	-1.474620e-001	9.900885e-001	-1.471229e-001	1.618712e-003	-1.165076e-002
8505320.397	1.991230e-003	-1.204739e-002	9.901017e-001	-1.486004e-001	9.898729e-001	-1.482353e-001	1.533146e-003	-1.167839e-002
8567859.481	1.908674e-003	-1.198186e-002	9.898836e-001	-1.495224e-001	9.897986e-001	-1.493188e-001	1.546379e-003	-1.159447e-002
8630398.565	1.957512e-003	-1.211435e-002	9.895585e-001	-1.505912e-001	9.896271e-001	-1.503177e-001	1.395299e-003	-1.194526e-002
8692937.649	1.866591e-003	-1.241858e-002	9.895071e-001	-1.516964e-001	9.892863e-001	-1.514688e-001	1.298935e-003	-1.193154e-002
8755476.732	1.859956e-003	-1.245249e-002	9.893325e-001	-1.529037e-001	9.891489e-001	-1.524327e-001	1.339148e-003	-1.200188e-002
8818015.816	1.699257e-003	-1.256665e-002	9.891153e-001	-1.538739e-001	9.888223e-001	-1.535990e-001	1.420475e-003	-1.217365e-002
8880554.900	1.888210e-003	-1.262044e-002	9.890748e-001	-1.550840e-001	9.889511e-001	-1.545146e-001	1.239789e-003	-1.242648e-002
8943093.984	1.676207e-003	-1.260570e-002	9.888720e-001	-1.560325e-001	9.887454e-001	-1.556555e-001	1.224954e-003	-1.245584e-002
9005633.068	1.699682e-003	-1.277883e-002	9.885708e-001	-1.571910e-001	9.886329e-001	-1.568688e-001	1.097151e-003	-1.268412e-002
9068172.151	1.525254e-003	-1.287215e-002	9.885388e-001	-1.582547e-001	9.883022e-001	-1.578300e-001	1.109636e-003	-1.271774e-002
9130711.235	1.695072e-003	-1.303329e-002	9.882707e-001	-1.593587e-001	9.881825e-001	-1.588795e-001	1.118236e-003	-1.298558e-002
9193250.319	1.655396e-003	-1.314161e-002	9.882544e-001	-1.602956e-001	9.879737e-001	-1.600564e-001	1.017421e-003	-1.300606e-002
9255789.403	1.511910e-003	-1.338110e-002	9.881015e-001	-1.612558e-001	9.877867e-001	-1.610529e-001	8.321315e-004	-1.303839e-002
9318328.487	1.432934e-003	-1.337639e-002	9.878468e-001	-1.626259e-001	9.877652e-001	-1.621225e-001	9.132075e-004	-1.312616e-002
9380867.570	1.397419e-003	-1.334341e-002	9.877288e-001	-1.636867e-001	9.874407e-001	-1.633332e-001	8.770749e-004	-1.323195e-002
9443406.654	1.417573e-003	-1.343270e-002	9.875641e-001	-1.646795e-001	9.873972e-001	-1.644406e-001	8.652928e-004	-1.340638e-002
9505945.738	1.343872e-003	-1.351196e-002	9.871778e-001	-1.659249e-001	9.872601e-001	-1.655312e-001	7.815349e-004	-1.349138e-002
9568484.822	1.354422e-003	-1.363411e-002	9.871310e-001	-1.669506e-001	9.868463e-001	-1.665607e-001	5.419977e-004	-1.334857e-002
