!Agilent Technologies,E5061B,MY49102235,A.02.00
!Date: Tue Jul 11 14:54:06 2023
!Data & Calibration Information:
!Freq	S11:SOLT2(ON)	S21:SOLT2(ON)	S12:SOLT2(ON)	S22:SOLT2(ON)
# Hz S RI R 50
5.000	-5.204141e-003	-5.652527e-003	1.001615e+000	7.973263e-003	1.000274e+000	1.025797e-002	-1.579123e-003	-7.546536e-003
62544.084	5.815512e-003	-5.196203e-004	1.001365e+000	4.779433e-004	1.000778e+000	1.286021e-003	7.705919e-003	-2.879750e-003
125083.168	5.673887e-003	-5.360088e-004	1.001061e+000	-7.895759e-004	1.000758e+000	-8.558162e-004	7.482345e-003	-2.294893e-003
187622.251	5.453125e-003	-3.598529e-004	1.000433e+000	-2.099388e-003	1.000964e+000	-8.760410e-004	7.379897e-003	-2.408855e-003
250161.335	5.271242e-003	-1.980162e-004	1.000508e+000	-3.276826e-003	1.000794e+000	-3.171822e-003	7.252073e-003	-2.072285e-003
312700.419	5.408454e-003	5.231254e-004	1.000841e+000	-3.882860e-003	1.000575e+000	-3.530630e-003	7.785570e-003	-2.384516e-003
375239.503	5.311848e-003	-1.029629e-003	1.001015e+000	-5.165687e-003	1.000728e+000	-4.916811e-003	7.233307e-003	-2.568714e-003
437778.587	5.132907e-003	-6.417869e-004	1.001354e+000	-5.400583e-003	1.001053e+000	-5.972808e-003	6.601922e-003	-2.293185e-003
500317.670	4.577896e-003	-5.307194e-004	1.001304e+000	-7.824397e-003	1.001635e+000	-7.446811e-003	4.811374e-003	-2.135975e-003
562856.754	5.891639e-003	-8.392073e-004	1.001315e+000	-9.275482e-003	1.001330e+000	-9.074003e-003	5.987808e-003	-1.652785e-003
625395.838	5.065133e-003	-7.028602e-004	1.002205e+000	-1.049596e-002	1.002154e+000	-1.002511e-002	6.103556e-003	-1.079722e-003
687934.922	5.114453e-003	-1.051177e-003	1.001259e+000	-1.146759e-002	1.001301e+000	-1.146245e-002	5.736768e-003	-1.574472e-003
750474.006	4.354954e-003	-7.285559e-004	1.000859e+000	-1.090455e-002	1.000860e+000	-1.055473e-002	5.540442e-003	-1.381606e-003
813013.089	4.524666e-003	-7.222185e-004	1.001046e+000	-1.266740e-002	1.000845e+000	-1.230731e-002	4.898018e-003	-1.228560e-003
875552.173	4.258546e-003	-5.698070e-004	1.001092e+000	-1.352265e-002	1.001102e+000	-1.349463e-002	5.671406e-003	-1.643385e-003
938091.257	4.335283e-003	-5.181755e-004	1.001233e+000	-1.490361e-002	1.001105e+000	-1.451459e-002	5.893292e-003	-1.082614e-003
1000630.341	3.791178e-003	-8.829059e-004	1.000695e+000	-1.647915e-002	1.001136e+000	-1.598070e-002	5.137900e-003	-1.801248e-003
1063169.425	4.131981e-003	-1.042513e-003	1.001155e+000	-1.764567e-002	1.000836e+000	-1.701096e-002	4.340440e-003	-2.140045e-003
1125708.508	4.014528e-003	-1.004866e-003	1.000906e+000	-1.889351e-002	1.000880e+000	-1.819406e-002	3.842711e-003	-1.858542e-003
1188247.592	4.556792e-003	-1.476948e-003	1.001031e+000	-2.002946e-002	1.001100e+000	-1.928801e-002	2.732612e-003	-2.437632e-003
1250786.676	4.414666e-003	-2.234613e-003	1.000664e+000	-1.991968e-002	1.000881e+000	-1.997650e-002	1.987348e-003	-4.108431e-003
1313325.760	4.512468e-003	-2.334204e-003	1.000987e+000	-2.140837e-002	1.001058e+000	-2.153501e-002	2.729428e-003	-3.925050e-003
1375864.844	4.247675e-003	-2.551121e-003	1.000706e+000	-2.329772e-002	1.000613e+000	-2.340844e-002	2.580127e-003	-3.649407e-003
1438403.927	4.132029e-003	-2.715974e-003	1.000730e+000	-2.391673e-002	1.001026e+000	-2.328529e-002	2.661584e-003	-3.404762e-003
1500943.011	4.358193e-003	-2.667302e-003	1.001328e+000	-2.488320e-002	1.001452e+000	-2.476982e-002	3.014840e-003	-3.822502e-003
1563482.095	4.356777e-003	-3.044901e-003	1.000935e+000	-2.616899e-002	1.000698e+000	-2.534307e-002	3.140613e-003	-3.628208e-003
1626021.179	4.167666e-003	-2.928791e-003	1.000846e+000	-2.737866e-002	1.001211e+000	-2.781240e-002	3.416923e-003	-3.697033e-003
1688560.263	3.855443e-003	-2.884990e-003	1.000479e+000	-2.913603e-002	1.001324e+000	-2.924109e-002	3.582378e-003	-3.732119e-003
1751099.346	3.989387e-003	-2.805747e-003	1.001020e+000	-3.025674e-002	1.000672e+000	-2.966797e-002	3.381389e-003	-2.899721e-003
1813638.430	3.633797e-003	-2.867480e-003	1.001289e+000	-3.176698e-002	1.001156e+000	-3.148385e-002	3.571924e-003	-3.299391e-003
1876177.514	3.668589e-003	-2.599247e-003	1.001645e+000	-3.278313e-002	1.001590e+000	-3.312414e-002	3.239745e-003	-2.632244e-003
1938716.598	3.123998e-003	-2.525438e-003	1.001831e+000	-3.348912e-002	1.001492e+000	-3.303278e-002	3.408939e-003	-2.263823e-003
2001255.682	3.036773e-003	-3.018074e-003	1.001790e+000	-3.485037e-002	1.001461e+000	-3.460655e-002	3.164847e-003	-2.750949e-003
2063794.765	3.125357e-003	-2.651783e-003	1.001390e+000	-3.600417e-002	1.000856e+000	-3.627227e-002	3.536399e-003	-2.836866e-003
2126333.849	2.651079e-003	-3.197792e-003	1.000777e+000	-3.711114e-002	1.000304e+000	-3.661898e-002	3.800321e-003	-2.594821e-003
2188872.933	3.146906e-003	-3.205435e-003	1.000652e+000	-3.824617e-002	1.000181e+000	-3.756915e-002	3.671187e-003	-2.676681e-003
2251412.017	3.243666e-003	-3.592607e-003	1.000437e+000	-3.988632e-002	1.000293e+000	-3.863946e-002	3.666303e-003	-2.804419e-003
2313951.101	3.559453e-003	-3.175615e-003	9.998501e-001	-4.066757e-002	1.000310e+000	-3.961692e-002	3.969879e-003	-2.893233e-003
2376490.184	3.294448e-003	-3.225913e-003	9.997401e-001	-4.116067e-002	1.000383e+000	-4.148513e-002	3.923421e-003	-2.899911e-003
2439029.268	3.737324e-003	-3.279641e-003	9.997071e-001	-4.289455e-002	9.994146e-001	-4.246324e-002	3.585079e-003	-2.804697e-003
2501568.352	3.707782e-003	-3.297743e-003	9.993306e-001	-4.304401e-002	1.000255e+000	-4.325872e-002	3.883215e-003	-2.872250e-003
2564107.436	3.634386e-003	-3.470601e-003	9.999040e-001	-4.483732e-002	1.000149e+000	-4.466300e-002	3.183509e-003	-3.244215e-003
2626646.520	4.111442e-003	-3.673930e-003	9.996507e-001	-4.597535e-002	9.989496e-001	-4.576845e-002	3.431924e-003	-3.348361e-003
2689185.604	4.062409e-003	-3.527207e-003	9.999761e-001	-4.670520e-002	9.996476e-001	-4.643671e-002	3.548269e-003	-3.289086e-003
2751724.687	4.163332e-003	-3.646292e-003	9.997776e-001	-4.742800e-002	9.996211e-001	-4.725407e-002	3.152301e-003	-3.357526e-003
2814263.771	4.119470e-003	-3.737192e-003	9.989315e-001	-4.946044e-002	9.993782e-001	-4.849183e-002	3.135910e-003	-3.494969e-003
2876802.855	4.068079e-003	-3.963486e-003	9.990862e-001	-5.058912e-002	9.993415e-001	-4.962118e-002	3.194002e-003	-3.405788e-003
2939341.939	4.184454e-003	-3.908201e-003	9.995896e-001	-5.114188e-002	9.993233e-001	-5.108824e-002	3.091128e-003	-3.523780e-003
3001881.023	4.099500e-003	-3.925391e-003	9.992117e-001	-5.241456e-002	9.991381e-001	-5.208349e-002	3.188119e-003	-3.695485e-003
3064420.106	4.155503e-003	-3.998805e-003	9.998479e-001	-5.330919e-002	9.990431e-001	-5.311697e-002	3.008937e-003	-3.839664e-003
3126959.190	4.346625e-003	-4.116647e-003	9.993844e-001	-5.456383e-002	9.992906e-001	-5.433266e-002	3.191347e-003	-3.932016e-003
3189498.274	4.322546e-003	-4.122436e-003	9.992970e-001	-5.549503e-002	9.991876e-001	-5.544033e-002	3.179398e-003	-4.029202e-003
3252037.358	4.223014e-003	-4.505382e-003	9.993629e-001	-5.665185e-002	9.992374e-001	-5.640315e-002	3.123073e-003	-3.998757e-003
3314576.442	4.234796e-003	-4.388481e-003	9.992825e-001	-5.765548e-002	9.991242e-001	-5.760012e-002	3.180678e-003	-4.136383e-003
3377115.525	4.205946e-003	-4.417861e-003	9.990996e-001	-5.868152e-002	9.988497e-001	-5.882774e-002	3.019760e-003	-4.321221e-003
3439654.609	4.200080e-003	-4.509202e-003	9.989065e-001	-5.976990e-002	9.991241e-001	-5.980703e-002	3.009881e-003	-4.162797e-003
3502193.693	4.168584e-003	-4.873024e-003	9.988913e-001	-6.102237e-002	9.987721e-001	-6.077834e-002	3.182736e-003	-4.247402e-003
3564732.777	4.201306e-003	-4.753393e-003	9.989614e-001	-6.203846e-002	9.987700e-001	-6.194296e-002	3.273824e-003	-4.266863e-003
3627271.861	4.042604e-003	-4.950971e-003	9.989670e-001	-6.318764e-002	9.988854e-001	-6.290107e-002	3.045186e-003	-4.524467e-003
3689810.944	3.946842e-003	-5.119758e-003	9.987804e-001	-6.429565e-002	9.987616e-001	-6.399583e-002	3.192070e-003	-4.564809e-003
3752350.028	4.061407e-003	-5.131644e-003	9.986827e-001	-6.513065e-002	9.985111e-001	-6.502191e-002	3.119848e-003	-4.665231e-003
3814889.112	4.164184e-003	-5.054652e-003	9.985369e-001	-6.629353e-002	9.987101e-001	-6.639493e-002	3.028973e-003	-4.853558e-003
3877428.196	4.098520e-003	-5.088840e-003	9.986679e-001	-6.744449e-002	9.985885e-001	-6.725732e-002	3.342867e-003	-4.881948e-003
3939967.280	4.073723e-003	-5.447405e-003	9.985384e-001	-6.860623e-002	9.986057e-001	-6.837284e-002	3.326419e-003	-4.859402e-003
4002506.363	4.120180e-003	-5.368561e-003	9.985518e-001	-6.964346e-002	9.984616e-001	-6.935010e-002	3.265826e-003	-4.995462e-003
4065045.447	3.941192e-003	-5.525171e-003	9.982617e-001	-7.075839e-002	9.982657e-001	-7.056025e-002	3.340344e-003	-5.171748e-003
4127584.531	3.903913e-003	-5.612922e-003	9.981874e-001	-7.181855e-002	9.982554e-001	-7.153293e-002	3.349690e-003	-5.112760e-003
4190123.615	3.939572e-003	-5.651382e-003	9.982334e-001	-7.311028e-002	9.980533e-001	-7.280661e-002	3.251059e-003	-5.406493e-003
4252662.699	3.891311e-003	-5.799833e-003	9.982612e-001	-7.421574e-002	9.979700e-001	-7.395687e-002	3.346323e-003	-5.442116e-003
4315201.782	4.013663e-003	-5.909952e-003	9.981099e-001	-7.506940e-002	9.981863e-001	-7.504193e-002	3.163456e-003	-5.719853e-003
4377740.866	3.915456e-003	-6.009911e-003	9.981484e-001	-7.632148e-002	9.978320e-001	-7.611011e-002	3.332799e-003	-5.487318e-003
4440279.950	3.817212e-003	-6.220402e-003	9.980291e-001	-7.724633e-002	9.976910e-001	-7.711690e-002	3.225268e-003	-5.726523e-003
4502819.034	3.803800e-003	-6.159701e-003	9.977151e-001	-7.842493e-002	9.977328e-001	-7.815412e-002	3.280567e-003	-5.656230e-003
4565358.118	3.701802e-003	-6.291607e-003	9.976265e-001	-7.946633e-002	9.974904e-001	-7.909355e-002	3.281764e-003	-5.834103e-003
4627897.201	3.873455e-003	-6.231497e-003	9.977224e-001	-8.053439e-002	9.975126e-001	-8.018488e-002	3.385121e-003	-5.801898e-003
4690436.285	3.695056e-003	-6.433363e-003	9.976754e-001	-8.172944e-002	9.975007e-001	-8.164857e-002	3.371557e-003	-6.069749e-003
4752975.369	3.694582e-003	-6.505546e-003	9.973611e-001	-8.288472e-002	9.974539e-001	-8.259905e-002	3.182143e-003	-6.211666e-003
4815514.453	3.804980e-003	-6.596506e-003	9.974988e-001	-8.388037e-002	9.973773e-001	-8.381260e-002	3.392902e-003	-6.192770e-003
4878053.537	3.889593e-003	-6.769653e-003	9.974495e-001	-8.493217e-002	9.972319e-001	-8.473539e-002	3.356696e-003	-6.359231e-003
4940592.620	3.632860e-003	-6.812513e-003	9.972110e-001	-8.607193e-002	9.971866e-001	-8.592612e-002	3.097948e-003	-6.472502e-003
5003131.704	3.679819e-003	-7.031980e-003	9.970900e-001	-8.711431e-002	9.971515e-001	-8.674656e-002	3.224074e-003	-6.598075e-003
5065670.788	3.610824e-003	-6.939023e-003	9.970165e-001	-8.823719e-002	9.970105e-001	-8.794303e-002	3.185711e-003	-6.638931e-003
5128209.872	3.725381e-003	-7.134468e-003	9.970939e-001	-8.935040e-002	9.969268e-001	-8.900700e-002	3.150376e-003	-6.937134e-003
5190748.956	3.619254e-003	-7.246109e-003	9.969172e-001	-9.045384e-002	9.968795e-001	-9.026727e-002	3.108381e-003	-6.901844e-003
5253288.039	3.662396e-003	-7.365791e-003	9.968862e-001	-9.154669e-002	9.968047e-001	-9.128987e-002	3.029710e-003	-6.908740e-003
5315827.123	3.615334e-003	-7.510573e-003	9.966255e-001	-9.260116e-002	9.967042e-001	-9.240383e-002	3.012368e-003	-7.084368e-003
5378366.207	3.692371e-003	-7.538733e-003	9.966887e-001	-9.372546e-002	9.966118e-001	-9.365251e-002	2.978463e-003	-7.277585e-003
5440905.291	3.495757e-003	-7.551957e-003	9.965982e-001	-9.478174e-002	9.964797e-001	-9.456353e-002	2.865260e-003	-7.300444e-003
5503444.375	3.701117e-003	-7.802958e-003	9.964882e-001	-9.595327e-002	9.964518e-001	-9.558313e-002	3.055111e-003	-7.473782e-003
5565983.458	3.334459e-003	-7.773313e-003	9.964238e-001	-9.695693e-002	9.963600e-001	-9.662616e-002	2.963689e-003	-7.405021e-003
5628522.542	3.583103e-003	-7.931968e-003	9.963563e-001	-9.795767e-002	9.962563e-001	-9.789534e-002	2.992190e-003	-7.613997e-003
5691061.626	3.632089e-003	-8.194594e-003	9.961821e-001	-9.925601e-002	9.961022e-001	-9.894634e-002	2.876435e-003	-7.654697e-003
5753600.710	3.478821e-003	-8.201119e-003	9.960032e-001	-1.002272e-001	9.960619e-001	-1.000095e-001	2.928910e-003	-7.883346e-003
5816139.794	3.560642e-003	-8.096370e-003	9.959902e-001	-1.013612e-001	9.957575e-001	-1.012889e-001	2.753905e-003	-7.927872e-003
5878678.877	3.452028e-003	-8.424036e-003	9.958813e-001	-1.024717e-001	9.957897e-001	-1.022680e-001	2.862884e-003	-8.152858e-003
5941217.961	3.445359e-003	-8.596122e-003	9.956725e-001	-1.036541e-001	9.956383e-001	-1.032067e-001	2.661130e-003	-8.142684e-003
6003757.045	3.260876e-003	-8.464019e-003	9.954455e-001	-1.045367e-001	9.955420e-001	-1.043011e-001	2.776750e-003	-8.260916e-003
6066296.129	3.381879e-003	-8.757053e-003	9.955757e-001	-1.056882e-001	9.954407e-001	-1.053180e-001	2.738446e-003	-8.387789e-003
6128835.213	3.462653e-003	-8.817226e-003	9.954123e-001	-1.064633e-001	9.954748e-001	-1.065281e-001	2.816079e-003	-8.481740e-003
6191374.296	3.405441e-003	-8.930014e-003	9.952532e-001	-1.078144e-001	9.951665e-001	-1.078215e-001	2.657117e-003	-8.473357e-003
6253913.380	3.292471e-003	-8.916563e-003	9.951877e-001	-1.089509e-001	9.951081e-001	-1.086872e-001	2.516878e-003	-8.465162e-003
6316452.464	3.244727e-003	-8.927319e-003	9.951030e-001	-1.098868e-001	9.948342e-001	-1.099759e-001	2.545251e-003	-8.785982e-003
6378991.548	3.213012e-003	-9.174656e-003	9.949566e-001	-1.113439e-001	9.949549e-001	-1.109638e-001	2.591455e-003	-9.005972e-003
6441530.632	3.131808e-003	-9.350637e-003	9.947528e-001	-1.121461e-001	9.947798e-001	-1.121438e-001	2.625505e-003	-8.987215e-003
6504069.715	3.107271e-003	-9.463041e-003	9.946267e-001	-1.134695e-001	9.947812e-001	-1.131528e-001	2.611856e-003	-9.084118e-003
6566608.799	3.233757e-003	-9.623091e-003	9.946443e-001	-1.146221e-001	9.945590e-001	-1.142821e-001	2.501589e-003	-8.989313e-003
6629147.883	3.162095e-003	-9.580631e-003	9.944517e-001	-1.153242e-001	9.943947e-001	-1.153817e-001	2.567194e-003	-9.218910e-003
6691686.967	3.040748e-003	-9.671562e-003	9.942225e-001	-1.165697e-001	9.942312e-001	-1.164345e-001	2.596306e-003	-9.235311e-003
6754226.051	2.960216e-003	-9.784146e-003	9.941336e-001	-1.177796e-001	9.940148e-001	-1.177037e-001	2.369029e-003	-9.545718e-003
6816765.134	3.045914e-003	-9.890458e-003	9.940504e-001	-1.187724e-001	9.939976e-001	-1.186566e-001	2.401034e-003	-9.438629e-003
6879304.218	2.929606e-003	-1.014494e-002	9.939017e-001	-1.198878e-001	9.939296e-001	-1.196640e-001	2.376901e-003	-9.597927e-003
6941843.302	2.981408e-003	-1.007045e-002	9.937229e-001	-1.209994e-001	9.937646e-001	-1.207549e-001	2.351944e-003	-9.607354e-003
7004382.386	2.766996e-003	-1.010327e-002	9.936912e-001	-1.219524e-001	9.935407e-001	-1.218537e-001	2.242639e-003	-9.673327e-003
7066921.470	2.849254e-003	-1.025530e-002	9.934158e-001	-1.232106e-001	9.935020e-001	-1.227710e-001	2.380754e-003	-9.918712e-003
7129460.553	2.722612e-003	-1.045678e-002	9.933894e-001	-1.241537e-001	9.933388e-001	-1.239746e-001	2.364507e-003	-9.956508e-003
7191999.637	2.685308e-003	-1.031273e-002	9.930315e-001	-1.253221e-001	9.930612e-001	-1.250484e-001	2.198602e-003	-1.005223e-002
7254538.721	2.719815e-003	-1.052910e-002	9.932432e-001	-1.264598e-001	9.931187e-001	-1.262110e-001	2.221634e-003	-1.013329e-002
7317077.805	2.883293e-003	-1.064113e-002	9.930082e-001	-1.274039e-001	9.929628e-001	-1.272096e-001	2.196114e-003	-1.033670e-002
7379616.889	2.711114e-003	-1.073345e-002	9.930159e-001	-1.286808e-001	9.927578e-001	-1.283528e-001	2.123290e-003	-1.039945e-002
7442155.972	2.542148e-003	-1.083693e-002	9.926881e-001	-1.295965e-001	9.926577e-001	-1.293423e-001	2.182317e-003	-1.026924e-002
7504695.056	2.562116e-003	-1.102320e-002	9.924467e-001	-1.305884e-001	9.923690e-001	-1.306122e-001	2.198439e-003	-1.029338e-002
7567234.140	2.714466e-003	-1.118501e-002	9.924532e-001	-1.316609e-001	9.922322e-001	-1.316203e-001	2.102213e-003	-1.050907e-002
7629773.224	2.604702e-003	-1.098132e-002	9.923491e-001	-1.329660e-001	9.922800e-001	-1.326548e-001	1.994067e-003	-1.064439e-002
7692312.308	2.432878e-003	-1.113712e-002	9.921907e-001	-1.339932e-001	9.920010e-001	-1.338498e-001	2.038082e-003	-1.081758e-002
7754851.391	2.400620e-003	-1.138795e-002	9.919841e-001	-1.351341e-001	9.917692e-001	-1.347565e-001	1.962848e-003	-1.077840e-002
7817390.475	2.461073e-003	-1.126905e-002	9.919005e-001	-1.363455e-001	9.916910e-001	-1.360331e-001	1.851296e-003	-1.074486e-002
7879929.559	2.354373e-003	-1.154524e-002	9.916362e-001	-1.374082e-001	9.915042e-001	-1.373176e-001	1.943182e-003	-1.085747e-002
7942468.643	2.266657e-003	-1.169861e-002	9.916106e-001	-1.384271e-001	9.914833e-001	-1.382896e-001	1.895723e-003	-1.112057e-002
8005007.727	2.354645e-003	-1.175542e-002	9.913438e-001	-1.395277e-001	9.912912e-001	-1.393568e-001	1.785883e-003	-1.098142e-002
8067546.811	2.175410e-003	-1.180134e-002	9.912351e-001	-1.405864e-001	9.910331e-001	-1.403663e-001	1.665272e-003	-1.129044e-002
8130085.894	2.221978e-003	-1.196351e-002	9.910159e-001	-1.416432e-001	9.909375e-001	-1.414981e-001	1.856668e-003	-1.141883e-002
8192624.978	2.032243e-003	-1.211242e-002	9.907250e-001	-1.428553e-001	9.908011e-001	-1.425314e-001	1.885087e-003	-1.152682e-002
8255164.062	2.116741e-003	-1.218041e-002	9.906661e-001	-1.438831e-001	9.906050e-001	-1.436671e-001	1.820417e-003	-1.165695e-002
8317703.146	1.980046e-003	-1.217021e-002	9.905801e-001	-1.449737e-001	9.905326e-001	-1.447515e-001	1.622428e-003	-1.169080e-002
8380242.230	2.054828e-003	-1.249488e-002	9.902607e-001	-1.461607e-001	9.902645e-001	-1.457652e-001	1.546028e-003	-1.185324e-002
8442781.313	2.007950e-003	-1.253912e-002	9.903488e-001	-1.470938e-001	9.901667e-001	-1.468104e-001	1.495666e-003	-1.201306e-002
8505320.397	1.967463e-003	-1.250507e-002	9.901553e-001	-1.482661e-001	9.899801e-001	-1.479356e-001	1.414560e-003	-1.204930e-002
8567859.481	1.879189e-003	-1.243504e-002	9.899085e-001	-1.491392e-001	9.898800e-001	-1.489907e-001	1.419337e-003	-1.197213e-002
8630398.565	1.932115e-003	-1.258298e-002	9.895827e-001	-1.502320e-001	9.897295e-001	-1.500330e-001	1.270991e-003	-1.232018e-002
8692937.649	1.841063e-003	-1.288617e-002	9.894882e-001	-1.513229e-001	9.893895e-001	-1.511590e-001	1.177624e-003	-1.231454e-002
8755476.732	1.824583e-003	-1.290936e-002	9.893819e-001	-1.524966e-001	9.892553e-001	-1.521452e-001	1.205437e-003	-1.238067e-002
8818015.816	1.668921e-003	-1.303233e-002	9.891346e-001	-1.535541e-001	9.889129e-001	-1.533145e-001	1.280140e-003	-1.256322e-002
8880554.900	1.850607e-003	-1.307734e-002	9.891202e-001	-1.546877e-001	9.890257e-001	-1.542243e-001	1.098338e-003	-1.282381e-002
8943093.984	1.646030e-003	-1.307440e-002	9.889124e-001	-1.556216e-001	9.888852e-001	-1.554265e-001	1.090438e-003	-1.285756e-002
9005633.068	1.681848e-003	-1.325970e-002	9.886101e-001	-1.567983e-001	9.887352e-001	-1.565446e-001	9.661523e-004	-1.308407e-002
9068172.151	1.477627e-003	-1.334236e-002	9.886135e-001	-1.578946e-001	9.884287e-001	-1.575179e-001	9.818900e-004	-1.311602e-002
9130711.235	1.676209e-003	-1.351307e-002	9.882971e-001	-1.589735e-001	9.883193e-001	-1.586079e-001	9.872818e-004	-1.338951e-002
9193250.319	1.630274e-003	-1.362507e-002	9.882975e-001	-1.598908e-001	9.880676e-001	-1.597378e-001	8.823576e-004	-1.341028e-002
9255789.403	1.468680e-003	-1.385999e-002	9.881021e-001	-1.608792e-001	9.879123e-001	-1.607445e-001	6.947133e-004	-1.344817e-002
9318328.487	1.394321e-003	-1.386777e-002	9.878815e-001	-1.622396e-001	9.878986e-001	-1.618044e-001	7.704172e-004	-1.352815e-002
9380867.570	1.364580e-003	-1.383775e-002	9.877609e-001	-1.632935e-001	9.875540e-001	-1.630192e-001	7.344805e-004	-1.364329e-002
9443406.654	1.382010e-003	-1.393592e-002	9.875683e-001	-1.642720e-001	9.875272e-001	-1.641301e-001	7.363242e-004	-1.382007e-002
9505945.738	1.316433e-003	-1.400585e-002	9.872210e-001	-1.655489e-001	9.873950e-001	-1.652117e-001	6.397858e-004	-1.392308e-002
9568484.822	1.311763e-003	-1.413724e-002	9.871714e-001	-1.665580e-001	9.869232e-001	-1.662268e-001	3.981389e-004	-1.377032e-002
