!Agilent Technologies,E5061B,MY49102235,A.02.00
!Date: Tue Jul 11 17:02:03 2023
!Data & Calibration Information:
!Freq	S11:SOLT2(ON)	S21:SOLT2(ON)	S12:SOLT2(ON)	S22:SOLT2(ON)
# Hz S RI R 50
5.000	-5.167577e-003	-5.659287e-003	1.002015e+000	7.999164e-003	1.000614e+000	1.020937e-002	-1.458409e-003	-7.561573e-003
62544.084	5.840543e-003	-9.946964e-005	1.001292e+000	3.318106e-004	1.000751e+000	7.228413e-004	7.710169e-003	-2.505048e-003
125083.168	5.709414e-003	2.765593e-004	1.001016e+000	-1.577289e-003	1.000769e+000	-1.532670e-003	7.509102e-003	-1.513241e-003
187622.251	5.521617e-003	8.312691e-004	1.000453e+000	-3.285064e-003	1.000889e+000	-2.047011e-003	7.421388e-003	-1.228522e-003
250161.335	5.355043e-003	1.334499e-003	1.000571e+000	-4.653323e-003	1.000629e+000	-4.687988e-003	7.317023e-003	-5.162208e-004
312700.419	5.521416e-003	2.426716e-003	1.000831e+000	-5.606395e-003	1.000473e+000	-5.375409e-003	7.864903e-003	-4.520416e-004
375239.503	5.422276e-003	1.293103e-003	1.000938e+000	-7.446142e-003	1.000467e+000	-7.230554e-003	7.335354e-003	-2.539524e-004
437778.587	5.270940e-003	2.058298e-003	1.001276e+000	-8.032533e-003	1.000847e+000	-8.738150e-003	6.728895e-003	4.193019e-004
500317.670	4.719146e-003	2.545094e-003	1.001282e+000	-1.083149e-002	1.001511e+000	-1.062355e-002	4.941866e-003	9.718305e-004
562856.754	6.076469e-003	2.603228e-003	1.001363e+000	-1.261775e-002	1.000997e+000	-1.258097e-002	6.164721e-003	1.824129e-003
625395.838	5.301839e-003	3.116821e-003	1.002064e+000	-1.416384e-002	1.001934e+000	-1.381189e-002	6.302644e-003	2.746399e-003
687934.922	5.361596e-003	3.163059e-003	1.001124e+000	-1.568368e-002	1.001032e+000	-1.568124e-002	5.964158e-003	2.647235e-003
750474.006	4.534494e-003	3.836715e-003	1.000630e+000	-1.531070e-002	1.000421e+000	-1.503944e-002	5.738095e-003	3.152769e-003
813013.089	4.747947e-003	4.219247e-003	1.001037e+000	-1.754635e-002	1.000256e+000	-1.705865e-002	5.102586e-003	3.692509e-003
875552.173	4.506605e-003	4.756458e-003	1.000912e+000	-1.884579e-002	1.000623e+000	-1.862549e-002	5.912800e-003	3.672972e-003
938091.257	4.623786e-003	5.180263e-003	1.001056e+000	-2.075678e-002	1.000684e+000	-2.018422e-002	6.177676e-003	4.593519e-003
1000630.341	4.091885e-003	5.197592e-003	1.000596e+000	-2.246689e-002	1.000684e+000	-2.191588e-002	5.454673e-003	4.273938e-003
1063169.425	4.473770e-003	5.411771e-003	1.000839e+000	-2.421688e-002	1.000424e+000	-2.316921e-002	4.666368e-003	4.324087e-003
1125708.508	4.398356e-003	5.826716e-003	1.000672e+000	-2.578752e-002	1.000256e+000	-2.502040e-002	4.216286e-003	4.975194e-003
1188247.592	4.974184e-003	5.732167e-003	1.000678e+000	-2.732392e-002	1.000538e+000	-2.640146e-002	3.143590e-003	4.810352e-003
1250786.676	4.828005e-003	5.362475e-003	1.000168e+000	-2.754788e-002	1.000222e+000	-2.746683e-002	2.410859e-003	3.526380e-003
1313325.760	4.983403e-003	5.649788e-003	1.000620e+000	-2.932270e-002	1.000502e+000	-2.939948e-002	3.183087e-003	4.094710e-003
1375864.844	4.769523e-003	5.832379e-003	1.000276e+000	-3.190042e-002	1.000024e+000	-3.178451e-002	3.094289e-003	4.752977e-003
1438403.927	4.686143e-003	6.043166e-003	1.000056e+000	-3.283678e-002	1.000374e+000	-3.203868e-002	3.228766e-003	5.389047e-003
1500943.011	4.958175e-003	6.489523e-003	1.000888e+000	-3.410288e-002	1.000840e+000	-3.390168e-002	3.611336e-003	5.350619e-003
1563482.095	5.008761e-003	6.492918e-003	1.000418e+000	-3.585659e-002	1.000008e+000	-3.494928e-002	3.793628e-003	5.936448e-003
1626021.179	4.845969e-003	7.007797e-003	1.000039e+000	-3.744221e-002	1.000173e+000	-3.780098e-002	4.115379e-003	6.252207e-003
1688560.263	4.602477e-003	7.456053e-003	9.996996e-001	-3.953495e-002	1.000441e+000	-3.949573e-002	4.321350e-003	6.618741e-003
1751099.346	4.791509e-003	7.941683e-003	1.000334e+000	-4.108908e-002	9.999376e-001	-4.044890e-002	4.215824e-003	7.874023e-003
1813638.430	4.485661e-003	8.290936e-003	1.000582e+000	-4.305936e-002	1.000046e+000	-4.267469e-002	4.433063e-003	7.865423e-003
1876177.514	4.589665e-003	8.981205e-003	1.000864e+000	-4.442611e-002	1.000440e+000	-4.465758e-002	4.176155e-003	8.942146e-003
1938716.598	4.108136e-003	9.467598e-003	1.000877e+000	-4.564672e-002	1.000345e+000	-4.497520e-002	4.424954e-003	9.717090e-003
2001255.682	4.070303e-003	9.396177e-003	1.000799e+000	-4.747100e-002	1.000242e+000	-4.694908e-002	4.225140e-003	9.687631e-003
2063794.765	4.248931e-003	1.019596e-002	1.000401e+000	-4.884755e-002	9.994860e-001	-4.906347e-002	4.677808e-003	9.993871e-003
2126333.849	3.863023e-003	1.010377e-002	9.996346e-001	-5.058275e-002	9.989422e-001	-4.983251e-002	5.026755e-003	1.064597e-002
2188872.933	4.423226e-003	1.051801e-002	9.993528e-001	-5.209804e-002	9.987736e-001	-5.130101e-002	4.995970e-003	1.102541e-002
2251412.017	4.596236e-003	1.056438e-002	9.990797e-001	-5.402830e-002	9.988612e-001	-5.273609e-002	5.071743e-003	1.133303e-002
2313951.101	5.051089e-003	1.140720e-002	9.983790e-001	-5.547358e-002	9.988239e-001	-5.414370e-002	5.492524e-003	1.168399e-002
2376490.184	4.913061e-003	1.179406e-002	9.981708e-001	-5.629303e-002	9.985223e-001	-5.646734e-002	5.564209e-003	1.209879e-002
2439029.268	5.488514e-003	1.218674e-002	9.980441e-001	-5.850121e-002	9.975244e-001	-5.789186e-002	5.354335e-003	1.264392e-002
2501568.352	5.586492e-003	1.259591e-002	9.975878e-001	-5.902678e-002	9.983492e-001	-5.896697e-002	5.786184e-003	1.302506e-002
2564107.436	5.637681e-003	1.287961e-002	9.978058e-001	-6.120297e-002	9.978927e-001	-6.099559e-002	5.229528e-003	1.309447e-002
2626646.520	6.275996e-003	1.308545e-002	9.975044e-001	-6.282493e-002	9.966987e-001	-6.238583e-002	5.631787e-003	1.343257e-002
2689185.604	6.395431e-003	1.365686e-002	9.977700e-001	-6.388623e-002	9.972230e-001	-6.365360e-002	5.938967e-003	1.388682e-002
2751724.687	6.684151e-003	1.396184e-002	9.974862e-001	-6.521789e-002	9.969806e-001	-6.492027e-002	5.700624e-003	1.427390e-002
2814263.771	6.805765e-003	1.428849e-002	9.963624e-001	-6.741040e-002	9.964971e-001	-6.645264e-002	5.848970e-003	1.454306e-002
2876802.855	6.931214e-003	1.447700e-002	9.961659e-001	-6.916684e-002	9.962978e-001	-6.808091e-002	6.130498e-003	1.503959e-002
2939341.939	7.233736e-003	1.494880e-002	9.964874e-001	-7.014218e-002	9.960495e-001	-7.004021e-002	6.212692e-003	1.533736e-002
3001881.023	7.362360e-003	1.534693e-002	9.960582e-001	-7.159427e-002	9.958188e-001	-7.146131e-002	6.479264e-003	1.557129e-002
3064420.106	7.592560e-003	1.566279e-002	9.964698e-001	-7.300693e-002	9.955466e-001	-7.290457e-002	6.494706e-003	1.582511e-002
3126959.190	7.989830e-003	1.592791e-002	9.957877e-001	-7.469332e-002	9.955282e-001	-7.445892e-002	6.885443e-003	1.612464e-002
3189498.274	8.175985e-003	1.632307e-002	9.955165e-001	-7.605909e-002	9.952439e-001	-7.597547e-002	7.077593e-003	1.643575e-002
3252037.358	8.270288e-003	1.634778e-002	9.953879e-001	-7.761896e-002	9.950777e-001	-7.736875e-002	7.229241e-003	1.685795e-002
3314576.442	8.499130e-003	1.686800e-002	9.950710e-001	-7.903118e-002	9.947584e-001	-7.890267e-002	7.484834e-003	1.712406e-002
3377115.525	8.674693e-003	1.723857e-002	9.946325e-001	-8.043431e-002	9.943134e-001	-8.054057e-002	7.540197e-003	1.735757e-002
3439654.609	8.902106e-003	1.753008e-002	9.942136e-001	-8.199380e-002	9.942942e-001	-8.193504e-002	7.786769e-003	1.790922e-002
3502193.693	9.094383e-003	1.757263e-002	9.939964e-001	-8.361726e-002	9.937540e-001	-8.332269e-002	8.166042e-003	1.821738e-002
3564732.777	9.370469e-003	1.807406e-002	9.937683e-001	-8.498249e-002	9.935178e-001	-8.485110e-002	8.515784e-003	1.858402e-002
3627271.861	9.463769e-003	1.830768e-002	9.936106e-001	-8.659226e-002	9.933047e-001	-8.627558e-002	8.515842e-003	1.873347e-002
3689810.944	9.615617e-003	1.852566e-002	9.931451e-001	-8.807313e-002	9.929867e-001	-8.772782e-002	8.936020e-003	1.908544e-002
3752350.028	9.997326e-003	1.888392e-002	9.927678e-001	-8.930862e-002	9.924716e-001	-8.919514e-002	9.125145e-003	1.938933e-002
3814889.112	1.037889e-002	1.933911e-002	9.923596e-001	-9.082072e-002	9.923900e-001	-9.091972e-002	9.306489e-003	1.958758e-002
3877428.196	1.058645e-002	1.969635e-002	9.922273e-001	-9.236002e-002	9.920371e-001	-9.216347e-002	9.896707e-003	1.991715e-002
3939967.280	1.083734e-002	1.971948e-002	9.917832e-001	-9.392908e-002	9.917357e-001	-9.365583e-002	1.017461e-002	2.032689e-002
4002506.363	1.118190e-002	2.015928e-002	9.914851e-001	-9.529344e-002	9.912800e-001	-9.500644e-002	1.040264e-002	2.055013e-002
4065045.447	1.132217e-002	2.037645e-002	9.909303e-001	-9.685183e-002	9.907751e-001	-9.658853e-002	1.078896e-002	2.073816e-002
4127584.531	1.161402e-002	2.065728e-002	9.905193e-001	-9.823147e-002	9.904664e-001	-9.793054e-002	1.111738e-002	2.114996e-002
4190123.615	1.198258e-002	2.095465e-002	9.902074e-001	-9.987937e-002	9.899338e-001	-9.949177e-002	1.133931e-002	2.119213e-002
4252662.699	1.225302e-002	2.114849e-002	9.899075e-001	-1.013417e-001	9.895310e-001	-1.010645e-001	1.176938e-002	2.149128e-002
4315201.782	1.271784e-002	2.135965e-002	9.894877e-001	-1.024971e-001	9.894008e-001	-1.025161e-001	1.189605e-002	2.157027e-002
4377740.866	1.294824e-002	2.158313e-002	9.891272e-001	-1.040463e-001	9.887138e-001	-1.038662e-001	1.243865e-002	2.209227e-002
4440279.950	1.317805e-002	2.167808e-002	9.886558e-001	-1.053248e-001	9.882318e-001	-1.051465e-001	1.264891e-002	2.216768e-002
4502819.034	1.350454e-002	2.203843e-002	9.879687e-001	-1.067744e-001	9.879084e-001	-1.065501e-001	1.306856e-002	2.253032e-002
4565358.118	1.378110e-002	2.221540e-002	9.876116e-001	-1.081264e-001	9.873335e-001	-1.077147e-001	1.341775e-002	2.263371e-002
4627897.201	1.430072e-002	2.252955e-002	9.873805e-001	-1.094744e-001	9.869832e-001	-1.090717e-001	1.387824e-002	2.294008e-002
4690436.285	1.447094e-002	2.260828e-002	9.869023e-001	-1.109257e-001	9.865847e-001	-1.108419e-001	1.420833e-002	2.292931e-002
4752975.369	1.481240e-002	2.276353e-002	9.862045e-001	-1.124027e-001	9.862369e-001	-1.121078e-001	1.435856e-002	2.306881e-002
4815514.453	1.526029e-002	2.293669e-002	9.859683e-001	-1.135985e-001	9.857679e-001	-1.134687e-001	1.492136e-002	2.332384e-002
4878053.537	1.570101e-002	2.300527e-002	9.856658e-001	-1.148722e-001	9.853207e-001	-1.146584e-001	1.524441e-002	2.340966e-002
4940592.620	1.579370e-002	2.320987e-002	9.850489e-001	-1.162808e-001	9.848811e-001	-1.161279e-001	1.536860e-002	2.353688e-002
5003131.704	1.617965e-002	2.320152e-002	9.845813e-001	-1.175315e-001	9.845211e-001	-1.172121e-001	1.580349e-002	2.362167e-002
5065670.788	1.645200e-002	2.352553e-002	9.841447e-001	-1.189169e-001	9.840386e-001	-1.186112e-001	1.612286e-002	2.379912e-002
5128209.872	1.691459e-002	2.353007e-002	9.838524e-001	-1.201990e-001	9.835758e-001	-1.199126e-001	1.641174e-002	2.371705e-002
5190748.956	1.714887e-002	2.363737e-002	9.833072e-001	-1.215255e-001	9.832001e-001	-1.212880e-001	1.672421e-002	2.396558e-002
5253288.039	1.754857e-002	2.371855e-002	9.830111e-001	-1.228144e-001	9.827783e-001	-1.225532e-001	1.699675e-002	2.415701e-002
5315827.123	1.780739e-002	2.376994e-002	9.823706e-001	-1.241029e-001	9.823155e-001	-1.238570e-001	1.728897e-002	2.417667e-002
5378366.207	1.823388e-002	2.390208e-002	9.821217e-001	-1.254155e-001	9.819138e-001	-1.252807e-001	1.759876e-002	2.417949e-002
5440905.291	1.837680e-002	2.409937e-002	9.817067e-001	-1.266953e-001	9.815007e-001	-1.264813e-001	1.782311e-002	2.434083e-002
5503444.375	1.888606e-002	2.401739e-002	9.812555e-001	-1.280007e-001	9.811262e-001	-1.276092e-001	1.831254e-002	2.434201e-002
5565983.458	1.887065e-002	2.424931e-002	9.808554e-001	-1.292006e-001	9.806753e-001	-1.288569e-001	1.857634e-002	2.457749e-002
5628522.542	1.942971e-002	2.424620e-002	9.804507e-001	-1.303539e-001	9.802462e-001	-1.302800e-001	1.892475e-002	2.454223e-002
5691061.626	1.979950e-002	2.414538e-002	9.799954e-001	-1.318161e-001	9.797658e-001	-1.315348e-001	1.914409e-002	2.468744e-002
5753600.710	1.995622e-002	2.430916e-002	9.794586e-001	-1.329672e-001	9.793973e-001	-1.327409e-001	1.950813e-002	2.462389e-002
5816139.794	2.037613e-002	2.455766e-002	9.790884e-001	-1.342522e-001	9.787375e-001	-1.341827e-001	1.967058e-002	2.474668e-002
5878678.877	2.058582e-002	2.441106e-002	9.787123e-001	-1.355131e-001	9.784764e-001	-1.353005e-001	2.008559e-002	2.468411e-002
5941217.961	2.087336e-002	2.439269e-002	9.781595e-001	-1.368476e-001	9.780192e-001	-1.364227e-001	2.021392e-002	2.484826e-002
6003757.045	2.103513e-002	2.469198e-002	9.776149e-001	-1.379121e-001	9.775907e-001	-1.376410e-001	2.063049e-002	2.487913e-002
6066296.129	2.144260e-002	2.455604e-002	9.774505e-001	-1.392007e-001	9.772095e-001	-1.388198e-001	2.091006e-002	2.490799e-002
6128835.213	2.184186e-002	2.462061e-002	9.769721e-001	-1.401496e-001	9.769113e-001	-1.402132e-001	2.129860e-002	2.494457e-002
6191374.296	2.207833e-002	2.467060e-002	9.764930e-001	-1.416166e-001	9.762518e-001	-1.415998e-001	2.145478e-002	2.511215e-002
6253913.380	2.230503e-002	2.482876e-002	9.761064e-001	-1.428979e-001	9.758815e-001	-1.426150e-001	2.164757e-002	2.526624e-002
6316452.464	2.257638e-002	2.494417e-002	9.757266e-001	-1.440142e-001	9.753313e-001	-1.440378e-001	2.196468e-002	2.508409e-002
6378991.548	2.281847e-002	2.483424e-002	9.752340e-001	-1.455872e-001	9.751702e-001	-1.451694e-001	2.230259e-002	2.500039e-002
6441530.632	2.304815e-002	2.480116e-002	9.747537e-001	-1.464979e-001	9.746626e-001	-1.465131e-001	2.264622e-002	2.514239e-002
6504069.715	2.333283e-002	2.481801e-002	9.742937e-001	-1.479791e-001	9.742996e-001	-1.476858e-001	2.294168e-002	2.516599e-002
6566608.799	2.375176e-002	2.478438e-002	9.739799e-001	-1.492558e-001	9.737588e-001	-1.489232e-001	2.315103e-002	2.539819e-002
6629147.883	2.399995e-002	2.493652e-002	9.734996e-001	-1.501526e-001	9.733053e-001	-1.501018e-001	2.352279e-002	2.529568e-002
6691686.967	2.416550e-002	2.497868e-002	9.729949e-001	-1.514759e-001	9.728249e-001	-1.513151e-001	2.383912e-002	2.539548e-002
6754226.051	2.439243e-002	2.500193e-002	9.725442e-001	-1.527976e-001	9.723151e-001	-1.527237e-001	2.391483e-002	2.523560e-002
6816765.134	2.477521e-002	2.501882e-002	9.722123e-001	-1.538732e-001	9.720256e-001	-1.537269e-001	2.427081e-002	2.544308e-002
6879304.218	2.495419e-002	2.487853e-002	9.716722e-001	-1.551194e-001	9.715886e-001	-1.549561e-001	2.453178e-002	2.539424e-002
6941843.302	2.531000e-002	2.505516e-002	9.712383e-001	-1.563783e-001	9.711743e-001	-1.561184e-001	2.480459e-002	2.549562e-002
7004382.386	2.541456e-002	2.514016e-002	9.708825e-001	-1.574441e-001	9.706733e-001	-1.573030e-001	2.501489e-002	2.554352e-002
7066921.470	2.579502e-002	2.509606e-002	9.703813e-001	-1.588105e-001	9.702956e-001	-1.583217e-001	2.545100e-002	2.539955e-002
7129460.553	2.594969e-002	2.500211e-002	9.700183e-001	-1.597910e-001	9.698904e-001	-1.596398e-001	2.573153e-002	2.546523e-002
7191999.637	2.621866e-002	2.524815e-002	9.693296e-001	-1.610842e-001	9.692829e-001	-1.608237e-001	2.585712e-002	2.547981e-002
7254538.721	2.653609e-002	2.512871e-002	9.692522e-001	-1.622918e-001	9.690205e-001	-1.620911e-001	2.617539e-002	2.549766e-002
7317077.805	2.699152e-002	2.509365e-002	9.687763e-001	-1.633704e-001	9.686076e-001	-1.631974e-001	2.643270e-002	2.539866e-002
7379616.889	2.713672e-002	2.511191e-002	9.684706e-001	-1.647808e-001	9.681089e-001	-1.644205e-001	2.664799e-002	2.543095e-002
7442155.972	2.724499e-002	2.513107e-002	9.678347e-001	-1.657677e-001	9.676976e-001	-1.654991e-001	2.703073e-002	2.562915e-002
7504695.056	2.754293e-002	2.503843e-002	9.673655e-001	-1.668509e-001	9.671343e-001	-1.668392e-001	2.732564e-002	2.570495e-002
7567234.140	2.797506e-002	2.494879e-002	9.670523e-001	-1.680506e-001	9.667235e-001	-1.679696e-001	2.750860e-002	2.558818e-002
7629773.224	2.817873e-002	2.523282e-002	9.666334e-001	-1.693830e-001	9.664607e-001	-1.690993e-001	2.770407e-002	2.553322e-002
7692312.308	2.829207e-002	2.516372e-002	9.661495e-001	-1.705581e-001	9.658822e-001	-1.703431e-001	2.802037e-002	2.543549e-002
7754851.391	2.854082e-002	2.501845e-002	9.657254e-001	-1.717301e-001	9.653723e-001	-1.713264e-001	2.823889e-002	2.556381e-002
7817390.475	2.889205e-002	2.518449e-002	9.652750e-001	-1.730110e-001	9.649622e-001	-1.727017e-001	2.843360e-002	2.565643e-002
7879929.559	2.904904e-002	2.500905e-002	9.647466e-001	-1.741428e-001	9.644968e-001	-1.740570e-001	2.881547e-002	2.563320e-002
7942468.643	2.925997e-002	2.494648e-002	9.644514e-001	-1.752517e-001	9.641838e-001	-1.751381e-001	2.902687e-002	2.545876e-002
8005007.727	2.961356e-002	2.495416e-002	9.639265e-001	-1.764731e-001	9.637819e-001	-1.762684e-001	2.921888e-002	2.564937e-002
8067546.811	2.971702e-002	2.498510e-002	9.635138e-001	-1.775842e-001	9.632095e-001	-1.773408e-001	2.937716e-002	2.544547e-002
8130085.894	3.003747e-002	2.488411e-002	9.630173e-001	-1.786522e-001	9.628376e-001	-1.785430e-001	2.982998e-002	2.536027e-002
8192624.978	3.014162e-002	2.482885e-002	9.624723e-001	-1.799764e-001	9.623872e-001	-1.795980e-001	3.012507e-002	2.532125e-002
8255164.062	3.048895e-002	2.480664e-002	9.621292e-001	-1.810044e-001	9.619117e-001	-1.808254e-001	3.034948e-002	2.525840e-002
8317703.146	3.064941e-002	2.488648e-002	9.617494e-001	-1.822529e-001	9.615820e-001	-1.819697e-001	3.042929e-002	2.530251e-002
8380242.230	3.098586e-002	2.463197e-002	9.611635e-001	-1.834586e-001	9.610272e-001	-1.830659e-001	3.063670e-002	2.520075e-002
8442781.313	3.120521e-002	2.464149e-002	9.609853e-001	-1.845128e-001	9.606455e-001	-1.842065e-001	3.086342e-002	2.509919e-002
8505320.397	3.144373e-002	2.473642e-002	9.604517e-001	-1.856930e-001	9.601885e-001	-1.853516e-001	3.106892e-002	2.511724e-002
8567859.481	3.166624e-002	2.485161e-002	9.599448e-001	-1.866377e-001	9.598230e-001	-1.865247e-001	3.135952e-002	2.524401e-002
8630398.565	3.198299e-002	2.474753e-002	9.593478e-001	-1.877507e-001	9.594053e-001	-1.875681e-001	3.146630e-002	2.497717e-002
8692937.649	3.214159e-002	2.452137e-002	9.590364e-001	-1.889346e-001	9.587579e-001	-1.887697e-001	3.165206e-002	2.503443e-002
8755476.732	3.239744e-002	2.454867e-002	9.586252e-001	-1.901343e-001	9.583543e-001	-1.897841e-001	3.195789e-002	2.500474e-002
8818015.816	3.252041e-002	2.447989e-002	9.581463e-001	-1.912587e-001	9.577883e-001	-1.909831e-001	3.228256e-002	2.487682e-002
8880554.900	3.296051e-002	2.445398e-002	9.578437e-001	-1.924219e-001	9.576158e-001	-1.919759e-001	3.236795e-002	2.468516e-002
8943093.984	3.303649e-002	2.451760e-002	9.573445e-001	-1.934557e-001	9.571897e-001	-1.931557e-001	3.262884e-002	2.468571e-002
9005633.068	3.332242e-002	2.437804e-002	9.567771e-001	-1.945895e-001	9.568248e-001	-1.943737e-001	3.275226e-002	2.452671e-002
9068172.151	3.340389e-002	2.435648e-002	9.565013e-001	-1.957782e-001	9.562435e-001	-1.953733e-001	3.304287e-002	2.452270e-002
9130711.235	3.382709e-002	2.420947e-002	9.559672e-001	-1.968805e-001	9.558529e-001	-1.964790e-001	3.328052e-002	2.428921e-002
9193250.319	3.403971e-002	2.413272e-002	9.556805e-001	-1.978261e-001	9.553422e-001	-1.976702e-001	3.344922e-002	2.431178e-002
9255789.403	3.414667e-002	2.394100e-002	9.552402e-001	-1.989029e-001	9.548949e-001	-1.987659e-001	3.354886e-002	2.432421e-002
9318328.487	3.434623e-002	2.397709e-002	9.547340e-001	-2.002200e-001	9.546310e-001	-1.998670e-001	3.387617e-002	2.426583e-002
9380867.570	3.458666e-002	2.403182e-002	9.543368e-001	-2.013262e-001	9.540303e-001	-2.010959e-001	3.409944e-002	2.417923e-002
9443406.654	3.484648e-002	2.396175e-002	9.539211e-001	-2.023480e-001	9.536790e-001	-2.022290e-001	3.434790e-002	2.403252e-002
9505945.738	3.503705e-002	2.391459e-002	9.532869e-001	-2.036285e-001	9.533106e-001	-2.033104e-001	3.452344e-002	2.397800e-002
9568484.822	3.529790e-002	2.382015e-002	9.530093e-001	-2.046677e-001	9.526073e-001	-2.044303e-001	3.456779e-002	2.414677e-002
9631023.906	3.550186e-002	2.377391e-002	9.525853e-001	-2.057530e-001	9.521939e-001	-2.055707e-001	3.493055e-002	2.378411e-002
9693562.989	3.573256e-002	2.368411e-002	9.520413e-001	-2.069139e-001	9.518639e-001	-2.065746e-001	3.492500e-002	2.384033e-002
9756102.073	3.593417e-002	2.357386e-002	9.517990e-001	-2.080155e-001	9.514748e-001	-2.076314e-001	3.516699e-002	2.364570e-002
