!Agilent Technologies,E5061B,MY49102235,A.02.00
!Date: Tue Jul 11 17:06:42 2023
!Data & Calibration Information:
!Freq	S11:SOLT2(ON)	S21:SOLT2(ON)	S12:SOLT2(ON)	S22:SOLT2(ON)
# Hz S RI R 50
5.000	-5.114825e-003	-5.611986e-003	1.002321e+000	7.979508e-003	1.000741e+000	1.024809e-002	-1.432526e-003	-7.560299e-003
62544.084	5.818105e-003	-4.715909e-004	1.001395e+000	5.050518e-004	1.000862e+000	1.206247e-003	7.710939e-003	-2.869901e-003
125083.168	5.700997e-003	-4.581687e-004	1.000990e+000	-8.525789e-004	1.000608e+000	-8.909044e-004	7.498731e-003	-2.222970e-003
187622.251	5.492857e-003	-2.826736e-004	1.000509e+000	-2.155166e-003	1.000866e+000	-9.582373e-004	7.386230e-003	-2.321087e-003
250161.335	5.304533e-003	-1.250190e-004	1.000706e+000	-3.263552e-003	1.000638e+000	-3.238771e-003	7.255820e-003	-1.957621e-003
312700.419	5.438476e-003	6.054323e-004	1.000882e+000	-3.902625e-003	1.000636e+000	-3.579232e-003	7.775378e-003	-2.274408e-003
375239.503	5.335219e-003	-8.879165e-004	1.001099e+000	-5.381919e-003	1.000513e+000	-4.986312e-003	7.270336e-003	-2.417927e-003
437778.587	5.190440e-003	-5.069960e-004	1.001321e+000	-5.405994e-003	1.000986e+000	-6.027277e-003	6.630381e-003	-2.129736e-003
500317.670	4.611322e-003	-3.506157e-004	1.001317e+000	-7.932462e-003	1.001662e+000	-7.677040e-003	4.805762e-003	-1.929305e-003
562856.754	5.924356e-003	-6.290021e-004	1.001392e+000	-9.517108e-003	1.001092e+000	-9.261446e-003	6.016214e-003	-1.418315e-003
625395.838	5.108193e-003	-5.083930e-004	1.002399e+000	-1.058423e-002	1.002160e+000	-1.012223e-002	6.111002e-003	-8.445103e-004
687934.922	5.179541e-003	-7.990892e-004	1.001311e+000	-1.178862e-002	1.001144e+000	-1.160190e-002	5.761927e-003	-1.322213e-003
750474.006	4.284921e-003	-4.884658e-004	1.001068e+000	-1.107447e-002	1.000691e+000	-1.048674e-002	5.474176e-003	-1.162812e-003
813013.089	4.465185e-003	-4.627986e-004	1.001424e+000	-1.301313e-002	1.000424e+000	-1.242889e-002	4.831242e-003	-9.827590e-004
875552.173	4.205996e-003	-2.908455e-004	1.001420e+000	-1.382898e-002	1.000827e+000	-1.356941e-002	5.611444e-003	-1.373567e-003
938091.257	4.267387e-003	-2.216053e-004	1.001388e+000	-1.536226e-002	1.001062e+000	-1.471665e-002	5.850846e-003	-7.891075e-004
1000630.341	3.723444e-003	-5.578556e-004	1.001094e+000	-1.680823e-002	1.000811e+000	-1.601103e-002	5.091482e-003	-1.475998e-003
1063169.425	4.091926e-003	-7.014198e-004	1.001463e+000	-1.818854e-002	1.000605e+000	-1.699909e-002	4.275537e-003	-1.795470e-003
1125708.508	3.959686e-003	-6.577911e-004	1.001207e+000	-1.936306e-002	1.000652e+000	-1.839154e-002	3.788970e-003	-1.496002e-003
1188247.592	4.487222e-003	-1.100379e-003	1.001241e+000	-2.057975e-002	1.000955e+000	-1.946687e-002	2.693578e-003	-2.058558e-003
1250786.676	4.338917e-003	-1.812288e-003	1.000860e+000	-2.021596e-002	1.000618e+000	-2.022023e-002	1.958789e-003	-3.722918e-003
1313325.760	4.462971e-003	-1.910496e-003	1.001168e+000	-2.194432e-002	1.000858e+000	-2.182701e-002	2.691076e-003	-3.511422e-003
1375864.844	4.191751e-003	-2.102706e-003	1.000940e+000	-2.393876e-002	1.000441e+000	-2.350567e-002	2.535904e-003	-3.204495e-003
1438403.927	4.072445e-003	-2.246403e-003	1.000920e+000	-2.454397e-002	1.000860e+000	-2.350803e-002	2.632233e-003	-2.948066e-003
1500943.011	4.310970e-003	-2.172023e-003	1.001476e+000	-2.547846e-002	1.001299e+000	-2.495464e-002	2.973357e-003	-3.341362e-003
1563482.095	4.304751e-003	-2.556336e-003	1.001097e+000	-2.684441e-002	1.000467e+000	-2.554548e-002	3.107730e-003	-3.130144e-003
1626021.179	4.114878e-003	-2.405806e-003	1.000986e+000	-2.805376e-002	1.000747e+000	-2.829448e-002	3.382039e-003	-3.179079e-003
1688560.263	3.821636e-003	-2.349539e-003	1.000717e+000	-2.996539e-002	1.001381e+000	-2.948928e-002	3.557044e-003	-3.180186e-003
1751099.346	3.940479e-003	-2.229039e-003	1.001299e+000	-3.096935e-002	1.000789e+000	-3.006825e-002	3.370520e-003	-2.334558e-003
1813638.430	3.588228e-003	-2.270475e-003	1.001523e+000	-3.254459e-002	1.000933e+000	-3.191970e-002	3.558592e-003	-2.704848e-003
1876177.514	3.626589e-003	-1.973597e-003	1.001882e+000	-3.342374e-002	1.001160e+000	-3.360470e-002	3.221593e-003	-2.035115e-003
1938716.598	3.079528e-003	-1.891215e-003	1.001953e+000	-3.420858e-002	1.001314e+000	-3.343604e-002	3.389045e-003	-1.647061e-003
2001255.682	2.987341e-003	-2.354896e-003	1.002029e+000	-3.568676e-002	1.001381e+000	-3.502891e-002	3.132339e-003	-2.090155e-003
2063794.765	3.078982e-003	-1.974611e-003	1.001607e+000	-3.668939e-002	1.000637e+000	-3.664734e-002	3.525440e-003	-2.184749e-003
2126333.849	2.622772e-003	-2.492032e-003	1.001065e+000	-3.791852e-002	1.000049e+000	-3.715685e-002	3.784099e-003	-1.919707e-003
2188872.933	3.098873e-003	-2.486461e-003	1.000825e+000	-3.913887e-002	9.999978e-001	-3.810368e-002	3.656313e-003	-1.964630e-003
2251412.017	3.198684e-003	-2.847033e-003	1.000566e+000	-4.058061e-002	1.000167e+000	-3.920174e-002	3.654484e-003	-2.079715e-003
2313951.101	3.529301e-003	-2.425492e-003	9.999989e-001	-4.166984e-002	1.000192e+000	-4.016829e-002	3.963315e-003	-2.140219e-003
2376490.184	3.282363e-003	-2.462921e-003	1.000108e+000	-4.218517e-002	1.000198e+000	-4.199864e-002	3.938844e-003	-2.123578e-003
2439029.268	3.734714e-003	-2.492459e-003	9.998543e-001	-4.394159e-002	9.993728e-001	-4.308500e-002	3.589130e-003	-2.018833e-003
2501568.352	3.691010e-003	-2.475998e-003	9.995443e-001	-4.410836e-002	1.000215e+000	-4.377868e-002	3.886193e-003	-2.067312e-003
2564107.436	3.605513e-003	-2.642197e-003	9.998742e-001	-4.574607e-002	9.998534e-001	-4.526935e-002	3.184425e-003	-2.440535e-003
2626646.520	4.098922e-003	-2.809216e-003	9.997658e-001	-4.703814e-002	9.988927e-001	-4.641360e-002	3.440716e-003	-2.488325e-003
2689185.604	4.059004e-003	-2.656483e-003	1.000176e+000	-4.775113e-002	9.994380e-001	-4.717407e-002	3.560265e-003	-2.438691e-003
2751724.687	4.152430e-003	-2.746351e-003	1.000100e+000	-4.851953e-002	9.995689e-001	-4.802029e-002	3.170645e-003	-2.479089e-003
2814263.771	4.106791e-003	-2.811340e-003	9.991484e-001	-5.025950e-002	9.990957e-001	-4.938840e-002	3.140265e-003	-2.609056e-003
2876802.855	4.051122e-003	-3.029602e-003	9.991226e-001	-5.170241e-002	9.992144e-001	-5.040168e-002	3.202833e-003	-2.488898e-003
2939341.939	4.161443e-003	-2.955146e-003	9.996087e-001	-5.217676e-002	9.990470e-001	-5.193837e-002	3.115984e-003	-2.594041e-003
3001881.023	4.106643e-003	-2.945706e-003	9.994313e-001	-5.348058e-002	9.988241e-001	-5.303141e-002	3.197553e-003	-2.723191e-003
3064420.106	4.134507e-003	-2.998082e-003	9.999504e-001	-5.445817e-002	9.989811e-001	-5.400786e-002	3.047527e-003	-2.864586e-003
3126959.190	4.328424e-003	-3.092950e-003	9.995536e-001	-5.566182e-002	9.991278e-001	-5.521389e-002	3.204192e-003	-2.941381e-003
3189498.274	4.323471e-003	-3.076701e-003	9.993909e-001	-5.665410e-002	9.990009e-001	-5.628226e-002	3.205572e-003	-3.001778e-003
3252037.358	4.224556e-003	-3.449108e-003	9.994704e-001	-5.786934e-002	9.990765e-001	-5.732088e-002	3.144651e-003	-2.954888e-003
3314576.442	4.238769e-003	-3.294484e-003	9.994084e-001	-5.884647e-002	9.989317e-001	-5.852036e-002	3.195690e-003	-3.070994e-003
3377115.525	4.212007e-003	-3.317651e-003	9.992090e-001	-5.988948e-002	9.986976e-001	-5.970785e-002	3.052489e-003	-3.228073e-003
3439654.609	4.208055e-003	-3.390437e-003	9.990170e-001	-6.105577e-002	9.989496e-001	-6.075594e-002	3.067920e-003	-3.057625e-003
3502193.693	4.168048e-003	-3.728954e-003	9.989859e-001	-6.229487e-002	9.986435e-001	-6.175211e-002	3.226334e-003	-3.130272e-003
3564732.777	4.223121e-003	-3.597499e-003	9.990392e-001	-6.335501e-002	9.986491e-001	-6.294627e-002	3.312995e-003	-3.117758e-003
3627271.861	4.064919e-003	-3.769976e-003	9.990515e-001	-6.454299e-002	9.986763e-001	-6.393109e-002	3.084783e-003	-3.371342e-003
3689810.944	3.966683e-003	-3.913221e-003	9.988621e-001	-6.562988e-002	9.985851e-001	-6.501321e-002	3.246996e-003	-3.375698e-003
3752350.028	4.071118e-003	-3.909292e-003	9.987333e-001	-6.649813e-002	9.983805e-001	-6.608350e-002	3.177152e-003	-3.454771e-003
3814889.112	4.187848e-003	-3.831146e-003	9.986012e-001	-6.769451e-002	9.985367e-001	-6.747850e-002	3.084318e-003	-3.625707e-003
3877428.196	4.123318e-003	-3.823354e-003	9.987586e-001	-6.877986e-002	9.984256e-001	-6.835988e-002	3.405818e-003	-3.654556e-003
3939967.280	4.079050e-003	-4.167354e-003	9.986082e-001	-7.002359e-002	9.984294e-001	-6.945590e-002	3.382812e-003	-3.596783e-003
4002506.363	4.155733e-003	-4.067013e-003	9.986026e-001	-7.107802e-002	9.982928e-001	-7.043247e-002	3.321644e-003	-3.721268e-003
4065045.447	3.967510e-003	-4.198495e-003	9.983416e-001	-7.226823e-002	9.980953e-001	-7.170592e-002	3.403268e-003	-3.860955e-003
4127584.531	3.947067e-003	-4.265861e-003	9.982587e-001	-7.332310e-002	9.980699e-001	-7.270094e-002	3.420248e-003	-3.795433e-003
4190123.615	3.976514e-003	-4.287488e-003	9.982737e-001	-7.460491e-002	9.978904e-001	-7.399590e-002	3.325403e-003	-4.064478e-003
4252662.699	3.932155e-003	-4.416737e-003	9.983006e-001	-7.572543e-002	9.977710e-001	-7.522428e-002	3.425128e-003	-4.089265e-003
4315201.782	4.066403e-003	-4.507926e-003	9.982099e-001	-7.659401e-002	9.979669e-001	-7.631356e-002	3.242030e-003	-4.329687e-003
4377740.866	3.965800e-003	-4.575674e-003	9.982002e-001	-7.786454e-002	9.976345e-001	-7.740019e-002	3.419777e-003	-4.083804e-003
4440279.950	3.850903e-003	-4.776873e-003	9.980569e-001	-7.881145e-002	9.975116e-001	-7.840296e-002	3.299515e-003	-4.315918e-003
4502819.034	3.859204e-003	-4.701683e-003	9.977653e-001	-8.000357e-002	9.975394e-001	-7.949534e-002	3.370964e-003	-4.215042e-003
4565358.118	3.765722e-003	-4.802838e-003	9.976770e-001	-8.111960e-002	9.972843e-001	-8.044535e-002	3.374288e-003	-4.384199e-003
4627897.201	3.938143e-003	-4.724529e-003	9.977877e-001	-8.219547e-002	9.972951e-001	-8.153826e-002	3.466702e-003	-4.315817e-003
4690436.285	3.764413e-003	-4.911198e-003	9.977209e-001	-8.337584e-002	9.973187e-001	-8.305476e-002	3.471041e-003	-4.584874e-003
4752975.369	3.751490e-003	-4.973700e-003	9.973836e-001	-8.456754e-002	9.972601e-001	-8.403333e-002	3.299889e-003	-4.694351e-003
4815514.453	3.881281e-003	-5.031721e-003	9.975221e-001	-8.558062e-002	9.971545e-001	-8.523571e-002	3.500340e-003	-4.662479e-003
4878053.537	3.956902e-003	-5.187316e-003	9.974721e-001	-8.663932e-002	9.970173e-001	-8.614392e-002	3.464898e-003	-4.792042e-003
4940592.620	3.691246e-003	-5.203120e-003	9.972484e-001	-8.780544e-002	9.969610e-001	-8.739589e-002	3.226339e-003	-4.901620e-003
5003131.704	3.758508e-003	-5.407214e-003	9.970866e-001	-8.888652e-002	9.969264e-001	-8.824422e-002	3.342148e-003	-5.004696e-003
5065670.788	3.679521e-003	-5.274432e-003	9.969924e-001	-9.005692e-002	9.967685e-001	-8.948665e-002	3.304231e-003	-5.029392e-003
5128209.872	3.810280e-003	-5.463159e-003	9.971105e-001	-9.112437e-002	9.966650e-001	-9.055237e-002	3.273822e-003	-5.310226e-003
5190748.956	3.700535e-003	-5.547708e-003	9.968837e-001	-9.224431e-002	9.966236e-001	-9.179737e-002	3.242705e-003	-5.241613e-003
5253288.039	3.746511e-003	-5.647818e-003	9.968634e-001	-9.336392e-002	9.965772e-001	-9.286017e-002	3.163632e-003	-5.226202e-003
5315827.123	3.707904e-003	-5.774799e-003	9.966035e-001	-9.451949e-002	9.964401e-001	-9.404226e-002	3.152143e-003	-5.387463e-003
5378366.207	3.795772e-003	-5.799960e-003	9.966415e-001	-9.562646e-002	9.963547e-001	-9.530376e-002	3.131480e-003	-5.553938e-003
5440905.291	3.597112e-003	-5.781863e-003	9.966415e-001	-9.671188e-002	9.962766e-001	-9.630568e-002	3.014780e-003	-5.561446e-003
5503444.375	3.803343e-003	-6.003742e-003	9.964598e-001	-9.783182e-002	9.962107e-001	-9.723593e-002	3.199948e-003	-5.722997e-003
5565983.458	3.441257e-003	-5.959652e-003	9.963955e-001	-9.888813e-002	9.961237e-001	-9.834674e-002	3.114455e-003	-5.621786e-003
5628522.542	3.692705e-003	-6.099428e-003	9.963153e-001	-9.989667e-002	9.960110e-001	-9.954389e-002	3.153772e-003	-5.824669e-003
5691061.626	3.747461e-003	-6.351990e-003	9.960991e-001	-1.011989e-001	9.958003e-001	-1.007084e-001	3.049420e-003	-5.839513e-003
5753600.710	3.588149e-003	-6.336287e-003	9.959616e-001	-1.022121e-001	9.957678e-001	-1.017643e-001	3.104300e-003	-6.041530e-003
5816139.794	3.685059e-003	-6.228926e-003	9.959724e-001	-1.033747e-001	9.954516e-001	-1.030907e-001	2.950578e-003	-6.078596e-003
5878678.877	3.581971e-003	-6.523307e-003	9.958137e-001	-1.045080e-001	9.954910e-001	-1.040033e-001	3.050710e-003	-6.269591e-003
5941217.961	3.556682e-003	-6.666193e-003	9.956523e-001	-1.056890e-001	9.953472e-001	-1.049931e-001	2.845343e-003	-6.249121e-003
6003757.045	3.399255e-003	-6.518852e-003	9.954087e-001	-1.066303e-001	9.952233e-001	-1.061005e-001	2.975217e-003	-6.336891e-003
6066296.129	3.516967e-003	-6.790277e-003	9.955129e-001	-1.077561e-001	9.951438e-001	-1.071751e-001	2.934500e-003	-6.446308e-003
6128835.213	3.615637e-003	-6.820681e-003	9.953133e-001	-1.086572e-001	9.952309e-001	-1.084028e-001	3.020426e-003	-6.526741e-003
6191374.296	3.538351e-003	-6.934426e-003	9.951672e-001	-1.099493e-001	9.948582e-001	-1.096694e-001	2.847674e-003	-6.502904e-003
6253913.380	3.435541e-003	-6.887115e-003	9.950867e-001	-1.111098e-001	9.948144e-001	-1.105964e-001	2.714403e-003	-6.471092e-003
6316452.464	3.397715e-003	-6.878201e-003	9.950391e-001	-1.120942e-001	9.945451e-001	-1.119006e-001	2.759536e-003	-6.772041e-003
6378991.548	3.358563e-003	-7.094089e-003	9.948568e-001	-1.135403e-001	9.946607e-001	-1.128600e-001	2.819964e-003	-6.964532e-003
6441530.632	3.283631e-003	-7.252919e-003	9.946867e-001	-1.143988e-001	9.944441e-001	-1.141089e-001	2.845101e-003	-6.939473e-003
6504069.715	3.284569e-003	-7.356289e-003	9.945410e-001	-1.157184e-001	9.944159e-001	-1.151742e-001	2.845630e-003	-7.006905e-003
6566608.799	3.405287e-003	-7.499542e-003	9.945338e-001	-1.168773e-001	9.942145e-001	-1.163095e-001	2.733284e-003	-6.891100e-003
6629147.883	3.335134e-003	-7.434887e-003	9.943409e-001	-1.176111e-001	9.940427e-001	-1.174215e-001	2.807221e-003	-7.110327e-003
6691686.967	3.210769e-003	-7.500285e-003	9.940775e-001	-1.188815e-001	9.938746e-001	-1.184430e-001	2.824667e-003	-7.097177e-003
6754226.051	3.148926e-003	-7.592912e-003	9.939654e-001	-1.201049e-001	9.936419e-001	-1.197666e-001	2.616350e-003	-7.395253e-003
6816765.134	3.240641e-003	-7.678244e-003	9.939896e-001	-1.211181e-001	9.936498e-001	-1.207492e-001	2.656847e-003	-7.263473e-003
6879304.218	3.109620e-003	-7.917289e-003	9.937380e-001	-1.222325e-001	9.935572e-001	-1.218044e-001	2.626573e-003	-7.402258e-003
6941843.302	3.177820e-003	-7.827909e-003	9.935805e-001	-1.233762e-001	9.934204e-001	-1.229084e-001	2.606198e-003	-7.402313e-003
7004382.386	2.964300e-003	-7.829091e-003	9.935544e-001	-1.244087e-001	9.932121e-001	-1.240216e-001	2.511692e-003	-7.432725e-003
7066921.470	3.050900e-003	-7.961305e-003	9.932766e-001	-1.256653e-001	9.931350e-001	-1.249749e-001	2.659888e-003	-7.680029e-003
7129460.553	2.927794e-003	-8.139477e-003	9.932284e-001	-1.265488e-001	9.929894e-001	-1.261803e-001	2.655624e-003	-7.682531e-003
7191999.637	2.903206e-003	-7.975682e-003	9.928945e-001	-1.277832e-001	9.927005e-001	-1.272531e-001	2.488422e-003	-7.757749e-003
7254538.721	2.946774e-003	-8.170480e-003	9.930531e-001	-1.289162e-001	9.927553e-001	-1.284198e-001	2.523218e-003	-7.808625e-003
7317077.805	3.106853e-003	-8.280361e-003	9.928280e-001	-1.299228e-001	9.926026e-001	-1.294633e-001	2.498533e-003	-8.002234e-003
7379616.889	2.951776e-003	-8.350098e-003	9.928549e-001	-1.312341e-001	9.923754e-001	-1.306089e-001	2.426114e-003	-8.038894e-003
7442155.972	2.779277e-003	-8.414297e-003	9.925308e-001	-1.321736e-001	9.923139e-001	-1.316557e-001	2.501554e-003	-7.897000e-003
7504695.056	2.802720e-003	-8.591494e-003	9.922222e-001	-1.331972e-001	9.920073e-001	-1.328870e-001	2.493029e-003	-7.908851e-003
7567234.140	2.972742e-003	-8.730536e-003	9.922439e-001	-1.342843e-001	9.918858e-001	-1.339609e-001	2.419475e-003	-8.096486e-003
7629773.224	2.852105e-003	-8.507454e-003	9.921423e-001	-1.355490e-001	9.918643e-001	-1.350273e-001	2.325942e-003	-8.220186e-003
7692312.308	2.687122e-003	-8.643720e-003	9.919584e-001	-1.366453e-001	9.916029e-001	-1.362061e-001	2.361056e-003	-8.369864e-003
7754851.391	2.658697e-003	-8.882538e-003	9.917717e-001	-1.377651e-001	9.913563e-001	-1.371359e-001	2.282847e-003	-8.307229e-003
7817390.475	2.731189e-003	-8.734042e-003	9.916553e-001	-1.389798e-001	9.912719e-001	-1.384509e-001	2.189236e-003	-8.274073e-003
7879929.559	2.611038e-003	-8.989216e-003	9.914018e-001	-1.400664e-001	9.910590e-001	-1.397540e-001	2.301483e-003	-8.343966e-003
7942468.643	2.545839e-003	-9.124538e-003	9.913519e-001	-1.411149e-001	9.910373e-001	-1.407707e-001	2.252446e-003	-8.588911e-003
8005007.727	2.641002e-003	-9.160702e-003	9.911244e-001	-1.422742e-001	9.909353e-001	-1.418606e-001	2.147938e-003	-8.452482e-003
8067546.811	2.463645e-003	-9.188955e-003	9.909913e-001	-1.433205e-001	9.905820e-001	-1.429000e-001	2.029980e-003	-8.730127e-003
8130085.894	2.512000e-003	-9.328684e-003	9.907634e-001	-1.443722e-001	9.904896e-001	-1.440398e-001	2.243075e-003	-8.844823e-003
8192624.978	2.336347e-003	-9.460921e-003	9.904872e-001	-1.455940e-001	9.903006e-001	-1.451017e-001	2.259010e-003	-8.914912e-003
8255164.062	2.422524e-003	-9.507068e-003	9.904209e-001	-1.466735e-001	9.901573e-001	-1.462164e-001	2.209665e-003	-9.042113e-003
8317703.146	2.273338e-003	-9.481305e-003	9.903427e-001	-1.477737e-001	9.901019e-001	-1.473017e-001	2.000425e-003	-9.055300e-003
8380242.230	2.375995e-003	-9.784257e-003	9.899784e-001	-1.490042e-001	9.897822e-001	-1.483731e-001	1.935448e-003	-9.194096e-003
8442781.313	2.327540e-003	-9.804209e-003	9.900994e-001	-1.499331e-001	9.897013e-001	-1.494593e-001	1.910775e-003	-9.352319e-003
8505320.397	2.288544e-003	-9.755148e-003	9.898644e-001	-1.511412e-001	9.894909e-001	-1.505993e-001	1.825336e-003	-9.356259e-003
8567859.481	2.213763e-003	-9.666737e-003	9.896028e-001	-1.520802e-001	9.893824e-001	-1.516755e-001	1.831061e-003	-9.260696e-003
8630398.565	2.273679e-003	-9.786949e-003	9.893117e-001	-1.531464e-001	9.892037e-001	-1.527211e-001	1.688924e-003	-9.588688e-003
8692937.649	2.192770e-003	-1.007488e-002	9.891727e-001	-1.542600e-001	9.889013e-001	-1.538980e-001	1.600143e-003	-9.555792e-003
8755476.732	2.170350e-003	-1.006527e-002	9.890704e-001	-1.554609e-001	9.887397e-001	-1.548405e-001	1.641461e-003	-9.610490e-003
8818015.816	2.032321e-003	-1.018393e-002	9.888308e-001	-1.565143e-001	9.884158e-001	-1.560309e-001	1.728197e-003	-9.771944e-003
8880554.900	2.219556e-003	-1.020853e-002	9.888219e-001	-1.576910e-001	9.885322e-001	-1.569928e-001	1.559586e-003	-1.000196e-002
8943093.984	2.014944e-003	-1.018232e-002	9.885624e-001	-1.586799e-001	9.883568e-001	-1.581194e-001	1.552027e-003	-1.002580e-002
9005633.068	2.042715e-003	-1.034269e-002	9.882397e-001	-1.598370e-001	9.882413e-001	-1.593259e-001	1.417488e-003	-1.022556e-002
9068172.151	1.860527e-003	-1.041763e-002	9.882286e-001	-1.609694e-001	9.878892e-001	-1.603072e-001	1.448591e-003	-1.024098e-002
9130711.235	2.048685e-003	-1.055773e-002	9.879687e-001	-1.620838e-001	9.877276e-001	-1.614254e-001	1.451358e-003	-1.050660e-002
9193250.319	2.015869e-003	-1.065721e-002	9.879079e-001	-1.630030e-001	9.875293e-001	-1.625920e-001	1.350088e-003	-1.050498e-002
9255789.403	1.871083e-003	-1.088511e-002	9.877295e-001	-1.640098e-001	9.873328e-001	-1.636119e-001	1.174526e-003	-1.052157e-002
9318328.487	1.797180e-003	-1.085353e-002	9.875273e-001	-1.653614e-001	9.872836e-001	-1.646910e-001	1.259100e-003	-1.058870e-002
9380867.570	1.784260e-003	-1.080452e-002	9.873804e-001	-1.664571e-001	9.869602e-001	-1.659499e-001	1.239129e-003	-1.068119e-002
9443406.654	1.789721e-003	-1.088702e-002	9.872370e-001	-1.674444e-001	9.869293e-001	-1.670735e-001	1.233155e-003	-1.083609e-002
9505945.738	1.736124e-003	-1.094220e-002	9.868404e-001	-1.687298e-001	9.867820e-001	-1.681653e-001	1.154577e-003	-1.091119e-002
9568484.822	1.754120e-003	-1.105248e-002	9.868166e-001	-1.697711e-001	9.863679e-001	-1.692685e-001	9.127029e-004	-1.073512e-002
