!Agilent Technologies,E5061B,MY49102235,A.02.00
!Date: Tue Jul 11 17:08:15 2023
!Data & Calibration Information:
!Freq	S11:SOLT2(ON)	S21:SOLT2(ON)	S12:SOLT2(ON)	S22:SOLT2(ON)
# Hz S RI R 50
5.000	-5.239753e-003	-5.639844e-003	1.002296e+000	7.942641e-003	1.000737e+000	1.026770e-002	-1.457106e-003	-7.550864e-003
62544.084	5.815957e-003	-4.861407e-004	1.001408e+000	4.102598e-004	1.000756e+000	1.176787e-003	7.701846e-003	-2.868534e-003
125083.168	5.704709e-003	-4.749680e-004	1.000931e+000	-7.788358e-004	1.000808e+000	-7.901161e-004	7.497244e-003	-2.267879e-003
187622.251	5.490567e-003	-3.064803e-004	1.000421e+000	-2.171296e-003	1.000900e+000	-8.895020e-004	7.388264e-003	-2.348381e-003
250161.335	5.308347e-003	-1.535711e-004	1.000545e+000	-3.202838e-003	1.000677e+000	-3.076212e-003	7.273290e-003	-2.009380e-003
312700.419	5.449579e-003	5.481750e-004	1.000867e+000	-3.829948e-003	1.000499e+000	-3.467269e-003	7.792007e-003	-2.314252e-003
375239.503	5.342434e-003	-9.532042e-004	1.001093e+000	-5.225206e-003	1.000400e+000	-4.978134e-003	7.266771e-003	-2.467703e-003
437778.587	5.161795e-003	-5.500261e-004	1.001438e+000	-5.481293e-003	1.000975e+000	-6.044340e-003	6.629321e-003	-2.179083e-003
500317.670	4.626343e-003	-4.393123e-004	1.001255e+000	-7.743115e-003	1.001681e+000	-7.616523e-003	4.801380e-003	-1.987805e-003
562856.754	5.916512e-003	-7.193733e-004	1.001492e+000	-9.419765e-003	1.001141e+000	-9.158829e-003	6.023982e-003	-1.497541e-003
625395.838	5.098031e-003	-5.725265e-004	1.002273e+000	-1.065345e-002	1.002180e+000	-1.001257e-002	6.108042e-003	-9.401885e-004
687934.922	5.151639e-003	-9.077967e-004	1.001442e+000	-1.160214e-002	1.001185e+000	-1.158951e-002	5.759101e-003	-1.385668e-003
750474.006	4.285386e-003	-6.091962e-004	1.000966e+000	-1.105502e-002	1.000556e+000	-1.046518e-002	5.464559e-003	-1.272679e-003
813013.089	4.454462e-003	-5.656033e-004	1.001438e+000	-1.283593e-002	1.000417e+000	-1.221325e-002	4.834744e-003	-1.094801e-003
875552.173	4.198916e-003	-4.100032e-004	1.001437e+000	-1.370813e-002	1.000817e+000	-1.345738e-002	5.614555e-003	-1.486516e-003
938091.257	4.276086e-003	-3.489812e-004	1.001336e+000	-1.524976e-002	1.000958e+000	-1.454086e-002	5.848232e-003	-9.178912e-004
1000630.341	3.727042e-003	-6.876839e-004	1.000989e+000	-1.663956e-002	1.000792e+000	-1.598256e-002	5.094087e-003	-1.616962e-003
1063169.425	4.072843e-003	-8.536391e-004	1.001283e+000	-1.806288e-002	1.000604e+000	-1.675303e-002	4.273468e-003	-1.930996e-003
1125708.508	3.948968e-003	-8.127874e-004	1.001037e+000	-1.911889e-002	1.000585e+000	-1.816703e-002	3.772754e-003	-1.657626e-003
1188247.592	4.503703e-003	-1.246712e-003	1.001351e+000	-2.032941e-002	1.000957e+000	-1.922835e-002	2.679016e-003	-2.216813e-003
1250786.676	4.337430e-003	-1.989677e-003	1.000801e+000	-2.023224e-002	1.000651e+000	-1.996038e-002	1.949470e-003	-3.877200e-003
1313325.760	4.462063e-003	-2.091828e-003	1.001254e+000	-2.175529e-002	1.000967e+000	-2.161904e-002	2.681423e-003	-3.672921e-003
1375864.844	4.191240e-003	-2.293894e-003	1.000897e+000	-2.370250e-002	1.000496e+000	-2.347595e-002	2.549939e-003	-3.396466e-003
1438403.927	4.074997e-003	-2.444184e-003	1.000900e+000	-2.429887e-002	1.000825e+000	-2.327407e-002	2.617863e-003	-3.144854e-003
1500943.011	4.289039e-003	-2.380545e-003	1.001486e+000	-2.517523e-002	1.001218e+000	-2.469979e-002	2.959137e-003	-3.560722e-003
1563482.095	4.295722e-003	-2.758074e-003	1.001127e+000	-2.666455e-002	1.000541e+000	-2.541107e-002	3.114970e-003	-3.343743e-003
1626021.179	4.100385e-003	-2.636040e-003	1.000901e+000	-2.788188e-002	1.000946e+000	-2.799101e-002	3.373770e-003	-3.403293e-003
1688560.263	3.816064e-003	-2.571897e-003	1.000622e+000	-2.968437e-002	1.001320e+000	-2.928541e-002	3.546526e-003	-3.409556e-003
1751099.346	3.937590e-003	-2.466621e-003	1.001238e+000	-3.069282e-002	1.000705e+000	-2.981879e-002	3.366526e-003	-2.567393e-003
1813638.430	3.589050e-003	-2.513940e-003	1.001502e+000	-3.222419e-002	1.000923e+000	-3.173284e-002	3.541272e-003	-2.959164e-003
1876177.514	3.609436e-003	-2.230517e-003	1.001766e+000	-3.306091e-002	1.001303e+000	-3.319954e-002	3.212506e-003	-2.286945e-003
1938716.598	3.082368e-003	-2.161944e-003	1.002058e+000	-3.402667e-002	1.001327e+000	-3.310767e-002	3.375050e-003	-1.899607e-003
2001255.682	2.982023e-003	-2.642272e-003	1.001887e+000	-3.544664e-002	1.001266e+000	-3.481145e-002	3.136183e-003	-2.368530e-003
2063794.765	3.058179e-003	-2.251691e-003	1.001531e+000	-3.636972e-002	1.000792e+000	-3.651578e-002	3.519345e-003	-2.473690e-003
2126333.849	2.609876e-003	-2.787694e-003	1.001036e+000	-3.773302e-002	1.000152e+000	-3.679974e-002	3.787443e-003	-2.205856e-003
2188872.933	3.101034e-003	-2.789775e-003	1.000786e+000	-3.879845e-002	1.000157e+000	-3.782261e-002	3.650666e-003	-2.253077e-003
2251412.017	3.189663e-003	-3.159978e-003	1.000582e+000	-4.040906e-002	1.000234e+000	-3.885617e-002	3.646675e-003	-2.386468e-003
2313951.101	3.523290e-003	-2.740141e-003	9.999805e-001	-4.133645e-002	1.000211e+000	-3.980518e-002	3.945093e-003	-2.454430e-003
2376490.184	3.257360e-003	-2.785845e-003	9.998224e-001	-4.170811e-002	1.000202e+000	-4.169813e-002	3.913610e-003	-2.453699e-003
2439029.268	3.711733e-003	-2.819636e-003	9.998078e-001	-4.351227e-002	9.992879e-001	-4.275959e-002	3.575815e-003	-2.349128e-003
2501568.352	3.685608e-003	-2.813631e-003	9.995793e-001	-4.360638e-002	1.000170e+000	-4.327718e-002	3.864637e-003	-2.391971e-003
2564107.436	3.586447e-003	-2.991359e-003	9.998645e-001	-4.538580e-002	9.999744e-001	-4.497433e-002	3.165949e-003	-2.780616e-003
2626646.520	4.071422e-003	-3.177665e-003	9.996963e-001	-4.651308e-002	9.987407e-001	-4.605309e-002	3.421090e-003	-2.856309e-003
2689185.604	4.030559e-003	-3.012295e-003	1.000082e+000	-4.734258e-002	9.995645e-001	-4.683888e-002	3.544952e-003	-2.805446e-003
2751724.687	4.139979e-003	-3.113057e-003	1.000074e+000	-4.810589e-002	9.996031e-001	-4.764291e-002	3.156897e-003	-2.853869e-003
2814263.771	4.080870e-003	-3.214885e-003	9.989442e-001	-4.987590e-002	9.991469e-001	-4.887849e-002	3.129918e-003	-2.991396e-003
2876802.855	4.037597e-003	-3.415068e-003	9.990780e-001	-5.127566e-002	9.992204e-001	-4.997248e-002	3.202035e-003	-2.884980e-003
2939341.939	4.147743e-003	-3.346834e-003	9.995873e-001	-5.176099e-002	9.991198e-001	-5.156961e-002	3.106918e-003	-2.992096e-003
3001881.023	4.080039e-003	-3.354793e-003	9.993038e-001	-5.309028e-002	9.989786e-001	-5.262965e-002	3.183546e-003	-3.145232e-003
3064420.106	4.121429e-003	-3.425225e-003	9.999951e-001	-5.408521e-002	9.989778e-001	-5.354588e-002	3.018555e-003	-3.287252e-003
3126959.190	4.320566e-003	-3.525590e-003	9.995216e-001	-5.522569e-002	9.991612e-001	-5.476323e-002	3.197445e-003	-3.362217e-003
3189498.274	4.294651e-003	-3.517616e-003	9.994101e-001	-5.618218e-002	9.990411e-001	-5.587811e-002	3.186699e-003	-3.445740e-003
3252037.358	4.205167e-003	-3.891524e-003	9.994828e-001	-5.733647e-002	9.991156e-001	-5.688816e-002	3.119076e-003	-3.408306e-003
3314576.442	4.209093e-003	-3.753979e-003	9.993859e-001	-5.837451e-002	9.989857e-001	-5.802857e-002	3.167295e-003	-3.545541e-003
3377115.525	4.177543e-003	-3.775944e-003	9.991407e-001	-5.940774e-002	9.987295e-001	-5.929435e-002	3.020484e-003	-3.702559e-003
3439654.609	4.187552e-003	-3.870939e-003	9.989846e-001	-6.053592e-002	9.989710e-001	-6.029298e-002	3.039969e-003	-3.546234e-003
3502193.693	4.141206e-003	-4.197470e-003	9.989825e-001	-6.178510e-002	9.986903e-001	-6.128172e-002	3.196985e-003	-3.599752e-003
3564732.777	4.191547e-003	-4.088273e-003	9.989545e-001	-6.281222e-002	9.986819e-001	-6.246507e-002	3.296852e-003	-3.616406e-003
3627271.861	4.029767e-003	-4.255591e-003	9.989931e-001	-6.400051e-002	9.987281e-001	-6.341396e-002	3.057104e-003	-3.867641e-003
3689810.944	3.935894e-003	-4.419809e-003	9.988462e-001	-6.506881e-002	9.986135e-001	-6.449802e-002	3.209965e-003	-3.892349e-003
3752350.028	4.053887e-003	-4.430150e-003	9.987397e-001	-6.594204e-002	9.983745e-001	-6.556098e-002	3.143649e-003	-3.979439e-003
3814889.112	4.147640e-003	-4.340094e-003	9.985777e-001	-6.711565e-002	9.985619e-001	-6.694059e-002	3.048166e-003	-4.149405e-003
3877428.196	4.093409e-003	-4.372788e-003	9.987483e-001	-6.827898e-002	9.985017e-001	-6.783388e-002	3.383960e-003	-4.177687e-003
3939967.280	4.065356e-003	-4.718073e-003	9.986105e-001	-6.946541e-002	9.984802e-001	-6.894235e-002	3.354817e-003	-4.141255e-003
4002506.363	4.110533e-003	-4.616534e-003	9.986355e-001	-7.048555e-002	9.983589e-001	-6.994102e-002	3.288809e-003	-4.266501e-003
4065045.447	3.936735e-003	-4.751765e-003	9.983319e-001	-7.162622e-002	9.981533e-001	-7.114344e-002	3.377500e-003	-4.422349e-003
4127584.531	3.897775e-003	-4.832437e-003	9.982480e-001	-7.269436e-002	9.981260e-001	-7.214248e-002	3.386400e-003	-4.361468e-003
4190123.615	3.948823e-003	-4.867667e-003	9.982730e-001	-7.397052e-002	9.979680e-001	-7.337827e-002	3.283237e-003	-4.643194e-003
4252662.699	3.894126e-003	-5.008284e-003	9.983227e-001	-7.507443e-002	9.978046e-001	-7.466873e-002	3.386586e-003	-4.669907e-003
4315201.782	4.018661e-003	-5.093341e-003	9.981858e-001	-7.597585e-002	9.980201e-001	-7.569264e-002	3.204102e-003	-4.931553e-003
4377740.866	3.929272e-003	-5.185135e-003	9.981954e-001	-7.723438e-002	9.977067e-001	-7.678494e-002	3.368869e-003	-4.701281e-003
4440279.950	3.820653e-003	-5.394373e-003	9.980573e-001	-7.817483e-002	9.975340e-001	-7.777102e-002	3.261082e-003	-4.920362e-003
4502819.034	3.801491e-003	-5.309151e-003	9.977680e-001	-7.940094e-002	9.975692e-001	-7.889771e-002	3.327638e-003	-4.831940e-003
4565358.118	3.724011e-003	-5.426536e-003	9.977085e-001	-8.042014e-002	9.973218e-001	-7.982328e-002	3.333335e-003	-5.009367e-003
4627897.201	3.896198e-003	-5.359230e-003	9.978121e-001	-8.149932e-002	9.973930e-001	-8.088372e-002	3.429017e-003	-4.956858e-003
4690436.285	3.705139e-003	-5.547558e-003	9.977307e-001	-8.268796e-002	9.973565e-001	-8.239049e-002	3.420007e-003	-5.229603e-003
4752975.369	3.705301e-003	-5.627420e-003	9.973825e-001	-8.394189e-002	9.973084e-001	-8.339346e-002	3.233155e-003	-5.347543e-003
4815514.453	3.818828e-003	-5.696731e-003	9.975320e-001	-8.487049e-002	9.972290e-001	-8.457240e-002	3.450618e-003	-5.318017e-003
4878053.537	3.921622e-003	-5.853236e-003	9.974570e-001	-8.593842e-002	9.970935e-001	-8.549493e-002	3.420231e-003	-5.468036e-003
4940592.620	3.647720e-003	-5.882690e-003	9.971936e-001	-8.711088e-002	9.970165e-001	-8.669614e-002	3.170836e-003	-5.574612e-003
5003131.704	3.706273e-003	-6.098068e-003	9.971224e-001	-8.814578e-002	9.969709e-001	-8.757349e-002	3.277898e-003	-5.696802e-003
5065670.788	3.631055e-003	-5.960999e-003	9.970544e-001	-8.932502e-002	9.968271e-001	-8.873394e-002	3.269372e-003	-5.718867e-003
5128209.872	3.737703e-003	-6.168560e-003	9.970950e-001	-9.038990e-002	9.967335e-001	-8.987446e-002	3.218420e-003	-6.001178e-003
5190748.956	3.644450e-003	-6.262558e-003	9.969293e-001	-9.150436e-002	9.967374e-001	-9.106994e-002	3.187799e-003	-5.945723e-003
5253288.039	3.687666e-003	-6.381878e-003	9.968992e-001	-9.260517e-002	9.966072e-001	-9.214432e-002	3.118935e-003	-5.956789e-003
5315827.123	3.648999e-003	-6.490866e-003	9.966286e-001	-9.371267e-002	9.964766e-001	-9.330115e-002	3.081176e-003	-6.118850e-003
5378366.207	3.721114e-003	-6.538289e-003	9.966652e-001	-9.484433e-002	9.964003e-001	-9.453914e-002	3.069801e-003	-6.288117e-003
5440905.291	3.537348e-003	-6.529250e-003	9.966209e-001	-9.591678e-002	9.963013e-001	-9.551583e-002	2.942645e-003	-6.322993e-003
5503444.375	3.738953e-003	-6.758689e-003	9.964761e-001	-9.710558e-002	9.963134e-001	-9.647289e-002	3.141768e-003	-6.471904e-003
5565983.458	3.385737e-003	-6.720053e-003	9.964422e-001	-9.807976e-002	9.961704e-001	-9.753159e-002	3.066201e-003	-6.387858e-003
5628522.542	3.626365e-003	-6.864981e-003	9.963253e-001	-9.907500e-002	9.960905e-001	-9.880787e-002	3.083433e-003	-6.594623e-003
5691061.626	3.686310e-003	-7.130684e-003	9.961572e-001	-1.004165e-001	9.959361e-001	-9.995678e-002	2.972573e-003	-6.625744e-003
5753600.710	3.529329e-003	-7.122048e-003	9.959879e-001	-1.014215e-001	9.958418e-001	-1.009636e-001	3.027987e-003	-6.841387e-003
5816139.794	3.615364e-003	-7.021021e-003	9.959964e-001	-1.025705e-001	9.955957e-001	-1.022642e-001	2.868166e-003	-6.871042e-003
5878678.877	3.506918e-003	-7.329857e-003	9.958629e-001	-1.036666e-001	9.955545e-001	-1.032098e-001	2.980001e-003	-7.076438e-003
5941217.961	3.490589e-003	-7.479573e-003	9.956714e-001	-1.048343e-001	9.954892e-001	-1.041587e-001	2.770409e-003	-7.078397e-003
6003757.045	3.332192e-003	-7.334626e-003	9.954325e-001	-1.057568e-001	9.953595e-001	-1.052365e-001	2.896085e-003	-7.179557e-003
6066296.129	3.443919e-003	-7.617780e-003	9.955763e-001	-1.068888e-001	9.952180e-001	-1.063983e-001	2.859062e-003	-7.287417e-003
6128835.213	3.522234e-003	-7.669702e-003	9.953888e-001	-1.077401e-001	9.952847e-001	-1.075840e-001	2.933043e-003	-7.355655e-003
6191374.296	3.450919e-003	-7.777971e-003	9.952455e-001	-1.090880e-001	9.949610e-001	-1.087790e-001	2.773029e-003	-7.370879e-003
6253913.380	3.358058e-003	-7.745544e-003	9.951633e-001	-1.102296e-001	9.949154e-001	-1.097485e-001	2.637425e-003	-7.333398e-003
6316452.464	3.316253e-003	-7.741773e-003	9.950874e-001	-1.111885e-001	9.946619e-001	-1.110524e-001	2.673095e-003	-7.647725e-003
6378991.548	3.271393e-003	-7.984001e-003	9.949037e-001	-1.126503e-001	9.947992e-001	-1.120244e-001	2.725577e-003	-7.833568e-003
6441530.632	3.207080e-003	-8.154653e-003	9.947169e-001	-1.134138e-001	9.945627e-001	-1.132256e-001	2.755950e-003	-7.818925e-003
6504069.715	3.184768e-003	-8.252171e-003	9.945639e-001	-1.148173e-001	9.945700e-001	-1.142694e-001	2.753376e-003	-7.903618e-003
6566608.799	3.317978e-003	-8.379807e-003	9.945956e-001	-1.159329e-001	9.942912e-001	-1.153970e-001	2.633769e-003	-7.799455e-003
6629147.883	3.250228e-003	-8.345449e-003	9.943879e-001	-1.166946e-001	9.941689e-001	-1.164734e-001	2.714620e-003	-8.031690e-003
6691686.967	3.113834e-003	-8.412583e-003	9.942094e-001	-1.179277e-001	9.939688e-001	-1.175472e-001	2.721783e-003	-8.025331e-003
6754226.051	3.052652e-003	-8.523815e-003	9.940406e-001	-1.191323e-001	9.938020e-001	-1.188097e-001	2.520130e-003	-8.322570e-003
6816765.134	3.140244e-003	-8.599355e-003	9.939893e-001	-1.201326e-001	9.937646e-001	-1.197917e-001	2.549599e-003	-8.207672e-003
6879304.218	3.012121e-003	-8.861252e-003	9.937928e-001	-1.212807e-001	9.936588e-001	-1.208595e-001	2.535230e-003	-8.360832e-003
6941843.302	3.074451e-003	-8.773660e-003	9.936465e-001	-1.224364e-001	9.935260e-001	-1.219544e-001	2.516223e-003	-8.356928e-003
7004382.386	2.846395e-003	-8.799179e-003	9.935706e-001	-1.234331e-001	9.933573e-001	-1.230386e-001	2.404081e-003	-8.405867e-003
7066921.470	2.935418e-003	-8.925523e-003	9.933678e-001	-1.246486e-001	9.932467e-001	-1.239757e-001	2.556604e-003	-8.643017e-003
7129460.553	2.820704e-003	-9.136242e-003	9.933109e-001	-1.255374e-001	9.931046e-001	-1.251981e-001	2.544409e-003	-8.669470e-003
7191999.637	2.789514e-003	-8.976333e-003	9.929356e-001	-1.267612e-001	9.928009e-001	-1.262752e-001	2.380258e-003	-8.751516e-003
7254538.721	2.820260e-003	-9.167266e-003	9.931404e-001	-1.279068e-001	9.928863e-001	-1.274070e-001	2.392574e-003	-8.814281e-003
7317077.805	2.989380e-003	-9.287866e-003	9.929067e-001	-1.288777e-001	9.927134e-001	-1.284373e-001	2.377322e-003	-9.001252e-003
7379616.889	2.827272e-003	-9.352857e-003	9.929255e-001	-1.301564e-001	9.925393e-001	-1.295974e-001	2.309830e-003	-9.059876e-003
7442155.972	2.665984e-003	-9.444284e-003	9.925986e-001	-1.311022e-001	9.924392e-001	-1.306010e-001	2.379463e-003	-8.931964e-003
7504695.056	2.675891e-003	-9.618062e-003	9.923613e-001	-1.320937e-001	9.921200e-001	-1.318555e-001	2.388971e-003	-8.954100e-003
7567234.140	2.832926e-003	-9.759564e-003	9.923612e-001	-1.331937e-001	9.920136e-001	-1.329362e-001	2.295381e-003	-9.133124e-003
7629773.224	2.722849e-003	-9.552239e-003	9.922269e-001	-1.344860e-001	9.919950e-001	-1.339747e-001	2.191456e-003	-9.261034e-003
7692312.308	2.562925e-003	-9.699740e-003	9.920647e-001	-1.355557e-001	9.917696e-001	-1.351587e-001	2.232072e-003	-9.432414e-003
7754851.391	2.535245e-003	-9.944240e-003	9.918923e-001	-1.366797e-001	9.915007e-001	-1.360511e-001	2.160774e-003	-9.378596e-003
7817390.475	2.587609e-003	-9.815048e-003	9.917753e-001	-1.378761e-001	9.914221e-001	-1.374229e-001	2.069155e-003	-9.351257e-003
7879929.559	2.480911e-003	-1.008265e-002	9.915238e-001	-1.389575e-001	9.912480e-001	-1.386549e-001	2.170225e-003	-9.437554e-003
7942468.643	2.409499e-003	-1.021839e-002	9.914682e-001	-1.399876e-001	9.911918e-001	-1.396877e-001	2.124149e-003	-9.690338e-003
8005007.727	2.493043e-003	-1.026504e-002	9.912147e-001	-1.411653e-001	9.910442e-001	-1.407620e-001	2.012313e-003	-9.538119e-003
8067546.811	2.315259e-003	-1.029523e-002	9.910903e-001	-1.421993e-001	9.907390e-001	-1.417644e-001	1.895437e-003	-9.840406e-003
8130085.894	2.362040e-003	-1.044012e-002	9.908673e-001	-1.432283e-001	9.907090e-001	-1.429199e-001	2.093365e-003	-9.959181e-003
8192624.978	2.179434e-003	-1.059395e-002	9.905761e-001	-1.444593e-001	9.904957e-001	-1.439617e-001	2.120362e-003	-1.006156e-002
8255164.062	2.269564e-003	-1.064823e-002	9.905630e-001	-1.455025e-001	9.902935e-001	-1.450980e-001	2.066591e-003	-1.017541e-002
8317703.146	2.136811e-003	-1.061512e-002	9.904633e-001	-1.466066e-001	9.902620e-001	-1.461662e-001	1.849619e-003	-1.020263e-002
8380242.230	2.222200e-003	-1.092895e-002	9.901168e-001	-1.477911e-001	9.899581e-001	-1.472235e-001	1.795042e-003	-1.034838e-002
8442781.313	2.170853e-003	-1.096933e-002	9.902186e-001	-1.487521e-001	9.898593e-001	-1.482929e-001	1.749709e-003	-1.050552e-002
8505320.397	2.124934e-003	-1.091507e-002	9.899807e-001	-1.499322e-001	9.896742e-001	-1.494182e-001	1.676586e-003	-1.053065e-002
8567859.481	2.041322e-003	-1.083588e-002	9.897278e-001	-1.508460e-001	9.895763e-001	-1.504651e-001	1.669719e-003	-1.044324e-002
8630398.565	2.109965e-003	-1.096782e-002	9.894363e-001	-1.519153e-001	9.894223e-001	-1.515254e-001	1.533588e-003	-1.078065e-002
8692937.649	2.028746e-003	-1.126743e-002	9.893274e-001	-1.529990e-001	9.890553e-001	-1.526657e-001	1.437390e-003	-1.075753e-002
8755476.732	2.006930e-003	-1.127601e-002	9.892101e-001	-1.542476e-001	9.889200e-001	-1.536488e-001	1.469017e-003	-1.082282e-002
8818015.816	1.853007e-003	-1.139443e-002	9.889304e-001	-1.552679e-001	9.886042e-001	-1.548169e-001	1.553902e-003	-1.098591e-002
8880554.900	2.043246e-003	-1.143360e-002	9.889311e-001	-1.564135e-001	9.887399e-001	-1.557563e-001	1.394597e-003	-1.123035e-002
8943093.984	1.841007e-003	-1.140753e-002	9.886929e-001	-1.573961e-001	9.885470e-001	-1.569022e-001	1.381086e-003	-1.124474e-002
9005633.068	1.877036e-003	-1.157839e-002	9.884017e-001	-1.585745e-001	9.884324e-001	-1.581146e-001	1.254162e-003	-1.145836e-002
9068172.151	1.688868e-003	-1.165543e-002	9.883869e-001	-1.596916e-001	9.880944e-001	-1.590670e-001	1.264795e-003	-1.149470e-002
9130711.235	1.866691e-003	-1.182322e-002	9.881061e-001	-1.607801e-001	9.879358e-001	-1.601367e-001	1.274916e-003	-1.177356e-002
9193250.319	1.820710e-003	-1.191355e-002	9.880602e-001	-1.616952e-001	9.877325e-001	-1.613337e-001	1.170953e-003	-1.176634e-002
9255789.403	1.684388e-003	-1.215975e-002	9.878846e-001	-1.626790e-001	9.875739e-001	-1.623430e-001	9.953262e-004	-1.180334e-002
9318328.487	1.611159e-003	-1.213781e-002	9.876689e-001	-1.640538e-001	9.875466e-001	-1.633993e-001	1.067282e-003	-1.187393e-002
9380867.570	1.577891e-003	-1.210526e-002	9.875534e-001	-1.651499e-001	9.871713e-001	-1.646703e-001	1.044070e-003	-1.197753e-002
9443406.654	1.591648e-003	-1.218494e-002	9.873610e-001	-1.661093e-001	9.871552e-001	-1.657589e-001	1.039047e-003	-1.212224e-002
9505945.738	1.528878e-003	-1.224713e-002	9.869893e-001	-1.673918e-001	9.870042e-001	-1.668452e-001	9.544228e-004	-1.221729e-002
9568484.822	1.552753e-003	-1.236058e-002	9.869542e-001	-1.684053e-001	9.865848e-001	-1.679260e-001	7.100646e-004	-1.206400e-002
