!Agilent Technologies,E5061B,MY49102235,A.02.00
!Date: Tue Jul 11 17:10:05 2023
!Data & Calibration Information:
!Freq	S11:SOLT2(ON)	S21:SOLT2(ON)	S12:SOLT2(ON)	S22:SOLT2(ON)
# Hz S RI R 50
5.000	-5.178847e-003	-5.642493e-003	1.002365e+000	7.961307e-003	1.000664e+000	1.027330e-002	-1.346349e-003	-7.559224e-003
62544.084	5.818956e-003	-4.986803e-004	1.001422e+000	5.610714e-004	1.000822e+000	1.233753e-003	7.695187e-003	-2.885300e-003
125083.168	5.701639e-003	-4.950622e-004	1.001070e+000	-8.163548e-004	1.000681e+000	-8.452263e-004	7.485558e-003	-2.275496e-003
187622.251	5.482637e-003	-3.310297e-004	1.000488e+000	-2.115902e-003	1.000904e+000	-9.432124e-004	7.376889e-003	-2.374847e-003
250161.335	5.305872e-003	-1.918765e-004	1.000667e+000	-3.247111e-003	1.000551e+000	-3.121044e-003	7.261035e-003	-2.029208e-003
312700.419	5.450216e-003	5.356318e-004	1.000903e+000	-3.887053e-003	1.000485e+000	-3.474460e-003	7.796811e-003	-2.347463e-003
375239.503	5.328385e-003	-9.935000e-004	1.001200e+000	-5.241839e-003	1.000610e+000	-4.936441e-003	7.246224e-003	-2.505386e-003
437778.587	5.176739e-003	-6.028242e-004	1.001346e+000	-5.351702e-003	1.001065e+000	-6.004640e-003	6.608316e-003	-2.245362e-003
500317.670	4.619106e-003	-4.781633e-004	1.001298e+000	-7.811972e-003	1.001584e+000	-7.559704e-003	4.824540e-003	-2.054907e-003
562856.754	5.910767e-003	-8.051983e-004	1.001535e+000	-9.351759e-003	1.001000e+000	-9.071927e-003	6.020775e-003	-1.558827e-003
625395.838	5.111070e-003	-6.624445e-004	1.002293e+000	-1.051998e-002	1.002196e+000	-9.950028e-003	6.093973e-003	-1.014601e-003
687934.922	5.172141e-003	-9.950535e-004	1.001308e+000	-1.152205e-002	1.001153e+000	-1.145199e-002	5.753617e-003	-1.489270e-003
750474.006	4.278971e-003	-6.871636e-004	1.001080e+000	-1.107630e-002	1.000782e+000	-1.027937e-002	5.461625e-003	-1.352931e-003
813013.089	4.452798e-003	-6.702464e-004	1.001413e+000	-1.270502e-002	1.000460e+000	-1.210973e-002	4.814865e-003	-1.190636e-003
875552.173	4.193222e-003	-5.109171e-004	1.001411e+000	-1.370332e-002	1.000862e+000	-1.336436e-002	5.619664e-003	-1.581901e-003
938091.257	4.264743e-003	-4.574520e-004	1.001515e+000	-1.523795e-002	1.001031e+000	-1.444467e-002	5.841410e-003	-1.036685e-003
1000630.341	3.722470e-003	-8.121749e-004	1.001149e+000	-1.658313e-002	1.000884e+000	-1.579264e-002	5.087206e-003	-1.738623e-003
1063169.425	4.071877e-003	-9.710731e-004	1.001420e+000	-1.780071e-002	1.000660e+000	-1.667092e-002	4.258089e-003	-2.075380e-003
1125708.508	3.959065e-003	-9.341337e-004	1.001280e+000	-1.912012e-002	1.000706e+000	-1.796550e-002	3.778918e-003	-1.778843e-003
1188247.592	4.493801e-003	-1.391762e-003	1.001356e+000	-2.031259e-002	1.000923e+000	-1.912358e-002	2.677102e-003	-2.368498e-003
1250786.676	4.323647e-003	-2.149501e-003	1.000899e+000	-2.005028e-002	1.000607e+000	-1.978182e-002	1.938623e-003	-4.037541e-003
1313325.760	4.459522e-003	-2.242640e-003	1.001364e+000	-2.156571e-002	1.000994e+000	-2.143908e-002	2.673552e-003	-3.840245e-003
1375864.844	4.181288e-003	-2.460631e-003	1.001007e+000	-2.352486e-002	1.000468e+000	-2.317466e-002	2.531367e-003	-3.557749e-003
1438403.927	4.074645e-003	-2.623424e-003	1.000921e+000	-2.421127e-002	1.000824e+000	-2.308597e-002	2.601613e-003	-3.312283e-003
1500943.011	4.286392e-003	-2.557581e-003	1.001592e+000	-2.510411e-002	1.001395e+000	-2.450466e-002	2.974513e-003	-3.723964e-003
1563482.095	4.293234e-003	-2.944658e-003	1.001129e+000	-2.649655e-002	1.000422e+000	-2.529728e-002	3.098087e-003	-3.525574e-003
1626021.179	4.093161e-003	-2.824279e-003	1.001057e+000	-2.774651e-002	1.000867e+000	-2.778775e-002	3.371508e-003	-3.586965e-003
1688560.263	3.810331e-003	-2.769304e-003	1.000792e+000	-2.958841e-002	1.001312e+000	-2.905584e-002	3.540008e-003	-3.617547e-003
1751099.346	3.936136e-003	-2.682030e-003	1.001285e+000	-3.060594e-002	1.000642e+000	-2.954015e-002	3.357722e-003	-2.786996e-003
1813638.430	3.572322e-003	-2.747691e-003	1.001484e+000	-3.214081e-002	1.001013e+000	-3.139238e-002	3.529921e-003	-3.169299e-003
1876177.514	3.604412e-003	-2.457829e-003	1.001932e+000	-3.302366e-002	1.001280e+000	-3.296038e-002	3.189444e-003	-2.505707e-003
1938716.598	3.060756e-003	-2.388212e-003	1.002147e+000	-3.374091e-002	1.001338e+000	-3.281946e-002	3.354489e-003	-2.125464e-003
2001255.682	2.974264e-003	-2.872291e-003	1.001989e+000	-3.528003e-002	1.001232e+000	-3.456127e-002	3.132680e-003	-2.610498e-003
2063794.765	3.051986e-003	-2.504294e-003	1.001639e+000	-3.612116e-002	1.000803e+000	-3.606834e-002	3.492780e-003	-2.701197e-003
2126333.849	2.601881e-003	-3.045733e-003	1.001082e+000	-3.755860e-002	1.000077e+000	-3.645721e-002	3.766732e-003	-2.468656e-003
2188872.933	3.089547e-003	-3.042148e-003	1.000889e+000	-3.866793e-002	1.000056e+000	-3.750944e-002	3.645879e-003	-2.520738e-003
2251412.017	3.185132e-003	-3.426346e-003	1.000629e+000	-4.020437e-002	1.000174e+000	-3.851958e-002	3.623676e-003	-2.659028e-003
2313951.101	3.500279e-003	-3.021089e-003	1.000074e+000	-4.117372e-002	1.000159e+000	-3.942033e-002	3.935701e-003	-2.729798e-003
2376490.184	3.246864e-003	-3.064284e-003	9.998947e-001	-4.149109e-002	1.000116e+000	-4.140099e-002	3.893573e-003	-2.743401e-003
2439029.268	3.690650e-003	-3.111611e-003	9.999158e-001	-4.325821e-002	9.992516e-001	-4.247647e-002	3.549555e-003	-2.661092e-003
2501568.352	3.661856e-003	-3.121778e-003	9.996308e-001	-4.348034e-002	1.000223e+000	-4.294325e-002	3.847235e-003	-2.688506e-003
2564107.436	3.576593e-003	-3.283619e-003	1.000057e+000	-4.515746e-002	9.998904e-001	-4.458800e-002	3.144588e-003	-3.084468e-003
2626646.520	4.062760e-003	-3.489366e-003	9.997800e-001	-4.632570e-002	9.988584e-001	-4.567763e-002	3.405074e-003	-3.166565e-003
2689185.604	4.011704e-003	-3.338961e-003	1.000207e+000	-4.699393e-002	9.995497e-001	-4.642925e-002	3.526420e-003	-3.122700e-003
2751724.687	4.121887e-003	-3.446838e-003	1.000031e+000	-4.787046e-002	9.994997e-001	-4.731490e-002	3.134362e-003	-3.189457e-003
2814263.771	4.064352e-003	-3.534460e-003	9.990481e-001	-4.967083e-002	9.992089e-001	-4.855756e-002	3.098329e-003	-3.331506e-003
2876802.855	4.013839e-003	-3.757756e-003	9.992260e-001	-5.097952e-002	9.991843e-001	-4.963691e-002	3.175802e-003	-3.216923e-003
2939341.939	4.135339e-003	-3.695810e-003	9.998164e-001	-5.156528e-002	9.991059e-001	-5.112832e-002	3.079267e-003	-3.339541e-003
3001881.023	4.052949e-003	-3.713121e-003	9.994854e-001	-5.254547e-002	9.989474e-001	-5.212949e-002	3.151523e-003	-3.500734e-003
3064420.106	4.102478e-003	-3.779444e-003	1.000042e+000	-5.367598e-002	9.990121e-001	-5.326959e-002	2.989319e-003	-3.641872e-003
3126959.190	4.297342e-003	-3.901613e-003	9.995393e-001	-5.488615e-002	9.991848e-001	-5.435945e-002	3.164500e-003	-3.733263e-003
3189498.274	4.263564e-003	-3.904361e-003	9.994590e-001	-5.587162e-002	9.990928e-001	-5.543939e-002	3.157203e-003	-3.807104e-003
3252037.358	4.178204e-003	-4.277749e-003	9.995672e-001	-5.702398e-002	9.991463e-001	-5.649321e-002	3.095664e-003	-3.786318e-003
3314576.442	4.187034e-003	-4.148344e-003	9.994266e-001	-5.800853e-002	9.990515e-001	-5.764496e-002	3.147907e-003	-3.924276e-003
3377115.525	4.152461e-003	-4.170166e-003	9.992535e-001	-5.901726e-002	9.987369e-001	-5.882183e-002	2.979488e-003	-4.100268e-003
3439654.609	4.162948e-003	-4.275658e-003	9.990547e-001	-6.018233e-002	9.990098e-001	-5.984298e-002	3.004426e-003	-3.946416e-003
3502193.693	4.117904e-003	-4.618010e-003	9.990379e-001	-6.140535e-002	9.987067e-001	-6.080571e-002	3.158899e-003	-4.012822e-003
3564732.777	4.175965e-003	-4.521234e-003	9.991070e-001	-6.241526e-002	9.986947e-001	-6.201631e-002	3.253348e-003	-4.038748e-003
3627271.861	4.000674e-003	-4.690384e-003	9.991129e-001	-6.360311e-002	9.986980e-001	-6.294834e-002	3.009458e-003	-4.297353e-003
3689810.944	3.909394e-003	-4.855044e-003	9.989406e-001	-6.471067e-002	9.986389e-001	-6.402430e-002	3.172018e-003	-4.319606e-003
3752350.028	4.018012e-003	-4.870214e-003	9.988108e-001	-6.554160e-002	9.984017e-001	-6.510382e-002	3.093874e-003	-4.415270e-003
3814889.112	4.102335e-003	-4.791511e-003	9.986558e-001	-6.671750e-002	9.986150e-001	-6.647469e-002	3.008562e-003	-4.591387e-003
3877428.196	4.052860e-003	-4.827009e-003	9.987807e-001	-6.787396e-002	9.984841e-001	-6.735117e-002	3.329583e-003	-4.648835e-003
3939967.280	4.012887e-003	-5.165230e-003	9.987166e-001	-6.905039e-002	9.984806e-001	-6.845482e-002	3.303724e-003	-4.596105e-003
4002506.363	4.089396e-003	-5.095546e-003	9.986638e-001	-7.005457e-002	9.983936e-001	-6.941734e-002	3.252058e-003	-4.733383e-003
4065045.447	3.897373e-003	-5.242692e-003	9.984139e-001	-7.122239e-002	9.981778e-001	-7.063041e-002	3.320482e-003	-4.903146e-003
4127584.531	3.861488e-003	-5.315049e-003	9.983527e-001	-7.228138e-002	9.981373e-001	-7.163085e-002	3.335645e-003	-4.855834e-003
4190123.615	3.895944e-003	-5.356369e-003	9.983383e-001	-7.355003e-002	9.979755e-001	-7.288790e-002	3.242626e-003	-5.142857e-003
4252662.699	3.852451e-003	-5.498413e-003	9.983756e-001	-7.464246e-002	9.978458e-001	-7.406534e-002	3.339894e-003	-5.171264e-003
4315201.782	3.978988e-003	-5.605180e-003	9.982624e-001	-7.552932e-002	9.980548e-001	-7.521601e-002	3.146799e-003	-5.446278e-003
4377740.866	3.876633e-003	-5.702318e-003	9.982415e-001	-7.673923e-002	9.977472e-001	-7.628865e-002	3.321084e-003	-5.207469e-003
4440279.950	3.772467e-003	-5.919084e-003	9.981428e-001	-7.767601e-002	9.975696e-001	-7.724224e-002	3.204284e-003	-5.454562e-003
4502819.034	3.758596e-003	-5.841327e-003	9.977929e-001	-7.890041e-002	9.976136e-001	-7.831384e-002	3.271494e-003	-5.357723e-003
4565358.118	3.669113e-003	-5.968519e-003	9.978001e-001	-7.994297e-002	9.973823e-001	-7.925640e-002	3.277412e-003	-5.537446e-003
4627897.201	3.845107e-003	-5.909208e-003	9.978771e-001	-8.103969e-002	9.974080e-001	-8.029193e-002	3.376412e-003	-5.501797e-003
4690436.285	3.667314e-003	-6.112730e-003	9.978087e-001	-8.217600e-002	9.974045e-001	-8.179773e-002	3.354706e-003	-5.776849e-003
4752975.369	3.655086e-003	-6.186373e-003	9.974749e-001	-8.337418e-002	9.973471e-001	-8.276797e-002	3.187489e-003	-5.897524e-003
4815514.453	3.784893e-003	-6.265820e-003	9.975886e-001	-8.433950e-002	9.972360e-001	-8.397424e-002	3.388639e-003	-5.872734e-003
4878053.537	3.869112e-003	-6.424489e-003	9.975477e-001	-8.542384e-002	9.971400e-001	-8.492544e-002	3.344857e-003	-6.051098e-003
4940592.620	3.593215e-003	-6.466707e-003	9.973355e-001	-8.653596e-002	9.970816e-001	-8.608689e-002	3.096702e-003	-6.159248e-003
5003131.704	3.647018e-003	-6.678863e-003	9.971999e-001	-8.761944e-002	9.970599e-001	-8.692972e-002	3.230843e-003	-6.275121e-003
5065670.788	3.577431e-003	-6.559454e-003	9.971427e-001	-8.881711e-002	9.969188e-001	-8.812427e-002	3.197068e-003	-6.310033e-003
5128209.872	3.689974e-003	-6.766774e-003	9.972046e-001	-8.982473e-002	9.967991e-001	-8.918478e-002	3.152501e-003	-6.601451e-003
5190748.956	3.583858e-003	-6.874357e-003	9.970004e-001	-9.092438e-002	9.967755e-001	-9.045294e-002	3.120946e-003	-6.563481e-003
5253288.039	3.631271e-003	-7.001914e-003	9.969786e-001	-9.204142e-002	9.966673e-001	-9.151756e-002	3.027100e-003	-6.563853e-003
5315827.123	3.591044e-003	-7.146246e-003	9.967439e-001	-9.313176e-002	9.965450e-001	-9.262107e-002	3.001084e-003	-6.744958e-003
5378366.207	3.672626e-003	-7.172763e-003	9.967921e-001	-9.425916e-002	9.964640e-001	-9.387987e-002	2.987674e-003	-6.915819e-003
5440905.291	3.482573e-003	-7.178783e-003	9.967193e-001	-9.533159e-002	9.963559e-001	-9.483628e-002	2.873788e-003	-6.949233e-003
5503444.375	3.687663e-003	-7.419891e-003	9.965768e-001	-9.651004e-002	9.963701e-001	-9.580916e-002	3.057110e-003	-7.116561e-003
5565983.458	3.312815e-003	-7.380881e-003	9.965220e-001	-9.747125e-002	9.962418e-001	-9.685588e-002	2.969303e-003	-7.043652e-003
5628522.542	3.559082e-003	-7.545157e-003	9.964360e-001	-9.847284e-002	9.961341e-001	-9.808727e-002	3.008924e-003	-7.246729e-003
5691061.626	3.615798e-003	-7.796664e-003	9.962447e-001	-9.978425e-002	9.959991e-001	-9.923958e-002	2.895318e-003	-7.282746e-003
5753600.710	3.453015e-003	-7.808589e-003	9.960863e-001	-1.007507e-001	9.959081e-001	-1.002409e-001	2.931421e-003	-7.505709e-003
5816139.794	3.533475e-003	-7.699468e-003	9.960945e-001	-1.018747e-001	9.956764e-001	-1.015324e-001	2.783463e-003	-7.545817e-003
5878678.877	3.442718e-003	-8.019312e-003	9.959696e-001	-1.030334e-001	9.956249e-001	-1.025287e-001	2.884355e-003	-7.762595e-003
5941217.961	3.406872e-003	-8.183072e-003	9.957868e-001	-1.041878e-001	9.955467e-001	-1.034013e-001	2.677573e-003	-7.759496e-003
6003757.045	3.239195e-003	-8.041856e-003	9.955340e-001	-1.051197e-001	9.953993e-001	-1.044851e-001	2.800561e-003	-7.859392e-003
6066296.129	3.370018e-003	-8.320661e-003	9.956574e-001	-1.062290e-001	9.953233e-001	-1.055904e-001	2.746115e-003	-7.982076e-003
6128835.213	3.453696e-003	-8.389033e-003	9.955057e-001	-1.070153e-001	9.954022e-001	-1.068238e-001	2.836730e-003	-8.078201e-003
6191374.296	3.384769e-003	-8.507426e-003	9.953625e-001	-1.084027e-001	9.949999e-001	-1.079908e-001	2.678937e-003	-8.076400e-003
6253913.380	3.276868e-003	-8.480226e-003	9.952550e-001	-1.095493e-001	9.949959e-001	-1.089674e-001	2.531156e-003	-8.059961e-003
6316452.464	3.224531e-003	-8.487919e-003	9.951584e-001	-1.105104e-001	9.947562e-001	-1.102489e-001	2.574303e-003	-8.368737e-003
6378991.548	3.187224e-003	-8.736345e-003	9.950266e-001	-1.119146e-001	9.948583e-001	-1.112438e-001	2.616133e-003	-8.571816e-003
6441530.632	3.123472e-003	-8.905407e-003	9.948467e-001	-1.126964e-001	9.946469e-001	-1.124706e-001	2.637860e-003	-8.564548e-003
6504069.715	3.082524e-003	-9.019402e-003	9.947129e-001	-1.140885e-001	9.946518e-001	-1.134446e-001	2.644612e-003	-8.651620e-003
6566608.799	3.230601e-003	-9.166124e-003	9.947519e-001	-1.152106e-001	9.943975e-001	-1.145848e-001	2.532810e-003	-8.552376e-003
6629147.883	3.171349e-003	-9.121595e-003	9.944974e-001	-1.159434e-001	9.942768e-001	-1.156959e-001	2.596201e-003	-8.793980e-003
6691686.967	3.028975e-003	-9.194516e-003	9.943037e-001	-1.171851e-001	9.940985e-001	-1.167431e-001	2.622146e-003	-8.789706e-003
6754226.051	2.949282e-003	-9.314083e-003	9.941676e-001	-1.183701e-001	9.938405e-001	-1.179906e-001	2.397605e-003	-9.096012e-003
6816765.134	3.042022e-003	-9.411773e-003	9.941196e-001	-1.193560e-001	9.938593e-001	-1.189507e-001	2.438772e-003	-8.983548e-003
6879304.218	2.918833e-003	-9.654162e-003	9.939531e-001	-1.205033e-001	9.937510e-001	-1.200315e-001	2.403917e-003	-9.135858e-003
6941843.302	2.978628e-003	-9.589421e-003	9.938149e-001	-1.216234e-001	9.936000e-001	-1.210725e-001	2.389713e-003	-9.158522e-003
7004382.386	2.757725e-003	-9.614028e-003	9.937631e-001	-1.226271e-001	9.934236e-001	-1.221506e-001	2.292148e-003	-9.210207e-003
7066921.470	2.842526e-003	-9.759056e-003	9.935092e-001	-1.238700e-001	9.933859e-001	-1.230861e-001	2.443897e-003	-9.448470e-003
7129460.553	2.722798e-003	-9.959848e-003	9.934569e-001	-1.247405e-001	9.932052e-001	-1.243308e-001	2.427815e-003	-9.495884e-003
7191999.637	2.688215e-003	-9.818253e-003	9.930857e-001	-1.259692e-001	9.929283e-001	-1.253891e-001	2.247832e-003	-9.569572e-003
7254538.721	2.723877e-003	-1.001909e-002	9.932972e-001	-1.270847e-001	9.929699e-001	-1.265658e-001	2.268773e-003	-9.652735e-003
7317077.805	2.881452e-003	-1.014115e-002	9.930750e-001	-1.280447e-001	9.928166e-001	-1.275558e-001	2.253279e-003	-9.839983e-003
7379616.889	2.717080e-003	-1.021623e-002	9.930624e-001	-1.293684e-001	9.926098e-001	-1.286829e-001	2.174956e-003	-9.908735e-003
7442155.972	2.547645e-003	-1.031452e-002	9.927610e-001	-1.302536e-001	9.925005e-001	-1.297160e-001	2.238990e-003	-9.782318e-003
7504695.056	2.567771e-003	-1.049106e-002	9.925149e-001	-1.312674e-001	9.922572e-001	-1.309762e-001	2.244134e-003	-9.800852e-003
7567234.140	2.733324e-003	-1.065282e-002	9.925163e-001	-1.323492e-001	9.921312e-001	-1.319826e-001	2.153540e-003	-9.995606e-003
7629773.224	2.604609e-003	-1.044198e-002	9.924007e-001	-1.336144e-001	9.921164e-001	-1.330274e-001	2.054925e-003	-1.012707e-002
7692312.308	2.447476e-003	-1.060027e-002	9.922214e-001	-1.346859e-001	9.918646e-001	-1.341903e-001	2.096299e-003	-1.031541e-002
7754851.391	2.408483e-003	-1.085203e-002	9.920363e-001	-1.357998e-001	9.915779e-001	-1.350858e-001	2.010927e-003	-1.026230e-002
7817390.475	2.469938e-003	-1.072376e-002	9.919280e-001	-1.370429e-001	9.915492e-001	-1.364044e-001	1.908005e-003	-1.023761e-002
7879929.559	2.363389e-003	-1.099261e-002	9.917029e-001	-1.380993e-001	9.913405e-001	-1.376874e-001	2.011788e-003	-1.033932e-002
7942468.643	2.282589e-003	-1.113534e-002	9.916236e-001	-1.390901e-001	9.913410e-001	-1.386995e-001	1.967085e-003	-1.059184e-002
8005007.727	2.366891e-003	-1.119077e-002	9.913781e-001	-1.402295e-001	9.912172e-001	-1.397827e-001	1.858292e-003	-1.046054e-002
8067546.811	2.186995e-003	-1.123830e-002	9.912751e-001	-1.413171e-001	9.908895e-001	-1.407736e-001	1.746182e-003	-1.075173e-002
8130085.894	2.233873e-003	-1.139103e-002	9.911009e-001	-1.423029e-001	9.908021e-001	-1.419277e-001	1.934167e-003	-1.088907e-002
8192624.978	2.056345e-003	-1.154227e-002	9.907703e-001	-1.435428e-001	9.906509e-001	-1.429620e-001	1.960570e-003	-1.098425e-002
8255164.062	2.143529e-003	-1.161191e-002	9.907437e-001	-1.445878e-001	9.904325e-001	-1.441101e-001	1.893354e-003	-1.110792e-002
8317703.146	1.997220e-003	-1.156989e-002	9.906214e-001	-1.456678e-001	9.903614e-001	-1.451729e-001	1.687057e-003	-1.114643e-002
8380242.230	2.100830e-003	-1.190979e-002	9.903166e-001	-1.468769e-001	9.900957e-001	-1.461920e-001	1.630776e-003	-1.129783e-002
8442781.313	2.039868e-003	-1.195971e-002	9.903986e-001	-1.478468e-001	9.900230e-001	-1.472657e-001	1.588115e-003	-1.146163e-002
8505320.397	1.979431e-003	-1.190370e-002	9.901662e-001	-1.489840e-001	9.898053e-001	-1.484093e-001	1.496293e-003	-1.149204e-002
8567859.481	1.907465e-003	-1.183776e-002	9.899458e-001	-1.498824e-001	9.897277e-001	-1.494584e-001	1.510447e-003	-1.140032e-002
8630398.565	1.963710e-003	-1.197041e-002	9.896181e-001	-1.509745e-001	9.895366e-001	-1.504643e-001	1.360728e-003	-1.175788e-002
8692937.649	1.873971e-003	-1.226898e-002	9.895292e-001	-1.520535e-001	9.892093e-001	-1.516097e-001	1.261161e-003	-1.174651e-002
8755476.732	1.861009e-003	-1.229667e-002	9.894112e-001	-1.532550e-001	9.891095e-001	-1.526180e-001	1.309332e-003	-1.180687e-002
8818015.816	1.708805e-003	-1.242510e-002	9.891832e-001	-1.543051e-001	9.887608e-001	-1.537642e-001	1.382197e-003	-1.198243e-002
8880554.900	1.897034e-003	-1.246059e-002	9.891515e-001	-1.554517e-001	9.888854e-001	-1.547040e-001	1.214180e-003	-1.224177e-002
8943093.984	1.675577e-003	-1.245024e-002	9.888837e-001	-1.564285e-001	9.886980e-001	-1.557965e-001	1.195403e-003	-1.225474e-002
9005633.068	1.713042e-003	-1.262681e-002	9.886236e-001	-1.575824e-001	9.885755e-001	-1.570213e-001	1.068746e-003	-1.247764e-002
9068172.151	1.525098e-003	-1.270716e-002	9.886044e-001	-1.586698e-001	9.882576e-001	-1.579694e-001	1.077733e-003	-1.251854e-002
9130711.235	1.713323e-003	-1.287357e-002	9.883410e-001	-1.597296e-001	9.881413e-001	-1.590356e-001	1.087996e-003	-1.279993e-002
9193250.319	1.670855e-003	-1.298204e-002	9.882693e-001	-1.606689e-001	9.879033e-001	-1.602291e-001	9.783387e-004	-1.280552e-002
9255789.403	1.517807e-003	-1.322679e-002	9.881285e-001	-1.616814e-001	9.877259e-001	-1.612139e-001	8.115799e-004	-1.284267e-002
9318328.487	1.436510e-003	-1.321716e-002	9.879056e-001	-1.630355e-001	9.877032e-001	-1.622844e-001	8.853181e-004	-1.292280e-002
9380867.570	1.421773e-003	-1.318297e-002	9.877948e-001	-1.640984e-001	9.873918e-001	-1.635412e-001	8.401107e-004	-1.303320e-002
9443406.654	1.428510e-003	-1.328837e-002	9.875774e-001	-1.650715e-001	9.873605e-001	-1.646335e-001	8.404884e-004	-1.320133e-002
9505945.738	1.371908e-003	-1.334052e-002	9.872254e-001	-1.663266e-001	9.871913e-001	-1.656991e-001	7.557666e-004	-1.328995e-002
9568484.822	1.375381e-003	-1.348655e-002	9.871754e-001	-1.673611e-001	9.867799e-001	-1.667656e-001	5.208034e-004	-1.313354e-002
