!Agilent Technologies,E5061B,MY49102235,A.02.00
!Date: Tue Jul 11 17:05:03 2023
!Data & Calibration Information:
!Freq	S11:SOLT2(ON)	S21:SOLT2(ON)	S12:SOLT2(ON)	S22:SOLT2(ON)
# Hz S RI R 50
5.000	-5.245716e-003	-5.633903e-003	1.002257e+000	8.001363e-003	1.000681e+000	1.022669e-002	-1.473245e-003	-7.536407e-003
62544.084	5.832280e-003	-3.415436e-004	1.001396e+000	4.643841e-004	1.000722e+000	1.169976e-003	7.702886e-003	-2.730632e-003
125083.168	5.693275e-003	-1.956538e-004	1.001064e+000	-1.089380e-003	1.000670e+000	-1.122716e-003	7.492588e-003	-1.979715e-003
187622.251	5.468186e-003	1.178556e-004	1.000530e+000	-2.591591e-003	1.001025e+000	-1.459414e-003	7.368684e-003	-1.940786e-003
250161.335	5.312304e-003	3.981341e-004	1.000629e+000	-3.739904e-003	1.000675e+000	-3.769652e-003	7.250137e-003	-1.438223e-003
312700.419	5.466572e-003	1.293885e-003	1.000829e+000	-4.667952e-003	1.000565e+000	-4.384084e-003	7.776381e-003	-1.597034e-003
375239.503	5.347048e-003	-8.620957e-005	1.001033e+000	-6.188691e-003	1.000531e+000	-5.784716e-003	7.259572e-003	-1.632310e-003
437778.587	5.201018e-003	4.453151e-004	1.001291e+000	-6.329829e-003	1.000962e+000	-7.221023e-003	6.629302e-003	-1.182770e-003
500317.670	4.616147e-003	7.160078e-004	1.001371e+000	-9.031901e-003	1.001720e+000	-8.740117e-003	4.808113e-003	-8.833689e-004
562856.754	5.939459e-003	5.395647e-004	1.001477e+000	-1.070567e-002	1.000981e+000	-1.043451e-002	6.044394e-003	-2.369974e-004
625395.838	5.137167e-003	8.255724e-004	1.002327e+000	-1.207898e-002	1.002071e+000	-1.141184e-002	6.140560e-003	4.621484e-004
687934.922	5.196583e-003	6.371536e-004	1.001348e+000	-1.307326e-002	1.001243e+000	-1.308285e-002	5.783550e-003	1.418379e-004
750474.006	4.328975e-003	1.098095e-003	1.001109e+000	-1.256682e-002	1.000578e+000	-1.207912e-002	5.496382e-003	4.251674e-004
813013.089	4.510609e-003	1.259031e-003	1.001442e+000	-1.470775e-002	1.000364e+000	-1.409556e-002	4.874973e-003	7.356565e-004
875552.173	4.249225e-003	1.570374e-003	1.001331e+000	-1.576460e-002	1.000757e+000	-1.539735e-002	5.662649e-003	4.868100e-004
938091.257	4.349207e-003	1.775279e-003	1.001421e+000	-1.732598e-002	1.000963e+000	-1.678763e-002	5.911808e-003	1.186004e-003
1000630.341	3.791710e-003	1.564002e-003	1.000983e+000	-1.893651e-002	1.000778e+000	-1.827565e-002	5.152866e-003	6.358705e-004
1063169.425	4.146554e-003	1.560557e-003	1.001340e+000	-2.037437e-002	1.000531e+000	-1.935075e-002	4.337313e-003	4.439028e-004
1125708.508	4.031890e-003	1.725263e-003	1.001020e+000	-2.179540e-002	1.000606e+000	-2.069018e-002	3.875883e-003	8.861435e-004
1188247.592	4.572272e-003	1.413096e-003	1.001164e+000	-2.293862e-002	1.000806e+000	-2.195096e-002	2.756182e-003	4.603339e-004
1250786.676	4.423501e-003	8.165588e-004	1.000825e+000	-2.306934e-002	1.000610e+000	-2.275975e-002	2.025443e-003	-1.048489e-003
1313325.760	4.554870e-003	8.696259e-004	1.001200e+000	-2.467846e-002	1.000712e+000	-2.455366e-002	2.766327e-003	-7.108971e-004
1375864.844	4.285992e-003	8.036582e-004	1.000898e+000	-2.680685e-002	1.000290e+000	-2.650106e-002	2.640102e-003	-2.967327e-004
1438403.927	4.198968e-003	7.841345e-004	1.000780e+000	-2.759169e-002	1.000701e+000	-2.671683e-002	2.729743e-003	1.030470e-004
1500943.011	4.422602e-003	9.908495e-004	1.001453e+000	-2.864394e-002	1.001170e+000	-2.828992e-002	3.080536e-003	-1.731051e-004
1563482.095	4.436437e-003	7.474966e-004	1.001086e+000	-3.017671e-002	1.000437e+000	-2.891762e-002	3.225272e-003	1.831854e-004
1626021.179	4.248986e-003	1.027941e-003	1.000870e+000	-3.166105e-002	1.000924e+000	-3.177954e-002	3.521206e-003	2.736210e-004
1688560.263	3.958690e-003	1.224842e-003	1.000491e+000	-3.329229e-002	1.001188e+000	-3.308796e-002	3.697793e-003	3.899601e-004
1751099.346	4.104358e-003	1.468876e-003	1.001142e+000	-3.463238e-002	1.000462e+000	-3.385426e-002	3.520571e-003	1.361219e-003
1813638.430	3.757193e-003	1.559527e-003	1.001394e+000	-3.634411e-002	1.000800e+000	-3.581324e-002	3.706232e-003	1.114433e-003
1876177.514	3.797428e-003	1.982232e-003	1.001743e+000	-3.734297e-002	1.001028e+000	-3.751459e-002	3.387823e-003	1.932598e-003
1938716.598	3.272598e-003	2.207156e-003	1.001784e+000	-3.833231e-002	1.001106e+000	-3.751437e-002	3.576271e-003	2.454210e-003
2001255.682	3.192429e-003	1.869676e-003	1.001794e+000	-3.993462e-002	1.001088e+000	-3.929770e-002	3.349219e-003	2.136282e-003
2063794.765	3.286614e-003	2.370041e-003	1.001247e+000	-4.097558e-002	1.000389e+000	-4.110158e-002	3.731239e-003	2.182936e-003
2126333.849	2.849481e-003	1.997442e-003	1.000869e+000	-4.260780e-002	9.998978e-001	-4.174988e-002	4.018153e-003	2.562001e-003
2188872.933	3.326491e-003	2.122837e-003	1.000515e+000	-4.375852e-002	9.998991e-001	-4.273486e-002	3.902175e-003	2.657508e-003
2251412.017	3.439499e-003	1.906656e-003	1.000302e+000	-4.545096e-002	9.998724e-001	-4.401202e-002	3.900609e-003	2.672522e-003
2313951.101	3.789682e-003	2.468370e-003	9.998163e-001	-4.651769e-002	9.999648e-001	-4.505726e-002	4.213980e-003	2.745775e-003
2376490.184	3.542183e-003	2.558134e-003	9.996598e-001	-4.705625e-002	9.999719e-001	-4.710964e-002	4.199847e-003	2.875315e-003
2439029.268	4.012291e-003	2.660269e-003	9.996546e-001	-4.903974e-002	9.989750e-001	-4.828983e-002	3.870266e-003	3.120119e-003
2501568.352	3.995613e-003	2.794747e-003	9.993694e-001	-4.927746e-002	9.998049e-001	-4.900554e-002	4.179781e-003	3.217370e-003
2564107.436	3.905620e-003	2.765681e-003	9.995632e-001	-5.119414e-002	9.997347e-001	-5.065630e-002	3.491029e-003	2.981363e-003
2626646.520	4.414271e-003	2.717722e-003	9.994493e-001	-5.247665e-002	9.984987e-001	-5.198475e-002	3.781098e-003	3.052364e-003
2689185.604	4.374738e-003	3.013993e-003	9.998071e-001	-5.338183e-002	9.991349e-001	-5.296748e-002	3.905260e-003	3.217002e-003
2751724.687	4.512916e-003	3.044751e-003	9.996067e-001	-5.431111e-002	9.990899e-001	-5.388289e-002	3.521304e-003	3.326926e-003
2814263.771	4.483726e-003	3.094682e-003	9.987509e-001	-5.624123e-002	9.987660e-001	-5.518098e-002	3.500840e-003	3.330001e-003
2876802.855	4.436054e-003	3.026788e-003	9.987159e-001	-5.778808e-002	9.988192e-001	-5.648772e-002	3.603523e-003	3.585521e-003
2939341.939	4.580435e-003	3.248394e-003	9.993096e-001	-5.844387e-002	9.987199e-001	-5.823549e-002	3.528230e-003	3.605910e-003
3001881.023	4.519818e-003	3.391822e-003	9.990636e-001	-5.980680e-002	9.985285e-001	-5.942851e-002	3.618220e-003	3.594672e-003
3064420.106	4.573229e-003	3.459854e-003	9.995671e-001	-6.081610e-002	9.985834e-001	-6.038541e-002	3.464422e-003	3.608126e-003
3126959.190	4.784196e-003	3.479603e-003	9.990828e-001	-6.227025e-002	9.987063e-001	-6.184239e-002	3.663584e-003	3.658290e-003
3189498.274	4.788246e-003	3.625126e-003	9.989239e-001	-6.336354e-002	9.986006e-001	-6.311439e-002	3.678807e-003	3.718439e-003
3252037.358	4.717131e-003	3.392824e-003	9.990431e-001	-6.467626e-002	9.986200e-001	-6.424339e-002	3.632821e-003	3.889795e-003
3314576.442	4.743230e-003	3.665854e-003	9.988785e-001	-6.583279e-002	9.985257e-001	-6.551569e-002	3.708037e-003	3.906261e-003
3377115.525	4.727745e-003	3.795572e-003	9.986603e-001	-6.699687e-002	9.982293e-001	-6.692617e-002	3.568617e-003	3.879390e-003
3439654.609	4.748490e-003	3.841556e-003	9.984227e-001	-6.826995e-002	9.984754e-001	-6.809001e-002	3.606590e-003	4.200380e-003
3502193.693	4.720864e-003	3.648055e-003	9.984379e-001	-6.967129e-002	9.981029e-001	-6.916117e-002	3.786329e-003	4.257826e-003
3564732.777	4.795117e-003	3.895075e-003	9.984331e-001	-7.080637e-002	9.980557e-001	-7.054506e-002	3.899563e-003	4.383422e-003
3627271.861	4.648096e-003	3.866729e-003	9.984303e-001	-7.214601e-002	9.981163e-001	-7.163702e-002	3.675894e-003	4.283964e-003
3689810.944	4.571622e-003	3.851541e-003	9.982252e-001	-7.340125e-002	9.979986e-001	-7.286143e-002	3.865947e-003	4.404862e-003
3752350.028	4.711405e-003	3.981996e-003	9.981390e-001	-7.436992e-002	9.977160e-001	-7.405023e-002	3.810183e-003	4.459260e-003
3814889.112	4.842476e-003	4.207895e-003	9.979692e-001	-7.570021e-002	9.978651e-001	-7.559521e-002	3.737986e-003	4.418298e-003
3877428.196	4.798960e-003	4.325465e-003	9.980656e-001	-7.698503e-002	9.977332e-001	-7.660744e-002	4.081002e-003	4.520129e-003
3939967.280	4.785224e-003	4.121874e-003	9.979352e-001	-7.828285e-002	9.977376e-001	-7.787038e-002	4.090683e-003	4.702022e-003
4002506.363	4.872140e-003	4.357275e-003	9.979053e-001	-7.950888e-002	9.975998e-001	-7.897876e-002	4.047493e-003	4.723049e-003
4065045.447	4.707161e-003	4.354946e-003	9.975820e-001	-8.077162e-002	9.973579e-001	-8.031064e-002	4.156108e-003	4.706892e-003
4127584.531	4.699219e-003	4.419204e-003	9.975017e-001	-8.200310e-002	9.973230e-001	-8.150852e-002	4.182957e-003	4.892564e-003
4190123.615	4.753450e-003	4.537867e-003	9.974748e-001	-8.339311e-002	9.971310e-001	-8.291936e-002	4.100496e-003	4.765940e-003
4252662.699	4.732938e-003	4.527477e-003	9.974943e-001	-8.470802e-002	9.969509e-001	-8.423061e-002	4.239980e-003	4.863722e-003
4315201.782	4.894517e-003	4.571785e-003	9.973702e-001	-8.566454e-002	9.971565e-001	-8.549819e-002	4.061330e-003	4.760373e-003
4377740.866	4.823693e-003	4.634772e-003	9.973106e-001	-8.705294e-002	9.968092e-001	-8.675429e-002	4.264025e-003	5.122498e-003
4440279.950	4.728362e-003	4.574636e-003	9.971560e-001	-8.818242e-002	9.966642e-001	-8.783463e-002	4.179182e-003	5.037296e-003
4502819.034	4.744537e-003	4.781071e-003	9.968726e-001	-8.950952e-002	9.966705e-001	-8.907764e-002	4.277574e-003	5.269723e-003
4565358.118	4.672588e-003	4.811511e-003	9.967824e-001	-9.073472e-002	9.963948e-001	-9.014362e-002	4.313289e-003	5.250050e-003
4627897.201	4.883530e-003	5.017021e-003	9.968369e-001	-9.195678e-002	9.963766e-001	-9.139153e-002	4.426208e-003	5.425674e-003
4690436.285	4.738142e-003	4.966602e-003	9.967442e-001	-9.324945e-002	9.963243e-001	-9.300632e-002	4.448050e-003	5.293626e-003
4752975.369	4.754996e-003	5.028861e-003	9.963610e-001	-9.461271e-002	9.962831e-001	-9.412085e-002	4.285899e-003	5.317151e-003
4815514.453	4.902618e-003	5.103558e-003	9.965082e-001	-9.574752e-002	9.961479e-001	-9.544308e-002	4.526675e-003	5.489139e-003
4878053.537	5.010768e-003	5.085196e-003	9.964520e-001	-9.687500e-002	9.959955e-001	-9.653318e-002	4.518555e-003	5.480995e-003
4940592.620	4.785327e-003	5.190776e-003	9.961467e-001	-9.821996e-002	9.959191e-001	-9.788370e-002	4.296755e-003	5.528037e-003
5003131.704	4.857399e-003	5.123701e-003	9.959965e-001	-9.944207e-002	9.958762e-001	-9.887593e-002	4.450151e-003	5.538996e-003
5065670.788	4.794609e-003	5.393429e-003	9.958885e-001	-1.007339e-001	9.956393e-001	-1.001905e-001	4.448582e-003	5.656859e-003
5128209.872	4.966363e-003	5.326231e-003	9.959642e-001	-1.019276e-001	9.955119e-001	-1.014432e-001	4.434315e-003	5.507487e-003
5190748.956	4.884237e-003	5.390888e-003	9.956935e-001	-1.032104e-001	9.954922e-001	-1.028016e-001	4.430114e-003	5.699551e-003
5253288.039	4.957268e-003	5.409782e-003	9.956830e-001	-1.044436e-001	9.953377e-001	-1.040027e-001	4.388633e-003	5.845275e-003
5315827.123	4.943904e-003	5.412380e-003	9.953469e-001	-1.056860e-001	9.951758e-001	-1.052918e-001	4.390981e-003	5.809194e-003
5378366.207	5.060154e-003	5.531259e-003	9.953513e-001	-1.069384e-001	9.950924e-001	-1.067380e-001	4.395196e-003	5.791438e-003
5440905.291	4.897366e-003	5.681669e-003	9.952782e-001	-1.081896e-001	9.950065e-001	-1.078410e-001	4.318759e-003	5.912808e-003
5503444.375	5.130572e-003	5.579144e-003	9.951481e-001	-1.094896e-001	9.949317e-001	-1.089459e-001	4.525388e-003	5.897411e-003
5565983.458	4.816330e-003	5.767099e-003	9.950034e-001	-1.106134e-001	9.947337e-001	-1.101550e-001	4.497724e-003	6.106373e-003
5628522.542	5.089726e-003	5.755467e-003	9.949488e-001	-1.117861e-001	9.946317e-001	-1.115322e-001	4.538327e-003	6.048227e-003
5691061.626	5.163636e-003	5.624579e-003	9.946945e-001	-1.132197e-001	9.944429e-001	-1.128139e-001	4.472840e-003	6.153073e-003
5753600.710	5.043374e-003	5.785673e-003	9.945068e-001	-1.143726e-001	9.943299e-001	-1.139796e-001	4.555140e-003	6.084281e-003
5816139.794	5.175030e-003	6.029510e-003	9.943955e-001	-1.156806e-001	9.940060e-001	-1.154653e-001	4.434332e-003	6.195014e-003
5878678.877	5.094851e-003	5.867179e-003	9.942730e-001	-1.169081e-001	9.940024e-001	-1.165085e-001	4.566572e-003	6.123147e-003
5941217.961	5.109813e-003	5.841214e-003	9.940406e-001	-1.182519e-001	9.938342e-001	-1.176031e-001	4.396826e-003	6.280224e-003
6003757.045	4.992916e-003	6.141840e-003	9.937964e-001	-1.193125e-001	9.937085e-001	-1.188613e-001	4.556800e-003	6.322804e-003
6066296.129	5.140085e-003	5.978395e-003	9.938682e-001	-1.205773e-001	9.935505e-001	-1.200807e-001	4.546638e-003	6.336860e-003
6128835.213	5.250907e-003	6.071388e-003	9.937321e-001	-1.215651e-001	9.935689e-001	-1.214561e-001	4.664634e-003	6.394494e-003
6191374.296	5.214397e-003	6.120993e-003	9.934997e-001	-1.230336e-001	9.931873e-001	-1.227847e-001	4.538803e-003	6.551995e-003
6253913.380	5.175565e-003	6.289535e-003	9.934049e-001	-1.243626e-001	9.931083e-001	-1.238972e-001	4.436019e-003	6.716166e-003
6316452.464	5.161214e-003	6.437004e-003	9.932590e-001	-1.254105e-001	9.928391e-001	-1.253355e-001	4.519915e-003	6.552646e-003
6378991.548	5.158623e-003	6.321494e-003	9.930511e-001	-1.270482e-001	9.929041e-001	-1.264602e-001	4.595027e-003	6.499858e-003
6441530.632	5.102900e-003	6.316511e-003	9.928673e-001	-1.279646e-001	9.926711e-001	-1.278294e-001	4.662041e-003	6.654363e-003
6504069.715	5.124880e-003	6.356154e-003	9.926576e-001	-1.294873e-001	9.926083e-001	-1.289670e-001	4.695049e-003	6.706263e-003
6566608.799	5.296009e-003	6.330385e-003	9.926447e-001	-1.307385e-001	9.923218e-001	-1.302643e-001	4.638341e-003	6.967808e-003
6629147.883	5.274440e-003	6.535483e-003	9.923795e-001	-1.316528e-001	9.921212e-001	-1.314915e-001	4.745116e-003	6.874346e-003
6691686.967	5.174158e-003	6.608520e-003	9.921345e-001	-1.330062e-001	9.919050e-001	-1.326958e-001	4.792594e-003	7.017521e-003
6754226.051	5.149170e-003	6.647999e-003	9.919753e-001	-1.343652e-001	9.916758e-001	-1.341159e-001	4.608149e-003	6.872666e-003
6816765.134	5.273418e-003	6.692241e-003	9.918389e-001	-1.355389e-001	9.916141e-001	-1.351986e-001	4.701206e-003	7.112538e-003
6879304.218	5.189014e-003	6.590412e-003	9.916669e-001	-1.368051e-001	9.914766e-001	-1.364202e-001	4.712525e-003	7.114053e-003
6941843.302	5.289060e-003	6.803029e-003	9.914406e-001	-1.381022e-001	9.912896e-001	-1.376255e-001	4.729765e-003	7.248847e-003
7004382.386	5.120872e-003	6.937892e-003	9.913651e-001	-1.392203e-001	9.910368e-001	-1.388721e-001	4.671611e-003	7.346914e-003
7066921.470	5.235187e-003	6.942435e-003	9.911016e-001	-1.405822e-001	9.909394e-001	-1.399297e-001	4.859543e-003	7.245851e-003
7129460.553	5.160315e-003	6.891836e-003	9.909713e-001	-1.416426e-001	9.907297e-001	-1.413316e-001	4.879966e-003	7.345313e-003
7191999.637	5.179309e-003	7.194320e-003	9.905466e-001	-1.429836e-001	9.904049e-001	-1.425325e-001	4.762485e-003	7.421312e-003
7254538.721	5.260686e-003	7.120109e-003	9.907312e-001	-1.442749e-001	9.904198e-001	-1.438535e-001	4.823612e-003	7.491527e-003
7317077.805	5.451707e-003	7.129642e-003	9.904600e-001	-1.453986e-001	9.902311e-001	-1.450454e-001	4.845050e-003	7.441618e-003
7379616.889	5.344498e-003	7.217198e-003	9.904098e-001	-1.468555e-001	9.899991e-001	-1.462496e-001	4.823835e-003	7.519749e-003
7442155.972	5.214229e-003	7.270041e-003	9.900729e-001	-1.478782e-001	9.898406e-001	-1.474750e-001	4.937145e-003	7.806118e-003
7504695.056	5.283874e-003	7.222543e-003	9.897740e-001	-1.490523e-001	9.894830e-001	-1.488492e-001	4.997704e-003	7.922301e-003
7567234.140	5.483888e-003	7.217985e-003	9.897137e-001	-1.502781e-001	9.893555e-001	-1.500310e-001	4.947666e-003	7.882494e-003
7629773.224	5.425760e-003	7.575322e-003	9.895626e-001	-1.516632e-001	9.893159e-001	-1.512278e-001	4.888467e-003	7.892432e-003
7692312.308	5.308879e-003	7.578805e-003	9.893379e-001	-1.529331e-001	9.890089e-001	-1.525456e-001	4.983195e-003	7.867568e-003
7754851.391	5.313386e-003	7.490440e-003	9.891332e-001	-1.541881e-001	9.886942e-001	-1.535939e-001	4.947744e-003	8.064969e-003
7817390.475	5.436337e-003	7.755249e-003	9.889574e-001	-1.555603e-001	9.885683e-001	-1.551047e-001	4.910412e-003	8.235380e-003
7879929.559	5.357077e-003	7.635681e-003	9.886419e-001	-1.567686e-001	9.883015e-001	-1.564776e-001	5.052916e-003	8.281677e-003
7942468.643	5.331360e-003	7.640302e-003	9.885620e-001	-1.579190e-001	9.882714e-001	-1.576729e-001	5.041446e-003	8.169303e-003
8005007.727	5.462292e-003	7.731084e-003	9.882437e-001	-1.592129e-001	9.880570e-001	-1.588499e-001	4.991997e-003	8.471104e-003
8067546.811	5.346266e-003	7.833994e-003	9.880599e-001	-1.603916e-001	9.876948e-001	-1.600270e-001	4.923573e-003	8.317285e-003
8130085.894	5.441228e-003	7.830435e-003	9.878404e-001	-1.615947e-001	9.875982e-001	-1.612950e-001	5.165166e-003	8.325694e-003
8192624.978	5.291670e-003	7.826363e-003	9.874891e-001	-1.629473e-001	9.873467e-001	-1.625052e-001	5.227110e-003	8.371617e-003
8255164.062	5.448178e-003	7.914201e-003	9.873918e-001	-1.641280e-001	9.871470e-001	-1.637727e-001	5.225125e-003	8.399877e-003
8317703.146	5.346278e-003	8.086783e-003	9.872534e-001	-1.653750e-001	9.870150e-001	-1.650063e-001	5.076626e-003	8.519724e-003
8380242.230	5.484086e-003	7.916400e-003	9.868675e-001	-1.667241e-001	9.866435e-001	-1.661710e-001	5.063474e-003	8.524423e-003
8442781.313	5.488254e-003	8.016755e-003	9.869227e-001	-1.678329e-001	9.865333e-001	-1.674174e-001	5.067426e-003	8.496651e-003
8505320.397	5.498799e-003	8.208947e-003	9.866174e-001	-1.691664e-001	9.862823e-001	-1.686738e-001	5.043910e-003	8.603657e-003
8567859.481	5.479214e-003	8.432805e-003	9.863151e-001	-1.702108e-001	9.861063e-001	-1.698733e-001	5.101938e-003	8.841465e-003
8630398.565	5.590556e-003	8.437475e-003	9.859786e-001	-1.713858e-001	9.858993e-001	-1.710794e-001	5.008599e-003	8.642960e-003
8692937.649	5.551899e-003	8.282216e-003	9.858324e-001	-1.726582e-001	9.854944e-001	-1.723664e-001	4.973530e-003	8.819773e-003
8755476.732	5.597560e-003	8.408199e-003	9.856387e-001	-1.740037e-001	9.853262e-001	-1.734792e-001	5.063718e-003	8.903257e-003
8818015.816	5.497654e-003	8.435483e-003	9.853497e-001	-1.751956e-001	9.849201e-001	-1.748124e-001	5.198053e-003	8.853232e-003
8880554.900	5.746831e-003	8.530248e-003	9.852596e-001	-1.764846e-001	9.849763e-001	-1.758796e-001	5.071801e-003	8.772410e-003
8943093.984	5.594033e-003	8.695950e-003	9.849400e-001	-1.776017e-001	9.847620e-001	-1.771523e-001	5.115018e-003	8.890209e-003
9005633.068	5.671450e-003	8.660739e-003	9.846226e-001	-1.789218e-001	9.846103e-001	-1.784764e-001	5.038060e-003	8.818673e-003
9068172.151	5.544315e-003	8.739099e-003	9.845403e-001	-1.801641e-001	9.842137e-001	-1.796130e-001	5.122378e-003	8.923248e-003
9130711.235	5.790486e-003	8.712223e-003	9.842016e-001	-1.814026e-001	9.840121e-001	-1.808291e-001	5.167179e-003	8.801675e-003
9193250.319	5.789543e-003	8.746466e-003	9.840862e-001	-1.824727e-001	9.837249e-001	-1.821629e-001	5.132453e-003	8.945625e-003
9255789.403	5.709755e-003	8.661653e-003	9.838937e-001	-1.836054e-001	9.835126e-001	-1.833000e-001	5.027395e-003	9.068313e-003
9318328.487	5.693285e-003	8.821260e-003	9.835936e-001	-1.850908e-001	9.834211e-001	-1.845362e-001	5.153286e-003	9.121377e-003
9380867.570	5.736879e-003	8.993676e-003	9.833983e-001	-1.863464e-001	9.829937e-001	-1.858988e-001	5.166997e-003	9.161772e-003
9443406.654	5.811483e-003	9.042917e-003	9.831554e-001	-1.874876e-001	9.829143e-001	-1.871504e-001	5.219151e-003	9.142627e-003
9505945.738	5.807773e-003	9.131519e-003	9.827161e-001	-1.888779e-001	9.827199e-001	-1.883558e-001	5.209497e-003	9.200803e-003
9568484.822	5.877805e-003	9.151220e-003	9.826158e-001	-1.900440e-001	9.822362e-001	-1.895936e-001	5.036123e-003	9.512878e-003
9631023.906	5.894636e-003	9.226385e-003	9.823876e-001	-1.912762e-001	9.819752e-001	-1.908728e-001	5.247384e-003	9.249415e-003
9693562.989	5.927478e-003	9.268338e-003	9.820428e-001	-1.924881e-001	9.817962e-001	-1.920322e-001	5.011302e-003	9.427788e-003
9756102.073	5.943929e-003	9.276326e-003	9.820039e-001	-1.937758e-001	9.815872e-001	-1.931707e-001	5.077617e-003	9.344344e-003
