!Agilent Technologies,E5061B,MY49102235,A.02.00
!Date: Tue Jul 11 17:04:14 2023
!Data & Calibration Information:
!Freq	S11:SOLT2(ON)	S21:SOLT2(ON)	S12:SOLT2(ON)	S22:SOLT2(ON)
# Hz S RI R 50
5.000	-5.138309e-003	-5.632989e-003	1.002229e+000	8.003246e-003	1.000654e+000	1.023219e-002	-1.422852e-003	-7.567336e-003
62544.084	5.822197e-003	-1.737393e-004	1.001451e+000	2.422453e-004	1.000744e+000	8.220808e-004	7.695204e-003	-2.553399e-003
125083.168	5.721152e-003	1.588847e-004	1.000883e+000	-1.490672e-003	1.000717e+000	-1.504078e-003	7.514700e-003	-1.636424e-003
187622.251	5.499889e-003	6.359802e-004	1.000551e+000	-3.137946e-003	1.000844e+000	-1.878010e-003	7.397308e-003	-1.411496e-003
250161.335	5.340656e-003	1.083517e-003	1.000642e+000	-4.419837e-003	1.000533e+000	-4.414027e-003	7.300890e-003	-7.474296e-004
312700.419	5.483038e-003	2.127714e-003	1.000826e+000	-5.406220e-003	1.000601e+000	-5.168738e-003	7.806803e-003	-7.665557e-004
375239.503	5.386400e-003	9.112713e-004	1.001043e+000	-7.053681e-003	1.000539e+000	-6.945032e-003	7.290357e-003	-6.059454e-004
437778.587	5.232465e-003	1.624956e-003	1.001397e+000	-7.607327e-003	1.000905e+000	-8.270829e-003	6.687953e-003	-1.876601e-005
500317.670	4.687381e-003	2.061529e-003	1.001295e+000	-1.029462e-002	1.001535e+000	-1.008722e-002	4.887245e-003	4.837023e-004
562856.754	6.030566e-003	2.052265e-003	1.001306e+000	-1.213514e-002	1.001010e+000	-1.203479e-002	6.123761e-003	1.288827e-003
625395.838	5.220435e-003	2.525931e-003	1.002219e+000	-1.374106e-002	1.002123e+000	-1.326301e-002	6.210181e-003	2.152650e-003
687934.922	5.299260e-003	2.492599e-003	1.001283e+000	-1.496332e-002	1.000972e+000	-1.503625e-002	5.899781e-003	1.995472e-003
750474.006	4.450048e-003	3.112330e-003	1.000920e+000	-1.479625e-002	1.000416e+000	-1.422663e-002	5.632808e-003	2.443384e-003
813013.089	4.653859e-003	3.451531e-003	1.001338e+000	-1.680117e-002	1.000259e+000	-1.624234e-002	5.013414e-003	2.921995e-003
875552.173	4.413704e-003	3.908280e-003	1.001224e+000	-1.805586e-002	1.000693e+000	-1.784536e-002	5.818509e-003	2.822652e-003
938091.257	4.504275e-003	4.270662e-003	1.001220e+000	-1.987869e-002	1.000906e+000	-1.933801e-002	6.079666e-003	3.690387e-003
1000630.341	3.975550e-003	4.227104e-003	1.000761e+000	-2.154278e-002	1.000683e+000	-2.101676e-002	5.351552e-003	3.294060e-003
1063169.425	4.356471e-003	4.366616e-003	1.001018e+000	-2.321517e-002	1.000300e+000	-2.206859e-002	4.539301e-003	3.280220e-003
1125708.508	4.259086e-003	4.724707e-003	1.000918e+000	-2.463712e-002	1.000428e+000	-2.378361e-002	4.075767e-003	3.872589e-003
1188247.592	4.813224e-003	4.567800e-003	1.000889e+000	-2.614206e-002	1.000641e+000	-2.521234e-002	2.998759e-003	3.635183e-003
1250786.676	4.676871e-003	4.138904e-003	1.000549e+000	-2.637356e-002	1.000231e+000	-2.625683e-002	2.259893e-003	2.274338e-003
1313325.760	4.813354e-003	4.328577e-003	1.000842e+000	-2.828861e-002	1.000606e+000	-2.807980e-002	3.019622e-003	2.777792e-003
1375864.844	4.565444e-003	4.446022e-003	1.000568e+000	-3.052194e-002	1.000129e+000	-3.031589e-002	2.902639e-003	3.362636e-003
1438403.927	4.491151e-003	4.596820e-003	1.000517e+000	-3.133744e-002	1.000471e+000	-3.050224e-002	3.026633e-003	3.924828e-003
1500943.011	4.750403e-003	4.962251e-003	1.001185e+000	-3.267180e-002	1.000880e+000	-3.232969e-002	3.386169e-003	3.817438e-003
1563482.095	4.759882e-003	4.888678e-003	1.000568e+000	-3.428348e-002	1.000241e+000	-3.313396e-002	3.563132e-003	4.328928e-003
1626021.179	4.609000e-003	5.317208e-003	1.000509e+000	-3.568800e-002	1.000473e+000	-3.603990e-002	3.868241e-003	4.577440e-003
1688560.263	4.328955e-003	5.695381e-003	1.000189e+000	-3.777387e-002	1.000802e+000	-3.763402e-002	4.073461e-003	4.863802e-003
1751099.346	4.515247e-003	6.085284e-003	1.000766e+000	-3.931031e-002	9.999885e-001	-3.848483e-002	3.912009e-003	5.994125e-003
1813638.430	4.168026e-003	6.345109e-003	1.000874e+000	-4.108688e-002	1.000457e+000	-4.058346e-002	4.131510e-003	5.918595e-003
1876177.514	4.236486e-003	6.956882e-003	1.001225e+000	-4.231572e-002	1.000779e+000	-4.266568e-002	3.837688e-003	6.889711e-003
1938716.598	3.740603e-003	7.332612e-003	1.001381e+000	-4.358507e-002	1.000681e+000	-4.275351e-002	4.052976e-003	7.582998e-003
2001255.682	3.671541e-003	7.168156e-003	1.001246e+000	-4.519793e-002	1.000618e+000	-4.470715e-002	3.835772e-003	7.432389e-003
2063794.765	3.811104e-003	7.849177e-003	1.000818e+000	-4.659696e-002	9.999214e-001	-4.660626e-002	4.241076e-003	7.639931e-003
2126333.849	3.369511e-003	7.637313e-003	1.000256e+000	-4.808025e-002	9.994835e-001	-4.729945e-002	4.563751e-003	8.181999e-003
2188872.933	3.903455e-003	7.930272e-003	1.000014e+000	-4.950606e-002	9.992791e-001	-4.872857e-002	4.469435e-003	8.441982e-003
2251412.017	4.021897e-003	7.873898e-003	9.997716e-001	-5.137260e-002	9.992826e-001	-5.004258e-002	4.492811e-003	8.621688e-003
2313951.101	4.412360e-003	8.584438e-003	9.991610e-001	-5.272440e-002	9.992939e-001	-5.116196e-002	4.830651e-003	8.869576e-003
2376490.184	4.188176e-003	8.859961e-003	9.989599e-001	-5.335517e-002	9.992132e-001	-5.340493e-002	4.845766e-003	9.159982e-003
2439029.268	4.672421e-003	9.118076e-003	9.989648e-001	-5.555969e-002	9.984318e-001	-5.468012e-002	4.552253e-003	9.600713e-003
2501568.352	4.697445e-003	9.421862e-003	9.985796e-001	-5.592873e-002	9.992165e-001	-5.585572e-002	4.899493e-003	9.845252e-003
2564107.436	4.660041e-003	9.576055e-003	9.989418e-001	-5.811306e-002	9.988857e-001	-5.761730e-002	4.230585e-003	9.789694e-003
2626646.520	5.181641e-003	9.690164e-003	9.987659e-001	-5.933859e-002	9.976245e-001	-5.895000e-002	4.507512e-003	1.000545e-002
2689185.604	5.169198e-003	1.014229e-002	9.989621e-001	-6.049516e-002	9.984925e-001	-6.014377e-002	4.717264e-003	1.037864e-002
2751724.687	5.326747e-003	1.036897e-002	9.988537e-001	-6.161382e-002	9.982755e-001	-6.115701e-002	4.353598e-003	1.066769e-002
2814263.771	5.342409e-003	1.060230e-002	9.978969e-001	-6.388651e-002	9.979299e-001	-6.290480e-002	4.375753e-003	1.083567e-002
2876802.855	5.325122e-003	1.069095e-002	9.978774e-001	-6.539554e-002	9.977863e-001	-6.419929e-002	4.514228e-003	1.125419e-002
2939341.939	5.513048e-003	1.108415e-002	9.984586e-001	-6.623375e-002	9.977226e-001	-6.618849e-002	4.462807e-003	1.146206e-002
3001881.023	5.482075e-003	1.138741e-002	9.980014e-001	-6.775515e-002	9.974048e-001	-6.748677e-002	4.596042e-003	1.161252e-002
3064420.106	5.594513e-003	1.163663e-002	9.984828e-001	-6.909650e-002	9.974263e-001	-6.880339e-002	4.482850e-003	1.179408e-002
3126959.190	5.832065e-003	1.183085e-002	9.980091e-001	-7.068178e-002	9.976180e-001	-7.030099e-002	4.720074e-003	1.203770e-002
3189498.274	5.885177e-003	1.217382e-002	9.978739e-001	-7.194260e-002	9.975167e-001	-7.171767e-002	4.765739e-003	1.227190e-002
3252037.358	5.834878e-003	1.210846e-002	9.979065e-001	-7.339716e-002	9.975152e-001	-7.303415e-002	4.768079e-003	1.262784e-002
3314576.442	5.917992e-003	1.257097e-002	9.977233e-001	-7.474513e-002	9.973179e-001	-7.453636e-002	4.891114e-003	1.282000e-002
3377115.525	5.938820e-003	1.287607e-002	9.974705e-001	-7.609048e-002	9.970186e-001	-7.606971e-002	4.797871e-003	1.298854e-002
3439654.609	6.012992e-003	1.309779e-002	9.971897e-001	-7.757709e-002	9.971852e-001	-7.741179e-002	4.879465e-003	1.347164e-002
3502193.693	6.039751e-003	1.309472e-002	9.971050e-001	-7.917269e-002	9.968194e-001	-7.874236e-002	5.100624e-003	1.370869e-002
3564732.777	6.151037e-003	1.352417e-002	9.970838e-001	-8.048843e-002	9.967251e-001	-8.025674e-002	5.266272e-003	1.402508e-002
3627271.861	6.050901e-003	1.367378e-002	9.970312e-001	-8.200279e-002	9.966825e-001	-8.152506e-002	5.111111e-003	1.411044e-002
3689810.944	6.028781e-003	1.386123e-002	9.967593e-001	-8.341794e-002	9.965429e-001	-8.295921e-002	5.326547e-003	1.440748e-002
3752350.028	6.223714e-003	1.416353e-002	9.966266e-001	-8.459099e-002	9.962397e-001	-8.433188e-002	5.322616e-003	1.464862e-002
3814889.112	6.404409e-003	1.457635e-002	9.963830e-001	-8.614073e-002	9.963591e-001	-8.607126e-002	5.317923e-003	1.481813e-002
3877428.196	6.428916e-003	1.487749e-002	9.964350e-001	-8.760841e-002	9.961689e-001	-8.724637e-002	5.716191e-003	1.510461e-002
3939967.280	6.458104e-003	1.487492e-002	9.962647e-001	-8.911001e-002	9.960460e-001	-8.865915e-002	5.784491e-003	1.547316e-002
4002506.363	6.618632e-003	1.528987e-002	9.961559e-001	-9.051191e-002	9.958365e-001	-8.999357e-002	5.802196e-003	1.568140e-002
4065045.447	6.528438e-003	1.548894e-002	9.957766e-001	-9.196865e-002	9.956170e-001	-9.152399e-002	5.974939e-003	1.585867e-002
4127584.531	6.584242e-003	1.575280e-002	9.956157e-001	-9.337609e-002	9.954553e-001	-9.290380e-002	6.091541e-003	1.623902e-002
4190123.615	6.716583e-003	1.605577e-002	9.955264e-001	-9.496469e-002	9.951709e-001	-9.448294e-002	6.081352e-003	1.629701e-002
4252662.699	6.762534e-003	1.625263e-002	9.954518e-001	-9.640905e-002	9.949598e-001	-9.603390e-002	6.284923e-003	1.660463e-002
4315201.782	7.016213e-003	1.647879e-002	9.952483e-001	-9.761005e-002	9.950764e-001	-9.747747e-002	6.193294e-003	1.668382e-002
4377740.866	7.017940e-003	1.674425e-002	9.951432e-001	-9.924161e-002	9.946631e-001	-9.889107e-002	6.484486e-003	1.723992e-002
4440279.950	7.007543e-003	1.686471e-002	9.949401e-001	-1.005006e-001	9.944081e-001	-1.002057e-001	6.464797e-003	1.736457e-002
4502819.034	7.114395e-003	1.727166e-002	9.944750e-001	-1.020575e-001	9.942947e-001	-1.016538e-001	6.658390e-003	1.776763e-002
4565358.118	7.131467e-003	1.748120e-002	9.943235e-001	-1.034456e-001	9.939383e-001	-1.028987e-001	6.770556e-003	1.792363e-002
4627897.201	7.437912e-003	1.787845e-002	9.943188e-001	-1.048655e-001	9.938391e-001	-1.042874e-001	7.001019e-003	1.827922e-002
4690436.285	7.374524e-003	1.801228e-002	9.940386e-001	-1.063972e-001	9.936832e-001	-1.061354e-001	7.116763e-003	1.834551e-002
4752975.369	7.493718e-003	1.826338e-002	9.935981e-001	-1.078586e-001	9.935471e-001	-1.074418e-001	7.022656e-003	1.856002e-002
4815514.453	7.737416e-003	1.850999e-002	9.936405e-001	-1.092221e-001	9.933205e-001	-1.090046e-001	7.388557e-003	1.891055e-002
4878053.537	7.959101e-003	1.866616e-002	9.934735e-001	-1.105860e-001	9.930519e-001	-1.102375e-001	7.474001e-003	1.907322e-002
4940592.620	7.830874e-003	1.896707e-002	9.931072e-001	-1.120578e-001	9.928877e-001	-1.117964e-001	7.352271e-003	1.931687e-002
5003131.704	8.002183e-003	1.907582e-002	9.928399e-001	-1.134382e-001	9.927251e-001	-1.129365e-001	7.601102e-003	1.949478e-002
5065670.788	8.063536e-003	1.953321e-002	9.926065e-001	-1.149152e-001	9.924071e-001	-1.144293e-001	7.703280e-003	1.979347e-002
5128209.872	8.319554e-003	1.963144e-002	9.925664e-001	-1.163173e-001	9.921647e-001	-1.159126e-001	7.802099e-003	1.981772e-002
5190748.956	8.355561e-003	1.987239e-002	9.922418e-001	-1.177633e-001	9.920469e-001	-1.174159e-001	7.904821e-003	2.020024e-002
5253288.039	8.528168e-003	2.006093e-002	9.920844e-001	-1.191744e-001	9.918099e-001	-1.187823e-001	7.974068e-003	2.052224e-002
5315827.123	8.614748e-003	2.024111e-002	9.916790e-001	-1.205645e-001	9.915119e-001	-1.202123e-001	8.083864e-003	2.066962e-002
5378366.207	8.845812e-003	2.052160e-002	9.916117e-001	-1.220117e-001	9.913000e-001	-1.218267e-001	8.199348e-003	2.080301e-002
5440905.291	8.807064e-003	2.085410e-002	9.914207e-001	-1.234541e-001	9.910968e-001	-1.231363e-001	8.224693e-003	2.110432e-002
5503444.375	9.124456e-003	2.091870e-002	9.911365e-001	-1.249166e-001	9.909071e-001	-1.243859e-001	8.550432e-003	2.124488e-002
5565983.458	8.918124e-003	2.129144e-002	9.908815e-001	-1.262518e-001	9.906222e-001	-1.257927e-001	8.620281e-003	2.164226e-002
5628522.542	9.313093e-003	2.144663e-002	9.906944e-001	-1.275582e-001	9.904102e-001	-1.273442e-001	8.787866e-003	2.176069e-002
5691061.626	9.508462e-003	2.149754e-002	9.903202e-001	-1.291756e-001	9.901282e-001	-1.288186e-001	8.830083e-003	2.205959e-002
5753600.710	9.493390e-003	2.181775e-002	9.899943e-001	-1.304991e-001	9.898889e-001	-1.301141e-001	9.020061e-003	2.214707e-002
5816139.794	9.750162e-003	2.223862e-002	9.898412e-001	-1.319307e-001	9.893932e-001	-1.317678e-001	9.017571e-003	2.243469e-002
5878678.877	9.779795e-003	2.224491e-002	9.895585e-001	-1.333967e-001	9.893011e-001	-1.330763e-001	9.263522e-003	2.253120e-002
5941217.961	9.905093e-003	2.240998e-002	9.892320e-001	-1.348839e-001	9.890183e-001	-1.343205e-001	9.228301e-003	2.286893e-002
6003757.045	9.928182e-003	2.287687e-002	9.888358e-001	-1.361615e-001	9.887367e-001	-1.357476e-001	9.497498e-003	2.309011e-002
6066296.129	1.019239e-002	2.290553e-002	9.888068e-001	-1.375962e-001	9.885364e-001	-1.371363e-001	9.613236e-003	2.328467e-002
6128835.213	1.042804e-002	2.318288e-002	9.885385e-001	-1.386952e-001	9.884363e-001	-1.386327e-001	9.860393e-003	2.352288e-002
6191374.296	1.052185e-002	2.339933e-002	9.881809e-001	-1.403912e-001	9.878657e-001	-1.402292e-001	9.863617e-003	2.385630e-002
6253913.380	1.058732e-002	2.375862e-002	9.879147e-001	-1.418640e-001	9.876559e-001	-1.415152e-001	9.891560e-003	2.422382e-002
6316452.464	1.072624e-002	2.405817e-002	9.876638e-001	-1.431567e-001	9.872240e-001	-1.431171e-001	1.008715e-002	2.421024e-002
6378991.548	1.084756e-002	2.415179e-002	9.873379e-001	-1.449215e-001	9.871656e-001	-1.443956e-001	1.029803e-002	2.433828e-002
6441530.632	1.093473e-002	2.431258e-002	9.869790e-001	-1.460566e-001	9.868044e-001	-1.459573e-001	1.051178e-002	2.467436e-002
6504069.715	1.109802e-002	2.451801e-002	9.866819e-001	-1.477417e-001	9.866421e-001	-1.472691e-001	1.069151e-002	2.490568e-002
6566608.799	1.139732e-002	2.468618e-002	9.864884e-001	-1.491895e-001	9.862082e-001	-1.487351e-001	1.076458e-002	2.533238e-002
6629147.883	1.152784e-002	2.506433e-002	9.861324e-001	-1.502625e-001	9.858509e-001	-1.501647e-001	1.100703e-002	2.542460e-002
6691686.967	1.159224e-002	2.531031e-002	9.857014e-001	-1.518008e-001	9.854973e-001	-1.515728e-001	1.121831e-002	2.574796e-002
6754226.051	1.169225e-002	2.552854e-002	9.854038e-001	-1.533518e-001	9.850992e-001	-1.531593e-001	1.118158e-002	2.577623e-002
6816765.134	1.198180e-002	2.576234e-002	9.851559e-001	-1.546985e-001	9.849023e-001	-1.544045e-001	1.142239e-002	2.621048e-002
6879304.218	1.202960e-002	2.583644e-002	9.847366e-001	-1.561080e-001	9.845886e-001	-1.558008e-001	1.159723e-002	2.637085e-002
6941843.302	1.229805e-002	2.623420e-002	9.843969e-001	-1.576248e-001	9.842519e-001	-1.572134e-001	1.177307e-002	2.669281e-002
7004382.386	1.229661e-002	2.653840e-002	9.841794e-001	-1.589490e-001	9.838844e-001	-1.586181e-001	1.187497e-002	2.696420e-002
7066921.470	1.258304e-002	2.671665e-002	9.837320e-001	-1.604800e-001	9.836169e-001	-1.598883e-001	1.221534e-002	2.703872e-002
7129460.553	1.265519e-002	2.683613e-002	9.834132e-001	-1.617084e-001	9.832383e-001	-1.614158e-001	1.241619e-002	2.733467e-002
7191999.637	1.286580e-002	2.730978e-002	9.828323e-001	-1.632160e-001	9.826955e-001	-1.628035e-001	1.247124e-002	2.756233e-002
7254538.721	1.310007e-002	2.741469e-002	9.828649e-001	-1.647032e-001	9.825687e-001	-1.643143e-001	1.271292e-002	2.781730e-002
7317077.805	1.347242e-002	2.761163e-002	9.824000e-001	-1.659659e-001	9.821949e-001	-1.656709e-001	1.288747e-002	2.794273e-002
7379616.889	1.353913e-002	2.785952e-002	9.821896e-001	-1.675983e-001	9.817533e-001	-1.670860e-001	1.303971e-002	2.820452e-002
7442155.972	1.359247e-002	2.809748e-002	9.816366e-001	-1.688016e-001	9.814003e-001	-1.684505e-001	1.335092e-002	2.863092e-002
7504695.056	1.383597e-002	2.823285e-002	9.811811e-001	-1.701339e-001	9.808680e-001	-1.700073e-001	1.358666e-002	2.891962e-002
7567234.140	1.422010e-002	2.836949e-002	9.809458e-001	-1.715506e-001	9.805270e-001	-1.713704e-001	1.372870e-002	2.905037e-002
7629773.224	1.435028e-002	2.890341e-002	9.805941e-001	-1.731034e-001	9.802941e-001	-1.727342e-001	1.386064e-002	2.924276e-002
7692312.308	1.443002e-002	2.906652e-002	9.801726e-001	-1.744763e-001	9.797947e-001	-1.741905e-001	1.413231e-002	2.937302e-002
7754851.391	1.464465e-002	2.913981e-002	9.797496e-001	-1.759443e-001	9.793296e-001	-1.754183e-001	1.431366e-002	2.973747e-002
7817390.475	1.495737e-002	2.955766e-002	9.793379e-001	-1.774545e-001	9.789818e-001	-1.770521e-001	1.446145e-002	3.006809e-002
7879929.559	1.507570e-002	2.960639e-002	9.788427e-001	-1.788271e-001	9.785231e-001	-1.786064e-001	1.481002e-002	3.026927e-002
7942468.643	1.525663e-002	2.977528e-002	9.785700e-001	-1.801192e-001	9.782900e-001	-1.799261e-001	1.500596e-002	3.033055e-002
8005007.727	1.559595e-002	3.001042e-002	9.780543e-001	-1.816121e-001	9.778294e-001	-1.813040e-001	1.517389e-002	3.076973e-002
8067546.811	1.567719e-002	3.028828e-002	9.776792e-001	-1.829609e-001	9.773008e-001	-1.826172e-001	1.530557e-002	3.079134e-002
8130085.894	1.597999e-002	3.042379e-002	9.772330e-001	-1.842954e-001	9.769410e-001	-1.840764e-001	1.575758e-002	3.094317e-002
8192624.978	1.606205e-002	3.059202e-002	9.766509e-001	-1.858184e-001	9.765262e-001	-1.853986e-001	1.604293e-002	3.112821e-002
8255164.062	1.642306e-002	3.080301e-002	9.763235e-001	-1.871588e-001	9.760697e-001	-1.868080e-001	1.625575e-002	3.131286e-002
8317703.146	1.656994e-002	3.113084e-002	9.759432e-001	-1.885757e-001	9.757197e-001	-1.882234e-001	1.632709e-002	3.158515e-002
8380242.230	1.690917e-002	3.109250e-002	9.753751e-001	-1.900166e-001	9.751668e-001	-1.895519e-001	1.655105e-002	3.171795e-002
8442781.313	1.713795e-002	3.133927e-002	9.751940e-001	-1.912717e-001	9.748009e-001	-1.908892e-001	1.676945e-002	3.186081e-002
8505320.397	1.740159e-002	3.166489e-002	9.746150e-001	-1.927266e-001	9.743276e-001	-1.923130e-001	1.697837e-002	3.209788e-002
8567859.481	1.761386e-002	3.202005e-002	9.741089e-001	-1.939361e-001	9.739290e-001	-1.936344e-001	1.728597e-002	3.245489e-002
8630398.565	1.795160e-002	3.216970e-002	9.735193e-001	-1.952586e-001	9.734547e-001	-1.949842e-001	1.740409e-002	3.242496e-002
8692937.649	1.814071e-002	3.215467e-002	9.731579e-001	-1.966413e-001	9.728233e-001	-1.963763e-001	1.762006e-002	3.271357e-002
8755476.732	1.842175e-002	3.241226e-002	9.727300e-001	-1.981200e-001	9.724065e-001	-1.976184e-001	1.794322e-002	3.292744e-002
8818015.816	1.856642e-002	3.256782e-002	9.721815e-001	-1.994326e-001	9.717990e-001	-1.990600e-001	1.832537e-002	3.299988e-002
8880554.900	1.905500e-002	3.276715e-002	9.718738e-001	-2.008107e-001	9.715849e-001	-2.002994e-001	1.843125e-002	3.304804e-002
8943093.984	1.915632e-002	3.305703e-002	9.712834e-001	-2.020879e-001	9.710805e-001	-2.016904e-001	1.872920e-002	3.328014e-002
9005633.068	1.949443e-002	3.313823e-002	9.707418e-001	-2.034868e-001	9.706703e-001	-2.031535e-001	1.889387e-002	3.333748e-002
9068172.151	1.962703e-002	3.332335e-002	9.704128e-001	-2.048680e-001	9.700339e-001	-2.043897e-001	1.922826e-002	3.354949e-002
9130711.235	2.011641e-002	3.339565e-002	9.697822e-001	-2.062011e-001	9.696317e-001	-2.056975e-001	1.952830e-002	3.353118e-002
9193250.319	2.036806e-002	3.353830e-002	9.694436e-001	-2.073563e-001	9.690725e-001	-2.071174e-001	1.974776e-002	3.378063e-002
9255789.403	2.052936e-002	3.355535e-002	9.689899e-001	-2.086365e-001	9.685838e-001	-2.083964e-001	1.988900e-002	3.400560e-002
9318328.487	2.077923e-002	3.382017e-002	9.684077e-001	-2.101891e-001	9.682448e-001	-2.096751e-001	2.029515e-002	3.415821e-002
9380867.570	2.108471e-002	3.409710e-002	9.679511e-001	-2.115225e-001	9.675464e-001	-2.111162e-001	2.057325e-002	3.429424e-002
9443406.654	2.142031e-002	3.422905e-002	9.674758e-001	-2.127620e-001	9.671749e-001	-2.125165e-001	2.089222e-002	3.436362e-002
9505945.738	2.168464e-002	3.438204e-002	9.667489e-001	-2.142172e-001	9.667347e-001	-2.138036e-001	2.111993e-002	3.450796e-002
9568484.822	2.202042e-002	3.449621e-002	9.664015e-001	-2.154661e-001	9.659738e-001	-2.151085e-001	2.124889e-002	3.489733e-002
9631023.906	2.229260e-002	3.465105e-002	9.659013e-001	-2.167763e-001	9.654738e-001	-2.164682e-001	2.169722e-002	3.472100e-002
9693562.989	2.259425e-002	3.475621e-002	9.652849e-001	-2.181071e-001	9.650489e-001	-2.176685e-001	2.174879e-002	3.498708e-002
9756102.073	2.287391e-002	3.485038e-002	9.649444e-001	-2.194148e-001	9.645784e-001	-2.189352e-001	2.206877e-002	3.498872e-002
