!Agilent Technologies,E5061B,MY49102235,A.02.00
!Date: Tue Jul 11 15:38:44 2023
!Data & Calibration Information:
!Freq	S11:SOLT2(ON)	S21:SOLT2(ON)	S12:SOLT2(ON)	S22:SOLT2(ON)
# Hz S RI R 50
5.000	-5.217061e-003	-5.641919e-003	1.001889e+000	7.991068e-003	1.000419e+000	1.024250e-002	-1.537581e-003	-7.558198e-003
62544.084	5.812123e-003	-4.378303e-004	1.001386e+000	4.665907e-004	1.000900e+000	1.068821e-003	7.682075e-003	-2.822264e-003
125083.168	5.681036e-003	-3.749792e-004	1.000956e+000	-1.011809e-003	1.000986e+000	-8.959666e-004	7.478163e-003	-2.183075e-003
187622.251	5.455520e-003	-1.443202e-004	1.000430e+000	-2.428927e-003	1.001005e+000	-1.102042e-003	7.378729e-003	-2.205202e-003
250161.335	5.284184e-003	3.522421e-005	1.000586e+000	-3.384572e-003	1.000670e+000	-3.382920e-003	7.252044e-003	-1.795405e-003
312700.419	5.414175e-003	8.206289e-004	1.000896e+000	-4.077896e-003	1.000664e+000	-3.730574e-003	7.778148e-003	-2.067552e-003
375239.503	5.320509e-003	-6.326078e-004	1.001058e+000	-5.507396e-003	1.000546e+000	-5.306698e-003	7.252173e-003	-2.156247e-003
437778.587	5.149393e-003	-1.652089e-004	1.001305e+000	-5.862873e-003	1.001078e+000	-6.550372e-003	6.609276e-003	-1.806324e-003
500317.670	4.604290e-003	2.293581e-005	1.001149e+000	-8.300821e-003	1.001709e+000	-8.112284e-003	4.798079e-003	-1.591729e-003
562856.754	5.910228e-003	-2.353625e-004	1.001302e+000	-9.885694e-003	1.001129e+000	-9.654580e-003	6.018263e-003	-1.022662e-003
625395.838	5.078343e-003	-5.184197e-005	1.002321e+000	-1.104603e-002	1.002174e+000	-1.069104e-002	6.097965e-003	-4.057843e-004
687934.922	5.152031e-003	-3.068121e-004	1.001248e+000	-1.221011e-002	1.001421e+000	-1.216100e-002	5.736289e-003	-8.252605e-004
750474.006	4.346275e-003	5.037560e-005	1.000986e+000	-1.169438e-002	1.000826e+000	-1.136689e-002	5.509998e-003	-6.065059e-004
813013.089	4.518066e-003	1.337944e-004	1.001251e+000	-1.350475e-002	1.000707e+000	-1.323259e-002	4.884456e-003	-3.723233e-004
875552.173	4.243795e-003	3.525451e-004	1.001159e+000	-1.434466e-002	1.000973e+000	-1.428131e-002	5.655092e-003	-7.204140e-004
938091.257	4.324978e-003	4.604719e-004	1.001215e+000	-1.591392e-002	1.001164e+000	-1.547978e-002	5.901286e-003	-1.008168e-004
1000630.341	3.778944e-003	1.797762e-004	1.000743e+000	-1.742606e-002	1.000955e+000	-1.697220e-002	5.149652e-003	-7.579833e-004
1063169.425	4.131647e-003	6.918502e-005	1.001120e+000	-1.891548e-002	1.000773e+000	-1.796395e-002	4.330204e-003	-1.005791e-003
1125708.508	4.025005e-003	1.813890e-004	1.000939e+000	-1.992000e-002	1.000686e+000	-1.940228e-002	3.839961e-003	-6.778642e-004
1188247.592	4.563603e-003	-2.228352e-004	1.001176e+000	-2.124771e-002	1.000990e+000	-2.037500e-002	2.735226e-003	-1.189640e-003
1250786.676	4.407423e-003	-9.121904e-004	1.000582e+000	-2.115675e-002	1.000657e+000	-2.130633e-002	1.996661e-003	-2.796992e-003
1313325.760	4.525022e-003	-9.475088e-004	1.001072e+000	-2.279426e-002	1.000922e+000	-2.301148e-002	2.743753e-003	-2.542374e-003
1375864.844	4.254235e-003	-1.089417e-003	1.000790e+000	-2.474030e-002	1.000634e+000	-2.470617e-002	2.594189e-003	-2.201902e-003
1438403.927	4.161019e-003	-1.208315e-003	1.000689e+000	-2.547528e-002	1.001009e+000	-2.470853e-002	2.685227e-003	-1.896126e-003
1500943.011	4.389297e-003	-1.067892e-003	1.001560e+000	-2.645329e-002	1.001349e+000	-2.622861e-002	3.036744e-003	-2.242425e-003
1563482.095	4.391140e-003	-1.397594e-003	1.000991e+000	-2.796481e-002	1.000632e+000	-2.697446e-002	3.179608e-003	-1.995926e-003
1626021.179	4.189041e-003	-1.229724e-003	1.000784e+000	-2.920435e-002	1.001007e+000	-2.948839e-002	3.453023e-003	-1.976837e-003
1688560.263	3.893737e-003	-1.113273e-003	1.000401e+000	-3.097611e-002	1.001173e+000	-3.094248e-002	3.639207e-003	-1.958469e-003
1751099.346	4.026904e-003	-9.506645e-004	1.001157e+000	-3.204587e-002	1.000683e+000	-3.153445e-002	3.449712e-003	-1.059750e-003
1813638.430	3.677869e-003	-9.635662e-004	1.001317e+000	-3.375651e-002	1.001031e+000	-3.339656e-002	3.626329e-003	-1.376563e-003
1876177.514	3.702484e-003	-6.056436e-004	1.001617e+000	-3.473848e-002	1.001285e+000	-3.504883e-002	3.299932e-003	-6.621110e-004
1938716.598	3.175105e-003	-4.844497e-004	1.001833e+000	-3.553086e-002	1.001376e+000	-3.500567e-002	3.469672e-003	-2.253824e-004
2001255.682	3.088713e-003	-9.170018e-004	1.001775e+000	-3.700581e-002	1.001264e+000	-3.668497e-002	3.225488e-003	-6.338045e-004
2063794.765	3.175659e-003	-4.799792e-004	1.001344e+000	-3.803471e-002	1.000824e+000	-3.828883e-002	3.621398e-003	-6.651660e-004
2126333.849	2.720791e-003	-9.453641e-004	1.000746e+000	-3.937209e-002	1.000166e+000	-3.876736e-002	3.896051e-003	-3.743184e-004
2188872.933	3.209066e-003	-9.089090e-004	1.000576e+000	-4.059120e-002	1.000011e+000	-3.988610e-002	3.766545e-003	-3.545220e-004
2251412.017	3.324367e-003	-1.229393e-003	1.000395e+000	-4.216321e-002	1.000107e+000	-4.109831e-002	3.762909e-003	-4.385586e-004
2313951.101	3.640824e-003	-7.382978e-004	9.998457e-001	-4.314088e-002	1.000237e+000	-4.185953e-002	4.059066e-003	-4.500722e-004
2376490.184	3.391866e-003	-7.235268e-004	9.997892e-001	-4.353532e-002	1.000213e+000	-4.386143e-002	4.030943e-003	-3.966835e-004
2439029.268	3.830745e-003	-7.228489e-004	9.996451e-001	-4.556505e-002	9.992137e-001	-4.495203e-002	3.697340e-003	-2.490763e-004
2501568.352	3.827980e-003	-6.672657e-004	9.994466e-001	-4.569085e-002	1.000052e+000	-4.570079e-002	3.990650e-003	-2.282385e-004
2564107.436	3.732057e-003	-7.818019e-004	9.997513e-001	-4.752499e-002	9.997271e-001	-4.723690e-002	3.297192e-003	-5.538222e-004
2626646.520	4.214663e-003	-9.180263e-004	9.994382e-001	-4.871488e-002	9.988088e-001	-4.838055e-002	3.572434e-003	-5.800655e-004
2689185.604	4.177523e-003	-7.042398e-004	1.000046e+000	-4.949434e-002	9.995524e-001	-4.927567e-002	3.690667e-003	-4.733169e-004
2751724.687	4.300282e-003	-7.415571e-004	9.997747e-001	-5.027689e-002	9.993714e-001	-5.014134e-002	3.296744e-003	-4.846538e-004
2814263.771	4.252472e-003	-7.734074e-004	9.988814e-001	-5.232005e-002	9.991047e-001	-5.151756e-002	3.280176e-003	-5.502082e-004
2876802.855	4.210633e-003	-9.408750e-004	9.988550e-001	-5.369889e-002	9.992417e-001	-5.259043e-002	3.370335e-003	-3.802473e-004
2939341.939	4.329602e-003	-8.186950e-004	9.995032e-001	-5.426236e-002	9.988931e-001	-5.420280e-002	3.265678e-003	-4.376298e-004
3001881.023	4.249082e-003	-7.693383e-004	9.991330e-001	-5.533420e-002	9.989364e-001	-5.533048e-002	3.359602e-003	-5.407089e-004
3064420.106	4.308166e-003	-7.790843e-004	9.997167e-001	-5.643961e-002	9.987726e-001	-5.625844e-002	3.198803e-003	-6.356491e-004
3126959.190	4.515084e-003	-8.352521e-004	9.992333e-001	-5.782097e-002	9.990856e-001	-5.763171e-002	3.375955e-003	-6.561700e-004
3189498.274	4.486637e-003	-7.751203e-004	9.991622e-001	-5.880984e-002	9.989250e-001	-5.875009e-002	3.371587e-003	-6.851096e-004
3252037.358	4.405998e-003	-1.095045e-003	9.992250e-001	-6.004788e-002	9.990017e-001	-5.981276e-002	3.325424e-003	-6.034690e-004
3314576.442	4.429854e-003	-9.028202e-004	9.991124e-001	-6.111341e-002	9.988603e-001	-6.097974e-002	3.399125e-003	-6.700140e-004
3377115.525	4.395098e-003	-8.703128e-004	9.989534e-001	-6.217695e-002	9.985991e-001	-6.230880e-002	3.238094e-003	-7.863214e-004
3439654.609	4.409227e-003	-8.990644e-004	9.987414e-001	-6.340409e-002	9.988952e-001	-6.335594e-002	3.262247e-003	-5.569747e-004
3502193.693	4.363950e-003	-1.181094e-003	9.987080e-001	-6.463624e-002	9.985288e-001	-6.436928e-002	3.431536e-003	-5.824903e-004
3564732.777	4.423079e-003	-1.012606e-003	9.987271e-001	-6.576811e-002	9.985293e-001	-6.564913e-002	3.527168e-003	-5.330288e-004
3627271.861	4.278555e-003	-1.136444e-003	9.987182e-001	-6.700751e-002	9.985883e-001	-6.668611e-002	3.298232e-003	-7.315194e-004
3689810.944	4.184896e-003	-1.238818e-003	9.985910e-001	-6.810717e-002	9.984594e-001	-6.777847e-002	3.458422e-003	-6.996468e-004
3752350.028	4.315277e-003	-1.195381e-003	9.984567e-001	-6.906844e-002	9.982258e-001	-6.893136e-002	3.398836e-003	-7.307240e-004
3814889.112	4.415664e-003	-1.064572e-003	9.983211e-001	-7.025638e-002	9.984124e-001	-7.035442e-002	3.318851e-003	-8.498388e-004
3877428.196	4.349543e-003	-1.029594e-003	9.984506e-001	-7.146294e-002	9.982667e-001	-7.124461e-002	3.656420e-003	-8.475111e-004
3939967.280	4.342560e-003	-1.322148e-003	9.983069e-001	-7.270664e-002	9.982636e-001	-7.244026e-002	3.626004e-003	-7.445221e-004
4002506.363	4.402779e-003	-1.167913e-003	9.983058e-001	-7.383745e-002	9.981557e-001	-7.348920e-002	3.578829e-003	-8.125367e-004
4065045.447	4.235628e-003	-1.267338e-003	9.980316e-001	-7.503763e-002	9.979246e-001	-7.475917e-002	3.668360e-003	-9.102035e-004
4127584.531	4.211694e-003	-1.274472e-003	9.979203e-001	-7.614982e-002	9.979114e-001	-7.582047e-002	3.687409e-003	-7.977730e-004
4190123.615	4.256851e-003	-1.259939e-003	9.978904e-001	-7.745953e-002	9.977087e-001	-7.709101e-002	3.594396e-003	-1.032812e-003
4252662.699	4.220771e-003	-1.341955e-003	9.979658e-001	-7.861644e-002	9.975742e-001	-7.838847e-002	3.709166e-003	-1.005932e-003
4315201.782	4.347601e-003	-1.392054e-003	9.978410e-001	-7.954107e-002	9.977852e-001	-7.952451e-002	3.537366e-003	-1.199194e-003
4377740.866	4.249632e-003	-1.430508e-003	9.978330e-001	-8.084980e-002	9.974419e-001	-8.065995e-002	3.708071e-003	-9.225567e-004
4440279.950	4.155086e-003	-1.564525e-003	9.977381e-001	-8.186628e-002	9.972612e-001	-8.168321e-002	3.598298e-003	-1.096471e-003
4502819.034	4.150696e-003	-1.443312e-003	9.973675e-001	-8.310466e-002	9.973261e-001	-8.286442e-002	3.682748e-003	-9.495941e-004
4565358.118	4.064726e-003	-1.499278e-003	9.973072e-001	-8.422259e-002	9.970624e-001	-8.381463e-002	3.693825e-003	-1.067765e-003
4627897.201	4.256880e-003	-1.377603e-003	9.974317e-001	-8.538499e-002	9.970769e-001	-8.494351e-002	3.817069e-003	-9.784126e-004
4690436.285	4.083262e-003	-1.514745e-003	9.973312e-001	-8.660934e-002	9.970423e-001	-8.653245e-002	3.814241e-003	-1.192614e-003
4752975.369	4.103320e-003	-1.536786e-003	9.969830e-001	-8.788364e-002	9.969928e-001	-8.754289e-002	3.631364e-003	-1.256945e-003
4815514.453	4.217791e-003	-1.549047e-003	9.971190e-001	-8.889895e-002	9.969277e-001	-8.876163e-002	3.851305e-003	-1.164139e-003
4878053.537	4.318332e-003	-1.661783e-003	9.970359e-001	-8.996300e-002	9.967647e-001	-8.977912e-002	3.819571e-003	-1.265207e-003
4940592.620	4.053933e-003	-1.642607e-003	9.968060e-001	-9.119826e-002	9.966824e-001	-9.102295e-002	3.579033e-003	-1.315871e-003
5003131.704	4.121324e-003	-1.784472e-003	9.966838e-001	-9.230421e-002	9.966350e-001	-9.196042e-002	3.717999e-003	-1.393236e-003
5065670.788	4.054614e-003	-1.608735e-003	9.965845e-001	-9.353024e-002	9.964944e-001	-9.318287e-002	3.681814e-003	-1.365012e-003
5128209.872	4.185472e-003	-1.758852e-003	9.966204e-001	-9.465074e-002	9.963221e-001	-9.434723e-002	3.666635e-003	-1.590534e-003
5190748.956	4.093776e-003	-1.797467e-003	9.964076e-001	-9.582488e-002	9.963444e-001	-9.561053e-002	3.641901e-003	-1.476169e-003
5253288.039	4.151039e-003	-1.857358e-003	9.964299e-001	-9.698741e-002	9.962393e-001	-9.672247e-002	3.574609e-003	-1.424226e-003
5315827.123	4.108954e-003	-1.940750e-003	9.961354e-001	-9.812049e-002	9.960934e-001	-9.791134e-002	3.552540e-003	-1.545836e-003
5378366.207	4.208296e-003	-1.919189e-003	9.961650e-001	-9.935006e-002	9.960280e-001	-9.922662e-002	3.548337e-003	-1.664599e-003
5440905.291	4.018369e-003	-1.854795e-003	9.961517e-001	-1.004529e-001	9.959097e-001	-1.002750e-001	3.433334e-003	-1.637253e-003
5503444.375	4.234871e-003	-2.034628e-003	9.959958e-001	-1.016686e-001	9.958804e-001	-1.012768e-001	3.636301e-003	-1.747802e-003
5565983.458	3.883862e-003	-1.941643e-003	9.958948e-001	-1.027261e-001	9.957871e-001	-1.024060e-001	3.575160e-003	-1.604212e-003
5628522.542	4.149726e-003	-2.046255e-003	9.958088e-001	-1.037829e-001	9.956333e-001	-1.037097e-001	3.602859e-003	-1.753246e-003
5691061.626	4.211211e-003	-2.239371e-003	9.955980e-001	-1.051433e-001	9.954819e-001	-1.048659e-001	3.520413e-003	-1.722352e-003
5753600.710	4.058174e-003	-2.178540e-003	9.954549e-001	-1.062177e-001	9.953606e-001	-1.059950e-001	3.569789e-003	-1.894576e-003
5816139.794	4.159245e-003	-2.032825e-003	9.953814e-001	-1.073975e-001	9.950940e-001	-1.073502e-001	3.427943e-003	-1.881967e-003
5878678.877	4.062933e-003	-2.281701e-003	9.952718e-001	-1.085486e-001	9.950739e-001	-1.083474e-001	3.544187e-003	-2.033953e-003
5941217.961	4.059164e-003	-2.375068e-003	9.950644e-001	-1.097969e-001	9.949895e-001	-1.093552e-001	3.350434e-003	-1.967857e-003
6003757.045	3.901248e-003	-2.177564e-003	9.948424e-001	-1.107760e-001	9.948440e-001	-1.105240e-001	3.476902e-003	-2.003369e-003
6066296.129	4.033724e-003	-2.403979e-003	9.949396e-001	-1.119882e-001	9.946947e-001	-1.116341e-001	3.462635e-003	-2.067861e-003
6128835.213	4.132987e-003	-2.416741e-003	9.947861e-001	-1.128545e-001	9.947157e-001	-1.128860e-001	3.555793e-003	-2.105923e-003
6191374.296	4.068256e-003	-2.460376e-003	9.945830e-001	-1.142255e-001	9.944480e-001	-1.141982e-001	3.385279e-003	-2.040296e-003
6253913.380	3.991260e-003	-2.366533e-003	9.944776e-001	-1.154491e-001	9.943585e-001	-1.151646e-001	3.269100e-003	-1.962486e-003
6316452.464	3.957477e-003	-2.319625e-003	9.944138e-001	-1.164894e-001	9.941132e-001	-1.164988e-001	3.321132e-003	-2.214848e-003
6378991.548	3.928427e-003	-2.513446e-003	9.942499e-001	-1.179566e-001	9.941636e-001	-1.175492e-001	3.373901e-003	-2.362078e-003
6441530.632	3.858333e-003	-2.621250e-003	9.940124e-001	-1.188237e-001	9.939667e-001	-1.188263e-001	3.408346e-003	-2.283953e-003
6504069.715	3.850325e-003	-2.679319e-003	9.939177e-001	-1.202126e-001	9.939517e-001	-1.199033e-001	3.425803e-003	-2.310724e-003
6566608.799	3.995637e-003	-2.763331e-003	9.939192e-001	-1.214402e-001	9.937064e-001	-1.210765e-001	3.334372e-003	-2.151497e-003
6629147.883	3.950154e-003	-2.653748e-003	9.936651e-001	-1.222349e-001	9.935671e-001	-1.222525e-001	3.413427e-003	-2.347378e-003
6691686.967	3.814293e-003	-2.674280e-003	9.934522e-001	-1.235194e-001	9.933866e-001	-1.233333e-001	3.444927e-003	-2.283655e-003
6754226.051	3.767739e-003	-2.722741e-003	9.932837e-001	-1.247471e-001	9.931137e-001	-1.246880e-001	3.242997e-003	-2.522879e-003
6816765.134	3.870709e-003	-2.772805e-003	9.932391e-001	-1.258248e-001	9.930762e-001	-1.256900e-001	3.309276e-003	-2.354813e-003
6879304.218	3.748680e-003	-2.955754e-003	9.930122e-001	-1.270272e-001	9.929839e-001	-1.267978e-001	3.271282e-003	-2.456546e-003
6941843.302	3.824650e-003	-2.799601e-003	9.929018e-001	-1.282013e-001	9.927923e-001	-1.279437e-001	3.273461e-003	-2.397039e-003
7004382.386	3.630850e-003	-2.774259e-003	9.927901e-001	-1.292504e-001	9.926182e-001	-1.291041e-001	3.184281e-003	-2.405316e-003
7066921.470	3.717995e-003	-2.866518e-003	9.925525e-001	-1.305541e-001	9.925243e-001	-1.300856e-001	3.348248e-003	-2.581176e-003
7129460.553	3.615820e-003	-3.009644e-003	9.925002e-001	-1.315164e-001	9.923834e-001	-1.313609e-001	3.346052e-003	-2.555581e-003
7191999.637	3.600504e-003	-2.805547e-003	9.921131e-001	-1.327752e-001	9.920538e-001	-1.325321e-001	3.189665e-003	-2.584462e-003
7254538.721	3.644382e-003	-2.942749e-003	9.922699e-001	-1.339595e-001	9.921061e-001	-1.337226e-001	3.225709e-003	-2.593993e-003
7317077.805	3.818212e-003	-3.005046e-003	9.920286e-001	-1.349640e-001	9.919442e-001	-1.347815e-001	3.224479e-003	-2.733182e-003
7379616.889	3.675124e-003	-3.033047e-003	9.920168e-001	-1.363257e-001	9.917481e-001	-1.359977e-001	3.160844e-003	-2.743803e-003
7442155.972	3.521960e-003	-3.054346e-003	9.917185e-001	-1.372914e-001	9.915906e-001	-1.370616e-001	3.260693e-003	-2.548445e-003
7504695.056	3.558176e-003	-3.178134e-003	9.914560e-001	-1.383598e-001	9.913150e-001	-1.383860e-001	3.271974e-003	-2.509812e-003
7567234.140	3.728699e-003	-3.277877e-003	9.914350e-001	-1.395174e-001	9.911695e-001	-1.394240e-001	3.192769e-003	-2.650040e-003
7629773.224	3.629325e-003	-3.028241e-003	9.913094e-001	-1.408363e-001	9.911634e-001	-1.405351e-001	3.104918e-003	-2.726582e-003
7692312.308	3.487469e-003	-3.105830e-003	9.911222e-001	-1.419450e-001	9.908902e-001	-1.418037e-001	3.163667e-003	-2.842640e-003
7754851.391	3.462449e-003	-3.288148e-003	9.909345e-001	-1.431379e-001	9.906304e-001	-1.427343e-001	3.096132e-003	-2.734769e-003
7817390.475	3.537570e-003	-3.112300e-003	9.907770e-001	-1.444365e-001	9.905022e-001	-1.441247e-001	3.018581e-003	-2.644469e-003
7879929.559	3.444197e-003	-3.320077e-003	9.905413e-001	-1.455587e-001	9.903322e-001	-1.454425e-001	3.134149e-003	-2.688822e-003
7942468.643	3.381482e-003	-3.397388e-003	9.904578e-001	-1.466222e-001	9.902575e-001	-1.465169e-001	3.103288e-003	-2.887639e-003
8005007.727	3.484532e-003	-3.403913e-003	9.901811e-001	-1.478211e-001	9.901461e-001	-1.476453e-001	3.006210e-003	-2.693982e-003
8067546.811	3.313583e-003	-3.388739e-003	9.900762e-001	-1.489096e-001	9.897702e-001	-1.487046e-001	2.917241e-003	-2.925394e-003
8130085.894	3.379591e-003	-3.483320e-003	9.898332e-001	-1.499824e-001	9.896824e-001	-1.498564e-001	3.121403e-003	-3.002727e-003
8192624.978	3.220003e-003	-3.563667e-003	9.895537e-001	-1.512984e-001	9.895355e-001	-1.509837e-001	3.167173e-003	-3.031977e-003
8255164.062	3.325673e-003	-3.575720e-003	9.894991e-001	-1.524075e-001	9.892918e-001	-1.521841e-001	3.125722e-003	-3.107257e-003
8317703.146	3.189888e-003	-3.474283e-003	9.893803e-001	-1.535362e-001	9.892585e-001	-1.533172e-001	2.932260e-003	-3.089057e-003
8380242.230	3.299920e-003	-3.753819e-003	9.890348e-001	-1.548084e-001	9.889309e-001	-1.544295e-001	2.891879e-003	-3.178386e-003
8442781.313	3.267661e-003	-3.748015e-003	9.891009e-001	-1.558247e-001	9.888201e-001	-1.555515e-001	2.854228e-003	-3.272908e-003
8505320.397	3.245145e-003	-3.638537e-003	9.888395e-001	-1.570171e-001	9.886211e-001	-1.567196e-001	2.788602e-003	-3.257372e-003
8567859.481	3.175803e-003	-3.498775e-003	9.885945e-001	-1.579967e-001	9.885016e-001	-1.578554e-001	2.821970e-003	-3.115448e-003
8630398.565	3.250660e-003	-3.573485e-003	9.882313e-001	-1.591300e-001	9.883094e-001	-1.589390e-001	2.677656e-003	-3.384200e-003
8692937.649	3.178256e-003	-3.820706e-003	9.881570e-001	-1.602656e-001	9.879206e-001	-1.601716e-001	2.605398e-003	-3.316291e-003
8755476.732	3.170349e-003	-3.771915e-003	9.880239e-001	-1.615249e-001	9.878015e-001	-1.611781e-001	2.659250e-003	-3.328039e-003
8818015.816	3.059418e-003	-3.849970e-003	9.877341e-001	-1.626474e-001	9.874562e-001	-1.623886e-001	2.762118e-003	-3.449608e-003
8880554.900	3.249857e-003	-3.820682e-003	9.877050e-001	-1.638570e-001	9.875491e-001	-1.633937e-001	2.609358e-003	-3.623949e-003
8943093.984	3.073913e-003	-3.758878e-003	9.874675e-001	-1.649100e-001	9.873944e-001	-1.645645e-001	2.606660e-003	-3.601148e-003
9005633.068	3.114166e-003	-3.872185e-003	9.871635e-001	-1.660900e-001	9.872181e-001	-1.658373e-001	2.488645e-003	-3.766612e-003
9068172.151	2.943469e-003	-3.895363e-003	9.871120e-001	-1.672372e-001	9.868922e-001	-1.668340e-001	2.527628e-003	-3.743119e-003
9130711.235	3.143664e-003	-4.002759e-003	9.867748e-001	-1.683674e-001	9.867494e-001	-1.679791e-001	2.545653e-003	-3.958798e-003
9193250.319	3.114427e-003	-4.049826e-003	9.867680e-001	-1.693754e-001	9.865087e-001	-1.692219e-001	2.464925e-003	-3.909031e-003
9255789.403	2.993632e-003	-4.242408e-003	9.865942e-001	-1.704391e-001	9.863155e-001	-1.702828e-001	2.309587e-003	-3.882246e-003
9318328.487	2.939302e-003	-4.160573e-003	9.863184e-001	-1.718255e-001	9.862448e-001	-1.713958e-001	2.412289e-003	-3.895230e-003
9380867.570	2.920743e-003	-4.066838e-003	9.862101e-001	-1.729676e-001	9.859092e-001	-1.726747e-001	2.387711e-003	-3.949541e-003
9443406.654	2.964187e-003	-4.101088e-003	9.860040e-001	-1.740256e-001	9.858316e-001	-1.738666e-001	2.404170e-003	-4.067911e-003
9505945.738	2.922273e-003	-4.111342e-003	9.856108e-001	-1.753126e-001	9.856963e-001	-1.749970e-001	2.344674e-003	-4.096504e-003
9568484.822	2.940550e-003	-4.184985e-003	9.855505e-001	-1.764227e-001	9.852292e-001	-1.761190e-001	2.123904e-003	-3.875680e-003
9631023.906	2.911718e-003	-4.185605e-003	9.853725e-001	-1.775323e-001	9.850213e-001	-1.772929e-001	2.284530e-003	-4.229066e-003
