!Agilent Technologies,E5061B,MY49102235,A.02.00
!Date: Tue Jul 11 17:10:42 2023
!Data & Calibration Information:
!Freq	S11:SOLT2(ON)	S21:SOLT2(ON)	S12:SOLT2(ON)	S22:SOLT2(ON)
# Hz S RI R 50
5.000	-5.223001e-003	-5.651166e-003	1.002435e+000	7.943664e-003	1.000857e+000	1.029036e-002	-1.489660e-003	-7.562640e-003
62544.084	5.832874e-003	-4.968834e-004	1.001332e+000	5.578310e-004	1.000721e+000	1.253210e-003	7.709110e-003	-2.880125e-003
125083.168	5.708898e-003	-5.026377e-004	1.001022e+000	-8.006184e-004	1.000611e+000	-7.945170e-004	7.493980e-003	-2.270073e-003
187622.251	5.469357e-003	-3.279310e-004	1.000575e+000	-2.232056e-003	1.000864e+000	-9.066543e-004	7.378710e-003	-2.369121e-003
250161.335	5.322734e-003	-1.833659e-004	1.000564e+000	-3.253868e-003	1.000613e+000	-3.172195e-003	7.257026e-003	-2.025198e-003
312700.419	5.439004e-003	5.317654e-004	1.000913e+000	-3.916768e-003	1.000631e+000	-3.533081e-003	7.770426e-003	-2.351966e-003
375239.503	5.311870e-003	-9.983644e-004	1.001196e+000	-5.303560e-003	1.000412e+000	-4.942240e-003	7.257264e-003	-2.505990e-003
437778.587	5.156999e-003	-6.128621e-004	1.001390e+000	-5.465113e-003	1.000996e+000	-6.052071e-003	6.624085e-003	-2.232638e-003
500317.670	4.616748e-003	-4.940661e-004	1.001327e+000	-7.798550e-003	1.001597e+000	-7.492124e-003	4.814960e-003	-2.073983e-003
562856.754	5.913319e-003	-8.155845e-004	1.001543e+000	-9.321712e-003	1.001024e+000	-9.046147e-003	6.023373e-003	-1.572701e-003
625395.838	5.103971e-003	-6.789798e-004	1.002439e+000	-1.047614e-002	1.002088e+000	-9.940062e-003	6.109424e-003	-1.019205e-003
687934.922	5.167753e-003	-1.035254e-003	1.001481e+000	-1.135627e-002	1.001203e+000	-1.144705e-002	5.749233e-003	-1.500264e-003
750474.006	4.277319e-003	-6.991509e-004	1.001133e+000	-1.098268e-002	1.000564e+000	-1.026633e-002	5.463009e-003	-1.372175e-003
813013.089	4.446204e-003	-6.850217e-004	1.001398e+000	-1.269958e-002	1.000397e+000	-1.198876e-002	4.813862e-003	-1.208626e-003
875552.173	4.186860e-003	-5.356246e-004	1.001304e+000	-1.357073e-002	1.000713e+000	-1.334922e-002	5.616105e-003	-1.612491e-003
938091.257	4.261120e-003	-4.718915e-004	1.001614e+000	-1.508634e-002	1.000953e+000	-1.437975e-002	5.841816e-003	-1.051081e-003
1000630.341	3.710151e-003	-8.283476e-004	1.001139e+000	-1.652386e-002	1.000875e+000	-1.582838e-002	5.099310e-003	-1.756995e-003
1063169.425	4.074925e-003	-1.001221e-003	1.001390e+000	-1.793873e-002	1.000774e+000	-1.665515e-002	4.272471e-003	-2.084835e-003
1125708.508	3.953310e-003	-9.566248e-004	1.001234e+000	-1.915594e-002	1.000636e+000	-1.797862e-002	3.778934e-003	-1.803435e-003
1188247.592	4.492458e-003	-1.416874e-003	1.001365e+000	-2.026327e-002	1.000952e+000	-1.910100e-002	2.674901e-003	-2.378912e-003
1250786.676	4.344485e-003	-2.164777e-003	1.000846e+000	-2.014224e-002	1.000555e+000	-1.985086e-002	1.939212e-003	-4.055682e-003
1313325.760	4.440829e-003	-2.274799e-003	1.001253e+000	-2.158990e-002	1.000943e+000	-2.137267e-002	2.666304e-003	-3.866368e-003
1375864.844	4.182345e-003	-2.478446e-003	1.000969e+000	-2.350457e-002	1.000349e+000	-2.312397e-002	2.527295e-003	-3.589739e-003
1438403.927	4.064993e-003	-2.651501e-003	1.000948e+000	-2.425395e-002	1.000816e+000	-2.307702e-002	2.610012e-003	-3.331374e-003
1500943.011	4.291696e-003	-2.584169e-003	1.001569e+000	-2.508917e-002	1.001368e+000	-2.451911e-002	2.968704e-003	-3.748565e-003
1563482.095	4.291641e-003	-2.961864e-003	1.001319e+000	-2.647506e-002	1.000583e+000	-2.523613e-002	3.085941e-003	-3.553356e-003
1626021.179	4.103570e-003	-2.848742e-003	1.001004e+000	-2.774446e-002	1.000840e+000	-2.771068e-002	3.363047e-003	-3.610397e-003
1688560.263	3.785300e-003	-2.802395e-003	1.000694e+000	-2.942413e-002	1.001291e+000	-2.902516e-002	3.535501e-003	-3.641937e-003
1751099.346	3.916567e-003	-2.707228e-003	1.001208e+000	-3.051689e-002	1.000692e+000	-2.951492e-002	3.353030e-003	-2.813523e-003
1813638.430	3.576327e-003	-2.768210e-003	1.001590e+000	-3.207360e-002	1.000861e+000	-3.135731e-002	3.523473e-003	-3.202001e-003
1876177.514	3.608879e-003	-2.480598e-003	1.001973e+000	-3.292922e-002	1.001280e+000	-3.309261e-002	3.192033e-003	-2.555329e-003
1938716.598	3.065925e-003	-2.421255e-003	1.002076e+000	-3.386642e-002	1.001237e+000	-3.282927e-002	3.359868e-003	-2.170197e-003
2001255.682	2.963644e-003	-2.914414e-003	1.002057e+000	-3.514469e-002	1.001280e+000	-3.446897e-002	3.111785e-003	-2.639679e-003
2063794.765	3.062929e-003	-2.537510e-003	1.001603e+000	-3.619390e-002	1.000633e+000	-3.616524e-002	3.498625e-003	-2.742014e-003
2126333.849	2.593753e-003	-3.077014e-003	1.001086e+000	-3.739996e-002	1.000144e+000	-3.641938e-002	3.759851e-003	-2.501249e-003
2188872.933	3.084816e-003	-3.088364e-003	1.000795e+000	-3.861506e-002	1.000098e+000	-3.743524e-002	3.635321e-003	-2.556516e-003
2251412.017	3.181087e-003	-3.463736e-003	1.000590e+000	-4.009782e-002	1.000193e+000	-3.855599e-002	3.625977e-003	-2.688043e-003
2313951.101	3.501178e-003	-3.050559e-003	1.000120e+000	-4.119537e-002	1.000189e+000	-3.943094e-002	3.930283e-003	-2.766150e-003
2376490.184	3.244645e-003	-3.096624e-003	9.999972e-001	-4.145797e-002	1.000046e+000	-4.129890e-002	3.880871e-003	-2.780803e-003
2439029.268	3.705221e-003	-3.155719e-003	9.999879e-001	-4.329765e-002	9.992210e-001	-4.237879e-002	3.545404e-003	-2.689606e-003
2501568.352	3.655969e-003	-3.162784e-003	9.996581e-001	-4.341585e-002	1.000158e+000	-4.287800e-002	3.836504e-003	-2.735622e-003
2564107.436	3.577094e-003	-3.335152e-003	1.000009e+000	-4.518834e-002	9.999310e-001	-4.442705e-002	3.150138e-003	-3.123945e-003
2626646.520	4.070776e-003	-3.517901e-003	9.999061e-001	-4.626569e-002	9.988555e-001	-4.565859e-002	3.404576e-003	-3.205777e-003
2689185.604	4.009644e-003	-3.382863e-003	1.000119e+000	-4.711440e-002	9.995837e-001	-4.652334e-002	3.527537e-003	-3.172341e-003
2751724.687	4.121117e-003	-3.489582e-003	1.000052e+000	-4.776981e-002	9.995122e-001	-4.718407e-002	3.123049e-003	-3.219086e-003
2814263.771	4.060977e-003	-3.579138e-003	9.991401e-001	-4.965214e-002	9.992163e-001	-4.851572e-002	3.101561e-003	-3.372001e-003
2876802.855	4.014234e-003	-3.808624e-003	9.992956e-001	-5.098299e-002	9.991003e-001	-4.956429e-002	3.169535e-003	-3.261779e-003
2939341.939	4.131751e-003	-3.747078e-003	9.998705e-001	-5.148398e-002	9.990256e-001	-5.110797e-002	3.069604e-003	-3.381461e-003
3001881.023	4.048121e-003	-3.763683e-003	9.994679e-001	-5.257997e-002	9.991138e-001	-5.204535e-002	3.147811e-003	-3.540148e-003
3064420.106	4.084616e-003	-3.827768e-003	1.000017e+000	-5.366832e-002	9.989278e-001	-5.308861e-002	2.988669e-003	-3.691160e-003
3126959.190	4.283640e-003	-3.941245e-003	9.996175e-001	-5.483496e-002	9.991921e-001	-5.428714e-002	3.162463e-003	-3.775408e-003
3189498.274	4.270159e-003	-3.953725e-003	9.994963e-001	-5.579882e-002	9.990714e-001	-5.537920e-002	3.145199e-003	-3.867043e-003
3252037.358	4.174069e-003	-4.342239e-003	9.995962e-001	-5.696837e-002	9.991270e-001	-5.641801e-002	3.080892e-003	-3.844221e-003
3314576.442	4.182052e-003	-4.200987e-003	9.994661e-001	-5.800616e-002	9.990030e-001	-5.757498e-002	3.137208e-003	-3.982097e-003
3377115.525	4.152403e-003	-4.226313e-003	9.993093e-001	-5.900459e-002	9.987638e-001	-5.881712e-002	2.979879e-003	-4.152511e-003
3439654.609	4.154075e-003	-4.325984e-003	9.990769e-001	-6.014669e-002	9.990209e-001	-5.978668e-002	3.004992e-003	-3.991013e-003
3502193.693	4.120432e-003	-4.668032e-003	9.990836e-001	-6.136353e-002	9.986922e-001	-6.075647e-002	3.148726e-003	-4.076858e-003
3564732.777	4.152598e-003	-4.568930e-003	9.991256e-001	-6.236296e-002	9.987129e-001	-6.193446e-002	3.253338e-003	-4.088550e-003
3627271.861	3.996145e-003	-4.750945e-003	9.991669e-001	-6.358016e-002	9.987363e-001	-6.289367e-002	3.015449e-003	-4.347523e-003
3689810.944	3.901909e-003	-4.905432e-003	9.989714e-001	-6.464512e-002	9.986389e-001	-6.399125e-002	3.169516e-003	-4.376432e-003
3752350.028	4.012105e-003	-4.932852e-003	9.988628e-001	-6.549391e-002	9.984222e-001	-6.502432e-002	3.089510e-003	-4.473607e-003
3814889.112	4.116280e-003	-4.849489e-003	9.987078e-001	-6.667253e-002	9.986291e-001	-6.639181e-002	3.005636e-003	-4.660662e-003
3877428.196	4.052280e-003	-4.885874e-003	9.988506e-001	-6.783257e-002	9.984797e-001	-6.724653e-002	3.330183e-003	-4.690773e-003
3939967.280	4.014920e-003	-5.231899e-003	9.987348e-001	-6.895760e-002	9.985207e-001	-6.836972e-002	3.296025e-003	-4.661013e-003
4002506.363	4.076800e-003	-5.151063e-003	9.987257e-001	-7.001879e-002	9.983644e-001	-6.933444e-002	3.241059e-003	-4.798267e-003
4065045.447	3.898512e-003	-5.304813e-003	9.984606e-001	-7.115525e-002	9.981605e-001	-7.055826e-002	3.314454e-003	-4.961038e-003
4127584.531	3.860086e-003	-5.382352e-003	9.983507e-001	-7.222093e-002	9.981485e-001	-7.152083e-002	3.331142e-003	-4.908877e-003
4190123.615	3.898767e-003	-5.419445e-003	9.983940e-001	-7.348385e-002	9.979686e-001	-7.277807e-002	3.231492e-003	-5.204130e-003
4252662.699	3.851701e-003	-5.570550e-003	9.984436e-001	-7.459624e-002	9.978686e-001	-7.400596e-002	3.326170e-003	-5.230253e-003
4315201.782	3.983035e-003	-5.679031e-003	9.983378e-001	-7.542785e-002	9.980631e-001	-7.511286e-002	3.146118e-003	-5.508649e-003
4377740.866	3.881123e-003	-5.761247e-003	9.983028e-001	-7.669431e-002	9.977320e-001	-7.616699e-002	3.311162e-003	-5.273368e-003
4440279.950	3.773542e-003	-5.975577e-003	9.981672e-001	-7.764236e-002	9.975753e-001	-7.713884e-002	3.190580e-003	-5.510190e-003
4502819.034	3.757155e-003	-5.916763e-003	9.978625e-001	-7.885256e-002	9.976617e-001	-7.823397e-002	3.265697e-003	-5.435008e-003
4565358.118	3.661112e-003	-6.041153e-003	9.978218e-001	-7.988845e-002	9.973886e-001	-7.911561e-002	3.267742e-003	-5.616251e-003
4627897.201	3.837327e-003	-5.976131e-003	9.979065e-001	-8.096228e-002	9.974104e-001	-8.023474e-002	3.364199e-003	-5.575471e-003
4690436.285	3.652268e-003	-6.184589e-003	9.978594e-001	-8.209515e-002	9.973726e-001	-8.173125e-002	3.354160e-003	-5.856180e-003
4752975.369	3.652226e-003	-6.264862e-003	9.975130e-001	-8.331022e-002	9.973692e-001	-8.269491e-002	3.166769e-003	-5.976570e-003
4815514.453	3.763362e-003	-6.335042e-003	9.976576e-001	-8.424722e-002	9.972554e-001	-8.385441e-002	3.374924e-003	-5.954396e-003
4878053.537	3.860079e-003	-6.505336e-003	9.976101e-001	-8.530615e-002	9.971603e-001	-8.480629e-002	3.340624e-003	-6.107786e-003
4940592.620	3.588288e-003	-6.543919e-003	9.973849e-001	-8.650875e-002	9.970732e-001	-8.595292e-002	3.095981e-003	-6.227219e-003
5003131.704	3.654541e-003	-6.761601e-003	9.972330e-001	-8.756080e-002	9.970839e-001	-8.683052e-002	3.215557e-003	-6.350154e-003
5065670.788	3.559510e-003	-6.640597e-003	9.971446e-001	-8.868015e-002	9.968741e-001	-8.803724e-002	3.173690e-003	-6.394601e-003
5128209.872	3.681921e-003	-6.851001e-003	9.972521e-001	-8.977943e-002	9.967789e-001	-8.908571e-002	3.146664e-003	-6.685323e-003
5190748.956	3.593840e-003	-6.949874e-003	9.970443e-001	-9.088153e-002	9.967771e-001	-9.035578e-002	3.102549e-003	-6.623459e-003
5253288.039	3.617436e-003	-7.079225e-003	9.970416e-001	-9.196156e-002	9.967014e-001	-9.139288e-002	3.027480e-003	-6.637492e-003
5315827.123	3.581903e-003	-7.225750e-003	9.967693e-001	-9.304590e-002	9.965538e-001	-9.254664e-002	3.000039e-003	-6.817675e-003
5378366.207	3.658098e-003	-7.251548e-003	9.968320e-001	-9.417435e-002	9.965182e-001	-9.381193e-002	2.984734e-003	-6.995398e-003
5440905.291	3.465745e-003	-7.259067e-003	9.968040e-001	-9.523781e-002	9.964149e-001	-9.474318e-002	2.858287e-003	-7.034258e-003
5503444.375	3.665872e-003	-7.496829e-003	9.966281e-001	-9.640069e-002	9.963768e-001	-9.571406e-002	3.052474e-003	-7.195735e-003
5565983.458	3.295308e-003	-7.468246e-003	9.965653e-001	-9.736643e-002	9.962634e-001	-9.675045e-002	2.960105e-003	-7.127644e-003
5628522.542	3.546853e-003	-7.621620e-003	9.964995e-001	-9.838430e-002	9.961471e-001	-9.801905e-002	2.992433e-003	-7.327775e-003
5691061.626	3.613240e-003	-7.892189e-003	9.962898e-001	-9.971719e-002	9.960068e-001	-9.910322e-002	2.885053e-003	-7.364764e-003
5753600.710	3.450919e-003	-7.892357e-003	9.961493e-001	-1.006887e-001	9.959429e-001	-1.001698e-001	2.942597e-003	-7.587384e-003
5816139.794	3.523160e-003	-7.790470e-003	9.961179e-001	-1.018227e-001	9.956455e-001	-1.014342e-001	2.776598e-003	-7.631813e-003
5878678.877	3.433987e-003	-8.113565e-003	9.959788e-001	-1.029255e-001	9.956376e-001	-1.024172e-001	2.867723e-003	-7.859241e-003
5941217.961	3.406614e-003	-8.275114e-003	9.957961e-001	-1.041132e-001	9.955385e-001	-1.033446e-001	2.665627e-003	-7.849451e-003
6003757.045	3.234553e-003	-8.141778e-003	9.955828e-001	-1.050407e-001	9.954156e-001	-1.043832e-001	2.793624e-003	-7.959983e-003
6066296.129	3.368990e-003	-8.427497e-003	9.956816e-001	-1.061473e-001	9.953415e-001	-1.054814e-001	2.749094e-003	-8.076565e-003
6128835.213	3.443567e-003	-8.481196e-003	9.955393e-001	-1.069644e-001	9.954046e-001	-1.066810e-001	2.830658e-003	-8.171992e-003
6191374.296	3.369821e-003	-8.598270e-003	9.954099e-001	-1.083359e-001	9.950350e-001	-1.079337e-001	2.654617e-003	-8.166201e-003
6253913.380	3.269415e-003	-8.571518e-003	9.953147e-001	-1.094456e-001	9.949846e-001	-1.088713e-001	2.524739e-003	-8.154182e-003
6316452.464	3.217821e-003	-8.590115e-003	9.952474e-001	-1.103829e-001	9.947607e-001	-1.101663e-001	2.561375e-003	-8.467693e-003
6378991.548	3.178920e-003	-8.834559e-003	9.950860e-001	-1.118582e-001	9.948198e-001	-1.110911e-001	2.606954e-003	-8.680584e-003
6441530.632	3.102257e-003	-8.998828e-003	9.948874e-001	-1.126363e-001	9.946366e-001	-1.122954e-001	2.632916e-003	-8.658872e-003
6504069.715	3.087194e-003	-9.118610e-003	9.947444e-001	-1.139654e-001	9.946783e-001	-1.133624e-001	2.628550e-003	-8.747056e-003
6566608.799	3.221744e-003	-9.263263e-003	9.947743e-001	-1.150787e-001	9.944352e-001	-1.144859e-001	2.516735e-003	-8.652430e-003
6629147.883	3.144113e-003	-9.218936e-003	9.945789e-001	-1.158666e-001	9.942600e-001	-1.155687e-001	2.587945e-003	-8.888391e-003
6691686.967	3.015305e-003	-9.301298e-003	9.943661e-001	-1.171072e-001	9.940790e-001	-1.166428e-001	2.606728e-003	-8.896714e-003
6754226.051	2.953240e-003	-9.418014e-003	9.942111e-001	-1.182786e-001	9.938893e-001	-1.178853e-001	2.382377e-003	-9.202174e-003
6816765.134	3.030974e-003	-9.518336e-003	9.941625e-001	-1.192891e-001	9.938945e-001	-1.188472e-001	2.426751e-003	-9.095772e-003
6879304.218	2.893607e-003	-9.770531e-003	9.939210e-001	-1.204153e-001	9.938191e-001	-1.198832e-001	2.399273e-003	-9.252945e-003
6941843.302	2.968596e-003	-9.694334e-003	9.938139e-001	-1.215369e-001	9.936393e-001	-1.209549e-001	2.371392e-003	-9.260123e-003
7004382.386	2.748851e-003	-9.730497e-003	9.937492e-001	-1.225274e-001	9.934409e-001	-1.220483e-001	2.264527e-003	-9.315008e-003
7066921.470	2.819337e-003	-9.864611e-003	9.935160e-001	-1.237813e-001	9.933933e-001	-1.229550e-001	2.410748e-003	-9.560700e-003
7129460.553	2.711800e-003	-1.008381e-002	9.934851e-001	-1.246496e-001	9.932168e-001	-1.241916e-001	2.396144e-003	-9.597463e-003
7191999.637	2.672682e-003	-9.921092e-003	9.931478e-001	-1.258618e-001	9.929525e-001	-1.252704e-001	2.236871e-003	-9.684771e-003
7254538.721	2.710318e-003	-1.013417e-002	9.933191e-001	-1.269812e-001	9.929797e-001	-1.264155e-001	2.253902e-003	-9.754651e-003
7317077.805	2.871472e-003	-1.025655e-002	9.930702e-001	-1.279302e-001	9.928399e-001	-1.274291e-001	2.229247e-003	-9.962315e-003
7379616.889	2.713808e-003	-1.033652e-002	9.931166e-001	-1.292569e-001	9.926412e-001	-1.285346e-001	2.161280e-003	-1.002312e-002
7442155.972	2.534220e-003	-1.043027e-002	9.927714e-001	-1.301531e-001	9.925521e-001	-1.296053e-001	2.227941e-003	-9.903633e-003
7504695.056	2.556702e-003	-1.061541e-002	9.925660e-001	-1.311641e-001	9.922654e-001	-1.308325e-001	2.223881e-003	-9.923713e-003
7567234.140	2.719440e-003	-1.077389e-002	9.925211e-001	-1.322424e-001	9.921484e-001	-1.318562e-001	2.135326e-003	-1.012440e-002
7629773.224	2.589653e-003	-1.057108e-002	9.924464e-001	-1.335273e-001	9.921391e-001	-1.328963e-001	2.042595e-003	-1.025746e-002
7692312.308	2.433299e-003	-1.072490e-002	9.922552e-001	-1.345659e-001	9.918922e-001	-1.340912e-001	2.080620e-003	-1.043806e-002
7754851.391	2.395223e-003	-1.096685e-002	9.920754e-001	-1.356668e-001	9.916315e-001	-1.349595e-001	1.997779e-003	-1.037743e-002
7817390.475	2.458613e-003	-1.085265e-002	9.919737e-001	-1.369063e-001	9.915505e-001	-1.362988e-001	1.890208e-003	-1.036101e-002
7879929.559	2.344183e-003	-1.112209e-002	9.917082e-001	-1.379833e-001	9.913808e-001	-1.375646e-001	1.998514e-003	-1.045558e-002
7942468.643	2.268843e-003	-1.126749e-002	9.916587e-001	-1.389506e-001	9.913525e-001	-1.385695e-001	1.955042e-003	-1.070795e-002
8005007.727	2.354843e-003	-1.132765e-002	9.914387e-001	-1.401391e-001	9.912044e-001	-1.396134e-001	1.833164e-003	-1.058218e-002
8067546.811	2.173812e-003	-1.137223e-002	9.912754e-001	-1.411867e-001	9.908916e-001	-1.406517e-001	1.722511e-003	-1.088028e-002
8130085.894	2.219858e-003	-1.153547e-002	9.911080e-001	-1.421879e-001	9.908023e-001	-1.418018e-001	1.914593e-003	-1.100908e-002
8192624.978	2.024879e-003	-1.166770e-002	9.908141e-001	-1.434320e-001	9.906661e-001	-1.428255e-001	1.931224e-003	-1.111002e-002
8255164.062	2.130327e-003	-1.173931e-002	9.907635e-001	-1.444448e-001	9.904430e-001	-1.439412e-001	1.874757e-003	-1.124702e-002
8317703.146	1.969674e-003	-1.171052e-002	9.906457e-001	-1.455709e-001	9.904272e-001	-1.450226e-001	1.682556e-003	-1.127264e-002
8380242.230	2.068410e-003	-1.203924e-002	9.903334e-001	-1.467258e-001	9.901626e-001	-1.460526e-001	1.609948e-003	-1.142059e-002
8442781.313	2.008597e-003	-1.208758e-002	9.904376e-001	-1.476952e-001	9.900219e-001	-1.471028e-001	1.566174e-003	-1.159361e-002
8505320.397	1.972286e-003	-1.203886e-002	9.901976e-001	-1.488768e-001	9.898561e-001	-1.482703e-001	1.484430e-003	-1.163702e-002
8567859.481	1.892839e-003	-1.197278e-002	9.899635e-001	-1.497787e-001	9.897826e-001	-1.492963e-001	1.489253e-003	-1.154338e-002
8630398.565	1.939204e-003	-1.211177e-002	9.896431e-001	-1.508353e-001	9.895591e-001	-1.503351e-001	1.333247e-003	-1.188821e-002
8692937.649	1.855939e-003	-1.241990e-002	9.895753e-001	-1.519223e-001	9.892405e-001	-1.514851e-001	1.242109e-003	-1.187232e-002
8755476.732	1.845579e-003	-1.244342e-002	9.894472e-001	-1.531306e-001	9.890800e-001	-1.524499e-001	1.274378e-003	-1.195315e-002
8818015.816	1.692125e-003	-1.255577e-002	9.892015e-001	-1.541706e-001	9.887757e-001	-1.535925e-001	1.352075e-003	-1.211956e-002
8880554.900	1.869055e-003	-1.260270e-002	9.891520e-001	-1.553376e-001	9.889041e-001	-1.545301e-001	1.179882e-003	-1.237562e-002
8943093.984	1.669044e-003	-1.258805e-002	9.889677e-001	-1.562949e-001	9.887215e-001	-1.556633e-001	1.174876e-003	-1.240644e-002
9005633.068	1.689807e-003	-1.277647e-002	9.886628e-001	-1.574528e-001	9.886106e-001	-1.568636e-001	1.045570e-003	-1.262109e-002
9068172.151	1.498204e-003	-1.286419e-002	9.886504e-001	-1.585308e-001	9.882817e-001	-1.578130e-001	1.052471e-003	-1.265867e-002
9130711.235	1.685827e-003	-1.301787e-002	9.883884e-001	-1.595876e-001	9.881706e-001	-1.588806e-001	1.067137e-003	-1.294276e-002
9193250.319	1.640338e-003	-1.312970e-002	9.882944e-001	-1.605375e-001	9.879460e-001	-1.600703e-001	9.562247e-004	-1.294450e-002
9255789.403	1.499406e-003	-1.337665e-002	9.881912e-001	-1.615232e-001	9.877600e-001	-1.610832e-001	7.895110e-004	-1.297916e-002
9318328.487	1.418079e-003	-1.336992e-002	9.879260e-001	-1.628969e-001	9.877343e-001	-1.620969e-001	8.615697e-004	-1.307220e-002
9380867.570	1.390831e-003	-1.333861e-002	9.878162e-001	-1.639704e-001	9.873946e-001	-1.633584e-001	8.147984e-004	-1.317183e-002
9443406.654	1.399020e-003	-1.342827e-002	9.876698e-001	-1.649565e-001	9.873428e-001	-1.644777e-001	8.147228e-004	-1.335016e-002
9505945.738	1.341492e-003	-1.349126e-002	9.872520e-001	-1.661917e-001	9.872262e-001	-1.655443e-001	7.311180e-004	-1.343692e-002
9568484.822	1.350875e-003	-1.361955e-002	9.872592e-001	-1.672008e-001	9.868122e-001	-1.666325e-001	4.936512e-004	-1.328159e-002
