!Agilent Technologies,E5061B,MY49102235,A.02.00
!Date: Tue Jul 11 17:11:07 2023
!Data & Calibration Information:
!Freq	S11:SOLT2(ON)	S21:SOLT2(ON)	S12:SOLT2(ON)	S22:SOLT2(ON)
# Hz S RI R 50
5.000	-5.196724e-003	-5.654390e-003	1.002464e+000	7.910308e-003	1.000813e+000	1.028018e-002	-1.423933e-003	-7.563418e-003
62544.084	5.822760e-003	-4.947418e-004	1.001441e+000	5.511315e-004	1.000746e+000	1.188895e-003	7.691068e-003	-2.886769e-003
125083.168	5.704888e-003	-4.921800e-004	1.001002e+000	-7.307301e-004	1.000634e+000	-7.263840e-004	7.499695e-003	-2.288369e-003
187622.251	5.467108e-003	-3.297046e-004	1.000487e+000	-2.287450e-003	1.000957e+000	-7.828928e-004	7.385029e-003	-2.379316e-003
250161.335	5.304275e-003	-1.956724e-004	1.000615e+000	-3.221000e-003	1.000675e+000	-3.122185e-003	7.254904e-003	-2.044691e-003
312700.419	5.451619e-003	5.227684e-004	1.000904e+000	-3.875969e-003	1.000619e+000	-3.443824e-003	7.770028e-003	-2.356544e-003
375239.503	5.320098e-003	-1.014685e-003	1.001226e+000	-5.219688e-003	1.000489e+000	-4.859633e-003	7.256948e-003	-2.530566e-003
437778.587	5.160353e-003	-6.172721e-004	1.001523e+000	-5.418547e-003	1.000892e+000	-6.034815e-003	6.630755e-003	-2.231173e-003
500317.670	4.615770e-003	-5.054213e-004	1.001317e+000	-7.773725e-003	1.001546e+000	-7.341760e-003	4.821135e-003	-2.094615e-003
562856.754	5.935965e-003	-8.036863e-004	1.001420e+000	-9.321198e-003	1.001133e+000	-9.132326e-003	6.009246e-003	-1.570768e-003
625395.838	5.121375e-003	-6.835408e-004	1.002288e+000	-1.053911e-002	1.002065e+000	-9.992811e-003	6.113162e-003	-1.019752e-003
687934.922	5.152473e-003	-1.027920e-003	1.001445e+000	-1.140270e-002	1.001279e+000	-1.151365e-002	5.733928e-003	-1.506899e-003
750474.006	4.306974e-003	-7.216339e-004	1.001126e+000	-1.109107e-002	1.000535e+000	-1.045144e-002	5.457615e-003	-1.390656e-003
813013.089	4.449013e-003	-6.966227e-004	1.001488e+000	-1.276167e-002	1.000439e+000	-1.198960e-002	4.816644e-003	-1.213693e-003
875552.173	4.191049e-003	-5.405371e-004	1.001554e+000	-1.372754e-002	1.000647e+000	-1.325330e-002	5.602954e-003	-1.618654e-003
938091.257	4.259547e-003	-4.744203e-004	1.001629e+000	-1.512496e-002	1.000934e+000	-1.434806e-002	5.840240e-003	-1.060469e-003
1000630.341	3.708297e-003	-8.407244e-004	1.001100e+000	-1.666564e-002	1.000878e+000	-1.574759e-002	5.093010e-003	-1.769342e-003
1063169.425	4.069276e-003	-1.009291e-003	1.001314e+000	-1.797112e-002	1.000508e+000	-1.662624e-002	4.255164e-003	-2.097505e-003
1125708.508	3.939576e-003	-9.698373e-004	1.001233e+000	-1.900459e-002	1.000568e+000	-1.797073e-002	3.772447e-003	-1.821627e-003
1188247.592	4.499088e-003	-1.428594e-003	1.001348e+000	-2.029555e-002	1.000937e+000	-1.907473e-002	2.668033e-003	-2.392599e-003
1250786.676	4.321267e-003	-2.176057e-003	1.000891e+000	-2.000690e-002	1.000567e+000	-1.982844e-002	1.931757e-003	-4.068868e-003
1313325.760	4.439396e-003	-2.285949e-003	1.001260e+000	-2.175390e-002	1.000850e+000	-2.140920e-002	2.676247e-003	-3.877259e-003
1375864.844	4.174063e-003	-2.493045e-003	1.000980e+000	-2.368942e-002	1.000490e+000	-2.304070e-002	2.523379e-003	-3.599910e-003
1438403.927	4.075922e-003	-2.659942e-003	1.001012e+000	-2.423998e-002	1.000673e+000	-2.300347e-002	2.603389e-003	-3.356397e-003
1500943.011	4.299534e-003	-2.605467e-003	1.001641e+000	-2.516156e-002	1.001246e+000	-2.451775e-002	2.953629e-003	-3.774297e-003
1563482.095	4.294753e-003	-2.993975e-003	1.001190e+000	-2.647200e-002	1.000372e+000	-2.514594e-002	3.094026e-003	-3.591541e-003
1626021.179	4.090929e-003	-2.872648e-003	1.001061e+000	-2.766236e-002	1.000907e+000	-2.768140e-002	3.362389e-003	-3.635746e-003
1688560.263	3.795509e-003	-2.824895e-003	1.000643e+000	-2.950879e-002	1.001264e+000	-2.888700e-002	3.542996e-003	-3.659950e-003
1751099.346	3.926674e-003	-2.726924e-003	1.001365e+000	-3.065521e-002	1.000708e+000	-2.940311e-002	3.343971e-003	-2.818929e-003
1813638.430	3.580501e-003	-2.790820e-003	1.001658e+000	-3.211861e-002	1.000938e+000	-3.136073e-002	3.531642e-003	-3.225315e-003
1876177.514	3.608683e-003	-2.505764e-003	1.001923e+000	-3.295423e-002	1.001220e+000	-3.300424e-002	3.186496e-003	-2.579667e-003
1938716.598	3.062186e-003	-2.448300e-003	1.002059e+000	-3.370900e-002	1.001430e+000	-3.272587e-002	3.353534e-003	-2.192468e-003
2001255.682	2.964769e-003	-2.945697e-003	1.001997e+000	-3.528744e-002	1.001305e+000	-3.434004e-002	3.114715e-003	-2.668320e-003
2063794.765	3.046700e-003	-2.565771e-003	1.001658e+000	-3.626450e-002	1.000628e+000	-3.600432e-002	3.492105e-003	-2.761408e-003
2126333.849	2.604111e-003	-3.104245e-003	1.001039e+000	-3.749847e-002	1.000115e+000	-3.650869e-002	3.763430e-003	-2.529361e-003
2188872.933	3.085857e-003	-3.117043e-003	1.000828e+000	-3.860485e-002	1.000162e+000	-3.749839e-002	3.637338e-003	-2.585124e-003
2251412.017	3.185216e-003	-3.493927e-003	1.000738e+000	-4.016566e-002	1.000204e+000	-3.844966e-002	3.620600e-003	-2.716576e-003
2313951.101	3.496481e-003	-3.084761e-003	1.000088e+000	-4.117630e-002	1.000190e+000	-3.942656e-002	3.921201e-003	-2.795916e-003
2376490.184	3.238170e-003	-3.128792e-003	1.000069e+000	-4.147548e-002	1.000106e+000	-4.126718e-002	3.892872e-003	-2.815009e-003
2439029.268	3.702273e-003	-3.183608e-003	9.998716e-001	-4.326999e-002	9.993089e-001	-4.234336e-002	3.545814e-003	-2.731628e-003
2501568.352	3.654624e-003	-3.196074e-003	9.997043e-001	-4.341308e-002	1.000178e+000	-4.287985e-002	3.838217e-003	-2.758769e-003
2564107.436	3.580553e-003	-3.362138e-003	9.999535e-001	-4.511441e-002	9.998336e-001	-4.447761e-002	3.141234e-003	-3.160292e-003
2626646.520	4.059057e-003	-3.562518e-003	9.997439e-001	-4.621375e-002	9.986879e-001	-4.560748e-002	3.391936e-003	-3.252932e-003
2689185.604	4.005801e-003	-3.410195e-003	1.000242e+000	-4.699078e-002	9.995118e-001	-4.638040e-002	3.511043e-003	-3.201182e-003
2751724.687	4.105674e-003	-3.529878e-003	9.999740e-001	-4.774461e-002	9.994046e-001	-4.709975e-002	3.121225e-003	-3.265633e-003
2814263.771	4.066754e-003	-3.612946e-003	9.992459e-001	-4.959846e-002	9.992520e-001	-4.846108e-002	3.095688e-003	-3.401211e-003
2876802.855	4.003432e-003	-3.846407e-003	9.991551e-001	-5.096585e-002	9.992688e-001	-4.949109e-002	3.165651e-003	-3.310482e-003
2939341.939	4.114128e-003	-3.783769e-003	9.997629e-001	-5.146327e-002	9.991140e-001	-5.103816e-002	3.065474e-003	-3.422277e-003
3001881.023	4.038697e-003	-3.788407e-003	9.994683e-001	-5.264286e-002	9.989931e-001	-5.210598e-002	3.144127e-003	-3.595192e-003
3064420.106	4.093986e-003	-3.875013e-003	1.000080e+000	-5.352285e-002	9.988874e-001	-5.301178e-002	2.981223e-003	-3.742329e-003
3126959.190	4.285001e-003	-4.001249e-003	9.996111e-001	-5.484179e-002	9.991573e-001	-5.426630e-002	3.153055e-003	-3.822324e-003
3189498.274	4.255455e-003	-3.982648e-003	9.995054e-001	-5.575722e-002	9.990756e-001	-5.535312e-002	3.148795e-003	-3.915737e-003
3252037.358	4.175158e-003	-4.384059e-003	9.995937e-001	-5.695538e-002	9.991049e-001	-5.636167e-002	3.074626e-003	-3.896606e-003
3314576.442	4.193101e-003	-4.244892e-003	9.995047e-001	-5.797430e-002	9.990205e-001	-5.754286e-002	3.133461e-003	-4.019941e-003
3377115.525	4.143839e-003	-4.278115e-003	9.992996e-001	-5.897042e-002	9.987768e-001	-5.874176e-002	2.973091e-003	-4.197227e-003
3439654.609	4.152773e-003	-4.368884e-003	9.990446e-001	-6.008684e-002	9.990246e-001	-5.972350e-002	2.991210e-003	-4.048555e-003
3502193.693	4.107394e-003	-4.724503e-003	9.990848e-001	-6.131460e-002	9.987101e-001	-6.069229e-002	3.161332e-003	-4.119771e-003
3564732.777	4.154936e-003	-4.612279e-003	9.991381e-001	-6.234128e-002	9.986868e-001	-6.188017e-002	3.238581e-003	-4.148272e-003
3627271.861	3.993958e-003	-4.802674e-003	9.991287e-001	-6.352156e-002	9.987407e-001	-6.282469e-002	3.016269e-003	-4.401460e-003
3689810.944	3.901999e-003	-4.964261e-003	9.989890e-001	-6.462496e-002	9.986492e-001	-6.392430e-002	3.163821e-003	-4.421559e-003
3752350.028	4.005975e-003	-4.986191e-003	9.988655e-001	-6.547893e-002	9.984122e-001	-6.494602e-002	3.087259e-003	-4.530844e-003
3814889.112	4.110295e-003	-4.902695e-003	9.987073e-001	-6.661620e-002	9.986140e-001	-6.629318e-002	3.005865e-003	-4.704874e-003
3877428.196	4.038930e-003	-4.935322e-003	9.988432e-001	-6.776096e-002	9.984857e-001	-6.719334e-002	3.315753e-003	-4.746275e-003
3939967.280	4.010386e-003	-5.293632e-003	9.987666e-001	-6.891394e-002	9.985036e-001	-6.829890e-002	3.285884e-003	-4.717324e-003
4002506.363	4.059733e-003	-5.217279e-003	9.986677e-001	-6.998160e-002	9.983933e-001	-6.926323e-002	3.239667e-003	-4.844366e-003
4065045.447	3.887274e-003	-5.362951e-003	9.984264e-001	-7.109470e-002	9.981681e-001	-7.049981e-002	3.309899e-003	-5.019397e-003
4127584.531	3.855563e-003	-5.441826e-003	9.983885e-001	-7.212414e-002	9.981492e-001	-7.148163e-002	3.318257e-003	-4.977727e-003
4190123.615	3.884689e-003	-5.482546e-003	9.984325e-001	-7.345037e-002	9.979568e-001	-7.274488e-002	3.219408e-003	-5.269894e-003
4252662.699	3.845668e-003	-5.636119e-003	9.984396e-001	-7.456295e-002	9.978733e-001	-7.395142e-002	3.328037e-003	-5.298046e-003
4315201.782	3.971762e-003	-5.732857e-003	9.982856e-001	-7.541016e-002	9.980487e-001	-7.502962e-002	3.132103e-003	-5.557040e-003
4377740.866	3.874718e-003	-5.835912e-003	9.983236e-001	-7.667255e-002	9.977284e-001	-7.612924e-002	3.313915e-003	-5.334969e-003
4440279.950	3.769151e-003	-6.033588e-003	9.981887e-001	-7.757330e-002	9.975833e-001	-7.708858e-002	3.193035e-003	-5.575359e-003
4502819.034	3.746329e-003	-5.979017e-003	9.978452e-001	-7.876870e-002	9.976368e-001	-7.816302e-002	3.257253e-003	-5.490690e-003
4565358.118	3.655354e-003	-6.106026e-003	9.978223e-001	-7.983042e-002	9.973678e-001	-7.903895e-002	3.259398e-003	-5.666189e-003
4627897.201	3.827785e-003	-6.050275e-003	9.979481e-001	-8.088257e-002	9.974037e-001	-8.015461e-002	3.355735e-003	-5.638608e-003
4690436.285	3.641518e-003	-6.241715e-003	9.978475e-001	-8.207141e-002	9.973868e-001	-8.165977e-002	3.355752e-003	-5.911958e-003
4752975.369	3.643458e-003	-6.326152e-003	9.975026e-001	-8.329879e-002	9.973547e-001	-8.263237e-002	3.165628e-003	-6.043605e-003
4815514.453	3.765240e-003	-6.403605e-003	9.976588e-001	-8.420787e-002	9.972632e-001	-8.381413e-002	3.374725e-003	-6.015174e-003
4878053.537	3.843505e-003	-6.569436e-003	9.975851e-001	-8.529628e-002	9.971251e-001	-8.473779e-002	3.326998e-003	-6.183027e-003
4940592.620	3.579665e-003	-6.612639e-003	9.973889e-001	-8.641612e-002	9.971150e-001	-8.590609e-002	3.088193e-003	-6.296634e-003
5003131.704	3.635819e-003	-6.833631e-003	9.972725e-001	-8.751007e-002	9.970619e-001	-8.676215e-002	3.207199e-003	-6.419713e-003
5065670.788	3.572298e-003	-6.718229e-003	9.971552e-001	-8.864170e-002	9.968692e-001	-8.792489e-002	3.172695e-003	-6.471557e-003
5128209.872	3.668708e-003	-6.929663e-003	9.972769e-001	-8.971221e-002	9.967792e-001	-8.903186e-002	3.128141e-003	-6.754246e-003
5190748.956	3.559459e-003	-7.013164e-003	9.970263e-001	-9.082770e-002	9.967780e-001	-9.025823e-002	3.092240e-003	-6.717430e-003
5253288.039	3.609308e-003	-7.149198e-003	9.970380e-001	-9.190999e-002	9.967002e-001	-9.133405e-002	3.006610e-003	-6.708475e-003
5315827.123	3.565390e-003	-7.293329e-003	9.967888e-001	-9.293947e-002	9.965389e-001	-9.242720e-002	2.987688e-003	-6.888826e-003
5378366.207	3.644184e-003	-7.322105e-003	9.968450e-001	-9.408441e-002	9.964935e-001	-9.370173e-002	2.977372e-003	-7.072336e-003
5440905.291	3.446911e-003	-7.326255e-003	9.967495e-001	-9.516559e-002	9.964199e-001	-9.464864e-002	2.848249e-003	-7.106460e-003
5503444.375	3.659839e-003	-7.578022e-003	9.966125e-001	-9.634817e-002	9.964150e-001	-9.561794e-002	3.036713e-003	-7.261094e-003
5565983.458	3.297753e-003	-7.537672e-003	9.965742e-001	-9.730838e-002	9.962604e-001	-9.666707e-002	2.954635e-003	-7.192600e-003
5628522.542	3.538567e-003	-7.700962e-003	9.965075e-001	-9.835717e-002	9.961963e-001	-9.788954e-002	2.979493e-003	-7.418515e-003
5691061.626	3.604780e-003	-7.964569e-003	9.963024e-001	-9.965835e-002	9.959964e-001	-9.905150e-002	2.872772e-003	-7.441619e-003
5753600.710	3.432591e-003	-7.973272e-003	9.961188e-001	-1.006184e-001	9.959461e-001	-1.000743e-001	2.916861e-003	-7.676491e-003
5816139.794	3.517801e-003	-7.875931e-003	9.961216e-001	-1.017371e-001	9.956454e-001	-1.013239e-001	2.767156e-003	-7.711113e-003
5878678.877	3.419674e-003	-8.194895e-003	9.960000e-001	-1.028862e-001	9.956258e-001	-1.023076e-001	2.861430e-003	-7.938358e-003
5941217.961	3.400800e-003	-8.361105e-003	9.958137e-001	-1.040415e-001	9.955443e-001	-1.032555e-001	2.660979e-003	-7.937148e-003
6003757.045	3.221656e-003	-8.226744e-003	9.955608e-001	-1.049683e-001	9.954121e-001	-1.043383e-001	2.769428e-003	-8.035939e-003
6066296.129	3.350689e-003	-8.512126e-003	9.957323e-001	-1.061067e-001	9.953253e-001	-1.053382e-001	2.738471e-003	-8.158967e-003
6128835.213	3.426737e-003	-8.565312e-003	9.955639e-001	-1.068856e-001	9.953736e-001	-1.066308e-001	2.828020e-003	-8.253068e-003
6191374.296	3.367420e-003	-8.685533e-003	9.954171e-001	-1.082416e-001	9.950756e-001	-1.078468e-001	2.643494e-003	-8.249153e-003
6253913.380	3.260320e-003	-8.658859e-003	9.953399e-001	-1.093663e-001	9.949777e-001	-1.087625e-001	2.511921e-003	-8.231864e-003
6316452.464	3.219662e-003	-8.680195e-003	9.952696e-001	-1.103171e-001	9.947752e-001	-1.100402e-001	2.558614e-003	-8.544860e-003
6378991.548	3.165226e-003	-8.913608e-003	9.950678e-001	-1.117775e-001	9.948790e-001	-1.110162e-001	2.583360e-003	-8.758113e-003
6441530.632	3.081455e-003	-9.078159e-003	9.948664e-001	-1.125798e-001	9.946891e-001	-1.122482e-001	2.619677e-003	-8.751770e-003
6504069.715	3.074049e-003	-9.205327e-003	9.947507e-001	-1.138488e-001	9.946956e-001	-1.132353e-001	2.628017e-003	-8.834269e-003
6566608.799	3.202749e-003	-9.356190e-003	9.947836e-001	-1.150123e-001	9.943672e-001	-1.143799e-001	2.503752e-003	-8.742303e-003
6629147.883	3.134077e-003	-9.315943e-003	9.945662e-001	-1.157956e-001	9.942669e-001	-1.154567e-001	2.580443e-003	-8.976947e-003
6691686.967	2.995448e-003	-9.397118e-003	9.943651e-001	-1.169791e-001	9.940981e-001	-1.165582e-001	2.592723e-003	-8.978384e-003
6754226.051	2.935943e-003	-9.501091e-003	9.942360e-001	-1.181760e-001	9.938753e-001	-1.178057e-001	2.373814e-003	-9.296432e-003
6816765.134	3.013342e-003	-9.609009e-003	9.941822e-001	-1.191926e-001	9.939032e-001	-1.187489e-001	2.413812e-003	-9.188717e-003
6879304.218	2.887016e-003	-9.856480e-003	9.939902e-001	-1.203196e-001	9.937989e-001	-1.197669e-001	2.382105e-003	-9.339196e-003
6941843.302	2.949072e-003	-9.799111e-003	9.938487e-001	-1.214716e-001	9.936209e-001	-1.208634e-001	2.352900e-003	-9.350672e-003
7004382.386	2.731004e-003	-9.824864e-003	9.937883e-001	-1.224725e-001	9.934575e-001	-1.219198e-001	2.253105e-003	-9.404001e-003
7066921.470	2.802121e-003	-9.960446e-003	9.935345e-001	-1.237096e-001	9.933825e-001	-1.228505e-001	2.401645e-003	-9.646798e-003
7129460.553	2.682594e-003	-1.016513e-002	9.935059e-001	-1.245601e-001	9.932176e-001	-1.240849e-001	2.387633e-003	-9.687133e-003
7191999.637	2.660308e-003	-1.002907e-002	9.931519e-001	-1.257779e-001	9.929489e-001	-1.251607e-001	2.223104e-003	-9.776668e-003
7254538.721	2.695665e-003	-1.022325e-002	9.933502e-001	-1.268968e-001	9.929920e-001	-1.263062e-001	2.250869e-003	-9.856594e-003
7317077.805	2.853230e-003	-1.035793e-002	9.931146e-001	-1.278865e-001	9.928791e-001	-1.273239e-001	2.218991e-003	-1.004912e-002
7379616.889	2.701414e-003	-1.043117e-002	9.931403e-001	-1.291409e-001	9.926292e-001	-1.284426e-001	2.138027e-003	-1.011606e-002
7442155.972	2.516234e-003	-1.052842e-002	9.928130e-001	-1.300414e-001	9.925542e-001	-1.294951e-001	2.202011e-003	-9.990893e-003
7504695.056	2.537825e-003	-1.071759e-002	9.925546e-001	-1.310649e-001	9.922583e-001	-1.307139e-001	2.212110e-003	-1.001811e-002
7567234.140	2.700885e-003	-1.087429e-002	9.925466e-001	-1.321794e-001	9.921670e-001	-1.317194e-001	2.117567e-003	-1.021606e-002
7629773.224	2.588096e-003	-1.066856e-002	9.924594e-001	-1.334106e-001	9.921775e-001	-1.327581e-001	2.029447e-003	-1.035178e-002
7692312.308	2.408342e-003	-1.082136e-002	9.923179e-001	-1.344777e-001	9.918889e-001	-1.339597e-001	2.060525e-003	-1.053556e-002
7754851.391	2.381885e-003	-1.107235e-002	9.921127e-001	-1.356159e-001	9.916450e-001	-1.348367e-001	1.986819e-003	-1.048070e-002
7817390.475	2.442603e-003	-1.095011e-002	9.920269e-001	-1.367860e-001	9.915488e-001	-1.361930e-001	1.880828e-003	-1.046214e-002
7879929.559	2.324644e-003	-1.121568e-002	9.917251e-001	-1.378776e-001	9.913989e-001	-1.374154e-001	1.980333e-003	-1.054350e-002
7942468.643	2.253067e-003	-1.136786e-002	9.917086e-001	-1.388797e-001	9.913670e-001	-1.384556e-001	1.928135e-003	-1.081453e-002
8005007.727	2.333703e-003	-1.142802e-002	9.914518e-001	-1.400334e-001	9.912363e-001	-1.395158e-001	1.830716e-003	-1.068248e-002
8067546.811	2.154854e-003	-1.146720e-002	9.913394e-001	-1.410902e-001	9.909248e-001	-1.405539e-001	1.711183e-003	-1.098476e-002
8130085.894	2.208095e-003	-1.162126e-002	9.911441e-001	-1.420995e-001	9.908398e-001	-1.416668e-001	1.897607e-003	-1.111332e-002
8192624.978	2.003967e-003	-1.177564e-002	9.908225e-001	-1.432944e-001	9.907049e-001	-1.427312e-001	1.925742e-003	-1.122160e-002
8255164.062	2.107430e-003	-1.184327e-002	9.907706e-001	-1.443579e-001	9.904807e-001	-1.438439e-001	1.860587e-003	-1.134511e-002
8317703.146	1.960817e-003	-1.182476e-002	9.907018e-001	-1.454700e-001	9.904514e-001	-1.449213e-001	1.654934e-003	-1.138937e-002
8380242.230	2.053562e-003	-1.214698e-002	9.903749e-001	-1.466530e-001	9.901400e-001	-1.459325e-001	1.597662e-003	-1.153444e-002
8442781.313	1.997656e-003	-1.220551e-002	9.904667e-001	-1.475968e-001	9.900549e-001	-1.470006e-001	1.546374e-003	-1.170166e-002
8505320.397	1.947818e-003	-1.215832e-002	9.902379e-001	-1.487476e-001	9.898448e-001	-1.481229e-001	1.457966e-003	-1.173496e-002
8567859.481	1.873466e-003	-1.208472e-002	9.900149e-001	-1.496685e-001	9.897857e-001	-1.492002e-001	1.462800e-003	-1.166139e-002
8630398.565	1.928605e-003	-1.222245e-002	9.896893e-001	-1.507402e-001	9.895653e-001	-1.501996e-001	1.318298e-003	-1.201292e-002
8692937.649	1.830460e-003	-1.251754e-002	9.896238e-001	-1.518360e-001	9.892768e-001	-1.513426e-001	1.221105e-003	-1.198914e-002
8755476.732	1.819731e-003	-1.255456e-002	9.894645e-001	-1.530582e-001	9.890637e-001	-1.523349e-001	1.261991e-003	-1.205953e-002
8818015.816	1.671164e-003	-1.266839e-002	9.892476e-001	-1.540545e-001	9.887861e-001	-1.534542e-001	1.341983e-003	-1.223481e-002
8880554.900	1.848849e-003	-1.271104e-002	9.892181e-001	-1.551825e-001	9.889146e-001	-1.543887e-001	1.156714e-003	-1.248234e-002
8943093.984	1.651803e-003	-1.271300e-002	9.889884e-001	-1.562130e-001	9.887314e-001	-1.555228e-001	1.150514e-003	-1.251713e-002
9005633.068	1.667141e-003	-1.288740e-002	9.886939e-001	-1.573352e-001	9.885891e-001	-1.567120e-001	1.024984e-003	-1.274297e-002
9068172.151	1.476444e-003	-1.298360e-002	9.886639e-001	-1.584132e-001	9.883119e-001	-1.576499e-001	1.029438e-003	-1.278545e-002
9130711.235	1.662251e-003	-1.313511e-002	9.884230e-001	-1.595056e-001	9.881793e-001	-1.587373e-001	1.050905e-003	-1.305762e-002
9193250.319	1.620193e-003	-1.325020e-002	9.883540e-001	-1.604042e-001	9.879412e-001	-1.599214e-001	9.336924e-004	-1.306883e-002
9255789.403	1.468182e-003	-1.350477e-002	9.881771e-001	-1.614139e-001	9.877732e-001	-1.609332e-001	7.636529e-004	-1.309826e-002
9318328.487	1.397011e-003	-1.348343e-002	9.879762e-001	-1.627859e-001	9.877087e-001	-1.620296e-001	8.309578e-004	-1.319496e-002
9380867.570	1.365391e-003	-1.345546e-002	9.878592e-001	-1.638267e-001	9.874080e-001	-1.632385e-001	7.945823e-004	-1.329983e-002
9443406.654	1.385281e-003	-1.355449e-002	9.876689e-001	-1.648226e-001	9.873711e-001	-1.643588e-001	8.046492e-004	-1.346486e-002
9505945.738	1.321588e-003	-1.361399e-002	9.873140e-001	-1.660653e-001	9.872416e-001	-1.654151e-001	7.038311e-004	-1.356119e-002
9568484.822	1.332858e-003	-1.373743e-002	9.872520e-001	-1.670827e-001	9.868128e-001	-1.664420e-001	4.657859e-004	-1.341261e-002
