!Agilent Technologies,E5061B,MY49102235,A.02.00
!Date: Tue Jul 11 14:52:21 2023
!Data & Calibration Information:
!Freq	S11:SOLT2(ON)	S21:SOLT2(ON)	S12:SOLT2(ON)	S22:SOLT2(ON)
# Hz S RI R 50
5.000	-5.195569e-003	-5.651398e-003	1.001582e+000	8.043351e-003	1.000211e+000	1.024323e-002	-1.464425e-003	-7.551235e-003
62544.084	5.808804e-003	-4.343181e-004	1.001332e+000	4.375352e-004	1.000821e+000	1.169262e-003	7.716060e-003	-2.818636e-003
125083.168	5.675790e-003	-3.507668e-004	1.000955e+000	-9.770703e-004	1.000789e+000	-1.100947e-003	7.487629e-003	-2.137415e-003
187622.251	5.448090e-003	-1.152923e-004	1.000454e+000	-2.411055e-003	1.000970e+000	-1.088397e-003	7.386665e-003	-2.169272e-003
250161.335	5.265554e-003	8.700247e-005	1.000608e+000	-3.446147e-003	1.000788e+000	-3.516475e-003	7.249123e-003	-1.746096e-003
312700.419	5.415734e-003	8.906442e-004	1.000846e+000	-4.144379e-003	1.000598e+000	-3.999675e-003	7.769549e-003	-1.999845e-003
375239.503	5.299371e-003	-5.424280e-004	1.001065e+000	-5.712586e-003	1.000587e+000	-5.500347e-003	7.233334e-003	-2.090118e-003
437778.587	5.129739e-003	-9.508871e-005	1.001379e+000	-5.895039e-003	1.001085e+000	-6.617376e-003	6.615281e-003	-1.739280e-003
500317.670	4.593128e-003	1.097005e-004	1.001209e+000	-8.368994e-003	1.001770e+000	-8.258213e-003	4.802400e-003	-1.499637e-003
562856.754	5.893122e-003	-1.312072e-004	1.001325e+000	-9.950128e-003	1.001117e+000	-9.737107e-003	6.014099e-003	-9.498780e-004
625395.838	5.075885e-003	7.711187e-005	1.002285e+000	-1.117928e-002	1.002130e+000	-1.070418e-002	6.105201e-003	-3.186498e-004
687934.922	5.140696e-003	-1.975186e-004	1.001324e+000	-1.215341e-002	1.001237e+000	-1.240540e-002	5.762916e-003	-6.950046e-004
750474.006	4.375474e-003	2.165159e-004	1.000837e+000	-1.185839e-002	1.000940e+000	-1.158010e-002	5.544050e-003	-4.555632e-004
813013.089	4.548839e-003	2.977036e-004	1.001067e+000	-1.362986e-002	1.000688e+000	-1.327577e-002	4.899092e-003	-2.107206e-004
875552.173	4.291321e-003	5.278786e-004	1.001175e+000	-1.464324e-002	1.000986e+000	-1.462755e-002	5.686910e-003	-5.560275e-004
938091.257	4.361438e-003	6.612653e-004	1.001186e+000	-1.618601e-002	1.001119e+000	-1.571370e-002	5.918277e-003	9.389010e-005
1000630.341	3.815547e-003	3.743777e-004	1.000834e+000	-1.763119e-002	1.001131e+000	-1.726950e-002	5.174072e-003	-5.339380e-004
1063169.425	4.164677e-003	2.990775e-004	1.001158e+000	-1.907300e-002	1.000806e+000	-1.829936e-002	4.350078e-003	-8.070635e-004
1125708.508	4.051580e-003	3.969708e-004	1.000860e+000	-2.027415e-002	1.000787e+000	-1.969404e-002	3.864245e-003	-4.472954e-004
1188247.592	4.585379e-003	1.529583e-005	1.000954e+000	-2.151464e-002	1.001090e+000	-2.078421e-002	2.762660e-003	-9.455970e-004
1250786.676	4.434196e-003	-6.569937e-004	1.000639e+000	-2.147542e-002	1.000821e+000	-2.154196e-002	2.013387e-003	-2.536579e-003
1313325.760	4.535988e-003	-6.949809e-004	1.000960e+000	-2.310281e-002	1.001062e+000	-2.319626e-002	2.762431e-003	-2.266049e-003
1375864.844	4.285883e-003	-8.235140e-004	1.000658e+000	-2.504559e-002	1.000554e+000	-2.505610e-002	2.612278e-003	-1.926463e-003
1438403.927	4.175690e-003	-9.157856e-004	1.000699e+000	-2.571920e-002	1.000914e+000	-2.499590e-002	2.702254e-003	-1.597324e-003
1500943.011	4.409418e-003	-7.816062e-004	1.001397e+000	-2.674122e-002	1.001374e+000	-2.664697e-002	3.049626e-003	-1.941973e-003
1563482.095	4.414024e-003	-1.101891e-003	1.000882e+000	-2.808947e-002	1.000563e+000	-2.730379e-002	3.196357e-003	-1.676611e-003
1626021.179	4.217098e-003	-8.855396e-004	1.000840e+000	-2.942060e-002	1.001071e+000	-3.000697e-002	3.465566e-003	-1.653351e-003
1688560.263	3.913797e-003	-7.731073e-004	1.000518e+000	-3.125627e-002	1.001369e+000	-3.125801e-002	3.645953e-003	-1.608604e-003
1751099.346	4.065909e-003	-6.197103e-004	1.001040e+000	-3.249768e-002	1.000752e+000	-3.196517e-002	3.470620e-003	-6.983080e-004
1813638.430	3.718211e-003	-5.953776e-004	1.001402e+000	-3.411692e-002	1.000963e+000	-3.377334e-002	3.640469e-003	-1.022546e-003
1876177.514	3.739985e-003	-2.345901e-004	1.001606e+000	-3.503400e-002	1.001461e+000	-3.549404e-002	3.319041e-003	-2.800890e-004
1938716.598	3.207396e-003	-9.389486e-005	1.001782e+000	-3.595870e-002	1.001379e+000	-3.538116e-002	3.498855e-003	1.708996e-004
2001255.682	3.130152e-003	-4.985928e-004	1.001809e+000	-3.736127e-002	1.001263e+000	-3.717082e-002	3.241351e-003	-2.352855e-004
2063794.765	3.215131e-003	-5.975325e-005	1.001413e+000	-3.845032e-002	1.000713e+000	-3.883219e-002	3.634783e-003	-2.458487e-004
2126333.849	2.750626e-003	-5.233678e-004	1.000705e+000	-3.983859e-002	1.000078e+000	-3.924043e-002	3.896584e-003	5.176375e-005
2188872.933	3.245143e-003	-4.680778e-004	1.000516e+000	-4.095926e-002	1.000088e+000	-4.023440e-002	3.781819e-003	8.208875e-005
2251412.017	3.340536e-003	-7.679948e-004	1.000425e+000	-4.257490e-002	1.000196e+000	-4.147271e-002	3.763368e-003	1.808323e-005
2313951.101	3.683901e-003	-2.777026e-004	9.998609e-001	-4.375254e-002	1.000117e+000	-4.235550e-002	4.076716e-003	2.301134e-005
2376490.184	3.439653e-003	-2.497863e-004	9.997199e-001	-4.417702e-002	1.000147e+000	-4.445756e-002	4.056382e-003	7.570309e-005
2439029.268	3.887545e-003	-2.145835e-004	9.996118e-001	-4.596124e-002	9.993269e-001	-4.565812e-002	3.742257e-003	2.420787e-004
2501568.352	3.873233e-003	-1.616034e-004	9.993798e-001	-4.624648e-002	1.000167e+000	-4.620167e-002	4.027584e-003	2.804950e-004
2564107.436	3.781084e-003	-2.699845e-004	9.995868e-001	-4.806533e-002	9.998898e-001	-4.789055e-002	3.337786e-003	-4.025559e-005
2626646.520	4.264101e-003	-3.868298e-004	9.994670e-001	-4.925924e-002	9.986745e-001	-4.905637e-002	3.582937e-003	-4.902304e-005
2689185.604	4.233710e-003	-1.695053e-004	9.999007e-001	-5.007127e-002	9.995540e-001	-4.984575e-002	3.722304e-003	7.062492e-005
2751724.687	4.342207e-003	-2.119953e-004	9.997353e-001	-5.093608e-002	9.994597e-001	-5.080078e-002	3.332475e-003	7.763915e-005
2814263.771	4.298283e-003	-2.061295e-004	9.988395e-001	-5.275982e-002	9.991154e-001	-5.209526e-002	3.307281e-003	1.110299e-005
2876802.855	4.261768e-003	-3.646845e-004	9.989364e-001	-5.421666e-002	9.991911e-001	-5.336834e-002	3.404287e-003	1.932647e-004
2939341.939	4.381976e-003	-2.301732e-004	9.994328e-001	-5.477511e-002	9.990372e-001	-5.486678e-002	3.304023e-003	1.533890e-004
3001881.023	4.323517e-003	-1.652483e-004	9.992872e-001	-5.607294e-002	9.988160e-001	-5.606054e-002	3.385961e-003	5.633447e-005
3064420.106	4.358658e-003	-1.581705e-004	9.996744e-001	-5.712339e-002	9.989632e-001	-5.692797e-002	3.237603e-003	-6.980466e-006
3126959.190	4.566168e-003	-2.181413e-004	9.992298e-001	-5.843289e-002	9.990232e-001	-5.825604e-002	3.418238e-003	-2.870182e-005
3189498.274	4.550200e-003	-1.373167e-004	9.991115e-001	-5.946896e-002	9.989286e-001	-5.945523e-002	3.410420e-003	-3.047281e-005
3252037.358	4.474218e-003	-4.515439e-004	9.991833e-001	-6.073390e-002	9.989562e-001	-6.052286e-002	3.361294e-003	6.362953e-005
3314576.442	4.490661e-003	-2.453550e-004	9.990527e-001	-6.180671e-002	9.988381e-001	-6.175334e-002	3.422659e-003	-2.766501e-006
3377115.525	4.463898e-003	-1.965567e-004	9.988765e-001	-6.291426e-002	9.985949e-001	-6.307421e-002	3.286949e-003	-1.000105e-004
3439654.609	4.471097e-003	-2.192014e-004	9.986653e-001	-6.407088e-002	9.988535e-001	-6.412275e-002	3.310938e-003	1.379375e-004
3502193.693	4.435305e-003	-4.854033e-004	9.986442e-001	-6.535727e-002	9.985153e-001	-6.517194e-002	3.471436e-003	1.355219e-004
3564732.777	4.499382e-003	-3.154655e-004	9.986580e-001	-6.647115e-002	9.984719e-001	-6.643843e-002	3.571399e-003	1.879046e-004
3627271.861	4.347758e-003	-4.103777e-004	9.986977e-001	-6.776102e-002	9.985452e-001	-6.747900e-002	3.341952e-003	8.559521e-006
3689810.944	4.257003e-003	-4.984148e-004	9.985262e-001	-6.892285e-002	9.984445e-001	-6.861092e-002	3.511531e-003	5.006379e-005
3752350.028	4.385021e-003	-4.489047e-004	9.984089e-001	-6.982861e-002	9.981860e-001	-6.973983e-002	3.450333e-003	2.849228e-005
3814889.112	4.509731e-003	-2.959579e-004	9.982585e-001	-7.104891e-002	9.983476e-001	-7.120888e-002	3.364873e-003	-8.619026e-005
3877428.196	4.445449e-003	-2.580776e-004	9.984246e-001	-7.230724e-002	9.982387e-001	-7.215401e-002	3.699364e-003	-5.203171e-005
3939967.280	4.420525e-003	-5.262995e-004	9.982770e-001	-7.351451e-002	9.982231e-001	-7.333921e-002	3.677203e-003	5.408973e-005
4002506.363	4.487084e-003	-3.769570e-004	9.982190e-001	-7.464042e-002	9.980854e-001	-7.436061e-002	3.631206e-003	-5.948729e-007
4065045.447	4.309037e-003	-4.462384e-004	9.979422e-001	-7.585614e-002	9.978851e-001	-7.564244e-002	3.724442e-003	-8.873656e-005
4127584.531	4.299608e-003	-4.562070e-004	9.978549e-001	-7.700960e-002	9.978454e-001	-7.671439e-002	3.745677e-003	3.559550e-005
4190123.615	4.344952e-003	-4.241118e-004	9.978704e-001	-7.832121e-002	9.976514e-001	-7.800013e-002	3.666544e-003	-1.860364e-004
4252662.699	4.301155e-003	-5.011603e-004	9.978778e-001	-7.951801e-002	9.975118e-001	-7.928209e-002	3.773047e-003	-1.493860e-004
4315201.782	4.450189e-003	-5.283379e-004	9.977447e-001	-8.046449e-002	9.977315e-001	-8.048594e-002	3.591891e-003	-3.304986e-004
4377740.866	4.361110e-003	-5.509203e-004	9.977397e-001	-8.178072e-002	9.973900e-001	-8.164148e-002	3.773908e-003	-2.688384e-005
4440279.950	4.253936e-003	-6.871484e-004	9.976082e-001	-8.274697e-002	9.972195e-001	-8.268958e-002	3.664811e-003	-1.862979e-004
4502819.034	4.265558e-003	-5.471972e-004	9.973061e-001	-8.401762e-002	9.972783e-001	-8.384678e-002	3.757621e-003	-4.290507e-005
4565358.118	4.179210e-003	-5.890456e-004	9.972259e-001	-8.517800e-002	9.969980e-001	-8.483017e-002	3.763451e-003	-1.309520e-004
4627897.201	4.372200e-003	-4.637340e-004	9.973375e-001	-8.634524e-002	9.969995e-001	-8.598548e-002	3.874440e-003	-3.513110e-005
4690436.285	4.193833e-003	-5.799034e-004	9.972571e-001	-8.760757e-002	9.969679e-001	-8.755893e-002	3.880479e-003	-2.292634e-004
4752975.369	4.209952e-003	-5.979529e-004	9.968795e-001	-8.883836e-002	9.969839e-001	-8.860636e-002	3.699866e-003	-2.811399e-004
4815514.453	4.329054e-003	-5.922906e-004	9.969923e-001	-8.992454e-002	9.968212e-001	-8.983337e-002	3.924135e-003	-1.970775e-004
4878053.537	4.435561e-003	-6.857792e-004	9.969564e-001	-9.103836e-002	9.967070e-001	-9.083363e-002	3.896232e-003	-2.825948e-004
4940592.620	4.182993e-003	-6.540260e-004	9.967273e-001	-9.221157e-002	9.966065e-001	-9.213983e-002	3.654381e-003	-3.183941e-004
5003131.704	4.236091e-003	-8.074217e-004	9.965875e-001	-9.337379e-002	9.965845e-001	-9.305976e-002	3.793254e-003	-3.712609e-004
5065670.788	4.177724e-003	-5.976584e-004	9.964860e-001	-9.460392e-002	9.964021e-001	-9.432645e-002	3.774236e-003	-3.382730e-004
5128209.872	4.313895e-003	-7.465410e-004	9.965710e-001	-9.572434e-002	9.963036e-001	-9.548429e-002	3.750437e-003	-5.370886e-004
5190748.956	4.226997e-003	-7.709580e-004	9.963532e-001	-9.691781e-002	9.962373e-001	-9.673336e-002	3.723308e-003	-4.297619e-004
5253288.039	4.268328e-003	-8.142676e-004	9.962937e-001	-9.808413e-002	9.961409e-001	-9.787478e-002	3.647011e-003	-3.545268e-004
5315827.123	4.239729e-003	-8.888714e-004	9.960519e-001	-9.925026e-002	9.960189e-001	-9.906556e-002	3.640812e-003	-4.607076e-004
5378366.207	4.339132e-003	-8.538809e-004	9.960835e-001	-1.004867e-001	9.959455e-001	-1.003811e-001	3.638713e-003	-5.678671e-004
5440905.291	4.168355e-003	-7.682733e-004	9.960239e-001	-1.015889e-001	9.958056e-001	-1.014682e-001	3.537307e-003	-5.221296e-004
5503444.375	4.382951e-003	-9.526678e-004	9.958595e-001	-1.028372e-001	9.958106e-001	-1.025026e-001	3.732258e-003	-6.157956e-004
5565983.458	4.031241e-003	-8.399108e-004	9.957744e-001	-1.038963e-001	9.956425e-001	-1.036584e-001	3.657636e-003	-4.655057e-004
5628522.542	4.297000e-003	-9.211507e-004	9.956784e-001	-1.049885e-001	9.955362e-001	-1.049377e-001	3.713922e-003	-6.117860e-004
5691061.626	4.356661e-003	-1.111944e-003	9.954974e-001	-1.063615e-001	9.953435e-001	-1.061479e-001	3.612514e-003	-5.633008e-004
5753600.710	4.207237e-003	-1.039453e-003	9.952812e-001	-1.073886e-001	9.952937e-001	-1.072283e-001	3.678670e-003	-7.151364e-004
5816139.794	4.311833e-003	-8.808723e-004	9.952854e-001	-1.086129e-001	9.949721e-001	-1.085918e-001	3.532990e-003	-6.818810e-004
5878678.877	4.226090e-003	-1.117632e-003	9.951213e-001	-1.098005e-001	9.949657e-001	-1.096300e-001	3.646730e-003	-8.387576e-004
5941217.961	4.219072e-003	-1.205431e-003	9.949654e-001	-1.110463e-001	9.948383e-001	-1.106386e-001	3.455368e-003	-7.574884e-004
6003757.045	4.077702e-003	-1.000123e-003	9.946992e-001	-1.120535e-001	9.947695e-001	-1.118144e-001	3.586597e-003	-7.859309e-004
6066296.129	4.204020e-003	-1.201043e-003	9.947861e-001	-1.132418e-001	9.945960e-001	-1.129407e-001	3.568831e-003	-8.291238e-004
6128835.213	4.305194e-003	-1.194561e-003	9.946342e-001	-1.141138e-001	9.946151e-001	-1.142597e-001	3.667512e-003	-8.382138e-004
6191374.296	4.243294e-003	-1.229873e-003	9.944307e-001	-1.155371e-001	9.943309e-001	-1.155158e-001	3.505843e-003	-7.849351e-004
6253913.380	4.164005e-003	-1.130882e-003	9.943993e-001	-1.167813e-001	9.942133e-001	-1.165122e-001	3.399266e-003	-6.893230e-004
6316452.464	4.139341e-003	-1.068096e-003	9.942657e-001	-1.178014e-001	9.939784e-001	-1.179146e-001	3.439858e-003	-9.227821e-004
6378991.548	4.104168e-003	-1.239704e-003	9.940776e-001	-1.193050e-001	9.940626e-001	-1.189306e-001	3.514493e-003	-1.064163e-003
6441530.632	4.052344e-003	-1.336913e-003	9.938957e-001	-1.201535e-001	9.938273e-001	-1.202181e-001	3.543281e-003	-9.721620e-004
6504069.715	4.040651e-003	-1.380286e-003	9.937366e-001	-1.216116e-001	9.938324e-001	-1.213067e-001	3.564258e-003	-9.951214e-004
6566608.799	4.189603e-003	-1.461115e-003	9.937428e-001	-1.227915e-001	9.935572e-001	-1.225202e-001	3.468683e-003	-8.122554e-004
6629147.883	4.143990e-003	-1.339817e-003	9.935110e-001	-1.236151e-001	9.933855e-001	-1.236679e-001	3.560049e-003	-9.774425e-004
6691686.967	4.025710e-003	-1.347736e-003	9.932584e-001	-1.249000e-001	9.931835e-001	-1.248158e-001	3.586213e-003	-9.213514e-004
6754226.051	3.975505e-003	-1.385477e-003	9.931311e-001	-1.261830e-001	9.929764e-001	-1.261559e-001	3.376522e-003	-1.140448e-003
6816765.134	4.076831e-003	-1.410925e-003	9.930648e-001	-1.272569e-001	9.929575e-001	-1.271922e-001	3.441687e-003	-9.652927e-004
6879304.218	3.960267e-003	-1.600266e-003	9.928342e-001	-1.284414e-001	9.927980e-001	-1.282985e-001	3.432364e-003	-1.050542e-003
6941843.302	4.039145e-003	-1.433051e-003	9.926967e-001	-1.296745e-001	9.926523e-001	-1.294432e-001	3.429847e-003	-9.803863e-004
7004382.386	3.840464e-003	-1.394762e-003	9.926226e-001	-1.306847e-001	9.924576e-001	-1.306099e-001	3.340447e-003	-9.615957e-004
7066921.470	3.949005e-003	-1.470174e-003	9.923828e-001	-1.320207e-001	9.923671e-001	-1.316189e-001	3.499649e-003	-1.132942e-003
7129460.553	3.846278e-003	-1.594678e-003	9.922819e-001	-1.329965e-001	9.922162e-001	-1.329178e-001	3.492155e-003	-1.090867e-003
7191999.637	3.829842e-003	-1.372400e-003	9.919320e-001	-1.342710e-001	9.919265e-001	-1.340698e-001	3.366786e-003	-1.108519e-003
7254538.721	3.888433e-003	-1.516235e-003	9.920877e-001	-1.355094e-001	9.919374e-001	-1.352908e-001	3.394971e-003	-1.112794e-003
7317077.805	4.062581e-003	-1.561765e-003	9.918685e-001	-1.365289e-001	9.917783e-001	-1.363786e-001	3.394064e-003	-1.237901e-003
7379616.889	3.920311e-003	-1.566270e-003	9.918529e-001	-1.378913e-001	9.915465e-001	-1.375532e-001	3.335381e-003	-1.242108e-003
7442155.972	3.767678e-003	-1.583056e-003	9.914935e-001	-1.388792e-001	9.914299e-001	-1.386894e-001	3.421056e-003	-1.027412e-003
7504695.056	3.808750e-003	-1.695981e-003	9.912563e-001	-1.399475e-001	9.911407e-001	-1.399954e-001	3.450431e-003	-9.818807e-004
7567234.140	3.978917e-003	-1.788759e-003	9.912298e-001	-1.411019e-001	9.909553e-001	-1.410716e-001	3.375216e-003	-1.098764e-003
7629773.224	3.891267e-003	-1.510475e-003	9.910894e-001	-1.424390e-001	9.909675e-001	-1.422079e-001	3.298693e-003	-1.158225e-003
7692312.308	3.753855e-003	-1.580221e-003	9.908929e-001	-1.435752e-001	9.906945e-001	-1.434518e-001	3.351117e-003	-1.279096e-003
7754851.391	3.725417e-003	-1.756245e-003	9.907045e-001	-1.448029e-001	9.904019e-001	-1.443912e-001	3.295386e-003	-1.151360e-003
7817390.475	3.811086e-003	-1.570634e-003	9.905691e-001	-1.460826e-001	9.902818e-001	-1.458178e-001	3.221848e-003	-1.055861e-003
7879929.559	3.712376e-003	-1.762988e-003	9.902892e-001	-1.472012e-001	9.901407e-001	-1.471232e-001	3.336455e-003	-1.082822e-003
7942468.643	3.659938e-003	-1.836970e-003	9.902283e-001	-1.482689e-001	9.900418e-001	-1.482189e-001	3.297630e-003	-1.262494e-003
8005007.727	3.768126e-003	-1.825075e-003	9.899497e-001	-1.494934e-001	9.898925e-001	-1.493703e-001	3.216379e-003	-1.045841e-003
8067546.811	3.607778e-003	-1.785127e-003	9.898049e-001	-1.506254e-001	9.895628e-001	-1.504500e-001	3.125072e-003	-1.277416e-003
8130085.894	3.674523e-003	-1.873573e-003	9.895892e-001	-1.517206e-001	9.894806e-001	-1.516612e-001	3.329176e-003	-1.330749e-003
8192624.978	3.506375e-003	-1.942204e-003	9.892429e-001	-1.530481e-001	9.892681e-001	-1.527854e-001	3.386443e-003	-1.364537e-003
8255164.062	3.622939e-003	-1.939133e-003	9.892009e-001	-1.541173e-001	9.890766e-001	-1.539498e-001	3.338709e-003	-1.416304e-003
8317703.146	3.485626e-003	-1.844362e-003	9.890873e-001	-1.553063e-001	9.890068e-001	-1.551106e-001	3.160849e-003	-1.384187e-003
8380242.230	3.607715e-003	-2.091950e-003	9.887503e-001	-1.566115e-001	9.886977e-001	-1.562103e-001	3.109920e-003	-1.459404e-003
8442781.313	3.573460e-003	-2.076191e-003	9.888117e-001	-1.576110e-001	9.885548e-001	-1.573755e-001	3.088411e-003	-1.550880e-003
8505320.397	3.543332e-003	-1.947267e-003	9.885872e-001	-1.588196e-001	9.883400e-001	-1.585524e-001	3.025805e-003	-1.512126e-003
8567859.481	3.502351e-003	-1.802798e-003	9.883129e-001	-1.597956e-001	9.882490e-001	-1.596890e-001	3.049029e-003	-1.348951e-003
8630398.565	3.570494e-003	-1.884185e-003	9.879794e-001	-1.609424e-001	9.880608e-001	-1.608230e-001	2.924268e-003	-1.617738e-003
8692937.649	3.499664e-003	-2.101325e-003	9.878665e-001	-1.621026e-001	9.876967e-001	-1.620129e-001	2.851051e-003	-1.530744e-003
8755476.732	3.513275e-003	-2.052255e-003	9.877209e-001	-1.633988e-001	9.875070e-001	-1.630779e-001	2.905804e-003	-1.536920e-003
8818015.816	3.383580e-003	-2.106648e-003	9.874445e-001	-1.644960e-001	9.871816e-001	-1.642758e-001	3.008758e-003	-1.648014e-003
8880554.900	3.593602e-003	-2.080793e-003	9.873978e-001	-1.657418e-001	9.873088e-001	-1.653264e-001	2.857810e-003	-1.812620e-003
8943093.984	3.409982e-003	-1.985807e-003	9.871456e-001	-1.667704e-001	9.870793e-001	-1.664887e-001	2.867525e-003	-1.777189e-003
9005633.068	3.462603e-003	-2.100561e-003	9.868466e-001	-1.679625e-001	9.869121e-001	-1.677667e-001	2.763728e-003	-1.910568e-003
9068172.151	3.291167e-003	-2.110534e-003	9.868016e-001	-1.691716e-001	9.865730e-001	-1.688182e-001	2.798063e-003	-1.884390e-003
9130711.235	3.492189e-003	-2.207681e-003	9.865050e-001	-1.703121e-001	9.864410e-001	-1.699663e-001	2.825965e-003	-2.088515e-003
9193250.319	3.477997e-003	-2.252493e-003	9.864497e-001	-1.713124e-001	9.861895e-001	-1.712211e-001	2.743869e-003	-2.025968e-003
9255789.403	3.361219e-003	-2.408961e-003	9.862730e-001	-1.724006e-001	9.860165e-001	-1.722850e-001	2.594053e-003	-1.976048e-003
9318328.487	3.298371e-003	-2.326644e-003	9.860141e-001	-1.737903e-001	9.859289e-001	-1.734186e-001	2.693957e-003	-2.000562e-003
9380867.570	3.296751e-003	-2.225815e-003	9.858664e-001	-1.749316e-001	9.855732e-001	-1.747031e-001	2.686586e-003	-2.036139e-003
9443406.654	3.339428e-003	-2.253227e-003	9.856304e-001	-1.760080e-001	9.854971e-001	-1.759076e-001	2.700410e-003	-2.119927e-003
9505945.738	3.301437e-003	-2.229035e-003	9.852383e-001	-1.773310e-001	9.853634e-001	-1.770518e-001	2.633383e-003	-2.149433e-003
9568484.822	3.327987e-003	-2.295989e-003	9.851865e-001	-1.784646e-001	9.849170e-001	-1.781912e-001	2.424024e-003	-1.909135e-003
9631023.906	3.307412e-003	-2.288688e-003	9.850139e-001	-1.795606e-001	9.847024e-001	-1.793594e-001	2.594212e-003	-2.240422e-003
