!Agilent Technologies,E5061B,MY49102235,A.02.00
!Date: Tue Jul 11 17:06:20 2023
!Data & Calibration Information:
!Freq	S11:SOLT2(ON)	S21:SOLT2(ON)	S12:SOLT2(ON)	S22:SOLT2(ON)
# Hz S RI R 50
5.000	-5.125388e-003	-5.630498e-003	1.002225e+000	8.013341e-003	1.000663e+000	1.025883e-002	-1.400540e-003	-7.551074e-003
62544.084	5.827182e-003	-4.669316e-004	1.001348e+000	4.866993e-004	1.000776e+000	1.240037e-003	7.705734e-003	-2.843597e-003
125083.168	5.699229e-003	-4.471573e-004	1.001032e+000	-8.025528e-004	1.000645e+000	-8.262347e-004	7.493298e-003	-2.226991e-003
187622.251	5.484133e-003	-2.601905e-004	1.000574e+000	-2.241367e-003	1.000908e+000	-9.493105e-004	7.382224e-003	-2.298546e-003
250161.335	5.309172e-003	-8.177321e-005	1.000641e+000	-3.297528e-003	1.000522e+000	-3.189363e-003	7.284615e-003	-1.938579e-003
312700.419	5.437095e-003	6.730498e-004	1.000970e+000	-4.010988e-003	1.000607e+000	-3.728801e-003	7.777260e-003	-2.217542e-003
375239.503	5.349066e-003	-8.522738e-004	1.001026e+000	-5.294945e-003	1.000485e+000	-5.078552e-003	7.268276e-003	-2.374694e-003
437778.587	5.160058e-003	-4.426359e-004	1.001465e+000	-5.483013e-003	1.001010e+000	-6.203186e-003	6.605206e-003	-2.068361e-003
500317.670	4.616174e-003	-2.971399e-004	1.001334e+000	-7.961780e-003	1.001572e+000	-7.719553e-003	4.813486e-003	-1.851159e-003
562856.754	5.926282e-003	-5.913659e-004	1.001456e+000	-9.484775e-003	1.001165e+000	-9.234516e-003	6.012638e-003	-1.356632e-003
625395.838	5.114927e-003	-4.220550e-004	1.002286e+000	-1.068625e-002	1.002036e+000	-1.023497e-002	6.129642e-003	-7.791005e-004
687934.922	5.146418e-003	-7.216588e-004	1.001529e+000	-1.178636e-002	1.001157e+000	-1.172907e-002	5.755073e-003	-1.212187e-003
750474.006	4.291105e-003	-3.859083e-004	1.001004e+000	-1.126540e-002	1.000606e+000	-1.064967e-002	5.479259e-003	-1.061611e-003
813013.089	4.469434e-003	-3.672218e-004	1.001484e+000	-1.311292e-002	1.000585e+000	-1.234144e-002	4.839623e-003	-8.715320e-004
875552.173	4.204738e-003	-1.750435e-004	1.001539e+000	-1.392649e-002	1.000883e+000	-1.370295e-002	5.629171e-003	-1.249830e-003
938091.257	4.276996e-003	-8.561921e-005	1.001563e+000	-1.534147e-002	1.001033e+000	-1.489254e-002	5.865588e-003	-6.697532e-004
1000630.341	3.715651e-003	-4.346102e-004	1.001111e+000	-1.693649e-002	1.000971e+000	-1.622814e-002	5.097340e-003	-1.345453e-003
1063169.425	4.081948e-003	-5.693939e-004	1.001349e+000	-1.826305e-002	1.000536e+000	-1.720763e-002	4.277381e-003	-1.661750e-003
1125708.508	3.963112e-003	-5.104588e-004	1.001128e+000	-1.947610e-002	1.000728e+000	-1.849190e-002	3.786396e-003	-1.355096e-003
1188247.592	4.530098e-003	-9.419747e-004	1.001349e+000	-2.076013e-002	1.000810e+000	-1.968956e-002	2.686316e-003	-1.907177e-003
1250786.676	4.346385e-003	-1.658549e-003	1.000823e+000	-2.061430e-002	1.000545e+000	-2.025785e-002	1.943920e-003	-3.550820e-003
1313325.760	4.472142e-003	-1.750657e-003	1.001280e+000	-2.215325e-002	1.000864e+000	-2.199475e-002	2.686928e-003	-3.337412e-003
1375864.844	4.204655e-003	-1.931341e-003	1.000975e+000	-2.403159e-002	1.000442e+000	-2.370338e-002	2.539621e-003	-3.038541e-003
1438403.927	4.091601e-003	-2.073549e-003	1.000960e+000	-2.483468e-002	1.000717e+000	-2.371532e-002	2.616628e-003	-2.755306e-003
1500943.011	4.304105e-003	-1.975914e-003	1.001509e+000	-2.558803e-002	1.001301e+000	-2.526556e-002	2.996189e-003	-3.140470e-003
1563482.095	4.313052e-003	-2.337273e-003	1.001201e+000	-2.704988e-002	1.000382e+000	-2.597813e-002	3.119030e-003	-2.931022e-003
1626021.179	4.113389e-003	-2.194429e-003	1.000934e+000	-2.831318e-002	1.000871e+000	-2.850122e-002	3.393537e-003	-2.956399e-003
1688560.263	3.816956e-003	-2.116575e-003	1.000634e+000	-3.003389e-002	1.001209e+000	-2.976042e-002	3.571858e-003	-2.972202e-003
1751099.346	3.952592e-003	-2.004807e-003	1.001309e+000	-3.116815e-002	1.000645e+000	-3.024196e-002	3.376813e-003	-2.097929e-003
1813638.430	3.598392e-003	-2.041054e-003	1.001615e+000	-3.276055e-002	1.000900e+000	-3.224865e-002	3.559803e-003	-2.468229e-003
1876177.514	3.632128e-003	-1.724200e-003	1.001783e+000	-3.372072e-002	1.001214e+000	-3.380388e-002	3.230611e-003	-1.793572e-003
1938716.598	3.087726e-003	-1.636188e-003	1.002026e+000	-3.452400e-002	1.001315e+000	-3.374014e-002	3.393041e-003	-1.390829e-003
2001255.682	3.010754e-003	-2.105392e-003	1.002005e+000	-3.601925e-002	1.001270e+000	-3.528730e-002	3.145871e-003	-1.839495e-003
2063794.765	3.094565e-003	-1.706740e-003	1.001580e+000	-3.701918e-002	1.000667e+000	-3.694861e-002	3.536669e-003	-1.909469e-003
2126333.849	2.636670e-003	-2.219187e-003	1.001045e+000	-3.828891e-002	1.000000e+000	-3.737511e-002	3.795588e-003	-1.647130e-003
2188872.933	3.121514e-003	-2.211701e-003	1.000749e+000	-3.939979e-002	1.000085e+000	-3.845140e-002	3.674810e-003	-1.673602e-003
2251412.017	3.220328e-003	-2.566735e-003	1.000534e+000	-4.102140e-002	1.000198e+000	-3.950302e-002	3.680887e-003	-1.784827e-003
2313951.101	3.535914e-003	-2.122229e-003	1.000010e+000	-4.192952e-002	1.000220e+000	-4.046494e-002	3.979798e-003	-1.848324e-003
2376490.184	3.289311e-003	-2.142572e-003	9.999724e-001	-4.235117e-002	1.000218e+000	-4.233161e-002	3.947753e-003	-1.824082e-003
2439029.268	3.750647e-003	-2.168745e-003	1.000026e+000	-4.425013e-002	9.992581e-001	-4.331640e-002	3.595073e-003	-1.706566e-003
2501568.352	3.706541e-003	-2.160562e-003	9.995533e-001	-4.440423e-002	1.000067e+000	-4.407104e-002	3.886664e-003	-1.730248e-003
2564107.436	3.629059e-003	-2.302321e-003	9.998329e-001	-4.617240e-002	9.998466e-001	-4.560138e-002	3.194439e-003	-2.090453e-003
2626646.520	4.115181e-003	-2.479231e-003	9.998338e-001	-4.735339e-002	9.987397e-001	-4.671239e-002	3.443663e-003	-2.152137e-003
2689185.604	4.067282e-003	-2.307459e-003	1.000151e+000	-4.801382e-002	9.995035e-001	-4.760604e-002	3.585903e-003	-2.093006e-003
2751724.687	4.175873e-003	-2.377171e-003	1.000099e+000	-4.894217e-002	9.995197e-001	-4.828883e-002	3.179514e-003	-2.112838e-003
2814263.771	4.123771e-003	-2.437452e-003	9.991081e-001	-5.063105e-002	9.991336e-001	-4.968749e-002	3.155267e-003	-2.241712e-003
2876802.855	4.064556e-003	-2.655338e-003	9.991432e-001	-5.197429e-002	9.991738e-001	-5.082320e-002	3.230518e-003	-2.114233e-003
2939341.939	4.189136e-003	-2.556906e-003	9.997941e-001	-5.265952e-002	9.990448e-001	-5.236608e-002	3.135240e-003	-2.208486e-003
3001881.023	4.113321e-003	-2.544967e-003	9.994335e-001	-5.382040e-002	9.991132e-001	-5.340998e-002	3.227477e-003	-2.337860e-003
3064420.106	4.155459e-003	-2.600400e-003	9.998787e-001	-5.477957e-002	9.988424e-001	-5.441127e-002	3.059407e-003	-2.470016e-003
3126959.190	4.370841e-003	-2.693269e-003	9.995229e-001	-5.609759e-002	9.990892e-001	-5.561288e-002	3.225243e-003	-2.523954e-003
3189498.274	4.344770e-003	-2.662822e-003	9.994141e-001	-5.705428e-002	9.989480e-001	-5.675371e-002	3.228790e-003	-2.583204e-003
3252037.358	4.248930e-003	-3.032361e-003	9.995086e-001	-5.823274e-002	9.990461e-001	-5.774561e-002	3.165623e-003	-2.536927e-003
3314576.442	4.261544e-003	-2.865226e-003	9.993990e-001	-5.929070e-002	9.989428e-001	-5.894393e-002	3.233979e-003	-2.652212e-003
3377115.525	4.231602e-003	-2.878348e-003	9.991842e-001	-6.032968e-002	9.986935e-001	-6.023471e-002	3.075305e-003	-2.790509e-003
3439654.609	4.232181e-003	-2.941716e-003	9.989746e-001	-6.147802e-002	9.989573e-001	-6.121713e-002	3.083699e-003	-2.614213e-003
3502193.693	4.200344e-003	-3.265836e-003	9.989972e-001	-6.278712e-002	9.986270e-001	-6.225902e-002	3.255738e-003	-2.671681e-003
3564732.777	4.244108e-003	-3.131841e-003	9.990091e-001	-6.378409e-002	9.986011e-001	-6.343250e-002	3.346751e-003	-2.658030e-003
3627271.861	4.088573e-003	-3.287809e-003	9.990354e-001	-6.499539e-002	9.986449e-001	-6.441100e-002	3.118234e-003	-2.896932e-003
3689810.944	4.001891e-003	-3.432653e-003	9.988613e-001	-6.611570e-002	9.985484e-001	-6.549287e-002	3.282805e-003	-2.898212e-003
3752350.028	4.107574e-003	-3.420846e-003	9.987493e-001	-6.696559e-002	9.983449e-001	-6.655256e-002	3.202253e-003	-2.964802e-003
3814889.112	4.217163e-003	-3.316825e-003	9.985647e-001	-6.819410e-002	9.984815e-001	-6.798793e-002	3.115386e-003	-3.130564e-003
3877428.196	4.155599e-003	-3.322543e-003	9.987497e-001	-6.935335e-002	9.983900e-001	-6.884915e-002	3.452580e-003	-3.138787e-003
3939967.280	4.119300e-003	-3.657688e-003	9.986199e-001	-7.052099e-002	9.984173e-001	-7.001562e-002	3.412531e-003	-3.083544e-003
4002506.363	4.179281e-003	-3.544920e-003	9.985727e-001	-7.161442e-002	9.982391e-001	-7.096727e-002	3.353797e-003	-3.196438e-003
4065045.447	4.007611e-003	-3.671702e-003	9.983474e-001	-7.275852e-002	9.980456e-001	-7.221076e-002	3.442810e-003	-3.335040e-003
4127584.531	3.984230e-003	-3.731658e-003	9.982719e-001	-7.389025e-002	9.980242e-001	-7.325545e-002	3.463871e-003	-3.262114e-003
4190123.615	4.026312e-003	-3.744417e-003	9.982359e-001	-7.515515e-002	9.978530e-001	-7.452516e-002	3.364754e-003	-3.522253e-003
4252662.699	3.978685e-003	-3.869048e-003	9.982897e-001	-7.625913e-002	9.977179e-001	-7.578864e-002	3.470395e-003	-3.531774e-003
4315201.782	4.105479e-003	-3.941770e-003	9.981654e-001	-7.713754e-002	9.979207e-001	-7.691677e-002	3.285837e-003	-3.781859e-003
4377740.866	4.015901e-003	-4.013028e-003	9.981561e-001	-7.839538e-002	9.976143e-001	-7.801689e-002	3.458283e-003	-3.524332e-003
4440279.950	3.905155e-003	-4.203575e-003	9.979810e-001	-7.940510e-002	9.974415e-001	-7.897321e-002	3.346275e-003	-3.746502e-003
4502819.034	3.891649e-003	-4.102506e-003	9.977164e-001	-8.060050e-002	9.975197e-001	-8.008170e-002	3.428906e-003	-3.628866e-003
4565358.118	3.816947e-003	-4.207290e-003	9.976623e-001	-8.171769e-002	9.972507e-001	-8.105435e-002	3.430669e-003	-3.777134e-003
4627897.201	3.990447e-003	-4.131238e-003	9.977866e-001	-8.280788e-002	9.972347e-001	-8.213805e-002	3.529310e-003	-3.731160e-003
4690436.285	3.809408e-003	-4.290960e-003	9.977136e-001	-8.398704e-002	9.972386e-001	-8.366647e-002	3.526287e-003	-3.969390e-003
4752975.369	3.807564e-003	-4.356232e-003	9.973303e-001	-8.524055e-002	9.971995e-001	-8.464308e-002	3.349656e-003	-4.065031e-003
4815514.453	3.926189e-003	-4.396204e-003	9.974816e-001	-8.619000e-002	9.970705e-001	-8.586003e-002	3.559219e-003	-4.035268e-003
4878053.537	4.013916e-003	-4.556838e-003	9.974174e-001	-8.726569e-002	9.969750e-001	-8.681413e-002	3.519137e-003	-4.157222e-003
4940592.620	3.761892e-003	-4.562760e-003	9.971900e-001	-8.846891e-002	9.969412e-001	-8.801844e-002	3.275644e-003	-4.253882e-003
5003131.704	3.828073e-003	-4.749912e-003	9.970871e-001	-8.954996e-002	9.968973e-001	-8.890503e-002	3.405816e-003	-4.358038e-003
5065670.788	3.743736e-003	-4.620329e-003	9.969415e-001	-9.074487e-002	9.967056e-001	-9.008003e-002	3.372219e-003	-4.371838e-003
5128209.872	3.848058e-003	-4.799717e-003	9.970779e-001	-9.180740e-002	9.965566e-001	-9.120228e-002	3.342452e-003	-4.632634e-003
5190748.956	3.751048e-003	-4.869529e-003	9.968573e-001	-9.297036e-002	9.966037e-001	-9.248280e-002	3.311026e-003	-4.558979e-003
5253288.039	3.796099e-003	-4.972050e-003	9.968815e-001	-9.403683e-002	9.965053e-001	-9.353681e-002	3.240285e-003	-4.530109e-003
5315827.123	3.776522e-003	-5.091759e-003	9.965670e-001	-9.517252e-002	9.963434e-001	-9.470012e-002	3.206219e-003	-4.702678e-003
5378366.207	3.854768e-003	-5.091462e-003	9.966302e-001	-9.629602e-002	9.962903e-001	-9.603450e-002	3.193023e-003	-4.836849e-003
5440905.291	3.664027e-003	-5.069174e-003	9.965672e-001	-9.743172e-002	9.961956e-001	-9.698316e-002	3.077174e-003	-4.857803e-003
5503444.375	3.876861e-003	-5.298402e-003	9.964079e-001	-9.860816e-002	9.961305e-001	-9.793349e-002	3.269646e-003	-4.991521e-003
5565983.458	3.516651e-003	-5.234894e-003	9.963596e-001	-9.960447e-002	9.960488e-001	-9.905807e-002	3.184938e-003	-4.904552e-003
5628522.542	3.766158e-003	-5.368730e-003	9.962445e-001	-1.006609e-001	9.959244e-001	-1.002940e-001	3.218319e-003	-5.092063e-003
5691061.626	3.832746e-003	-5.604465e-003	9.960596e-001	-1.020015e-001	9.957441e-001	-1.014642e-001	3.124986e-003	-5.092946e-003
5753600.710	3.665745e-003	-5.579043e-003	9.958656e-001	-1.029463e-001	9.957138e-001	-1.025275e-001	3.177897e-003	-5.300448e-003
5816139.794	3.748035e-003	-5.458834e-003	9.958616e-001	-1.041276e-001	9.953938e-001	-1.038253e-001	3.028292e-003	-5.323149e-003
5878678.877	3.657922e-003	-5.762188e-003	9.957428e-001	-1.052834e-001	9.954033e-001	-1.048202e-001	3.127105e-003	-5.507501e-003
5941217.961	3.643642e-003	-5.888495e-003	9.955650e-001	-1.064896e-001	9.953295e-001	-1.057944e-001	2.926242e-003	-5.480763e-003
6003757.045	3.472801e-003	-5.727356e-003	9.953384e-001	-1.074325e-001	9.951695e-001	-1.068657e-001	3.033282e-003	-5.558666e-003
6066296.129	3.605271e-003	-5.991642e-003	9.954723e-001	-1.085518e-001	9.950670e-001	-1.079686e-001	3.025794e-003	-5.656671e-003
6128835.213	3.701130e-003	-6.043334e-003	9.952846e-001	-1.093992e-001	9.951157e-001	-1.092331e-001	3.112258e-003	-5.723769e-003
6191374.296	3.621329e-003	-6.121413e-003	9.951126e-001	-1.108020e-001	9.947989e-001	-1.104580e-001	2.949995e-003	-5.700063e-003
6253913.380	3.530041e-003	-6.065675e-003	9.950225e-001	-1.119201e-001	9.947185e-001	-1.114566e-001	2.810650e-003	-5.674201e-003
6316452.464	3.499790e-003	-6.048882e-003	9.949653e-001	-1.129185e-001	9.944804e-001	-1.127370e-001	2.858347e-003	-5.944109e-003
6378991.548	3.447805e-003	-6.279898e-003	9.948152e-001	-1.143781e-001	9.945912e-001	-1.137630e-001	2.894614e-003	-6.127814e-003
6441530.632	3.391099e-003	-6.426360e-003	9.945532e-001	-1.151742e-001	9.943864e-001	-1.149901e-001	2.927088e-003	-6.092476e-003
6504069.715	3.361535e-003	-6.517897e-003	9.944471e-001	-1.165924e-001	9.943562e-001	-1.159893e-001	2.937829e-003	-6.157129e-003
6566608.799	3.503177e-003	-6.635745e-003	9.944604e-001	-1.177229e-001	9.940946e-001	-1.171872e-001	2.839886e-003	-6.034524e-003
6629147.883	3.438770e-003	-6.576831e-003	9.942474e-001	-1.184961e-001	9.939838e-001	-1.182554e-001	2.902713e-003	-6.252005e-003
6691686.967	3.307525e-003	-6.623572e-003	9.940175e-001	-1.197279e-001	9.937806e-001	-1.193527e-001	2.924407e-003	-6.241149e-003
6754226.051	3.251761e-003	-6.712648e-003	9.939077e-001	-1.209938e-001	9.935527e-001	-1.206577e-001	2.725925e-003	-6.510450e-003
6816765.134	3.336108e-003	-6.789610e-003	9.938263e-001	-1.219931e-001	9.935637e-001	-1.216133e-001	2.768459e-003	-6.380944e-003
6879304.218	3.221589e-003	-7.011431e-003	9.936225e-001	-1.231329e-001	9.934422e-001	-1.227237e-001	2.741119e-003	-6.507512e-003
6941843.302	3.279735e-003	-6.923065e-003	9.934822e-001	-1.243509e-001	9.932670e-001	-1.238217e-001	2.717862e-003	-6.500882e-003
7004382.386	3.069567e-003	-6.914574e-003	9.934883e-001	-1.252782e-001	9.931119e-001	-1.249243e-001	2.624820e-003	-6.526504e-003
7066921.470	3.152079e-003	-7.042528e-003	9.931810e-001	-1.265865e-001	9.930589e-001	-1.258430e-001	2.771423e-003	-6.750173e-003
7129460.553	3.039891e-003	-7.216405e-003	9.931124e-001	-1.275077e-001	9.928489e-001	-1.271178e-001	2.763172e-003	-6.763809e-003
7191999.637	3.018971e-003	-7.046485e-003	9.927633e-001	-1.286862e-001	9.925911e-001	-1.282138e-001	2.608696e-003	-6.815700e-003
7254538.721	3.069934e-003	-7.236567e-003	9.929596e-001	-1.298778e-001	9.926151e-001	-1.293747e-001	2.635878e-003	-6.882495e-003
7317077.805	3.215581e-003	-7.333663e-003	9.927173e-001	-1.308905e-001	9.924531e-001	-1.304335e-001	2.618098e-003	-7.055231e-003
7379616.889	3.072504e-003	-7.378904e-003	9.927307e-001	-1.321855e-001	9.922327e-001	-1.315748e-001	2.533740e-003	-7.084946e-003
7442155.972	2.904646e-003	-7.452679e-003	9.923907e-001	-1.330944e-001	9.921728e-001	-1.326318e-001	2.618979e-003	-6.935349e-003
7504695.056	2.937445e-003	-7.610924e-003	9.921622e-001	-1.341427e-001	9.918663e-001	-1.339004e-001	2.625565e-003	-6.941056e-003
7567234.140	3.095800e-003	-7.758378e-003	9.921165e-001	-1.352688e-001	9.917345e-001	-1.349650e-001	2.557943e-003	-7.115390e-003
7629773.224	2.986636e-003	-7.522644e-003	9.920110e-001	-1.365590e-001	9.917431e-001	-1.359976e-001	2.444729e-003	-7.221559e-003
7692312.308	2.826065e-003	-7.645325e-003	9.918863e-001	-1.376534e-001	9.914604e-001	-1.372148e-001	2.506157e-003	-7.375046e-003
7754851.391	2.796122e-003	-7.866162e-003	9.916685e-001	-1.387982e-001	9.912081e-001	-1.381210e-001	2.429646e-003	-7.306012e-003
7817390.475	2.856484e-003	-7.731881e-003	9.915415e-001	-1.400025e-001	9.911281e-001	-1.394945e-001	2.338709e-003	-7.259482e-003
7879929.559	2.750810e-003	-7.971923e-003	9.912670e-001	-1.410838e-001	9.909436e-001	-1.407673e-001	2.438258e-003	-7.322565e-003
7942468.643	2.685327e-003	-8.082081e-003	9.912484e-001	-1.421579e-001	9.909037e-001	-1.418177e-001	2.397727e-003	-7.571356e-003
8005007.727	2.776732e-003	-8.123289e-003	9.909722e-001	-1.433059e-001	9.907721e-001	-1.428889e-001	2.295739e-003	-7.397192e-003
8067546.811	2.606273e-003	-8.139731e-003	9.908372e-001	-1.443658e-001	9.904235e-001	-1.439444e-001	2.181884e-003	-7.683042e-003
8130085.894	2.659302e-003	-8.284314e-003	9.906251e-001	-1.454282e-001	9.903613e-001	-1.451237e-001	2.393475e-003	-7.781446e-003
8192624.978	2.466825e-003	-8.396606e-003	9.903270e-001	-1.466878e-001	9.901694e-001	-1.461631e-001	2.407533e-003	-7.865010e-003
8255164.062	2.581275e-003	-8.439413e-003	9.902882e-001	-1.477225e-001	9.899762e-001	-1.472999e-001	2.357568e-003	-7.960691e-003
8317703.146	2.430239e-003	-8.390774e-003	9.901775e-001	-1.488608e-001	9.899205e-001	-1.484024e-001	2.164005e-003	-7.975557e-003
8380242.230	2.539994e-003	-8.695486e-003	9.898461e-001	-1.500845e-001	9.896529e-001	-1.494737e-001	2.101359e-003	-8.099738e-003
8442781.313	2.492903e-003	-8.722615e-003	9.899750e-001	-1.510839e-001	9.895504e-001	-1.505437e-001	2.066405e-003	-8.257491e-003
8505320.397	2.447437e-003	-8.636690e-003	9.897108e-001	-1.522198e-001	9.893134e-001	-1.517140e-001	1.992553e-003	-8.260051e-003
8567859.481	2.379433e-003	-8.550603e-003	9.894554e-001	-1.531875e-001	9.892349e-001	-1.527963e-001	2.011250e-003	-8.145055e-003
8630398.565	2.429538e-003	-8.665333e-003	9.891514e-001	-1.542808e-001	9.890953e-001	-1.538320e-001	1.848172e-003	-8.465910e-003
8692937.649	2.350615e-003	-8.939437e-003	9.890624e-001	-1.553492e-001	9.887258e-001	-1.550109e-001	1.773967e-003	-8.433948e-003
8755476.732	2.358092e-003	-8.944479e-003	9.889292e-001	-1.566700e-001	9.885779e-001	-1.560082e-001	1.813339e-003	-8.480698e-003
8818015.816	2.197102e-003	-9.038602e-003	9.886713e-001	-1.576792e-001	9.882225e-001	-1.571702e-001	1.894272e-003	-8.640493e-003
8880554.900	2.384167e-003	-9.062567e-003	9.886525e-001	-1.588602e-001	9.883385e-001	-1.581369e-001	1.744405e-003	-8.856976e-003
8943093.984	2.190437e-003	-9.017199e-003	9.883869e-001	-1.598361e-001	9.881521e-001	-1.593038e-001	1.729056e-003	-8.862331e-003
9005633.068	2.232010e-003	-9.180966e-003	9.881407e-001	-1.610091e-001	9.880389e-001	-1.605370e-001	1.601376e-003	-9.064068e-003
9068172.151	2.054171e-003	-9.243621e-003	9.880533e-001	-1.621260e-001	9.877179e-001	-1.614909e-001	1.620795e-003	-9.055554e-003
9130711.235	2.237774e-003	-9.377836e-003	9.877779e-001	-1.632426e-001	9.875484e-001	-1.625908e-001	1.640261e-003	-9.323522e-003
9193250.319	2.201971e-003	-9.461634e-003	9.877382e-001	-1.642000e-001	9.873469e-001	-1.638095e-001	1.544082e-003	-9.314625e-003
9255789.403	2.055592e-003	-9.679183e-003	9.876024e-001	-1.652177e-001	9.871611e-001	-1.648176e-001	1.372005e-003	-9.328472e-003
9318328.487	1.987721e-003	-9.656244e-003	9.873298e-001	-1.665667e-001	9.871395e-001	-1.659015e-001	1.455464e-003	-9.381192e-003
9380867.570	1.965391e-003	-9.594660e-003	9.871879e-001	-1.676591e-001	9.867585e-001	-1.671578e-001	1.436486e-003	-9.464976e-003
9443406.654	1.991095e-003	-9.655380e-003	9.870211e-001	-1.686611e-001	9.867451e-001	-1.683485e-001	1.433036e-003	-9.610073e-003
9505945.738	1.946588e-003	-9.711321e-003	9.866395e-001	-1.699583e-001	9.866220e-001	-1.693938e-001	1.350312e-003	-9.675542e-003
9568484.822	1.945311e-003	-9.804870e-003	9.866049e-001	-1.710230e-001	9.861539e-001	-1.704906e-001	1.128565e-003	-9.497618e-003
