!Agilent Technologies,E5061B,MY49102235,A.02.00
!Date: Tue Jul 11 14:53:34 2023
!Data & Calibration Information:
!Freq	S11:SOLT2(ON)	S21:SOLT2(ON)	S12:SOLT2(ON)	S22:SOLT2(ON)
# Hz S RI R 50
5.000	-5.244409e-003	-5.644385e-003	1.001608e+000	7.986214e-003	1.000215e+000	1.025998e-002	-1.517282e-003	-7.541567e-003
62544.084	5.815419e-003	-4.966060e-004	1.001319e+000	5.964386e-004	1.000895e+000	1.261023e-003	7.710239e-003	-2.880952e-003
125083.168	5.680647e-003	-5.085631e-004	1.000910e+000	-8.311707e-004	1.000815e+000	-7.384671e-004	7.498427e-003	-2.297101e-003
187622.251	5.448817e-003	-3.324126e-004	1.000405e+000	-2.185286e-003	1.001085e+000	-9.087282e-004	7.367325e-003	-2.406390e-003
250161.335	5.260804e-003	-2.269236e-004	1.000647e+000	-3.200288e-003	1.000646e+000	-3.058291e-003	7.276246e-003	-2.056154e-003
312700.419	5.419306e-003	5.169604e-004	1.000795e+000	-3.837630e-003	1.000572e+000	-3.538616e-003	7.776415e-003	-2.370907e-003
375239.503	5.280915e-003	-1.004427e-003	1.001108e+000	-5.270800e-003	1.000559e+000	-4.784514e-003	7.256002e-003	-2.558613e-003
437778.587	5.128078e-003	-6.170385e-004	1.001345e+000	-5.413929e-003	1.001011e+000	-5.981573e-003	6.613424e-003	-2.277929e-003
500317.670	4.569304e-003	-4.993924e-004	1.001337e+000	-7.800120e-003	1.001596e+000	-7.625779e-003	4.818280e-003	-2.081925e-003
562856.754	5.865400e-003	-8.011179e-004	1.001464e+000	-9.401441e-003	1.001105e+000	-9.059773e-003	6.021506e-003	-1.603223e-003
625395.838	5.059433e-003	-6.704629e-004	1.002194e+000	-1.053326e-002	1.002209e+000	-1.004313e-002	6.085564e-003	-1.056332e-003
687934.922	5.108665e-003	-1.003696e-003	1.001314e+000	-1.154213e-002	1.001340e+000	-1.150844e-002	5.735952e-003	-1.531791e-003
750474.006	4.351803e-003	-6.894136e-004	1.000821e+000	-1.098642e-002	1.000973e+000	-1.070163e-002	5.539054e-003	-1.342052e-003
813013.089	4.541377e-003	-6.703869e-004	1.001213e+000	-1.264906e-002	1.000759e+000	-1.232404e-002	4.875068e-003	-1.189959e-003
875552.173	4.242538e-003	-5.096975e-004	1.001060e+000	-1.351457e-002	1.001086e+000	-1.361547e-002	5.676575e-003	-1.602416e-003
938091.257	4.338829e-003	-4.498567e-004	1.001234e+000	-1.501591e-002	1.001283e+000	-1.465939e-002	5.916347e-003	-1.030548e-003
1000630.341	3.792781e-003	-8.215052e-004	1.000858e+000	-1.642005e-002	1.001035e+000	-1.606469e-002	5.155844e-003	-1.743864e-003
1063169.425	4.137768e-003	-9.865121e-004	1.001149e+000	-1.775047e-002	1.000724e+000	-1.691499e-002	4.327504e-003	-2.074607e-003
1125708.508	4.013446e-003	-9.455310e-004	1.000881e+000	-1.887774e-002	1.000888e+000	-1.834812e-002	3.831312e-003	-1.801936e-003
1188247.592	4.562282e-003	-1.404528e-003	1.001118e+000	-2.002886e-002	1.001109e+000	-1.929905e-002	2.728316e-003	-2.377699e-003
1250786.676	4.402107e-003	-2.170662e-003	1.000632e+000	-1.994053e-002	1.000862e+000	-1.991084e-002	1.994929e-003	-4.046189e-003
1313325.760	4.514943e-003	-2.266499e-003	1.000898e+000	-2.153361e-002	1.000996e+000	-2.158951e-002	2.740369e-003	-3.858306e-003
1375864.844	4.243300e-003	-2.473217e-003	1.000796e+000	-2.340119e-002	1.000584e+000	-2.340453e-002	2.580043e-003	-3.573641e-003
1438403.927	4.142179e-003	-2.640152e-003	1.000753e+000	-2.398756e-002	1.001011e+000	-2.335579e-002	2.657967e-003	-3.334784e-003
1500943.011	4.357370e-003	-2.590903e-003	1.001313e+000	-2.489334e-002	1.001399e+000	-2.469533e-002	3.018766e-003	-3.745646e-003
1563482.095	4.354015e-003	-2.975394e-003	1.000918e+000	-2.630959e-002	1.000722e+000	-2.538199e-002	3.152388e-003	-3.552694e-003
1626021.179	4.153020e-003	-2.846497e-003	1.000900e+000	-2.748133e-002	1.001137e+000	-2.799291e-002	3.421711e-003	-3.612251e-003
1688560.263	3.859982e-003	-2.797841e-003	1.000534e+000	-2.917404e-002	1.001433e+000	-2.929577e-002	3.592696e-003	-3.647625e-003
1751099.346	3.998955e-003	-2.711071e-003	1.001000e+000	-3.038688e-002	1.000734e+000	-2.987449e-002	3.393155e-003	-2.825851e-003
1813638.430	3.632813e-003	-2.773107e-003	1.001338e+000	-3.191259e-002	1.001180e+000	-3.155261e-002	3.576555e-003	-3.188348e-003
1876177.514	3.667177e-003	-2.483781e-003	1.001628e+000	-3.277009e-002	1.001469e+000	-3.323809e-002	3.247074e-003	-2.537970e-003
1938716.598	3.119780e-003	-2.430881e-003	1.001765e+000	-3.359700e-002	1.001426e+000	-3.311937e-002	3.422321e-003	-2.167395e-003
2001255.682	3.023430e-003	-2.908322e-003	1.001694e+000	-3.503899e-002	1.001344e+000	-3.466473e-002	3.164790e-003	-2.632913e-003
2063794.765	3.120314e-003	-2.548685e-003	1.001324e+000	-3.599787e-002	1.000771e+000	-3.636597e-002	3.547343e-003	-2.733479e-003
2126333.849	2.666011e-003	-3.070954e-003	1.000906e+000	-3.726051e-002	1.000341e+000	-3.670801e-002	3.807898e-003	-2.485839e-003
2188872.933	3.138700e-003	-3.093297e-003	1.000618e+000	-3.835210e-002	1.000209e+000	-3.771225e-002	3.685166e-003	-2.549628e-003
2251412.017	3.237569e-003	-3.474040e-003	1.000410e+000	-3.984250e-002	1.000422e+000	-3.881555e-002	3.675325e-003	-2.684414e-003
2313951.101	3.567405e-003	-3.062363e-003	9.999258e-001	-4.095668e-002	1.000188e+000	-3.958790e-002	3.960941e-003	-2.753743e-003
2376490.184	3.309318e-003	-3.101069e-003	9.998315e-001	-4.129922e-002	1.000333e+000	-4.157195e-002	3.936286e-003	-2.767814e-003
2439029.268	3.761543e-003	-3.149749e-003	9.996865e-001	-4.314106e-002	9.994818e-001	-4.253053e-002	3.597222e-003	-2.678097e-003
2501568.352	3.741401e-003	-3.159839e-003	9.995039e-001	-4.316400e-002	1.000245e+000	-4.334492e-002	3.885430e-003	-2.728302e-003
2564107.436	3.641360e-003	-3.346620e-003	9.997725e-001	-4.504460e-002	9.999535e-001	-4.477814e-002	3.194836e-003	-3.118074e-003
2626646.520	4.122386e-003	-3.539297e-003	9.995888e-001	-4.609584e-002	9.987597e-001	-4.578344e-002	3.440984e-003	-3.191855e-003
2689185.604	4.072061e-003	-3.392711e-003	9.999255e-001	-4.689954e-002	9.996308e-001	-4.670750e-002	3.558471e-003	-3.158425e-003
2751724.687	4.175446e-003	-3.486702e-003	9.996784e-001	-4.756202e-002	9.996004e-001	-4.751376e-002	3.167048e-003	-3.223452e-003
2814263.771	4.134305e-003	-3.576629e-003	9.989693e-001	-4.942839e-002	9.992462e-001	-4.864502e-002	3.135547e-003	-3.360119e-003
2876802.855	4.083075e-003	-3.821019e-003	9.990545e-001	-5.089557e-002	9.993088e-001	-4.987923e-002	3.211441e-003	-3.263983e-003
2939341.939	4.189808e-003	-3.753290e-003	9.995260e-001	-5.126918e-002	9.992016e-001	-5.124619e-002	3.102476e-003	-3.378613e-003
3001881.023	4.117331e-003	-3.766794e-003	9.992236e-001	-5.250358e-002	9.990122e-001	-5.240653e-002	3.196374e-003	-3.544973e-003
3064420.106	4.156019e-003	-3.836042e-003	9.998557e-001	-5.348016e-002	9.990941e-001	-5.323105e-002	3.030112e-003	-3.690430e-003
3126959.190	4.357299e-003	-3.965782e-003	9.994224e-001	-5.468707e-002	9.992321e-001	-5.452376e-002	3.188958e-003	-3.774285e-003
3189498.274	4.328453e-003	-3.954506e-003	9.993211e-001	-5.567752e-002	9.991464e-001	-5.557899e-002	3.186681e-003	-3.860030e-003
3252037.358	4.230988e-003	-4.348908e-003	9.993932e-001	-5.681433e-002	9.992055e-001	-5.656373e-002	3.136280e-003	-3.834797e-003
3314576.442	4.253826e-003	-4.209590e-003	9.993089e-001	-5.780515e-002	9.990792e-001	-5.777174e-002	3.180748e-003	-3.969231e-003
3377115.525	4.211456e-003	-4.234368e-003	9.990968e-001	-5.886126e-002	9.988444e-001	-5.894360e-002	3.022948e-003	-4.141071e-003
3439654.609	4.209407e-003	-4.342724e-003	9.989232e-001	-5.998775e-002	9.991336e-001	-5.992868e-002	3.037587e-003	-3.989492e-003
3502193.693	4.176239e-003	-4.668493e-003	9.988975e-001	-6.120470e-002	9.987796e-001	-6.097406e-002	3.194253e-003	-4.068130e-003
3564732.777	4.217129e-003	-4.569599e-003	9.989049e-001	-6.220562e-002	9.987651e-001	-6.214257e-002	3.288199e-003	-4.081501e-003
3627271.861	4.060862e-003	-4.765626e-003	9.989564e-001	-6.336329e-002	9.988374e-001	-6.308743e-002	3.058806e-003	-4.346746e-003
3689810.944	3.969333e-003	-4.924348e-003	9.987799e-001	-6.451474e-002	9.987387e-001	-6.413073e-002	3.210866e-003	-4.357578e-003
3752350.028	4.079410e-003	-4.936247e-003	9.986673e-001	-6.532564e-002	9.984894e-001	-6.524960e-002	3.139654e-003	-4.472351e-003
3814889.112	4.181026e-003	-4.861412e-003	9.985334e-001	-6.650791e-002	9.986630e-001	-6.657451e-002	3.050197e-003	-4.658894e-003
3877428.196	4.111690e-003	-4.899076e-003	9.986617e-001	-6.762757e-002	9.985564e-001	-6.747070e-002	3.370783e-003	-4.692377e-003
3939967.280	4.079568e-003	-5.247769e-003	9.985295e-001	-6.879248e-002	9.985586e-001	-6.858486e-002	3.338433e-003	-4.649987e-003
4002506.363	4.131334e-003	-5.160977e-003	9.985311e-001	-6.989104e-002	9.984168e-001	-6.952998e-002	3.280297e-003	-4.801134e-003
4065045.447	3.951698e-003	-5.317227e-003	9.982800e-001	-7.097808e-002	9.982504e-001	-7.074147e-002	3.366383e-003	-4.952554e-003
4127584.531	3.929950e-003	-5.409705e-003	9.982094e-001	-7.204590e-002	9.982385e-001	-7.175076e-002	3.375472e-003	-4.901944e-003
4190123.615	3.965131e-003	-5.427427e-003	9.982096e-001	-7.333589e-002	9.980283e-001	-7.300087e-002	3.268792e-003	-5.197920e-003
4252662.699	3.913931e-003	-5.577722e-003	9.982264e-001	-7.447273e-002	9.979292e-001	-7.418338e-002	3.377476e-003	-5.232258e-003
4315201.782	4.031023e-003	-5.685414e-003	9.980905e-001	-7.524564e-002	9.981326e-001	-7.526158e-002	3.183528e-003	-5.488222e-003
4377740.866	3.932082e-003	-5.795911e-003	9.981326e-001	-7.653813e-002	9.978068e-001	-7.634061e-002	3.351156e-003	-5.265906e-003
4440279.950	3.837997e-003	-5.981711e-003	9.980257e-001	-7.742836e-002	9.976333e-001	-7.730832e-002	3.238503e-003	-5.505852e-003
4502819.034	3.830231e-003	-5.928891e-003	9.976966e-001	-7.866148e-002	9.977171e-001	-7.841246e-002	3.302566e-003	-5.423823e-003
4565358.118	3.729793e-003	-6.044773e-003	9.976530e-001	-7.971439e-002	9.974959e-001	-7.932156e-002	3.316866e-003	-5.598343e-003
4627897.201	3.897020e-003	-5.988648e-003	9.977420e-001	-8.080102e-002	9.974563e-001	-8.038096e-002	3.411669e-003	-5.569764e-003
4690436.285	3.715330e-003	-6.187902e-003	9.976973e-001	-8.192981e-002	9.974399e-001	-8.190226e-002	3.401130e-003	-5.842338e-003
4752975.369	3.717707e-003	-6.264234e-003	9.973374e-001	-8.314431e-002	9.974226e-001	-8.287977e-002	3.214242e-003	-5.974686e-003
4815514.453	3.831798e-003	-6.356003e-003	9.974945e-001	-8.410995e-002	9.972809e-001	-8.402920e-002	3.419919e-003	-5.946855e-003
4878053.537	3.921643e-003	-6.515080e-003	9.974230e-001	-8.518415e-002	9.972063e-001	-8.497007e-002	3.374711e-003	-6.111902e-003
4940592.620	3.649652e-003	-6.557254e-003	9.972371e-001	-8.632870e-002	9.971787e-001	-8.614709e-002	3.130987e-003	-6.227601e-003
5003131.704	3.712302e-003	-6.781712e-003	9.970450e-001	-8.739449e-002	9.971275e-001	-8.703587e-002	3.248719e-003	-6.355638e-003
5065670.788	3.621709e-003	-6.649801e-003	9.970201e-001	-8.855487e-002	9.969622e-001	-8.822917e-002	3.215748e-003	-6.391197e-003
5128209.872	3.748497e-003	-6.868896e-003	9.971017e-001	-8.957523e-002	9.968545e-001	-8.930596e-002	3.181348e-003	-6.671199e-003
5190748.956	3.644315e-003	-6.961437e-003	9.968966e-001	-9.069903e-002	9.968520e-001	-9.050141e-002	3.137013e-003	-6.630893e-003
5253288.039	3.674473e-003	-7.083811e-003	9.968725e-001	-9.182267e-002	9.967438e-001	-9.154658e-002	3.064949e-003	-6.634486e-003
5315827.123	3.637960e-003	-7.234041e-003	9.966071e-001	-9.288705e-002	9.966062e-001	-9.271839e-002	3.033601e-003	-6.819891e-003
5378366.207	3.709985e-003	-7.272705e-003	9.966637e-001	-9.397435e-002	9.965847e-001	-9.392872e-002	3.012787e-003	-6.983814e-003
5440905.291	3.533068e-003	-7.272172e-003	9.966241e-001	-9.508226e-002	9.964761e-001	-9.491990e-002	2.893060e-003	-7.034418e-003
5503444.375	3.723051e-003	-7.511866e-003	9.964571e-001	-9.623209e-002	9.964408e-001	-9.584752e-002	3.089099e-003	-7.199113e-003
5565983.458	3.371672e-003	-7.484999e-003	9.963967e-001	-9.722297e-002	9.963280e-001	-9.690368e-002	3.000270e-003	-7.122053e-003
5628522.542	3.620284e-003	-7.641484e-003	9.963185e-001	-9.820355e-002	9.961980e-001	-9.811928e-002	3.025221e-003	-7.332610e-003
5691061.626	3.674497e-003	-7.892727e-003	9.961426e-001	-9.954412e-002	9.960414e-001	-9.925683e-002	2.925653e-003	-7.362167e-003
5753600.710	3.498773e-003	-7.907271e-003	9.959598e-001	-1.005037e-001	9.959795e-001	-1.003069e-001	2.961737e-003	-7.593809e-003
5816139.794	3.594060e-003	-7.797989e-003	9.959862e-001	-1.016725e-001	9.956768e-001	-1.016077e-001	2.815367e-003	-7.627357e-003
5878678.877	3.486348e-003	-8.123570e-003	9.958398e-001	-1.027447e-001	9.956679e-001	-1.025542e-001	2.913253e-003	-7.862514e-003
5941217.961	3.463818e-003	-8.292373e-003	9.956860e-001	-1.039032e-001	9.956023e-001	-1.035373e-001	2.711024e-003	-7.848615e-003
6003757.045	3.287734e-003	-8.163289e-003	9.954224e-001	-1.048210e-001	9.954554e-001	-1.045622e-001	2.819174e-003	-7.960981e-003
6066296.129	3.410027e-003	-8.428753e-003	9.955820e-001	-1.059826e-001	9.953598e-001	-1.056381e-001	2.783898e-003	-8.073844e-003
6128835.213	3.500526e-003	-8.490722e-003	9.954219e-001	-1.067906e-001	9.954045e-001	-1.068476e-001	2.866229e-003	-8.163819e-003
6191374.296	3.433456e-003	-8.613668e-003	9.952272e-001	-1.080733e-001	9.951464e-001	-1.081079e-001	2.687148e-003	-8.164366e-003
6253913.380	3.320762e-003	-8.595281e-003	9.951750e-001	-1.092878e-001	9.950357e-001	-1.090131e-001	2.560115e-003	-8.153180e-003
6316452.464	3.282118e-003	-8.604593e-003	9.950615e-001	-1.102189e-001	9.948126e-001	-1.103077e-001	2.594050e-003	-8.463795e-003
6378991.548	3.239960e-003	-8.842601e-003	9.949075e-001	-1.116650e-001	9.949178e-001	-1.112554e-001	2.635447e-003	-8.677459e-003
6441530.632	3.163695e-003	-9.003238e-003	9.947319e-001	-1.124692e-001	9.947023e-001	-1.124555e-001	2.662709e-003	-8.660787e-003
6504069.715	3.142990e-003	-9.133541e-003	9.945811e-001	-1.138096e-001	9.947471e-001	-1.134744e-001	2.663648e-003	-8.761572e-003
6566608.799	3.280926e-003	-9.279010e-003	9.946199e-001	-1.149445e-001	9.944952e-001	-1.145849e-001	2.542411e-003	-8.656256e-003
6629147.883	3.207080e-003	-9.246067e-003	9.944157e-001	-1.156714e-001	9.943174e-001	-1.157215e-001	2.616747e-003	-8.899049e-003
6691686.967	3.069007e-003	-9.321696e-003	9.942396e-001	-1.168988e-001	9.941635e-001	-1.167903e-001	2.631127e-003	-8.897509e-003
6754226.051	2.996408e-003	-9.433383e-003	9.940607e-001	-1.181061e-001	9.939557e-001	-1.179999e-001	2.412729e-003	-9.199413e-003
6816765.134	3.082508e-003	-9.527959e-003	9.940397e-001	-1.191063e-001	9.939377e-001	-1.189652e-001	2.456940e-003	-9.100965e-003
6879304.218	2.963429e-003	-9.789678e-003	9.938281e-001	-1.202159e-001	9.938569e-001	-1.200454e-001	2.427399e-003	-9.249938e-003
6941843.302	3.023921e-003	-9.735107e-003	9.936878e-001	-1.213716e-001	9.936778e-001	-1.211302e-001	2.401105e-003	-9.263553e-003
7004382.386	2.805891e-003	-9.741188e-003	9.936496e-001	-1.223321e-001	9.935089e-001	-1.222160e-001	2.300307e-003	-9.307510e-003
7066921.470	2.884340e-003	-9.891793e-003	9.933932e-001	-1.236120e-001	9.934301e-001	-1.231480e-001	2.449585e-003	-9.568544e-003
7129460.553	2.757718e-003	-1.009326e-002	9.933310e-001	-1.244770e-001	9.933042e-001	-1.243480e-001	2.415461e-003	-9.596665e-003
7191999.637	2.732282e-003	-9.946832e-003	9.929652e-001	-1.256364e-001	9.929972e-001	-1.254161e-001	2.267871e-003	-9.686934e-003
7254538.721	2.764597e-003	-1.014744e-002	9.931875e-001	-1.267908e-001	9.930520e-001	-1.265633e-001	2.275554e-003	-9.762107e-003
7317077.805	2.921907e-003	-1.027058e-002	9.929549e-001	-1.277715e-001	9.928866e-001	-1.275888e-001	2.250885e-003	-9.968455e-003
7379616.889	2.759068e-003	-1.035564e-002	9.929919e-001	-1.290747e-001	9.927009e-001	-1.287161e-001	2.175943e-003	-1.002576e-002
7442155.972	2.599625e-003	-1.044854e-002	9.926550e-001	-1.299641e-001	9.925680e-001	-1.297463e-001	2.243779e-003	-9.900269e-003
7504695.056	2.622556e-003	-1.063958e-002	9.924085e-001	-1.309826e-001	9.922991e-001	-1.309817e-001	2.255093e-003	-9.918758e-003
7567234.140	2.770100e-003	-1.079566e-002	9.924200e-001	-1.320717e-001	9.921896e-001	-1.319916e-001	2.158745e-003	-1.011816e-002
7629773.224	2.642388e-003	-1.058384e-002	9.922893e-001	-1.333252e-001	9.921781e-001	-1.330589e-001	2.060416e-003	-1.025832e-002
7692312.308	2.488264e-003	-1.073133e-002	9.921457e-001	-1.343935e-001	9.919558e-001	-1.342261e-001	2.088437e-003	-1.043110e-002
7754851.391	2.442814e-003	-1.099420e-002	9.919654e-001	-1.355199e-001	9.916800e-001	-1.351126e-001	2.013684e-003	-1.039066e-002
7817390.475	2.510807e-003	-1.087983e-002	9.918232e-001	-1.367325e-001	9.915949e-001	-1.364678e-001	1.918006e-003	-1.036909e-002
7879929.559	2.398525e-003	-1.113454e-002	9.915745e-001	-1.378284e-001	9.914403e-001	-1.376897e-001	2.012946e-003	-1.045757e-002
7942468.643	2.311602e-003	-1.128765e-002	9.915435e-001	-1.387964e-001	9.913930e-001	-1.387262e-001	1.965478e-003	-1.072550e-002
8005007.727	2.409887e-003	-1.134354e-002	9.912966e-001	-1.399717e-001	9.912285e-001	-1.397823e-001	1.856914e-003	-1.057538e-002
8067546.811	2.221559e-003	-1.138559e-002	9.911477e-001	-1.409954e-001	9.909600e-001	-1.407841e-001	1.739482e-003	-1.088560e-002
8130085.894	2.270885e-003	-1.154536e-002	9.909921e-001	-1.420365e-001	9.908807e-001	-1.419258e-001	1.936471e-003	-1.101533e-002
8192624.978	2.081901e-003	-1.170226e-002	9.906928e-001	-1.432284e-001	9.907407e-001	-1.429802e-001	1.955846e-003	-1.110526e-002
8255164.062	2.169228e-003	-1.175320e-002	9.906315e-001	-1.442719e-001	9.905229e-001	-1.440597e-001	1.896820e-003	-1.123778e-002
8317703.146	2.022936e-003	-1.173995e-002	9.905466e-001	-1.453763e-001	9.904574e-001	-1.451579e-001	1.688884e-003	-1.127277e-002
8380242.230	2.132413e-003	-1.205907e-002	9.902283e-001	-1.465899e-001	9.901944e-001	-1.461621e-001	1.624978e-003	-1.141882e-002
8442781.313	2.066200e-003	-1.211091e-002	9.903049e-001	-1.475484e-001	9.900727e-001	-1.472497e-001	1.571191e-003	-1.159449e-002
8505320.397	2.019664e-003	-1.206117e-002	9.900816e-001	-1.486618e-001	9.898853e-001	-1.483729e-001	1.490336e-003	-1.163313e-002
8567859.481	1.937016e-003	-1.199193e-002	9.898600e-001	-1.495898e-001	9.898093e-001	-1.494491e-001	1.491914e-003	-1.154114e-002
8630398.565	1.995876e-003	-1.213029e-002	9.895249e-001	-1.506560e-001	9.896148e-001	-1.504741e-001	1.345028e-003	-1.189428e-002
8692937.649	1.901635e-003	-1.243719e-002	9.894237e-001	-1.517835e-001	9.893008e-001	-1.516105e-001	1.253310e-003	-1.188282e-002
8755476.732	1.889674e-003	-1.245571e-002	9.893322e-001	-1.529599e-001	9.891495e-001	-1.525916e-001	1.296179e-003	-1.195300e-002
8818015.816	1.738790e-003	-1.258039e-002	9.891017e-001	-1.539966e-001	9.888418e-001	-1.537734e-001	1.357025e-003	-1.213693e-002
8880554.900	1.915850e-003	-1.262943e-002	9.890643e-001	-1.551277e-001	9.889551e-001	-1.546898e-001	1.194894e-003	-1.237202e-002
8943093.984	1.722585e-003	-1.262032e-002	9.888207e-001	-1.561123e-001	9.887862e-001	-1.557940e-001	1.175936e-003	-1.240693e-002
9005633.068	1.743550e-003	-1.279824e-002	9.885463e-001	-1.572667e-001	9.886439e-001	-1.569979e-001	1.042799e-003	-1.262777e-002
9068172.151	1.548098e-003	-1.288517e-002	9.885093e-001	-1.583511e-001	9.883491e-001	-1.579420e-001	1.060687e-003	-1.265891e-002
9130711.235	1.737911e-003	-1.304962e-002	9.882363e-001	-1.594443e-001	9.882345e-001	-1.590296e-001	1.078440e-003	-1.294294e-002
9193250.319	1.697409e-003	-1.316294e-002	9.882118e-001	-1.603544e-001	9.879820e-001	-1.602130e-001	9.634194e-004	-1.296252e-002
9255789.403	1.544118e-003	-1.340330e-002	9.880523e-001	-1.613580e-001	9.877874e-001	-1.612098e-001	7.739318e-004	-1.298308e-002
9318328.487	1.467327e-003	-1.339479e-002	9.878078e-001	-1.626769e-001	9.877961e-001	-1.622711e-001	8.640367e-004	-1.307560e-002
9380867.570	1.435781e-003	-1.336428e-002	9.876836e-001	-1.637681e-001	9.874328e-001	-1.635097e-001	8.265492e-004	-1.318423e-002
9443406.654	1.454867e-003	-1.346275e-002	9.875072e-001	-1.647628e-001	9.874195e-001	-1.646061e-001	8.170662e-004	-1.334986e-002
9505945.738	1.384991e-003	-1.352300e-002	9.871536e-001	-1.660286e-001	9.873079e-001	-1.657023e-001	7.380060e-004	-1.344790e-002
9568484.822	1.402304e-003	-1.365747e-002	9.871139e-001	-1.670476e-001	9.868079e-001	-1.667512e-001	4.927197e-004	-1.329230e-002
