!Agilent Technologies,E5061B,MY49102235,A.02.00
!Date: Tue Jul 11 17:00:55 2023
!Data & Calibration Information:
!Freq	S11:SOLT2(ON)	S21:SOLT2(ON)	S12:SOLT2(ON)	S22:SOLT2(ON)
# Hz S RI R 50
5.000	-5.217964e-003	-5.643781e-003	1.002081e+000	8.030424e-003	1.000574e+000	1.022007e-002	-1.465829e-003	-7.547274e-003
62544.084	5.836358e-003	-1.101987e-004	1.001434e+000	2.244194e-004	1.000828e+000	7.759291e-004	7.706966e-003	-2.495776e-003
125083.168	5.723516e-003	2.649132e-004	1.001058e+000	-1.415719e-003	1.000693e+000	-1.640685e-003	7.507836e-003	-1.512838e-003
187622.251	5.513524e-003	8.296666e-004	1.000408e+000	-3.262848e-003	1.000872e+000	-2.098352e-003	7.418700e-003	-1.231366e-003
250161.335	5.345161e-003	1.298914e-003	1.000728e+000	-4.603435e-003	1.000646e+000	-4.720806e-003	7.299302e-003	-5.132196e-004
312700.419	5.504600e-003	2.415024e-003	1.000882e+000	-5.673515e-003	1.000536e+000	-5.446602e-003	7.830327e-003	-4.677772e-004
375239.503	5.399922e-003	1.282002e-003	1.001039e+000	-7.493205e-003	1.000474e+000	-7.239447e-003	7.333405e-003	-2.580896e-004
437778.587	5.266191e-003	2.016111e-003	1.001407e+000	-7.919918e-003	1.000811e+000	-8.742961e-003	6.723154e-003	4.112066e-004
500317.670	4.752331e-003	2.532533e-003	1.001166e+000	-1.074966e-002	1.001598e+000	-1.060154e-002	4.927496e-003	9.447747e-004
562856.754	6.065642e-003	2.578760e-003	1.001279e+000	-1.267074e-002	1.001067e+000	-1.253269e-002	6.153545e-003	1.800948e-003
625395.838	5.301272e-003	3.098355e-003	1.002085e+000	-1.419713e-002	1.001932e+000	-1.383056e-002	6.294836e-003	2.741990e-003
687934.922	5.383051e-003	3.128770e-003	1.001126e+000	-1.553389e-002	1.000943e+000	-1.575520e-002	5.957693e-003	2.644276e-003
750474.006	4.544479e-003	3.820514e-003	1.000907e+000	-1.534181e-002	1.000454e+000	-1.510860e-002	5.715721e-003	3.125581e-003
813013.089	4.749385e-003	4.194114e-003	1.001091e+000	-1.754437e-002	1.000171e+000	-1.710962e-002	5.105308e-003	3.686848e-003
875552.173	4.518990e-003	4.727966e-003	1.001095e+000	-1.886412e-002	1.000577e+000	-1.874781e-002	5.916818e-003	3.630599e-003
938091.257	4.621884e-003	5.153767e-003	1.001189e+000	-2.059311e-002	1.000723e+000	-2.015079e-002	6.188112e-003	4.561273e-003
1000630.341	4.103053e-003	5.173175e-003	1.000619e+000	-2.244043e-002	1.000554e+000	-2.197099e-002	5.461110e-003	4.239999e-003
1063169.425	4.485879e-003	5.379567e-003	1.000927e+000	-2.408891e-002	1.000280e+000	-2.322373e-002	4.672547e-003	4.289966e-003
1125708.508	4.400867e-003	5.787413e-003	1.000651e+000	-2.572918e-002	1.000374e+000	-2.500493e-002	4.224967e-003	4.945158e-003
1188247.592	4.968324e-003	5.707161e-003	1.000944e+000	-2.719603e-002	1.000607e+000	-2.643232e-002	3.154768e-003	4.767899e-003
1250786.676	4.845932e-003	5.340396e-003	1.000386e+000	-2.746416e-002	1.000159e+000	-2.744886e-002	2.423609e-003	3.490707e-003
1313325.760	5.002427e-003	5.611529e-003	1.000748e+000	-2.945385e-002	1.000461e+000	-2.939646e-002	3.188428e-003	4.056024e-003
1375864.844	4.756996e-003	5.786846e-003	1.000236e+000	-3.162460e-002	9.999083e-001	-3.165645e-002	3.097808e-003	4.699617e-003
1438403.927	4.692161e-003	6.008153e-003	1.000258e+000	-3.282456e-002	1.000306e+000	-3.191180e-002	3.227045e-003	5.345579e-003
1500943.011	4.979145e-003	6.450411e-003	1.000911e+000	-3.409084e-002	1.000692e+000	-3.377270e-002	3.607995e-003	5.309573e-003
1563482.095	5.008619e-003	6.440735e-003	1.000435e+000	-3.596678e-002	9.999460e-001	-3.469009e-002	3.799155e-003	5.900350e-003
1626021.179	4.864707e-003	6.972127e-003	1.000206e+000	-3.736638e-002	1.000246e+000	-3.785062e-002	4.134883e-003	6.228081e-003
1688560.263	4.604804e-003	7.425092e-003	9.997768e-001	-3.951422e-002	1.000608e+000	-3.941342e-002	4.355481e-003	6.602961e-003
1751099.346	4.803298e-003	7.917955e-003	1.000415e+000	-4.106295e-002	9.997710e-001	-4.041792e-002	4.230997e-003	7.826710e-003
1813638.430	4.509153e-003	8.276308e-003	1.000598e+000	-4.309010e-002	1.000086e+000	-4.264952e-002	4.451575e-003	7.842281e-003
1876177.514	4.605020e-003	8.965960e-003	1.000894e+000	-4.433966e-002	1.000304e+000	-4.460842e-002	4.191294e-003	8.925421e-003
1938716.598	4.136901e-003	9.459637e-003	1.001026e+000	-4.563555e-002	1.000325e+000	-4.482256e-002	4.430512e-003	9.712265e-003
2001255.682	4.097142e-003	9.383133e-003	1.000848e+000	-4.746757e-002	1.000317e+000	-4.696181e-002	4.255408e-003	9.674687e-003
2063794.765	4.270181e-003	1.019052e-002	1.000353e+000	-4.882766e-002	9.995207e-001	-4.899728e-002	4.703048e-003	9.982463e-003
2126333.849	3.880011e-003	1.010439e-002	9.996974e-001	-5.056121e-002	9.989389e-001	-4.974322e-002	5.065465e-003	1.064930e-002
2188872.933	4.466783e-003	1.051351e-002	9.993884e-001	-5.217353e-002	9.987041e-001	-5.122641e-002	5.030575e-003	1.102442e-002
2251412.017	4.649262e-003	1.057656e-002	9.990698e-001	-5.401216e-002	9.986936e-001	-5.272019e-002	5.121994e-003	1.133296e-002
2313951.101	5.100898e-003	1.141261e-002	9.983501e-001	-5.550137e-002	9.986532e-001	-5.409743e-002	5.540589e-003	1.169778e-002
2376490.184	4.970599e-003	1.181278e-002	9.981167e-001	-5.632734e-002	9.985025e-001	-5.646183e-002	5.637357e-003	1.213277e-002
2439029.268	5.573089e-003	1.221310e-002	9.980510e-001	-5.851271e-002	9.974606e-001	-5.795214e-002	5.445224e-003	1.267041e-002
2501568.352	5.693214e-003	1.263075e-002	9.975292e-001	-5.922674e-002	9.981943e-001	-5.902939e-002	5.902937e-003	1.306030e-002
2564107.436	5.756905e-003	1.290430e-002	9.976967e-001	-6.135702e-002	9.977537e-001	-6.097235e-002	5.336306e-003	1.313461e-002
2626646.520	6.406560e-003	1.313117e-002	9.973679e-001	-6.287045e-002	9.964691e-001	-6.253785e-002	5.779820e-003	1.345437e-002
2689185.604	6.547645e-003	1.369669e-002	9.975970e-001	-6.400534e-002	9.971238e-001	-6.369866e-002	6.072214e-003	1.392465e-002
2751724.687	6.854618e-003	1.400392e-002	9.972815e-001	-6.526616e-002	9.968548e-001	-6.491872e-002	5.871646e-003	1.431449e-002
2814263.771	6.991970e-003	1.433373e-002	9.961741e-001	-6.744178e-002	9.963608e-001	-6.661658e-002	6.045573e-003	1.457095e-002
2876802.855	7.149022e-003	1.451509e-002	9.960094e-001	-6.929097e-002	9.960843e-001	-6.817003e-002	6.340503e-003	1.508251e-002
2939341.939	7.460173e-003	1.497605e-002	9.963966e-001	-7.012769e-002	9.957100e-001	-7.009542e-002	6.426274e-003	1.536378e-002
3001881.023	7.606287e-003	1.535761e-002	9.958871e-001	-7.177875e-002	9.953518e-001	-7.149474e-002	6.715191e-003	1.558579e-002
3064420.106	7.862401e-003	1.567854e-002	9.962102e-001	-7.318382e-002	9.952503e-001	-7.290083e-002	6.759505e-003	1.585128e-002
3126959.190	8.275980e-003	1.593773e-002	9.955782e-001	-7.473646e-002	9.952498e-001	-7.444379e-002	7.165426e-003	1.615374e-002
3189498.274	8.459956e-003	1.632554e-002	9.952330e-001	-7.607419e-002	9.949046e-001	-7.595257e-002	7.367393e-003	1.645978e-002
3252037.358	8.589454e-003	1.633591e-002	9.950715e-001	-7.768029e-002	9.947615e-001	-7.733016e-002	7.537726e-003	1.686916e-002
3314576.442	8.852659e-003	1.686661e-002	9.947607e-001	-7.907386e-002	9.944004e-001	-7.889218e-002	7.825400e-003	1.711950e-002
3377115.525	9.047205e-003	1.722467e-002	9.943536e-001	-8.046765e-002	9.939061e-001	-8.052558e-002	7.895065e-003	1.734153e-002
3439654.609	9.291178e-003	1.750649e-002	9.938669e-001	-8.198366e-002	9.939321e-001	-8.190049e-002	8.168502e-003	1.788323e-002
3502193.693	9.499761e-003	1.755572e-002	9.936313e-001	-8.356503e-002	9.933454e-001	-8.326188e-002	8.596697e-003	1.817459e-002
3564732.777	9.803326e-003	1.802967e-002	9.934149e-001	-8.498717e-002	9.930889e-001	-8.485420e-002	8.936091e-003	1.854847e-002
3627271.861	9.923910e-003	1.824951e-002	9.931394e-001	-8.656976e-002	9.928593e-001	-8.621708e-002	8.979065e-003	1.868251e-002
3689810.944	1.010333e-002	1.846850e-002	9.926985e-001	-8.801342e-002	9.924825e-001	-8.764680e-002	9.402196e-003	1.902296e-002
3752350.028	1.048823e-002	1.881123e-002	9.923300e-001	-8.924441e-002	9.919535e-001	-8.906860e-002	9.619809e-003	1.929202e-002
3814889.112	1.089845e-002	1.924664e-002	9.918717e-001	-9.077906e-002	9.918765e-001	-9.081152e-002	9.816553e-003	1.948888e-002
3877428.196	1.113735e-002	1.957117e-002	9.917520e-001	-9.228874e-002	9.914369e-001	-9.205972e-002	1.043815e-002	1.978769e-002
3939967.280	1.140363e-002	1.958458e-002	9.912843e-001	-9.382732e-002	9.911283e-001	-9.350652e-002	1.073907e-002	2.017337e-002
4002506.363	1.178582e-002	2.001045e-002	9.909356e-001	-9.518191e-002	9.906692e-001	-9.481790e-002	1.098793e-002	2.039007e-002
4065045.447	1.192863e-002	2.020317e-002	9.903564e-001	-9.668485e-002	9.901812e-001	-9.637556e-002	1.140479e-002	2.056185e-002
4127584.531	1.223457e-002	2.045838e-002	9.899094e-001	-9.810264e-002	9.898043e-001	-9.769034e-002	1.175081e-002	2.094148e-002
4190123.615	1.262581e-002	2.073894e-002	9.896152e-001	-9.969954e-002	9.892607e-001	-9.929257e-002	1.199061e-002	2.098003e-002
4252662.699	1.291742e-002	2.090366e-002	9.892719e-001	-1.010918e-001	9.887974e-001	-1.007915e-001	1.243466e-002	2.124659e-002
4315201.782	1.340160e-002	2.107967e-002	9.887973e-001	-1.022530e-001	9.886496e-001	-1.022077e-001	1.259949e-002	2.130197e-002
4377740.866	1.365595e-002	2.128506e-002	9.884633e-001	-1.038349e-001	9.879476e-001	-1.035713e-001	1.313325e-002	2.179162e-002
4440279.950	1.390579e-002	2.136503e-002	9.879794e-001	-1.050148e-001	9.874422e-001	-1.047952e-001	1.338411e-002	2.184623e-002
4502819.034	1.425522e-002	2.168248e-002	9.872646e-001	-1.064448e-001	9.871212e-001	-1.061552e-001	1.381620e-002	2.218352e-002
4565358.118	1.452922e-002	2.181465e-002	9.868949e-001	-1.077701e-001	9.865527e-001	-1.073347e-001	1.417383e-002	2.225501e-002
4627897.201	1.507308e-002	2.211507e-002	9.866405e-001	-1.091112e-001	9.861676e-001	-1.086795e-001	1.464673e-002	2.252420e-002
4690436.285	1.525975e-002	2.216460e-002	9.861686e-001	-1.105343e-001	9.857859e-001	-1.103829e-001	1.499134e-002	2.249110e-002
4752975.369	1.560961e-002	2.228870e-002	9.854522e-001	-1.119315e-001	9.854028e-001	-1.116120e-001	1.517458e-002	2.259323e-002
4815514.453	1.608342e-002	2.243098e-002	9.852322e-001	-1.131738e-001	9.849171e-001	-1.129888e-001	1.573977e-002	2.282542e-002
4878053.537	1.652897e-002	2.246009e-002	9.848124e-001	-1.143441e-001	9.844532e-001	-1.141360e-001	1.605168e-002	2.286849e-002
4940592.620	1.662872e-002	2.264146e-002	9.842434e-001	-1.157289e-001	9.840383e-001	-1.155271e-001	1.618296e-002	2.297348e-002
5003131.704	1.702488e-002	2.260276e-002	9.837561e-001	-1.169790e-001	9.836630e-001	-1.166054e-001	1.665336e-002	2.302267e-002
5065670.788	1.731628e-002	2.290412e-002	9.833371e-001	-1.183471e-001	9.831281e-001	-1.179128e-001	1.697168e-002	2.316149e-002
5128209.872	1.776408e-002	2.286020e-002	9.830905e-001	-1.195770e-001	9.826772e-001	-1.192187e-001	1.725783e-002	2.306482e-002
5190748.956	1.801113e-002	2.295935e-002	9.825121e-001	-1.208656e-001	9.823348e-001	-1.205944e-001	1.757339e-002	2.326790e-002
5253288.039	1.840680e-002	2.297345e-002	9.821588e-001	-1.221090e-001	9.819028e-001	-1.218088e-001	1.785449e-002	2.343433e-002
5315827.123	1.869037e-002	2.300731e-002	9.815482e-001	-1.233687e-001	9.814070e-001	-1.230962e-001	1.816362e-002	2.341171e-002
5378366.207	1.910618e-002	2.310693e-002	9.812746e-001	-1.246000e-001	9.810141e-001	-1.245218e-001	1.847932e-002	2.339162e-002
5440905.291	1.925456e-002	2.327521e-002	9.808847e-001	-1.258730e-001	9.806104e-001	-1.256535e-001	1.869952e-002	2.351488e-002
5503444.375	1.976540e-002	2.315607e-002	9.803843e-001	-1.271726e-001	9.802385e-001	-1.267378e-001	1.920094e-002	2.347302e-002
5565983.458	1.975302e-002	2.335044e-002	9.799847e-001	-1.282906e-001	9.797495e-001	-1.279389e-001	1.944843e-002	2.369467e-002
5628522.542	2.030593e-002	2.330625e-002	9.796076e-001	-1.294388e-001	9.793602e-001	-1.293201e-001	1.979953e-002	2.361393e-002
5691061.626	2.067015e-002	2.318046e-002	9.791250e-001	-1.308912e-001	9.788418e-001	-1.305415e-001	2.002005e-002	2.371746e-002
5753600.710	2.083195e-002	2.330647e-002	9.786163e-001	-1.320287e-001	9.784759e-001	-1.317583e-001	2.037993e-002	2.363268e-002
5816139.794	2.124713e-002	2.352302e-002	9.783119e-001	-1.332040e-001	9.778740e-001	-1.331364e-001	2.054121e-002	2.371858e-002
5878678.877	2.145107e-002	2.333282e-002	9.778286e-001	-1.344841e-001	9.775719e-001	-1.342138e-001	2.095980e-002	2.360531e-002
5941217.961	2.173421e-002	2.329163e-002	9.773318e-001	-1.357808e-001	9.771133e-001	-1.353200e-001	2.106890e-002	2.374687e-002
6003757.045	2.190103e-002	2.355643e-002	9.767714e-001	-1.368096e-001	9.767077e-001	-1.365172e-001	2.148384e-002	2.374990e-002
6066296.129	2.229761e-002	2.338690e-002	9.766207e-001	-1.380793e-001	9.762905e-001	-1.376774e-001	2.176844e-002	2.373363e-002
6128835.213	2.268524e-002	2.341942e-002	9.761917e-001	-1.389799e-001	9.760035e-001	-1.389918e-001	2.215452e-002	2.375443e-002
6191374.296	2.291866e-002	2.343256e-002	9.756634e-001	-1.404253e-001	9.753763e-001	-1.403631e-001	2.228216e-002	2.386867e-002
6253913.380	2.314045e-002	2.355677e-002	9.753034e-001	-1.416756e-001	9.750208e-001	-1.413807e-001	2.246616e-002	2.400585e-002
6316452.464	2.339365e-002	2.364476e-002	9.749195e-001	-1.427256e-001	9.745110e-001	-1.427944e-001	2.278471e-002	2.378323e-002
6378991.548	2.362428e-002	2.351492e-002	9.744766e-001	-1.442837e-001	9.743340e-001	-1.438494e-001	2.311672e-002	2.369272e-002
6441530.632	2.384559e-002	2.344606e-002	9.739845e-001	-1.451691e-001	9.738123e-001	-1.451726e-001	2.344236e-002	2.379225e-002
6504069.715	2.411287e-002	2.342975e-002	9.735582e-001	-1.466299e-001	9.735471e-001	-1.462445e-001	2.373563e-002	2.379256e-002
6566608.799	2.453491e-002	2.336822e-002	9.732844e-001	-1.478602e-001	9.729710e-001	-1.474654e-001	2.393148e-002	2.398391e-002
6629147.883	2.476455e-002	2.350453e-002	9.727627e-001	-1.486648e-001	9.725335e-001	-1.486771e-001	2.428210e-002	2.384448e-002
6691686.967	2.493061e-002	2.352490e-002	9.722566e-001	-1.499888e-001	9.720773e-001	-1.498364e-001	2.458685e-002	2.392343e-002
6754226.051	2.514399e-002	2.349467e-002	9.718324e-001	-1.513034e-001	9.715439e-001	-1.511730e-001	2.464730e-002	2.373829e-002
6816765.134	2.550368e-002	2.348340e-002	9.715250e-001	-1.523722e-001	9.712891e-001	-1.522090e-001	2.498689e-002	2.390373e-002
6879304.218	2.566610e-002	2.332508e-002	9.710200e-001	-1.535849e-001	9.708878e-001	-1.533450e-001	2.524004e-002	2.383239e-002
6941843.302	2.601522e-002	2.346459e-002	9.705989e-001	-1.548384e-001	9.704407e-001	-1.545057e-001	2.550310e-002	2.389536e-002
7004382.386	2.609876e-002	2.353301e-002	9.702798e-001	-1.558668e-001	9.699773e-001	-1.556778e-001	2.569160e-002	2.392590e-002
7066921.470	2.644383e-002	2.344934e-002	9.697169e-001	-1.571802e-001	9.696250e-001	-1.566804e-001	2.610408e-002	2.374490e-002
7129460.553	2.658759e-002	2.333975e-002	9.693933e-001	-1.581437e-001	9.692184e-001	-1.579815e-001	2.637523e-002	2.378561e-002
7191999.637	2.686415e-002	2.354397e-002	9.687707e-001	-1.594542e-001	9.686196e-001	-1.591082e-001	2.648913e-002	2.378128e-002
7254538.721	2.716214e-002	2.341505e-002	9.686953e-001	-1.606274e-001	9.684143e-001	-1.603444e-001	2.678539e-002	2.377537e-002
7317077.805	2.757660e-002	2.336121e-002	9.682081e-001	-1.616420e-001	9.679919e-001	-1.614327e-001	2.702671e-002	2.365352e-002
7379616.889	2.770705e-002	2.334989e-002	9.679336e-001	-1.630181e-001	9.675218e-001	-1.625887e-001	2.722366e-002	2.365644e-002
7442155.972	2.780887e-002	2.333323e-002	9.673577e-001	-1.639962e-001	9.671185e-001	-1.637022e-001	2.757028e-002	2.383524e-002
7504695.056	2.808278e-002	2.321259e-002	9.668065e-001	-1.650606e-001	9.665702e-001	-1.650402e-001	2.786205e-002	2.385561e-002
7567234.140	2.849869e-002	2.310585e-002	9.665628e-001	-1.662179e-001	9.661882e-001	-1.661060e-001	2.802326e-002	2.374295e-002
7629773.224	2.866891e-002	2.336159e-002	9.661586e-001	-1.675572e-001	9.659054e-001	-1.672367e-001	2.819382e-002	2.367549e-002
7692312.308	2.877530e-002	2.328331e-002	9.657084e-001	-1.686606e-001	9.654033e-001	-1.684632e-001	2.848867e-002	2.355540e-002
7754851.391	2.900786e-002	2.310982e-002	9.652818e-001	-1.698649e-001	9.648910e-001	-1.693976e-001	2.868145e-002	2.365411e-002
7817390.475	2.933083e-002	2.326022e-002	9.648940e-001	-1.711102e-001	9.645051e-001	-1.707979e-001	2.886816e-002	2.373467e-002
7879929.559	2.947739e-002	2.305839e-002	9.643874e-001	-1.722193e-001	9.640743e-001	-1.721083e-001	2.922686e-002	2.367826e-002
7942468.643	2.966097e-002	2.298298e-002	9.641086e-001	-1.732906e-001	9.637773e-001	-1.731212e-001	2.943337e-002	2.347845e-002
8005007.727	2.999647e-002	2.295919e-002	9.635523e-001	-1.745184e-001	9.633542e-001	-1.742639e-001	2.958878e-002	2.366734e-002
8067546.811	3.008580e-002	2.297375e-002	9.631890e-001	-1.756181e-001	9.628244e-001	-1.753079e-001	2.973546e-002	2.343705e-002
8130085.894	3.038182e-002	2.286594e-002	9.627214e-001	-1.766660e-001	9.624759e-001	-1.765106e-001	3.017153e-002	2.332948e-002
8192624.978	3.045149e-002	2.278282e-002	9.621632e-001	-1.779329e-001	9.620755e-001	-1.776051e-001	3.044811e-002	2.328308e-002
8255164.062	3.080139e-002	2.274965e-002	9.618990e-001	-1.790206e-001	9.616185e-001	-1.787746e-001	3.063751e-002	2.320199e-002
8317703.146	3.091241e-002	2.281968e-002	9.614925e-001	-1.801751e-001	9.612784e-001	-1.798842e-001	3.069799e-002	2.322035e-002
8380242.230	3.124484e-002	2.253717e-002	9.609311e-001	-1.814117e-001	9.607495e-001	-1.809553e-001	3.088374e-002	2.312005e-002
8442781.313	3.144340e-002	2.252306e-002	9.607867e-001	-1.824063e-001	9.604033e-001	-1.820889e-001	3.109717e-002	2.300008e-002
8505320.397	3.166078e-002	2.262423e-002	9.602959e-001	-1.835772e-001	9.599888e-001	-1.832402e-001	3.126945e-002	2.299023e-002
8567859.481	3.185047e-002	2.270365e-002	9.598150e-001	-1.844915e-001	9.596203e-001	-1.843373e-001	3.154147e-002	2.309909e-002
8630398.565	3.215573e-002	2.260359e-002	9.592663e-001	-1.856047e-001	9.592099e-001	-1.854237e-001	3.163005e-002	2.281166e-002
8692937.649	3.229382e-002	2.234303e-002	9.589189e-001	-1.867464e-001	9.586152e-001	-1.865831e-001	3.179310e-002	2.286110e-002
8755476.732	3.253448e-002	2.235970e-002	9.585509e-001	-1.879650e-001	9.582271e-001	-1.876156e-001	3.207891e-002	2.282254e-002
8818015.816	3.262754e-002	2.226846e-002	9.580379e-001	-1.890534e-001	9.576393e-001	-1.887709e-001	3.238149e-002	2.267169e-002
8880554.900	3.304552e-002	2.223698e-002	9.577646e-001	-1.902249e-001	9.575248e-001	-1.897511e-001	3.245222e-002	2.247361e-002
8943093.984	3.310112e-002	2.229488e-002	9.572982e-001	-1.912375e-001	9.571000e-001	-1.909033e-001	3.268631e-002	2.247129e-002
9005633.068	3.336762e-002	2.214291e-002	9.567800e-001	-1.924051e-001	9.567770e-001	-1.921353e-001	3.279508e-002	2.228258e-002
9068172.151	3.342953e-002	2.208830e-002	9.564658e-001	-1.935272e-001	9.561998e-001	-1.931373e-001	3.305176e-002	2.226227e-002
9130711.235	3.383400e-002	2.193887e-002	9.560037e-001	-1.946215e-001	9.558343e-001	-1.942258e-001	3.329104e-002	2.202696e-002
9193250.319	3.401555e-002	2.185543e-002	9.557373e-001	-1.955952e-001	9.553362e-001	-1.954205e-001	3.343293e-002	2.202960e-002
9255789.403	3.410829e-002	2.164737e-002	9.552988e-001	-1.966483e-001	9.549298e-001	-1.964605e-001	3.350543e-002	2.202452e-002
9318328.487	3.427272e-002	2.168347e-002	9.548266e-001	-1.979695e-001	9.546656e-001	-1.975436e-001	3.381934e-002	2.195217e-002
9380867.570	3.449146e-002	2.172291e-002	9.544760e-001	-1.990561e-001	9.540730e-001	-1.987559e-001	3.400508e-002	2.186250e-002
9443406.654	3.474995e-002	2.163777e-002	9.540714e-001	-2.000809e-001	9.537963e-001	-1.998877e-001	3.423093e-002	2.172504e-002
9505945.738	3.492438e-002	2.159384e-002	9.534771e-001	-2.013220e-001	9.534352e-001	-2.010001e-001	3.437340e-002	2.164922e-002
9568484.822	3.514715e-002	2.147781e-002	9.531994e-001	-2.023677e-001	9.527681e-001	-2.020651e-001	3.441253e-002	2.181971e-002
9631023.906	3.533119e-002	2.141958e-002	9.528011e-001	-2.034402e-001	9.523723e-001	-2.031801e-001	3.475311e-002	2.144071e-002
9693562.989	3.554329e-002	2.132601e-002	9.522722e-001	-2.045676e-001	9.520525e-001	-2.041984e-001	3.471359e-002	2.149278e-002
9756102.073	3.570817e-002	2.121006e-002	9.520531e-001	-2.056894e-001	9.516762e-001	-2.052482e-001	3.493473e-002	2.127981e-002
