!Agilent Technologies,E5061B,MY49102235,A.02.00
!Date: Tue Jul 11 17:11:52 2023
!Data & Calibration Information:
!Freq	S11:SOLT2(ON)	S21:SOLT2(ON)	S12:SOLT2(ON)	S22:SOLT2(ON)
# Hz S RI R 50
5.000	-5.268770e-003	-5.643568e-003	1.002536e+000	7.891131e-003	1.000612e+000	1.025199e-002	-1.255932e-003	-7.552479e-003
62544.084	5.812770e-003	-4.849318e-004	1.001502e+000	4.542253e-004	1.000814e+000	1.244997e-003	7.698017e-003	-2.877692e-003
125083.168	5.710973e-003	-4.974050e-004	1.001081e+000	-8.732284e-004	1.000782e+000	-8.353304e-004	7.482819e-003	-2.288412e-003
187622.251	5.480543e-003	-3.260979e-004	1.000502e+000	-2.199231e-003	1.000801e+000	-9.136355e-004	7.391538e-003	-2.368559e-003
250161.335	5.315520e-003	-2.037228e-004	1.000646e+000	-3.177371e-003	1.000556e+000	-3.043699e-003	7.274129e-003	-2.043085e-003
312700.419	5.454519e-003	5.040537e-004	1.000986e+000	-3.857341e-003	1.000468e+000	-3.439246e-003	7.778625e-003	-2.360680e-003
375239.503	5.352906e-003	-9.989688e-004	1.000967e+000	-5.373039e-003	1.000387e+000	-4.820159e-003	7.275415e-003	-2.535915e-003
437778.587	5.168100e-003	-6.372062e-004	1.001422e+000	-5.342347e-003	1.001021e+000	-6.008806e-003	6.614067e-003	-2.258505e-003
500317.670	4.609899e-003	-4.976182e-004	1.001333e+000	-7.926197e-003	1.001594e+000	-7.461916e-003	4.809511e-003	-2.079722e-003
562856.754	5.942020e-003	-8.319208e-004	1.001404e+000	-9.247359e-003	1.001057e+000	-9.013797e-003	6.017635e-003	-1.601317e-003
625395.838	5.109135e-003	-7.023865e-004	1.002396e+000	-1.052269e-002	1.001993e+000	-9.998870e-003	6.116678e-003	-1.019348e-003
687934.922	5.171905e-003	-1.037591e-003	1.001354e+000	-1.142651e-002	1.001166e+000	-1.132010e-002	5.764138e-003	-1.528713e-003
750474.006	4.275431e-003	-7.268580e-004	1.001283e+000	-1.099244e-002	1.000568e+000	-1.023916e-002	5.458035e-003	-1.403303e-003
813013.089	4.443451e-003	-7.122460e-004	1.001418e+000	-1.257452e-002	1.000463e+000	-1.204970e-002	4.814914e-003	-1.230200e-003
875552.173	4.189367e-003	-5.645884e-004	1.001455e+000	-1.366687e-002	1.000926e+000	-1.322780e-002	5.612708e-003	-1.631993e-003
938091.257	4.273798e-003	-5.053077e-004	1.001516e+000	-1.517972e-002	1.000962e+000	-1.439755e-002	5.849635e-003	-1.083274e-003
1000630.341	3.709067e-003	-8.838959e-004	1.000971e+000	-1.664384e-002	1.000814e+000	-1.574812e-002	5.074093e-003	-1.802875e-003
1063169.425	4.051854e-003	-1.038231e-003	1.001399e+000	-1.795533e-002	1.000572e+000	-1.657599e-002	4.258831e-003	-2.120546e-003
1125708.508	3.928734e-003	-9.933450e-004	1.001118e+000	-1.898874e-002	1.000525e+000	-1.804219e-002	3.757900e-003	-1.849798e-003
1188247.592	4.483807e-003	-1.467875e-003	1.001229e+000	-2.026346e-002	1.000887e+000	-1.899534e-002	2.675722e-003	-2.431769e-003
1250786.676	4.325129e-003	-2.215562e-003	1.000825e+000	-2.005039e-002	1.000766e+000	-1.969288e-002	1.940692e-003	-4.102326e-003
1313325.760	4.430469e-003	-2.319025e-003	1.001310e+000	-2.166651e-002	1.000981e+000	-2.135000e-002	2.670379e-003	-3.898416e-003
1375864.844	4.168028e-003	-2.513798e-003	1.000905e+000	-2.346324e-002	1.000418e+000	-2.306700e-002	2.517086e-003	-3.636636e-003
1438403.927	4.067229e-003	-2.695637e-003	1.001027e+000	-2.418680e-002	1.000878e+000	-2.288927e-002	2.606787e-003	-3.377142e-003
1500943.011	4.286455e-003	-2.642916e-003	1.001681e+000	-2.511437e-002	1.001222e+000	-2.438361e-002	2.957938e-003	-3.806614e-003
1563482.095	4.286721e-003	-3.016831e-003	1.001269e+000	-2.654014e-002	1.000458e+000	-2.508595e-002	3.085013e-003	-3.607198e-003
1626021.179	4.103159e-003	-2.900706e-003	1.001166e+000	-2.766848e-002	1.000777e+000	-2.752857e-002	3.354878e-003	-3.654507e-003
1688560.263	3.796097e-003	-2.859384e-003	1.000789e+000	-2.941063e-002	1.001218e+000	-2.901414e-002	3.533690e-003	-3.701577e-003
1751099.346	3.919842e-003	-2.760419e-003	1.001288e+000	-3.045592e-002	1.000618e+000	-2.943500e-002	3.347004e-003	-2.878019e-003
1813638.430	3.558926e-003	-2.825688e-003	1.001532e+000	-3.200347e-002	1.001071e+000	-3.111019e-002	3.540658e-003	-3.265932e-003
1876177.514	3.601208e-003	-2.554725e-003	1.001898e+000	-3.293198e-002	1.001226e+000	-3.291353e-002	3.190259e-003	-2.604532e-003
1938716.598	3.049542e-003	-2.487553e-003	1.002072e+000	-3.370068e-002	1.001410e+000	-3.274610e-002	3.360482e-003	-2.232679e-003
2001255.682	2.965634e-003	-2.977324e-003	1.002120e+000	-3.527090e-002	1.001150e+000	-3.431426e-002	3.105919e-003	-2.712308e-003
2063794.765	3.035220e-003	-2.603797e-003	1.001576e+000	-3.603546e-002	1.000652e+000	-3.618034e-002	3.489757e-003	-2.815078e-003
2126333.849	2.580032e-003	-3.151569e-003	1.001048e+000	-3.745818e-002	1.000182e+000	-3.648074e-002	3.767289e-003	-2.573389e-003
2188872.933	3.080449e-003	-3.162742e-003	1.000990e+000	-3.860936e-002	1.000153e+000	-3.735135e-002	3.639967e-003	-2.621984e-003
2251412.017	3.172171e-003	-3.545094e-003	1.000604e+000	-4.005815e-002	1.000145e+000	-3.842274e-002	3.615866e-003	-2.770484e-003
2313951.101	3.492294e-003	-3.130353e-003	1.000156e+000	-4.104820e-002	1.000253e+000	-3.924526e-002	3.910388e-003	-2.852463e-003
2376490.184	3.239208e-003	-3.172823e-003	1.000130e+000	-4.141673e-002	1.000267e+000	-4.123646e-002	3.885440e-003	-2.849683e-003
2439029.268	3.702493e-003	-3.225140e-003	1.000022e+000	-4.323837e-002	9.992797e-001	-4.229000e-002	3.547780e-003	-2.769206e-003
2501568.352	3.656417e-003	-3.245405e-003	9.998365e-001	-4.326936e-002	1.000091e+000	-4.287836e-002	3.822980e-003	-2.826292e-003
2564107.436	3.570823e-003	-3.424591e-003	9.999312e-001	-4.510957e-002	9.998847e-001	-4.440588e-002	3.141350e-003	-3.224186e-003
2626646.520	4.054691e-003	-3.606585e-003	9.998932e-001	-4.618612e-002	9.988198e-001	-4.564050e-002	3.398577e-003	-3.301808e-003
2689185.604	4.000882e-003	-3.476758e-003	1.000255e+000	-4.695282e-002	9.996160e-001	-4.629384e-002	3.511392e-003	-3.254661e-003
2751724.687	4.115378e-003	-3.589269e-003	1.000157e+000	-4.771412e-002	9.995035e-001	-4.709817e-002	3.119036e-003	-3.316968e-003
2814263.771	4.051399e-003	-3.685745e-003	9.990001e-001	-4.953538e-002	9.991912e-001	-4.830473e-002	3.081825e-003	-3.462469e-003
2876802.855	4.001399e-003	-3.916010e-003	9.990690e-001	-5.097142e-002	9.991759e-001	-4.949407e-002	3.163371e-003	-3.381589e-003
2939341.939	4.119211e-003	-3.842905e-003	9.998508e-001	-5.152570e-002	9.991884e-001	-5.099723e-002	3.071341e-003	-3.488496e-003
3001881.023	4.043950e-003	-3.853725e-003	9.996299e-001	-5.255979e-002	9.989870e-001	-5.200046e-002	3.149175e-003	-3.642048e-003
3064420.106	4.096100e-003	-3.933842e-003	1.000085e+000	-5.357386e-002	9.988422e-001	-5.293760e-002	2.978071e-003	-3.805807e-003
3126959.190	4.286280e-003	-4.059467e-003	9.996344e-001	-5.477491e-002	9.991482e-001	-5.418455e-002	3.148630e-003	-3.897405e-003
3189498.274	4.262633e-003	-4.054060e-003	9.995122e-001	-5.573440e-002	9.990584e-001	-5.528650e-002	3.124406e-003	-3.978611e-003
3252037.358	4.180201e-003	-4.442985e-003	9.996351e-001	-5.690064e-002	9.991209e-001	-5.628043e-002	3.076246e-003	-3.953089e-003
3314576.442	4.171012e-003	-4.311717e-003	9.994818e-001	-5.790444e-002	9.990153e-001	-5.738817e-002	3.132737e-003	-4.102644e-003
3377115.525	4.138469e-003	-4.343716e-003	9.992851e-001	-5.889746e-002	9.987372e-001	-5.866077e-002	2.972978e-003	-4.265571e-003
3439654.609	4.135486e-003	-4.457414e-003	9.990828e-001	-6.002540e-002	9.989851e-001	-5.964120e-002	2.994023e-003	-4.108391e-003
3502193.693	4.108089e-003	-4.785058e-003	9.990813e-001	-6.125101e-002	9.986830e-001	-6.061647e-002	3.133028e-003	-4.201732e-003
3564732.777	4.144891e-003	-4.679099e-003	9.991065e-001	-6.227551e-002	9.987075e-001	-6.177562e-002	3.227355e-003	-4.217074e-003
3627271.861	3.987546e-003	-4.872188e-003	9.991171e-001	-6.347013e-002	9.986961e-001	-6.276556e-002	3.004746e-003	-4.476646e-003
3689810.944	3.891032e-003	-5.031856e-003	9.989844e-001	-6.459258e-002	9.986547e-001	-6.377737e-002	3.147504e-003	-4.497856e-003
3752350.028	4.002201e-003	-5.065164e-003	9.988445e-001	-6.541627e-002	9.983858e-001	-6.488691e-002	3.089777e-003	-4.613533e-003
3814889.112	4.108972e-003	-4.980726e-003	9.987399e-001	-6.661120e-002	9.986245e-001	-6.621903e-002	2.987763e-003	-4.795392e-003
3877428.196	4.035453e-003	-5.011061e-003	9.988928e-001	-6.769184e-002	9.984646e-001	-6.714283e-002	3.314356e-003	-4.828237e-003
3939967.280	4.010685e-003	-5.360026e-003	9.987489e-001	-6.886430e-002	9.985220e-001	-6.820389e-002	3.290534e-003	-4.796118e-003
4002506.363	4.056300e-003	-5.293528e-003	9.987336e-001	-6.994401e-002	9.983733e-001	-6.914801e-002	3.222660e-003	-4.934898e-003
4065045.447	3.868970e-003	-5.437552e-003	9.984871e-001	-7.107411e-002	9.981641e-001	-7.036866e-002	3.307104e-003	-5.093859e-003
4127584.531	3.842947e-003	-5.517269e-003	9.984081e-001	-7.211398e-002	9.981520e-001	-7.139940e-002	3.322568e-003	-5.045723e-003
4190123.615	3.878120e-003	-5.566315e-003	9.983957e-001	-7.334953e-002	9.979461e-001	-7.264346e-002	3.215800e-003	-5.339516e-003
4252662.699	3.835753e-003	-5.719123e-003	9.984495e-001	-7.450614e-002	9.978423e-001	-7.384103e-002	3.321429e-003	-5.375552e-003
4315201.782	3.954984e-003	-5.831977e-003	9.982998e-001	-7.532082e-002	9.980486e-001	-7.492465e-002	3.125345e-003	-5.653479e-003
4377740.866	3.865898e-003	-5.917167e-003	9.983463e-001	-7.660580e-002	9.977533e-001	-7.603506e-002	3.299258e-003	-5.425466e-003
4440279.950	3.766052e-003	-6.135544e-003	9.982382e-001	-7.749914e-002	9.976024e-001	-7.694974e-002	3.191417e-003	-5.658406e-003
4502819.034	3.745108e-003	-6.065486e-003	9.978959e-001	-7.868980e-002	9.976483e-001	-7.808078e-002	3.251424e-003	-5.580902e-003
4565358.118	3.639388e-003	-6.190868e-003	9.978356e-001	-7.979610e-002	9.973962e-001	-7.892277e-002	3.253402e-003	-5.755187e-003
4627897.201	3.819686e-003	-6.135397e-003	9.979506e-001	-8.083754e-002	9.973949e-001	-8.007351e-002	3.353198e-003	-5.731790e-003
4690436.285	3.641075e-003	-6.335579e-003	9.978863e-001	-8.197694e-002	9.973790e-001	-8.154928e-002	3.328725e-003	-6.002639e-003
4752975.369	3.637138e-003	-6.421885e-003	9.975119e-001	-8.317419e-002	9.973613e-001	-8.252849e-002	3.145819e-003	-6.147162e-003
4815514.453	3.750482e-003	-6.501946e-003	9.976520e-001	-8.415381e-002	9.972581e-001	-8.369610e-002	3.354242e-003	-6.112397e-003
4878053.537	3.839929e-003	-6.669188e-003	9.976184e-001	-8.516705e-002	9.971347e-001	-8.461626e-002	3.314640e-003	-6.272148e-003
4940592.620	3.563688e-003	-6.720059e-003	9.974274e-001	-8.638909e-002	9.970951e-001	-8.579372e-002	3.077018e-003	-6.390512e-003
5003131.704	3.624202e-003	-6.935017e-003	9.973084e-001	-8.744424e-002	9.970238e-001	-8.666376e-002	3.196488e-003	-6.514430e-003
5065670.788	3.560732e-003	-6.819129e-003	9.971783e-001	-8.857624e-002	9.969016e-001	-8.783942e-002	3.163004e-003	-6.559274e-003
5128209.872	3.673417e-003	-7.026110e-003	9.972983e-001	-8.962373e-002	9.967809e-001	-8.895062e-002	3.123107e-003	-6.850164e-003
5190748.956	3.562140e-003	-7.118977e-003	9.970314e-001	-9.071903e-002	9.968324e-001	-9.012878e-002	3.087258e-003	-6.804868e-003
5253288.039	3.599014e-003	-7.247975e-003	9.971009e-001	-9.179955e-002	9.966874e-001	-9.117103e-002	2.996191e-003	-6.814095e-003
5315827.123	3.555167e-003	-7.403711e-003	9.967989e-001	-9.287265e-002	9.965554e-001	-9.232275e-002	2.970387e-003	-7.001126e-003
5378366.207	3.642540e-003	-7.431559e-003	9.968322e-001	-9.399489e-002	9.965200e-001	-9.358686e-002	2.961986e-003	-7.179714e-003
5440905.291	3.453347e-003	-7.430839e-003	9.968035e-001	-9.507409e-002	9.964153e-001	-9.453217e-002	2.841716e-003	-7.214114e-003
5503444.375	3.653606e-003	-7.681167e-003	9.966657e-001	-9.627054e-002	9.963731e-001	-9.545828e-002	3.020612e-003	-7.372917e-003
5565983.458	3.291231e-003	-7.654399e-003	9.966007e-001	-9.723745e-002	9.962692e-001	-9.654433e-002	2.944622e-003	-7.298435e-003
5628522.542	3.539437e-003	-7.815369e-003	9.964993e-001	-9.826790e-002	9.961922e-001	-9.779768e-002	2.968792e-003	-7.526344e-003
5691061.626	3.586149e-003	-8.074628e-003	9.963094e-001	-9.954613e-002	9.959819e-001	-9.885548e-002	2.853499e-003	-7.559363e-003
5753600.710	3.430233e-003	-8.086731e-003	9.961468e-001	-1.005485e-001	9.959486e-001	-9.990450e-002	2.909761e-003	-7.785437e-003
5816139.794	3.497920e-003	-7.982043e-003	9.961730e-001	-1.016685e-001	9.956495e-001	-1.012200e-001	2.748915e-003	-7.824584e-003
5878678.877	3.408103e-003	-8.315942e-003	9.960473e-001	-1.027696e-001	9.956297e-001	-1.021921e-001	2.846546e-003	-8.049161e-003
5941217.961	3.383950e-003	-8.464274e-003	9.958647e-001	-1.039570e-001	9.955637e-001	-1.031051e-001	2.639845e-003	-8.052147e-003
6003757.045	3.216550e-003	-8.323535e-003	9.956266e-001	-1.048790e-001	9.954046e-001	-1.041426e-001	2.751138e-003	-8.156660e-003
6066296.129	3.330212e-003	-8.619211e-003	9.957384e-001	-1.059552e-001	9.953351e-001	-1.052577e-001	2.719093e-003	-8.276669e-003
6128835.213	3.417773e-003	-8.690816e-003	9.955724e-001	-1.068093e-001	9.954027e-001	-1.064535e-001	2.796406e-003	-8.369391e-003
6191374.296	3.349156e-003	-8.805837e-003	9.954373e-001	-1.081468e-001	9.950855e-001	-1.076783e-001	2.632180e-003	-8.372174e-003
6253913.380	3.242621e-003	-8.782430e-003	9.953764e-001	-1.092390e-001	9.950148e-001	-1.086197e-001	2.498014e-003	-8.350820e-003
6316452.464	3.198851e-003	-8.801469e-003	9.952582e-001	-1.102059e-001	9.947471e-001	-1.099570e-001	2.526192e-003	-8.673391e-003
6378991.548	3.135575e-003	-9.053501e-003	9.951364e-001	-1.116617e-001	9.948506e-001	-1.108556e-001	2.568672e-003	-8.882899e-003
6441530.632	3.071875e-003	-9.214222e-003	9.949483e-001	-1.124509e-001	9.946651e-001	-1.120700e-001	2.597181e-003	-8.862284e-003
6504069.715	3.050231e-003	-9.327040e-003	9.947710e-001	-1.138137e-001	9.947179e-001	-1.130734e-001	2.606712e-003	-8.987395e-003
6566608.799	3.183212e-003	-9.486119e-003	9.947731e-001	-1.149390e-001	9.944160e-001	-1.142093e-001	2.501696e-003	-8.873688e-003
6629147.883	3.127961e-003	-9.452473e-003	9.945955e-001	-1.156353e-001	9.942973e-001	-1.153509e-001	2.557010e-003	-9.099979e-003
6691686.967	2.987762e-003	-9.524749e-003	9.944086e-001	-1.168581e-001	9.941438e-001	-1.163931e-001	2.583309e-003	-9.113285e-003
6754226.051	2.908997e-003	-9.646635e-003	9.942329e-001	-1.181033e-001	9.939037e-001	-1.176494e-001	2.356927e-003	-9.419826e-003
6816765.134	2.996529e-003	-9.738163e-003	9.941866e-001	-1.190568e-001	9.939499e-001	-1.185505e-001	2.388246e-003	-9.323264e-003
6879304.218	2.870249e-003	-9.996298e-003	9.940363e-001	-1.202086e-001	9.937885e-001	-1.196166e-001	2.364063e-003	-9.477393e-003
6941843.302	2.928723e-003	-9.931401e-003	9.938941e-001	-1.213175e-001	9.936501e-001	-1.206797e-001	2.336938e-003	-9.488315e-003
7004382.386	2.713479e-003	-9.958220e-003	9.938327e-001	-1.222836e-001	9.934465e-001	-1.217708e-001	2.232915e-003	-9.544897e-003
7066921.470	2.797566e-003	-1.010222e-002	9.935784e-001	-1.235752e-001	9.934076e-001	-1.226896e-001	2.378935e-003	-9.781533e-003
7129460.553	2.670836e-003	-1.031643e-002	9.935531e-001	-1.244564e-001	9.932437e-001	-1.239364e-001	2.371279e-003	-9.834943e-003
7191999.637	2.642922e-003	-1.016075e-002	9.931885e-001	-1.256723e-001	9.929457e-001	-1.250050e-001	2.202533e-003	-9.922739e-003
7254538.721	2.678408e-003	-1.037377e-002	9.933610e-001	-1.267926e-001	9.929942e-001	-1.261374e-001	2.229060e-003	-9.994585e-003
7317077.805	2.828397e-003	-1.049202e-002	9.931491e-001	-1.277009e-001	9.928224e-001	-1.271350e-001	2.197868e-003	-1.019804e-002
7379616.889	2.681303e-003	-1.059372e-002	9.931353e-001	-1.290282e-001	9.926749e-001	-1.283045e-001	2.125597e-003	-1.026400e-002
7442155.972	2.511052e-003	-1.067821e-002	9.928413e-001	-1.299095e-001	9.925946e-001	-1.293351e-001	2.186354e-003	-1.014655e-002
7504695.056	2.520527e-003	-1.086800e-002	9.925985e-001	-1.309711e-001	9.922663e-001	-1.305671e-001	2.200162e-003	-1.017413e-002
7567234.140	2.673203e-003	-1.103015e-002	9.925947e-001	-1.320503e-001	9.921500e-001	-1.316231e-001	2.102631e-003	-1.036793e-002
7629773.224	2.551780e-003	-1.081592e-002	9.924287e-001	-1.332833e-001	9.921631e-001	-1.326134e-001	2.004791e-003	-1.051055e-002
7692312.308	2.397587e-003	-1.097724e-002	9.923221e-001	-1.343544e-001	9.919293e-001	-1.337989e-001	2.031982e-003	-1.068596e-002
7754851.391	2.362138e-003	-1.122718e-002	9.921360e-001	-1.354721e-001	9.916514e-001	-1.347212e-001	1.960352e-003	-1.063433e-002
7817390.475	2.417489e-003	-1.111220e-002	9.920108e-001	-1.366646e-001	9.915710e-001	-1.360515e-001	1.854260e-003	-1.061636e-002
7879929.559	2.302942e-003	-1.138862e-002	9.917371e-001	-1.377412e-001	9.913984e-001	-1.372713e-001	1.953877e-003	-1.071645e-002
7942468.643	2.239127e-003	-1.152123e-002	9.917166e-001	-1.387226e-001	9.913879e-001	-1.383019e-001	1.908010e-003	-1.097816e-002
8005007.727	2.307460e-003	-1.158859e-002	9.914825e-001	-1.398878e-001	9.912492e-001	-1.393624e-001	1.795736e-003	-1.084182e-002
8067546.811	2.137077e-003	-1.163204e-002	9.913874e-001	-1.409512e-001	9.909086e-001	-1.403476e-001	1.689565e-003	-1.114307e-002
8130085.894	2.171435e-003	-1.178877e-002	9.911556e-001	-1.419405e-001	9.908229e-001	-1.414711e-001	1.871870e-003	-1.128001e-002
8192624.978	1.992543e-003	-1.194746e-002	9.908575e-001	-1.431525e-001	9.906572e-001	-1.425329e-001	1.905935e-003	-1.138064e-002
8255164.062	2.084787e-003	-1.201611e-002	9.907879e-001	-1.441916e-001	9.904891e-001	-1.436279e-001	1.838948e-003	-1.151271e-002
8317703.146	1.932643e-003	-1.199315e-002	9.907326e-001	-1.452796e-001	9.904165e-001	-1.447163e-001	1.629769e-003	-1.155386e-002
8380242.230	2.038409e-003	-1.231231e-002	9.903868e-001	-1.464924e-001	9.901924e-001	-1.457603e-001	1.571500e-003	-1.169149e-002
8442781.313	1.973661e-003	-1.236650e-002	9.904816e-001	-1.474481e-001	9.901051e-001	-1.468090e-001	1.520781e-003	-1.187291e-002
8505320.397	1.929028e-003	-1.232861e-002	9.902136e-001	-1.486287e-001	9.898936e-001	-1.479442e-001	1.437129e-003	-1.191456e-002
8567859.481	1.840914e-003	-1.227226e-002	9.900103e-001	-1.494923e-001	9.898051e-001	-1.489775e-001	1.448472e-003	-1.182154e-002
8630398.565	1.896702e-003	-1.240473e-002	9.897069e-001	-1.505921e-001	9.896007e-001	-1.500254e-001	1.294100e-003	-1.217126e-002
8692937.649	1.815993e-003	-1.269948e-002	9.896569e-001	-1.516883e-001	9.892809e-001	-1.511496e-001	1.194892e-003	-1.215644e-002
8755476.732	1.796744e-003	-1.271508e-002	9.894929e-001	-1.528683e-001	9.891492e-001	-1.521589e-001	1.236073e-003	-1.223015e-002
8818015.816	1.648825e-003	-1.285263e-002	9.892616e-001	-1.539207e-001	9.888212e-001	-1.532664e-001	1.303433e-003	-1.241176e-002
8880554.900	1.821382e-003	-1.290151e-002	9.892101e-001	-1.550575e-001	9.889431e-001	-1.542062e-001	1.137239e-003	-1.266093e-002
8943093.984	1.625441e-003	-1.288191e-002	9.889810e-001	-1.560143e-001	9.887485e-001	-1.553358e-001	1.114105e-003	-1.269458e-002
9005633.068	1.636548e-003	-1.307053e-002	9.887053e-001	-1.571555e-001	9.886394e-001	-1.565559e-001	9.904457e-004	-1.292081e-002
9068172.151	1.463915e-003	-1.316336e-002	9.887252e-001	-1.582657e-001	9.883330e-001	-1.574919e-001	1.003899e-003	-1.296361e-002
9130711.235	1.645537e-003	-1.331215e-002	9.884213e-001	-1.593198e-001	9.881688e-001	-1.585687e-001	1.006776e-003	-1.324694e-002
9193250.319	1.592694e-003	-1.344059e-002	9.883857e-001	-1.602677e-001	9.879612e-001	-1.597329e-001	9.090051e-004	-1.324275e-002
9255789.403	1.445026e-003	-1.367837e-002	9.882314e-001	-1.612232e-001	9.877658e-001	-1.607526e-001	7.269280e-004	-1.329658e-002
9318328.487	1.360063e-003	-1.366957e-002	9.880058e-001	-1.625908e-001	9.877631e-001	-1.617994e-001	8.058710e-004	-1.337207e-002
9380867.570	1.349453e-003	-1.365058e-002	9.879040e-001	-1.636570e-001	9.874535e-001	-1.630555e-001	7.584830e-004	-1.348495e-002
9443406.654	1.366119e-003	-1.374328e-002	9.876774e-001	-1.646428e-001	9.873748e-001	-1.641917e-001	7.617749e-004	-1.365692e-002
9505945.738	1.291755e-003	-1.380417e-002	9.873132e-001	-1.658932e-001	9.872832e-001	-1.651792e-001	6.760203e-004	-1.375325e-002
9568484.822	1.300444e-003	-1.393644e-002	9.872905e-001	-1.669271e-001	9.868309e-001	-1.663066e-001	4.397913e-004	-1.360514e-002
