!Agilent Technologies,E5061B,MY49102235,A.02.00
!Date: Tue Jul 11 17:08:43 2023
!Data & Calibration Information:
!Freq	S11:SOLT2(ON)	S21:SOLT2(ON)	S12:SOLT2(ON)	S22:SOLT2(ON)
# Hz S RI R 50
5.000	-5.131546e-003	-5.662102e-003	1.002220e+000	7.967487e-003	1.000757e+000	1.028010e-002	-1.453696e-003	-7.546414e-003
62544.084	5.826744e-003	-4.888132e-004	1.001449e+000	5.514466e-004	1.000787e+000	1.167198e-003	7.696142e-003	-2.873259e-003
125083.168	5.706641e-003	-4.921755e-004	1.001020e+000	-8.447063e-004	1.000601e+000	-8.173729e-004	7.503040e-003	-2.258246e-003
187622.251	5.466819e-003	-3.136495e-004	1.000543e+000	-2.188039e-003	1.000906e+000	-8.867437e-004	7.379159e-003	-2.365676e-003
250161.335	5.286328e-003	-1.763947e-004	1.000747e+000	-3.251307e-003	1.000665e+000	-3.136103e-003	7.252590e-003	-2.020158e-003
312700.419	5.447376e-003	5.634176e-004	1.000935e+000	-3.949425e-003	1.000429e+000	-3.599157e-003	7.799370e-003	-2.310054e-003
375239.503	5.308570e-003	-9.660817e-004	1.001199e+000	-5.306901e-003	1.000485e+000	-4.977813e-003	7.266508e-003	-2.477786e-003
437778.587	5.149918e-003	-5.755340e-004	1.001481e+000	-5.434489e-003	1.000985e+000	-6.088859e-003	6.621714e-003	-2.197340e-003
500317.670	4.615505e-003	-4.564101e-004	1.001326e+000	-7.811535e-003	1.001579e+000	-7.619554e-003	4.823243e-003	-2.008009e-003
562856.754	5.909742e-003	-7.505638e-004	1.001476e+000	-9.397923e-003	1.001102e+000	-9.007771e-003	6.019165e-003	-1.534863e-003
625395.838	5.135635e-003	-6.115700e-004	1.002203e+000	-1.046431e-002	1.002202e+000	-1.013746e-002	6.097297e-003	-9.461185e-004
687934.922	5.151321e-003	-9.480047e-004	1.001408e+000	-1.153697e-002	1.001121e+000	-1.146108e-002	5.774219e-003	-1.431401e-003
750474.006	4.287314e-003	-6.324006e-004	1.000996e+000	-1.105597e-002	1.000562e+000	-1.041119e-002	5.469473e-003	-1.305235e-003
813013.089	4.457242e-003	-6.110158e-004	1.001363e+000	-1.275386e-002	1.000506e+000	-1.212907e-002	4.819017e-003	-1.121583e-003
875552.173	4.197201e-003	-4.447818e-004	1.001314e+000	-1.373143e-002	1.000809e+000	-1.337873e-002	5.607737e-003	-1.517091e-003
938091.257	4.272327e-003	-3.802662e-004	1.001333e+000	-1.526748e-002	1.001046e+000	-1.443034e-002	5.841884e-003	-9.562722e-004
1000630.341	3.729146e-003	-7.320901e-004	1.000973e+000	-1.663976e-002	1.000792e+000	-1.580599e-002	5.071014e-003	-1.650256e-003
1063169.425	4.077611e-003	-8.903410e-004	1.001348e+000	-1.802992e-002	1.000652e+000	-1.674782e-002	4.269821e-003	-1.978259e-003
1125708.508	3.961703e-003	-8.473174e-004	1.001117e+000	-1.910563e-002	1.000614e+000	-1.813691e-002	3.791221e-003	-1.695573e-003
1188247.592	4.499410e-003	-1.287568e-003	1.001301e+000	-2.026185e-002	1.000932e+000	-1.926642e-002	2.677577e-003	-2.262544e-003
1250786.676	4.335121e-003	-2.048981e-003	1.000851e+000	-2.011322e-002	1.000626e+000	-1.997967e-002	1.951380e-003	-3.942706e-003
1313325.760	4.451837e-003	-2.131926e-003	1.001241e+000	-2.165916e-002	1.000920e+000	-2.156702e-002	2.683443e-003	-3.736479e-003
1375864.844	4.190234e-003	-2.346655e-003	1.000963e+000	-2.360224e-002	1.000464e+000	-2.340851e-002	2.527820e-003	-3.455264e-003
1438403.927	4.074534e-003	-2.504086e-003	1.000940e+000	-2.433290e-002	1.000933e+000	-2.330855e-002	2.613005e-003	-3.199516e-003
1500943.011	4.307559e-003	-2.440012e-003	1.001543e+000	-2.521656e-002	1.001234e+000	-2.473905e-002	2.965628e-003	-3.620913e-003
1563482.095	4.299264e-003	-2.813129e-003	1.001070e+000	-2.654484e-002	1.000546e+000	-2.528206e-002	3.102926e-003	-3.405556e-003
1626021.179	4.110025e-003	-2.695316e-003	1.000999e+000	-2.782833e-002	1.000922e+000	-2.799123e-002	3.383215e-003	-3.459099e-003
1688560.263	3.809638e-003	-2.640083e-003	1.000677e+000	-2.955771e-002	1.001228e+000	-2.920994e-002	3.547881e-003	-3.487002e-003
1751099.346	3.939775e-003	-2.541430e-003	1.001332e+000	-3.058048e-002	1.000592e+000	-2.974439e-002	3.358503e-003	-2.645128e-003
1813638.430	3.587569e-003	-2.596792e-003	1.001552e+000	-3.229790e-002	1.000889e+000	-3.158922e-002	3.541559e-003	-3.035740e-003
1876177.514	3.616561e-003	-2.319068e-003	1.001826e+000	-3.316192e-002	1.001259e+000	-3.306992e-002	3.213174e-003	-2.363529e-003
1938716.598	3.084745e-003	-2.245106e-003	1.002098e+000	-3.387314e-002	1.001217e+000	-3.303992e-002	3.370481e-003	-1.986841e-003
2001255.682	2.980467e-003	-2.727843e-003	1.001861e+000	-3.542618e-002	1.001220e+000	-3.473784e-002	3.139570e-003	-2.462393e-003
2063794.765	3.056363e-003	-2.348511e-003	1.001494e+000	-3.631558e-002	1.000651e+000	-3.639015e-002	3.521150e-003	-2.558760e-003
2126333.849	2.607788e-003	-2.880476e-003	1.000939e+000	-3.757077e-002	1.000188e+000	-3.682626e-002	3.777729e-003	-2.302679e-003
2188872.933	3.085223e-003	-2.880857e-003	1.000734e+000	-3.863578e-002	1.000136e+000	-3.768353e-002	3.655930e-003	-2.356794e-003
2251412.017	3.186051e-003	-3.254330e-003	1.000619e+000	-4.028809e-002	1.000335e+000	-3.880721e-002	3.637008e-003	-2.478704e-003
2313951.101	3.508593e-003	-2.832731e-003	1.000030e+000	-4.129716e-002	1.000299e+000	-3.962874e-002	3.941962e-003	-2.538914e-003
2376490.184	3.267139e-003	-2.869929e-003	1.000009e+000	-4.166596e-002	1.000192e+000	-4.157440e-002	3.902126e-003	-2.559945e-003
2439029.268	3.715619e-003	-2.916061e-003	9.999281e-001	-4.341271e-002	9.992311e-001	-4.255762e-002	3.562394e-003	-2.466764e-003
2501568.352	3.689781e-003	-2.938696e-003	9.997056e-001	-4.359144e-002	1.000120e+000	-4.324046e-002	3.856279e-003	-2.503806e-003
2564107.436	3.592796e-003	-3.102238e-003	9.998491e-001	-4.535437e-002	1.000034e+000	-4.485193e-002	3.172821e-003	-2.893338e-003
2626646.520	4.071329e-003	-3.281792e-003	9.997775e-001	-4.641863e-002	9.987416e-001	-4.587929e-002	3.415465e-003	-2.963175e-003
2689185.604	4.038937e-003	-3.128367e-003	1.000182e+000	-4.715818e-002	9.994888e-001	-4.674291e-002	3.539905e-003	-2.910709e-003
2751724.687	4.133715e-003	-3.243798e-003	9.999423e-001	-4.807223e-002	9.994575e-001	-4.743108e-002	3.143680e-003	-2.964624e-003
2814263.771	4.069820e-003	-3.322036e-003	9.989868e-001	-4.988014e-002	9.991734e-001	-4.883350e-002	3.123643e-003	-3.107472e-003
2876802.855	4.029557e-003	-3.549980e-003	9.991924e-001	-5.124381e-002	9.992776e-001	-4.987596e-002	3.194234e-003	-2.991666e-003
2939341.939	4.145653e-003	-3.474105e-003	9.997368e-001	-5.176231e-002	9.990479e-001	-5.145401e-002	3.092762e-003	-3.130088e-003
3001881.023	4.057102e-003	-3.483350e-003	9.994075e-001	-5.281545e-002	9.990764e-001	-5.245021e-002	3.172596e-003	-3.263708e-003
3064420.106	4.110915e-003	-3.551636e-003	9.999252e-001	-5.383037e-002	9.989019e-001	-5.339938e-002	3.009879e-003	-3.411726e-003
3126959.190	4.311641e-003	-3.667878e-003	9.995201e-001	-5.508937e-002	9.991525e-001	-5.463756e-002	3.175790e-003	-3.501972e-003
3189498.274	4.289098e-003	-3.652724e-003	9.994040e-001	-5.605990e-002	9.990776e-001	-5.574324e-002	3.167213e-003	-3.565491e-003
3252037.358	4.203519e-003	-4.031844e-003	9.995411e-001	-5.724852e-002	9.991450e-001	-5.675763e-002	3.110449e-003	-3.542045e-003
3314576.442	4.209802e-003	-3.893350e-003	9.993812e-001	-5.827108e-002	9.990233e-001	-5.790096e-002	3.163827e-003	-3.682333e-003
3377115.525	4.167698e-003	-3.926994e-003	9.991980e-001	-5.928314e-002	9.987291e-001	-5.911236e-002	3.015935e-003	-3.845470e-003
3439654.609	4.173309e-003	-4.006430e-003	9.990213e-001	-6.040654e-002	9.990125e-001	-6.011646e-002	3.020075e-003	-3.674437e-003
3502193.693	4.140211e-003	-4.340348e-003	9.989848e-001	-6.163284e-002	9.987123e-001	-6.113431e-002	3.189204e-003	-3.760353e-003
3564732.777	4.184289e-003	-4.243702e-003	9.989940e-001	-6.265484e-002	9.986999e-001	-6.227203e-002	3.278431e-003	-3.763070e-003
3627271.861	4.025134e-003	-4.416559e-003	9.989992e-001	-6.384441e-002	9.987371e-001	-6.327682e-002	3.050080e-003	-4.014636e-003
3689810.944	3.929322e-003	-4.569512e-003	9.988955e-001	-6.497614e-002	9.986230e-001	-6.431692e-002	3.211046e-003	-4.046081e-003
3752350.028	4.034628e-003	-4.592052e-003	9.987850e-001	-6.578758e-002	9.984092e-001	-6.541265e-002	3.143796e-003	-4.130484e-003
3814889.112	4.139190e-003	-4.500602e-003	9.986041e-001	-6.697463e-002	9.985729e-001	-6.681318e-002	3.045357e-003	-4.313850e-003
3877428.196	4.074306e-003	-4.529490e-003	9.987544e-001	-6.809073e-002	9.984306e-001	-6.765183e-002	3.366881e-003	-4.343381e-003
3939967.280	4.047587e-003	-4.873831e-003	9.986330e-001	-6.931023e-002	9.984836e-001	-6.876866e-002	3.336964e-003	-4.295265e-003
4002506.363	4.112774e-003	-4.787116e-003	9.986327e-001	-7.031467e-002	9.983635e-001	-6.975760e-002	3.278727e-003	-4.433113e-003
4065045.447	3.928461e-003	-4.925267e-003	9.983454e-001	-7.148225e-002	9.981423e-001	-7.097893e-002	3.364302e-003	-4.596116e-003
4127584.531	3.889248e-003	-4.994703e-003	9.982873e-001	-7.253543e-002	9.981438e-001	-7.195831e-002	3.366542e-003	-4.538540e-003
4190123.615	3.938243e-003	-5.037711e-003	9.983041e-001	-7.383294e-002	9.979304e-001	-7.324089e-002	3.276479e-003	-4.815770e-003
4252662.699	3.882089e-003	-5.182298e-003	9.983360e-001	-7.492702e-002	9.978229e-001	-7.439810e-002	3.372750e-003	-4.860878e-003
4315201.782	4.009543e-003	-5.275505e-003	9.982016e-001	-7.576713e-002	9.980241e-001	-7.552820e-002	3.184864e-003	-5.114328e-003
4377740.866	3.901133e-003	-5.370714e-003	9.982203e-001	-7.703262e-002	9.977379e-001	-7.661708e-002	3.353727e-003	-4.873864e-003
4440279.950	3.803950e-003	-5.567624e-003	9.981228e-001	-7.799732e-002	9.975668e-001	-7.755004e-002	3.243895e-003	-5.106280e-003
4502819.034	3.786661e-003	-5.503479e-003	9.977756e-001	-7.919356e-002	9.976152e-001	-7.869349e-002	3.309466e-003	-5.012049e-003
4565358.118	3.710723e-003	-5.612499e-003	9.977459e-001	-8.025726e-002	9.973751e-001	-7.963846e-002	3.325341e-003	-5.200697e-003
4627897.201	3.884051e-003	-5.552940e-003	9.978289e-001	-8.135775e-002	9.973483e-001	-8.072491e-002	3.413114e-003	-5.161164e-003
4690436.285	3.688811e-003	-5.744177e-003	9.977685e-001	-8.250064e-002	9.973606e-001	-8.216816e-002	3.398271e-003	-5.422610e-003
4752975.369	3.690511e-003	-5.834208e-003	9.974045e-001	-8.367477e-002	9.973193e-001	-8.318389e-002	3.224923e-003	-5.547636e-003
4815514.453	3.804917e-003	-5.892136e-003	9.975759e-001	-8.469009e-002	9.972126e-001	-8.439609e-002	3.434042e-003	-5.516558e-003
4878053.537	3.893123e-003	-6.057417e-003	9.974946e-001	-8.571710e-002	9.971103e-001	-8.529273e-002	3.394635e-003	-5.674527e-003
4940592.620	3.629466e-003	-6.100398e-003	9.972572e-001	-8.686982e-002	9.970709e-001	-8.647315e-002	3.153860e-003	-5.770041e-003
5003131.704	3.693369e-003	-6.302508e-003	9.971411e-001	-8.796361e-002	9.970190e-001	-8.735914e-002	3.267665e-003	-5.905283e-003
5065670.788	3.612422e-003	-6.174765e-003	9.970573e-001	-8.912549e-002	9.968836e-001	-8.853457e-002	3.233330e-003	-5.933470e-003
5128209.872	3.723625e-003	-6.388882e-003	9.971336e-001	-9.017661e-002	9.967678e-001	-8.962714e-002	3.200694e-003	-6.216245e-003
5190748.956	3.626372e-003	-6.473946e-003	9.969527e-001	-9.131664e-002	9.967548e-001	-9.084389e-002	3.162052e-003	-6.165870e-003
5253288.039	3.667097e-003	-6.592884e-003	9.969605e-001	-9.241484e-002	9.966846e-001	-9.190888e-002	3.082882e-003	-6.166338e-003
5315827.123	3.633281e-003	-6.736644e-003	9.966417e-001	-9.350410e-002	9.965212e-001	-9.304815e-002	3.052528e-003	-6.348091e-003
5378366.207	3.703786e-003	-6.755536e-003	9.967172e-001	-9.461770e-002	9.964704e-001	-9.431620e-002	3.050671e-003	-6.514527e-003
5440905.291	3.513926e-003	-6.760632e-003	9.966565e-001	-9.570189e-002	9.963633e-001	-9.529745e-002	2.928102e-003	-6.548608e-003
5503444.375	3.730875e-003	-7.004870e-003	9.965173e-001	-9.685962e-002	9.963479e-001	-9.623607e-002	3.105049e-003	-6.701838e-003
5565983.458	3.351886e-003	-6.960631e-003	9.964400e-001	-9.786430e-002	9.962653e-001	-9.727332e-002	3.030716e-003	-6.622659e-003
5628522.542	3.596278e-003	-7.117191e-003	9.963512e-001	-9.885949e-002	9.961273e-001	-9.853409e-002	3.053404e-003	-6.825994e-003
5691061.626	3.666971e-003	-7.371475e-003	9.961848e-001	-1.002168e-001	9.959433e-001	-9.967343e-002	2.948378e-003	-6.850295e-003
5753600.710	3.504611e-003	-7.370977e-003	9.959948e-001	-1.011989e-001	9.958867e-001	-1.006980e-001	3.000237e-003	-7.077035e-003
5816139.794	3.583424e-003	-7.248341e-003	9.959982e-001	-1.023241e-001	9.955816e-001	-1.020075e-001	2.841017e-003	-7.108349e-003
5878678.877	3.487170e-003	-7.577696e-003	9.959017e-001	-1.034298e-001	9.955833e-001	-1.029625e-001	2.940872e-003	-7.324076e-003
5941217.961	3.462574e-003	-7.729414e-003	9.957072e-001	-1.046147e-001	9.955049e-001	-1.039116e-001	2.742517e-003	-7.316101e-003
6003757.045	3.287944e-003	-7.588875e-003	9.954508e-001	-1.055387e-001	9.953692e-001	-1.049933e-001	2.858129e-003	-7.417916e-003
6066296.129	3.427077e-003	-7.868435e-003	9.955651e-001	-1.066316e-001	9.952665e-001	-1.060764e-001	2.822574e-003	-7.528221e-003
6128835.213	3.507475e-003	-7.926737e-003	9.954187e-001	-1.074547e-001	9.953296e-001	-1.073306e-001	2.900904e-003	-7.602303e-003
6191374.296	3.424341e-003	-8.025803e-003	9.952746e-001	-1.088388e-001	9.949965e-001	-1.085218e-001	2.732316e-003	-7.625168e-003
6253913.380	3.327743e-003	-7.995037e-003	9.951791e-001	-1.099517e-001	9.949362e-001	-1.094969e-001	2.609311e-003	-7.586157e-003
6316452.464	3.286351e-003	-8.006286e-003	9.951142e-001	-1.109079e-001	9.946985e-001	-1.107892e-001	2.640663e-003	-7.900021e-003
6378991.548	3.231132e-003	-8.241461e-003	9.949281e-001	-1.123722e-001	9.948026e-001	-1.117376e-001	2.690859e-003	-8.103985e-003
6441530.632	3.169729e-003	-8.413039e-003	9.947584e-001	-1.132092e-001	9.946185e-001	-1.129554e-001	2.715265e-003	-8.076650e-003
6504069.715	3.163615e-003	-8.522682e-003	9.945955e-001	-1.145241e-001	9.946252e-001	-1.139823e-001	2.715324e-003	-8.170507e-003
6566608.799	3.285835e-003	-8.669872e-003	9.946356e-001	-1.156589e-001	9.943467e-001	-1.151117e-001	2.608015e-003	-8.071451e-003
6629147.883	3.219335e-003	-8.612506e-003	9.944415e-001	-1.164277e-001	9.942172e-001	-1.162238e-001	2.671579e-003	-8.295506e-003
6691686.967	3.085766e-003	-8.692534e-003	9.942231e-001	-1.176231e-001	9.940515e-001	-1.172893e-001	2.701729e-003	-8.296301e-003
6754226.051	3.008008e-003	-8.802172e-003	9.941241e-001	-1.188411e-001	9.938188e-001	-1.185343e-001	2.484363e-003	-8.592366e-003
6816765.134	3.105405e-003	-8.898351e-003	9.940194e-001	-1.198593e-001	9.938360e-001	-1.194807e-001	2.523428e-003	-8.490434e-003
6879304.218	2.976770e-003	-9.135292e-003	9.938252e-001	-1.209651e-001	9.937119e-001	-1.205589e-001	2.496442e-003	-8.642208e-003
6941843.302	3.033417e-003	-9.063239e-003	9.936937e-001	-1.221586e-001	9.935762e-001	-1.216283e-001	2.466941e-003	-8.637910e-003
7004382.386	2.820745e-003	-9.094631e-003	9.936214e-001	-1.230981e-001	9.933938e-001	-1.227171e-001	2.367644e-003	-8.681906e-003
7066921.470	2.905057e-003	-9.235035e-003	9.934231e-001	-1.243731e-001	9.932790e-001	-1.236551e-001	2.514094e-003	-8.917800e-003
7129460.553	2.783592e-003	-9.435288e-003	9.933365e-001	-1.252817e-001	9.931763e-001	-1.248945e-001	2.496758e-003	-8.965554e-003
7191999.637	2.745546e-003	-9.273270e-003	9.929528e-001	-1.264287e-001	9.928656e-001	-1.259381e-001	2.334999e-003	-9.052037e-003
7254538.721	2.794031e-003	-9.474892e-003	9.932180e-001	-1.275813e-001	9.929042e-001	-1.271004e-001	2.367666e-003	-9.110045e-003
7317077.805	2.955217e-003	-9.581551e-003	9.929551e-001	-1.285722e-001	9.927684e-001	-1.281251e-001	2.342121e-003	-9.307962e-003
7379616.889	2.781573e-003	-9.662995e-003	9.929522e-001	-1.298622e-001	9.925636e-001	-1.292625e-001	2.266700e-003	-9.364818e-003
7442155.972	2.612882e-003	-9.755927e-003	9.926403e-001	-1.307909e-001	9.924994e-001	-1.303147e-001	2.324041e-003	-9.234008e-003
7504695.056	2.645744e-003	-9.924316e-003	9.924288e-001	-1.317713e-001	9.921801e-001	-1.315806e-001	2.333124e-003	-9.247159e-003
7567234.140	2.799966e-003	-1.008793e-002	9.923904e-001	-1.328899e-001	9.920298e-001	-1.326024e-001	2.246297e-003	-9.442407e-003
7629773.224	2.688096e-003	-9.864842e-003	9.922818e-001	-1.341715e-001	9.920510e-001	-1.336093e-001	2.146644e-003	-9.575332e-003
7692312.308	2.516290e-003	-1.001041e-002	9.921183e-001	-1.352278e-001	9.917808e-001	-1.348273e-001	2.181844e-003	-9.737635e-003
7754851.391	2.490386e-003	-1.026558e-002	9.919597e-001	-1.363476e-001	9.915373e-001	-1.356973e-001	2.110904e-003	-9.691993e-003
7817390.475	2.547622e-003	-1.013036e-002	9.918070e-001	-1.375518e-001	9.914416e-001	-1.370598e-001	2.015426e-003	-9.672838e-003
7879929.559	2.434943e-003	-1.039133e-002	9.915737e-001	-1.386626e-001	9.913150e-001	-1.382651e-001	2.107876e-003	-9.754113e-003
7942468.643	2.367606e-003	-1.054668e-002	9.915284e-001	-1.396482e-001	9.912217e-001	-1.393252e-001	2.068351e-003	-1.001648e-002
8005007.727	2.444990e-003	-1.058966e-002	9.912803e-001	-1.407855e-001	9.911097e-001	-1.404166e-001	1.955224e-003	-9.877382e-003
8067546.811	2.274439e-003	-1.063760e-002	9.911319e-001	-1.418861e-001	9.907719e-001	-1.414458e-001	1.849884e-003	-1.018095e-002
8130085.894	2.314983e-003	-1.078711e-002	9.909501e-001	-1.428741e-001	9.907466e-001	-1.425666e-001	2.035967e-003	-1.029057e-002
8192624.978	2.133881e-003	-1.092935e-002	9.906211e-001	-1.441095e-001	9.905463e-001	-1.436108e-001	2.063810e-003	-1.039567e-002
8255164.062	2.230798e-003	-1.099072e-002	9.905980e-001	-1.451685e-001	9.903588e-001	-1.447358e-001	2.003647e-003	-1.050347e-002
8317703.146	2.070036e-003	-1.096181e-002	9.905367e-001	-1.462784e-001	9.903241e-001	-1.458054e-001	1.799776e-003	-1.054235e-002
8380242.230	2.184109e-003	-1.127404e-002	9.901701e-001	-1.474779e-001	9.900275e-001	-1.468365e-001	1.739886e-003	-1.068438e-002
8442781.313	2.129483e-003	-1.131900e-002	9.902599e-001	-1.484235e-001	9.899706e-001	-1.479425e-001	1.691446e-003	-1.085275e-002
8505320.397	2.088382e-003	-1.127587e-002	9.900030e-001	-1.495574e-001	9.897287e-001	-1.490706e-001	1.597708e-003	-1.086830e-002
8567859.481	2.003791e-003	-1.119599e-002	9.898021e-001	-1.505027e-001	9.896370e-001	-1.501091e-001	1.616040e-003	-1.079544e-002
8630398.565	2.055354e-003	-1.132881e-002	9.894764e-001	-1.515721e-001	9.894994e-001	-1.511360e-001	1.467761e-003	-1.111771e-002
8692937.649	1.959980e-003	-1.162333e-002	9.894015e-001	-1.526661e-001	9.891500e-001	-1.522992e-001	1.381164e-003	-1.111379e-002
8755476.732	1.970311e-003	-1.165044e-002	9.892609e-001	-1.538833e-001	9.890095e-001	-1.533089e-001	1.418706e-003	-1.117455e-002
8818015.816	1.802824e-003	-1.176015e-002	9.890453e-001	-1.549285e-001	9.886628e-001	-1.544426e-001	1.483994e-003	-1.134624e-002
8880554.900	1.987571e-003	-1.180457e-002	9.889996e-001	-1.560582e-001	9.887803e-001	-1.553995e-001	1.320496e-003	-1.159305e-002
8943093.984	1.784865e-003	-1.177544e-002	9.887624e-001	-1.570610e-001	9.885776e-001	-1.564882e-001	1.315161e-003	-1.160631e-002
9005633.068	1.813093e-003	-1.194763e-002	9.885000e-001	-1.582090e-001	9.884887e-001	-1.576943e-001	1.184105e-003	-1.183158e-002
9068172.151	1.619690e-003	-1.204308e-002	9.884559e-001	-1.592999e-001	9.881712e-001	-1.587164e-001	1.202085e-003	-1.185149e-002
9130711.235	1.819648e-003	-1.219062e-002	9.881962e-001	-1.603918e-001	9.880276e-001	-1.597305e-001	1.214247e-003	-1.214019e-002
9193250.319	1.772222e-003	-1.229811e-002	9.881458e-001	-1.612977e-001	9.878115e-001	-1.609647e-001	1.103581e-003	-1.214149e-002
9255789.403	1.622737e-003	-1.252759e-002	9.880023e-001	-1.623458e-001	9.876570e-001	-1.619712e-001	9.291703e-004	-1.217424e-002
9318328.487	1.548400e-003	-1.251279e-002	9.877404e-001	-1.636442e-001	9.875695e-001	-1.629943e-001	1.008538e-003	-1.224829e-002
9380867.570	1.520770e-003	-1.248736e-002	9.876167e-001	-1.647919e-001	9.872480e-001	-1.642612e-001	9.742470e-004	-1.235834e-002
9443406.654	1.527390e-003	-1.257577e-002	9.874734e-001	-1.657503e-001	9.872445e-001	-1.654119e-001	9.697144e-004	-1.251550e-002
9505945.738	1.487379e-003	-1.264483e-002	9.870762e-001	-1.670209e-001	9.870929e-001	-1.664497e-001	8.799495e-004	-1.260967e-002
9568484.822	1.493679e-003	-1.275854e-002	9.870307e-001	-1.680293e-001	9.866420e-001	-1.675210e-001	6.480876e-004	-1.243939e-002
