!Agilent Technologies,E5061B,MY49102235,A.02.00
!Date: Tue Jul 11 15:39:12 2023
!Data & Calibration Information:
!Freq	S11:SOLT2(ON)	S21:SOLT2(ON)	S12:SOLT2(ON)	S22:SOLT2(ON)
# Hz S RI R 50
5.000	-5.257123e-003	-5.631759e-003	1.001980e+000	7.986372e-003	1.000478e+000	1.024288e-002	-1.554575e-003	-7.538594e-003
62544.084	5.815328e-003	-4.913275e-004	1.001318e+000	5.069116e-004	1.000833e+000	1.313841e-003	7.713421e-003	-2.881460e-003
125083.168	5.690335e-003	-4.802105e-004	1.000881e+000	-8.073995e-004	1.000734e+000	-8.343801e-004	7.498370e-003	-2.273436e-003
187622.251	5.443698e-003	-3.094995e-004	1.000482e+000	-2.203631e-003	1.001102e+000	-8.328210e-004	7.370590e-003	-2.379435e-003
250161.335	5.279616e-003	-1.811674e-004	1.000687e+000	-3.146278e-003	1.000664e+000	-3.146817e-003	7.253977e-003	-2.008807e-003
312700.419	5.443474e-003	5.687628e-004	1.000700e+000	-3.813127e-003	1.000598e+000	-3.517405e-003	7.782216e-003	-2.335356e-003
375239.503	5.308231e-003	-9.346348e-004	1.001011e+000	-5.345881e-003	1.000521e+000	-4.921716e-003	7.262437e-003	-2.489602e-003
437778.587	5.149280e-003	-5.728710e-004	1.001414e+000	-5.345918e-003	1.001120e+000	-6.103675e-003	6.600924e-003	-2.198946e-003
500317.670	4.571778e-003	-4.293729e-004	1.001421e+000	-7.849139e-003	1.001714e+000	-7.678324e-003	4.802108e-003	-2.019579e-003
562856.754	5.911284e-003	-7.510088e-004	1.001415e+000	-9.315643e-003	1.001180e+000	-9.130133e-003	5.995968e-003	-1.539513e-003
625395.838	5.081074e-003	-5.843857e-004	1.002263e+000	-1.059540e-002	1.002117e+000	-1.016990e-002	6.101420e-003	-9.486527e-004
687934.922	5.160919e-003	-9.395555e-004	1.001288e+000	-1.142540e-002	1.001235e+000	-1.161754e-002	5.740867e-003	-1.434124e-003
750474.006	4.339107e-003	-5.892280e-004	1.001023e+000	-1.096947e-002	1.000698e+000	-1.066215e-002	5.510614e-003	-1.270533e-003
813013.089	4.498239e-003	-5.817252e-004	1.001224e+000	-1.283947e-002	1.000680e+000	-1.235969e-002	4.868215e-003	-1.103983e-003
875552.173	4.230650e-003	-4.146709e-004	1.001264e+000	-1.361661e-002	1.000965e+000	-1.366403e-002	5.661224e-003	-1.495901e-003
938091.257	4.310517e-003	-3.371849e-004	1.001249e+000	-1.502007e-002	1.001214e+000	-1.477028e-002	5.888705e-003	-9.266863e-004
1000630.341	3.767038e-003	-7.068259e-004	1.000788e+000	-1.659975e-002	1.001015e+000	-1.610293e-002	5.131025e-003	-1.610785e-003
1063169.425	4.103777e-003	-8.649518e-004	1.001153e+000	-1.787116e-002	1.000659e+000	-1.692865e-002	4.303359e-003	-1.951616e-003
1125708.508	4.000944e-003	-8.101994e-004	1.000973e+000	-1.910989e-002	1.000690e+000	-1.837380e-002	3.832978e-003	-1.659312e-003
1188247.592	4.549088e-003	-1.269379e-003	1.001174e+000	-2.028151e-002	1.001060e+000	-1.947168e-002	2.724930e-003	-2.237909e-003
1250786.676	4.385456e-003	-2.015881e-003	1.000699e+000	-2.011324e-002	1.000807e+000	-2.018267e-002	1.987189e-003	-3.896767e-003
1313325.760	4.498652e-003	-2.098744e-003	1.001090e+000	-2.154978e-002	1.001083e+000	-2.180352e-002	2.716016e-003	-3.701628e-003
1375864.844	4.218376e-003	-2.305087e-003	1.000804e+000	-2.358901e-002	1.000553e+000	-2.353305e-002	2.578758e-003	-3.414343e-003
1438403.927	4.111435e-003	-2.474412e-003	1.000706e+000	-2.410557e-002	1.001034e+000	-2.338916e-002	2.666590e-003	-3.159517e-003
1500943.011	4.333139e-003	-2.408775e-003	1.001311e+000	-2.514117e-002	1.001402e+000	-2.498562e-002	3.007078e-003	-3.565504e-003
1563482.095	4.329972e-003	-2.785842e-003	1.000951e+000	-2.648397e-002	1.000716e+000	-2.545652e-002	3.143622e-003	-3.365283e-003
1626021.179	4.144282e-003	-2.657028e-003	1.000676e+000	-2.777485e-002	1.001004e+000	-2.815044e-002	3.416363e-003	-3.406722e-003
1688560.263	3.849255e-003	-2.592901e-003	1.000613e+000	-2.944547e-002	1.001448e+000	-2.946269e-002	3.582345e-003	-3.428462e-003
1751099.346	3.987008e-003	-2.507484e-003	1.001040e+000	-3.068428e-002	1.000768e+000	-2.999003e-002	3.401398e-003	-2.598314e-003
1813638.430	3.625042e-003	-2.556754e-003	1.001355e+000	-3.212822e-002	1.001177e+000	-3.171348e-002	3.581662e-003	-2.979347e-003
1876177.514	3.649656e-003	-2.251955e-003	1.001770e+000	-3.304045e-002	1.001443e+000	-3.337793e-002	3.250888e-003	-2.314512e-003
1938716.598	3.118874e-003	-2.190294e-003	1.001885e+000	-3.390219e-002	1.001413e+000	-3.328559e-002	3.420723e-003	-1.928820e-003
2001255.682	3.020795e-003	-2.673207e-003	1.001800e+000	-3.524174e-002	1.001278e+000	-3.493313e-002	3.156271e-003	-2.408592e-003
2063794.765	3.106800e-003	-2.281374e-003	1.001400e+000	-3.623249e-002	1.000829e+000	-3.654316e-002	3.546212e-003	-2.492589e-003
2126333.849	2.655851e-003	-2.820617e-003	1.001004e+000	-3.763597e-002	1.000270e+000	-3.694248e-002	3.816021e-003	-2.227553e-003
2188872.933	3.131492e-003	-2.824961e-003	1.000680e+000	-3.865508e-002	1.000150e+000	-3.793008e-002	3.686716e-003	-2.295662e-003
2251412.017	3.230827e-003	-3.195123e-003	1.000513e+000	-4.015321e-002	1.000242e+000	-3.889062e-002	3.682033e-003	-2.419195e-003
2313951.101	3.556094e-003	-2.770622e-003	9.999729e-001	-4.117022e-002	1.000331e+000	-3.992716e-002	3.987842e-003	-2.485020e-003
2376490.184	3.289312e-003	-2.822148e-003	9.998454e-001	-4.155441e-002	1.000386e+000	-4.175235e-002	3.950484e-003	-2.478898e-003
2439029.268	3.737537e-003	-2.848303e-003	9.997954e-001	-4.333047e-002	9.994061e-001	-4.284215e-002	3.613166e-003	-2.381810e-003
2501568.352	3.720519e-003	-2.860336e-003	9.995328e-001	-4.357661e-002	1.000289e+000	-4.345354e-002	3.901484e-003	-2.429320e-003
2564107.436	3.619970e-003	-3.026532e-003	9.997823e-001	-4.520520e-002	9.998960e-001	-4.499941e-002	3.195813e-003	-2.822589e-003
2626646.520	4.123169e-003	-3.199868e-003	9.997505e-001	-4.639856e-002	9.988638e-001	-4.612041e-002	3.459942e-003	-2.888984e-003
2689185.604	4.054520e-003	-3.061315e-003	1.000021e+000	-4.716218e-002	9.996118e-001	-4.683562e-002	3.572486e-003	-2.834325e-003
2751724.687	4.163939e-003	-3.158896e-003	9.999617e-001	-4.785983e-002	9.996846e-001	-4.761289e-002	3.183067e-003	-2.886727e-003
2814263.771	4.129231e-003	-3.241902e-003	9.989528e-001	-4.978612e-002	9.992778e-001	-4.896626e-002	3.154523e-003	-3.021291e-003
2876802.855	4.065507e-003	-3.460627e-003	9.990178e-001	-5.119697e-002	9.992689e-001	-5.016717e-002	3.236710e-003	-2.920170e-003
2939341.939	4.184468e-003	-3.382999e-003	9.997752e-001	-5.153972e-002	9.991393e-001	-5.156424e-002	3.127582e-003	-3.033459e-003
3001881.023	4.106335e-003	-3.398368e-003	9.994103e-001	-5.283830e-002	9.989825e-001	-5.265618e-002	3.210664e-003	-3.182427e-003
3064420.106	4.150696e-003	-3.461349e-003	9.998612e-001	-5.367245e-002	9.989815e-001	-5.358531e-002	3.049029e-003	-3.308934e-003
3126959.190	4.348509e-003	-3.574326e-003	9.994322e-001	-5.503716e-002	9.991961e-001	-5.485653e-002	3.222274e-003	-3.403352e-003
3189498.274	4.323374e-003	-3.556659e-003	9.993191e-001	-5.603604e-002	9.991176e-001	-5.593089e-002	3.216358e-003	-3.485526e-003
3252037.358	4.241830e-003	-3.955198e-003	9.994181e-001	-5.717446e-002	9.991580e-001	-5.693499e-002	3.149634e-003	-3.452323e-003
3314576.442	4.245413e-003	-3.802450e-003	9.992901e-001	-5.820436e-002	9.990692e-001	-5.806605e-002	3.209643e-003	-3.580174e-003
3377115.525	4.211397e-003	-3.826382e-003	9.991168e-001	-5.919918e-002	9.988250e-001	-5.932147e-002	3.055159e-003	-3.742179e-003
3439654.609	4.215888e-003	-3.912536e-003	9.988891e-001	-6.038039e-002	9.990371e-001	-6.034082e-002	3.075864e-003	-3.582304e-003
3502193.693	4.175069e-003	-4.253508e-003	9.989417e-001	-6.159688e-002	9.987381e-001	-6.126872e-002	3.227477e-003	-3.656901e-003
3564732.777	4.219328e-003	-4.146724e-003	9.989772e-001	-6.262799e-002	9.987693e-001	-6.248779e-002	3.316728e-003	-3.655051e-003
3627271.861	4.053270e-003	-4.324042e-003	9.989772e-001	-6.381992e-002	9.987733e-001	-6.348707e-002	3.096961e-003	-3.915476e-003
3689810.944	3.956860e-003	-4.465995e-003	9.987888e-001	-6.492449e-002	9.986622e-001	-6.454601e-002	3.248088e-003	-3.939809e-003
3752350.028	4.063364e-003	-4.487626e-003	9.987010e-001	-6.576700e-002	9.984516e-001	-6.561780e-002	3.172673e-003	-4.020324e-003
3814889.112	4.194940e-003	-4.392073e-003	9.985452e-001	-6.691755e-002	9.986329e-001	-6.697356e-002	3.084241e-003	-4.199292e-003
3877428.196	4.118348e-003	-4.423737e-003	9.987095e-001	-6.806660e-002	9.985046e-001	-6.786156e-002	3.414296e-003	-4.227692e-003
3939967.280	4.081318e-003	-4.774091e-003	9.985560e-001	-6.925407e-002	9.985000e-001	-6.897895e-002	3.377323e-003	-4.192800e-003
4002506.363	4.145681e-003	-4.681176e-003	9.985429e-001	-7.029628e-002	9.983997e-001	-6.994310e-002	3.319217e-003	-4.324683e-003
4065045.447	3.962147e-003	-4.816713e-003	9.982599e-001	-7.140216e-002	9.981861e-001	-7.116320e-002	3.396101e-003	-4.475618e-003
4127584.531	3.933924e-003	-4.896646e-003	9.981803e-001	-7.251120e-002	9.981530e-001	-7.214834e-002	3.409600e-003	-4.417475e-003
4190123.615	3.972726e-003	-4.936174e-003	9.982062e-001	-7.379323e-002	9.979651e-001	-7.339838e-002	3.315391e-003	-4.702393e-003
4252662.699	3.924721e-003	-5.070163e-003	9.982694e-001	-7.489040e-002	9.978595e-001	-7.461323e-002	3.416713e-003	-4.733499e-003
4315201.782	4.045713e-003	-5.151196e-003	9.981422e-001	-7.577795e-002	9.980772e-001	-7.574077e-002	3.237542e-003	-4.977005e-003
4377740.866	3.947079e-003	-5.260540e-003	9.981259e-001	-7.703037e-002	9.977505e-001	-7.681570e-002	3.405123e-003	-4.760452e-003
4440279.950	3.844706e-003	-5.458148e-003	9.980016e-001	-7.795461e-002	9.975708e-001	-7.780440e-002	3.287146e-003	-4.986113e-003
4502819.034	3.828544e-003	-5.389930e-003	9.976994e-001	-7.916236e-002	9.976266e-001	-7.888125e-002	3.357920e-003	-4.893541e-003
4565358.118	3.742475e-003	-5.499880e-003	9.976529e-001	-8.020432e-002	9.974135e-001	-7.980184e-002	3.369650e-003	-5.068670e-003
4627897.201	3.910179e-003	-5.430348e-003	9.977287e-001	-8.129663e-002	9.973965e-001	-8.088821e-002	3.471127e-003	-5.019910e-003
4690436.285	3.742370e-003	-5.618133e-003	9.976849e-001	-8.251757e-002	9.974132e-001	-8.239616e-002	3.456722e-003	-5.293095e-003
4752975.369	3.725795e-003	-5.690990e-003	9.973602e-001	-8.365606e-002	9.973782e-001	-8.335966e-002	3.266573e-003	-5.414522e-003
4815514.453	3.856004e-003	-5.772558e-003	9.974536e-001	-8.462517e-002	9.972474e-001	-8.455834e-002	3.481881e-003	-5.377422e-003
4878053.537	3.946333e-003	-5.916695e-003	9.974526e-001	-8.571046e-002	9.971273e-001	-8.548076e-002	3.443925e-003	-5.545285e-003
4940592.620	3.671526e-003	-5.957895e-003	9.971917e-001	-8.687665e-002	9.970811e-001	-8.668939e-002	3.194846e-003	-5.639347e-003
5003131.704	3.728839e-003	-6.165987e-003	9.970848e-001	-8.795928e-002	9.970842e-001	-8.755824e-002	3.313986e-003	-5.768244e-003
5065670.788	3.653490e-003	-6.040406e-003	9.969706e-001	-8.911642e-002	9.968782e-001	-8.871133e-002	3.293754e-003	-5.802374e-003
5128209.872	3.761545e-003	-6.248056e-003	9.970762e-001	-9.015532e-002	9.967623e-001	-8.982795e-002	3.253759e-003	-6.074952e-003
5190748.956	3.660938e-003	-6.337407e-003	9.968576e-001	-9.130797e-002	9.967373e-001	-9.105405e-002	3.217903e-003	-6.023424e-003
5253288.039	3.710170e-003	-6.453904e-003	9.968641e-001	-9.238894e-002	9.966643e-001	-9.216658e-002	3.130823e-003	-6.025956e-003
5315827.123	3.672217e-003	-6.589465e-003	9.965756e-001	-9.347572e-002	9.965379e-001	-9.327558e-002	3.118555e-003	-6.203896e-003
5378366.207	3.750120e-003	-6.619621e-003	9.966737e-001	-9.463461e-002	9.964801e-001	-9.446961e-002	3.104962e-003	-6.360196e-003
5440905.291	3.561633e-003	-6.611970e-003	9.965968e-001	-9.567434e-002	9.963961e-001	-9.549109e-002	2.980065e-003	-6.390074e-003
5503444.375	3.765631e-003	-6.847552e-003	9.964489e-001	-9.688875e-002	9.963326e-001	-9.643573e-002	3.160662e-003	-6.544692e-003
5565983.458	3.395415e-003	-6.803307e-003	9.963532e-001	-9.786545e-002	9.962257e-001	-9.748773e-002	3.084812e-003	-6.468338e-003
5628522.542	3.641920e-003	-6.949695e-003	9.962720e-001	-9.887001e-002	9.961284e-001	-9.875901e-002	3.111297e-003	-6.673805e-003
5691061.626	3.706964e-003	-7.210867e-003	9.961005e-001	-1.001747e-001	9.959365e-001	-9.988543e-002	3.002933e-003	-6.716964e-003
5753600.710	3.535172e-003	-7.215046e-003	9.959371e-001	-1.011680e-001	9.959048e-001	-1.009255e-001	3.049891e-003	-6.919731e-003
5816139.794	3.632817e-003	-7.104663e-003	9.959146e-001	-1.022738e-001	9.956375e-001	-1.021961e-001	2.898050e-003	-6.951841e-003
5878678.877	3.517705e-003	-7.408656e-003	9.958289e-001	-1.034210e-001	9.956309e-001	-1.031683e-001	3.009476e-003	-7.167914e-003
5941217.961	3.500412e-003	-7.558779e-003	9.956215e-001	-1.046096e-001	9.954834e-001	-1.041157e-001	2.794825e-003	-7.147345e-003
6003757.045	3.342922e-003	-7.418066e-003	9.953963e-001	-1.055111e-001	9.953539e-001	-1.052208e-001	2.902912e-003	-7.248716e-003
6066296.129	3.469080e-003	-7.707374e-003	9.955442e-001	-1.066346e-001	9.952927e-001	-1.062828e-001	2.880186e-003	-7.359565e-003
6128835.213	3.549166e-003	-7.754409e-003	9.953625e-001	-1.074600e-001	9.953309e-001	-1.074986e-001	2.964253e-003	-7.463114e-003
6191374.296	3.468524e-003	-7.849884e-003	9.952344e-001	-1.088315e-001	9.950080e-001	-1.087369e-001	2.805497e-003	-7.442054e-003
6253913.380	3.370660e-003	-7.828930e-003	9.951537e-001	-1.100158e-001	9.949629e-001	-1.096587e-001	2.665883e-003	-7.421746e-003
6316452.464	3.330163e-003	-7.828498e-003	9.950701e-001	-1.108907e-001	9.947275e-001	-1.110002e-001	2.711576e-003	-7.732666e-003
6378991.548	3.286586e-003	-8.071880e-003	9.948628e-001	-1.124183e-001	9.948309e-001	-1.119597e-001	2.751771e-003	-7.939937e-003
6441530.632	3.215714e-003	-8.243960e-003	9.946964e-001	-1.131898e-001	9.946096e-001	-1.131412e-001	2.769027e-003	-7.903805e-003
6504069.715	3.176880e-003	-8.340713e-003	9.945532e-001	-1.145081e-001	9.946198e-001	-1.141679e-001	2.780974e-003	-7.995676e-003
6566608.799	3.332394e-003	-8.488893e-003	9.945594e-001	-1.156485e-001	9.943569e-001	-1.153371e-001	2.659329e-003	-7.888010e-003
6629147.883	3.268720e-003	-8.443604e-003	9.943454e-001	-1.164074e-001	9.942038e-001	-1.164032e-001	2.735590e-003	-8.111377e-003
6691686.967	3.140864e-003	-8.514614e-003	9.941736e-001	-1.176838e-001	9.940314e-001	-1.174865e-001	2.756585e-003	-8.116149e-003
6754226.051	3.059406e-003	-8.618208e-003	9.940220e-001	-1.188403e-001	9.938095e-001	-1.187370e-001	2.533159e-003	-8.410222e-003
6816765.134	3.137930e-003	-8.703352e-003	9.939725e-001	-1.198384e-001	9.938177e-001	-1.197082e-001	2.567431e-003	-8.295933e-003
6879304.218	3.017049e-003	-8.955874e-003	9.937805e-001	-1.209965e-001	9.937491e-001	-1.207615e-001	2.546464e-003	-8.446518e-003
6941843.302	3.083043e-003	-8.873508e-003	9.935997e-001	-1.221274e-001	9.935636e-001	-1.218493e-001	2.524217e-003	-8.451834e-003
7004382.386	2.866472e-003	-8.883736e-003	9.935736e-001	-1.230963e-001	9.933907e-001	-1.229110e-001	2.425912e-003	-8.500735e-003
7066921.470	2.948436e-003	-9.025936e-003	9.932989e-001	-1.244042e-001	9.933031e-001	-1.238802e-001	2.571795e-003	-8.748607e-003
7129460.553	2.819440e-003	-9.223336e-003	9.933068e-001	-1.252808e-001	9.931510e-001	-1.251241e-001	2.560937e-003	-8.771819e-003
7191999.637	2.807334e-003	-9.072373e-003	9.929091e-001	-1.264919e-001	9.928528e-001	-1.261795e-001	2.391843e-003	-8.843737e-003
7254538.721	2.832967e-003	-9.265474e-003	9.931102e-001	-1.276015e-001	9.929041e-001	-1.273343e-001	2.423778e-003	-8.918321e-003
7317077.805	2.995648e-003	-9.387511e-003	9.928975e-001	-1.285648e-001	9.927921e-001	-1.283745e-001	2.400334e-003	-9.118294e-003
7379616.889	2.824250e-003	-9.463393e-003	9.928729e-001	-1.298498e-001	9.925788e-001	-1.295078e-001	2.325553e-003	-9.173362e-003
7442155.972	2.657769e-003	-9.542650e-003	9.925292e-001	-1.308055e-001	9.924655e-001	-1.305569e-001	2.396691e-003	-9.044901e-003
7504695.056	2.680387e-003	-9.722733e-003	9.923270e-001	-1.317966e-001	9.922013e-001	-1.317585e-001	2.399568e-003	-9.049582e-003
7567234.140	2.848791e-003	-9.871329e-003	9.923249e-001	-1.328997e-001	9.920855e-001	-1.328343e-001	2.315165e-003	-9.243628e-003
7629773.224	2.728425e-003	-9.658733e-003	9.921993e-001	-1.341904e-001	9.920752e-001	-1.338481e-001	2.212178e-003	-9.377185e-003
7692312.308	2.572554e-003	-9.801724e-003	9.920350e-001	-1.352363e-001	9.917877e-001	-1.350269e-001	2.251896e-003	-9.546557e-003
7754851.391	2.537956e-003	-1.004095e-002	9.918765e-001	-1.363679e-001	9.915517e-001	-1.359189e-001	2.174364e-003	-9.489920e-003
7817390.475	2.593763e-003	-9.915765e-003	9.917542e-001	-1.375647e-001	9.914799e-001	-1.372894e-001	2.082993e-003	-9.457950e-003
7879929.559	2.481891e-003	-1.017532e-002	9.914849e-001	-1.386684e-001	9.912928e-001	-1.385321e-001	2.180862e-003	-9.555444e-003
7942468.643	2.409316e-003	-1.032390e-002	9.914491e-001	-1.396781e-001	9.912672e-001	-1.395601e-001	2.137074e-003	-9.814798e-003
8005007.727	2.501304e-003	-1.036659e-002	9.912091e-001	-1.408322e-001	9.911126e-001	-1.406091e-001	2.021151e-003	-9.670534e-003
8067546.811	2.320570e-003	-1.039983e-002	9.910722e-001	-1.418869e-001	9.907979e-001	-1.416342e-001	1.898580e-003	-9.948580e-003
8130085.894	2.373298e-003	-1.056097e-002	9.908949e-001	-1.429291e-001	9.907171e-001	-1.428192e-001	2.096272e-003	-1.008043e-002
8192624.978	2.169203e-003	-1.068990e-002	9.905913e-001	-1.441570e-001	9.905519e-001	-1.438513e-001	2.135253e-003	-1.017161e-002
8255164.062	2.277005e-003	-1.074598e-002	9.905294e-001	-1.451964e-001	9.903808e-001	-1.449479e-001	2.075211e-003	-1.030021e-002
8317703.146	2.128246e-003	-1.072457e-002	9.904464e-001	-1.463145e-001	9.903104e-001	-1.460468e-001	1.861533e-003	-1.032572e-002
8380242.230	2.224132e-003	-1.103417e-002	9.901318e-001	-1.475049e-001	9.900209e-001	-1.470752e-001	1.805231e-003	-1.046824e-002
8442781.313	2.163496e-003	-1.108290e-002	9.901878e-001	-1.484656e-001	9.899364e-001	-1.481525e-001	1.755022e-003	-1.062850e-002
8505320.397	2.120685e-003	-1.102737e-002	9.899624e-001	-1.496354e-001	9.897076e-001	-1.492574e-001	1.671668e-003	-1.065103e-002
8567859.481	2.044186e-003	-1.095331e-002	9.897427e-001	-1.505030e-001	9.896606e-001	-1.503504e-001	1.686689e-003	-1.056157e-002
8630398.565	2.104132e-003	-1.108259e-002	9.894039e-001	-1.515986e-001	9.894732e-001	-1.513617e-001	1.532270e-003	-1.090086e-002
8692937.649	2.027740e-003	-1.138135e-002	9.893126e-001	-1.527204e-001	9.891493e-001	-1.525504e-001	1.443073e-003	-1.087902e-002
8755476.732	2.001265e-003	-1.138959e-002	9.892234e-001	-1.539234e-001	9.890031e-001	-1.535135e-001	1.481961e-003	-1.094472e-002
8818015.816	1.849408e-003	-1.151650e-002	9.889444e-001	-1.549654e-001	9.886840e-001	-1.546776e-001	1.555531e-003	-1.111308e-002
8880554.900	2.033784e-003	-1.155170e-002	9.889152e-001	-1.561114e-001	9.887950e-001	-1.555837e-001	1.400423e-003	-1.135625e-002
8943093.984	1.829938e-003	-1.152999e-002	9.886825e-001	-1.570963e-001	9.885858e-001	-1.567334e-001	1.380376e-003	-1.138640e-002
9005633.068	1.864582e-003	-1.170305e-002	9.884378e-001	-1.582170e-001	9.884636e-001	-1.579459e-001	1.248094e-003	-1.160085e-002
9068172.151	1.679093e-003	-1.178033e-002	9.883833e-001	-1.593331e-001	9.881285e-001	-1.589245e-001	1.279519e-003	-1.162680e-002
9130711.235	1.860175e-003	-1.193759e-002	9.881304e-001	-1.604092e-001	9.880171e-001	-1.599980e-001	1.281840e-003	-1.189028e-002
9193250.319	1.809937e-003	-1.203844e-002	9.880775e-001	-1.613691e-001	9.877853e-001	-1.611734e-001	1.177803e-003	-1.189625e-002
9255789.403	1.668151e-003	-1.227386e-002	9.879414e-001	-1.623844e-001	9.876350e-001	-1.622228e-001	9.992975e-004	-1.193081e-002
9318328.487	1.599297e-003	-1.225101e-002	9.876532e-001	-1.636925e-001	9.876036e-001	-1.632602e-001	1.080374e-003	-1.201206e-002
9380867.570	1.562659e-003	-1.222771e-002	9.875588e-001	-1.647831e-001	9.872572e-001	-1.644828e-001	1.043566e-003	-1.210597e-002
9443406.654	1.582223e-003	-1.229848e-002	9.874089e-001	-1.657814e-001	9.872459e-001	-1.655898e-001	1.044823e-003	-1.226684e-002
9505945.738	1.529660e-003	-1.236357e-002	9.869825e-001	-1.670359e-001	9.870791e-001	-1.666775e-001	9.658018e-004	-1.235171e-002
9568484.822	1.528925e-003	-1.247785e-002	9.869598e-001	-1.680826e-001	9.866566e-001	-1.677416e-001	7.232095e-004	-1.219707e-002
