!Agilent Technologies,E5061B,MY49102235,A.02.00
!Date: Tue Jul 11 17:09:10 2023
!Data & Calibration Information:
!Freq	S11:SOLT2(ON)	S21:SOLT2(ON)	S12:SOLT2(ON)	S22:SOLT2(ON)
# Hz S RI R 50
5.000	-5.135928e-003	-5.655785e-003	1.002270e+000	7.907248e-003	1.000651e+000	1.028503e-002	-1.341263e-003	-7.553635e-003
62544.084	5.829712e-003	-4.886373e-004	1.001368e+000	4.692896e-004	1.000775e+000	1.244550e-003	7.698113e-003	-2.879528e-003
125083.168	5.698386e-003	-4.850799e-004	1.000947e+000	-8.452634e-004	1.000686e+000	-8.261026e-004	7.488256e-003	-2.268307e-003
187622.251	5.481410e-003	-3.307781e-004	1.000587e+000	-2.085103e-003	1.000860e+000	-8.830053e-004	7.381704e-003	-2.370614e-003
250161.335	5.301120e-003	-1.951866e-004	1.000650e+000	-3.190365e-003	1.000625e+000	-3.118931e-003	7.266726e-003	-2.014006e-003
312700.419	5.443007e-003	5.424703e-004	1.000945e+000	-3.849731e-003	1.000582e+000	-3.512229e-003	7.781671e-003	-2.329329e-003
375239.503	5.322504e-003	-9.723861e-004	1.001123e+000	-5.227508e-003	1.000443e+000	-4.912337e-003	7.269988e-003	-2.482271e-003
437778.587	5.162403e-003	-5.858856e-004	1.001397e+000	-5.384663e-003	1.000993e+000	-6.121608e-003	6.617300e-003	-2.206654e-003
500317.670	4.595636e-003	-4.631340e-004	1.001465e+000	-7.857475e-003	1.001618e+000	-7.525315e-003	4.806699e-003	-2.034449e-003
562856.754	5.912848e-003	-7.762841e-004	1.001497e+000	-9.280154e-003	1.001114e+000	-9.071293e-003	6.011152e-003	-1.547157e-003
625395.838	5.113576e-003	-6.176454e-004	1.002240e+000	-1.055747e-002	1.002193e+000	-1.015521e-002	6.100891e-003	-9.676164e-004
687934.922	5.162577e-003	-9.607901e-004	1.001351e+000	-1.152494e-002	1.001207e+000	-1.148123e-002	5.761098e-003	-1.451932e-003
750474.006	4.282445e-003	-6.506129e-004	1.001122e+000	-1.103022e-002	1.000552e+000	-1.042244e-002	5.462347e-003	-1.326576e-003
813013.089	4.457431e-003	-6.301979e-004	1.001349e+000	-1.280744e-002	1.000580e+000	-1.204544e-002	4.837831e-003	-1.144787e-003
875552.173	4.193339e-003	-4.687237e-004	1.001398e+000	-1.369934e-002	1.000856e+000	-1.346504e-002	5.612601e-003	-1.562014e-003
938091.257	4.270783e-003	-4.071567e-004	1.001460e+000	-1.522911e-002	1.001023e+000	-1.445880e-002	5.836113e-003	-9.749826e-004
1000630.341	3.724342e-003	-7.697402e-004	1.001065e+000	-1.663185e-002	1.000850e+000	-1.591539e-002	5.095288e-003	-1.697441e-003
1063169.425	4.062902e-003	-9.201363e-004	1.001417e+000	-1.786980e-002	1.000567e+000	-1.676490e-002	4.267906e-003	-2.021204e-003
1125708.508	3.950605e-003	-8.882463e-004	1.001132e+000	-1.901777e-002	1.000584e+000	-1.808828e-002	3.783557e-003	-1.733259e-003
1188247.592	4.489028e-003	-1.340744e-003	1.001294e+000	-2.026927e-002	1.000962e+000	-1.921448e-002	2.679220e-003	-2.302869e-003
1250786.676	4.337197e-003	-2.073485e-003	1.000925e+000	-2.009582e-002	1.000450e+000	-1.992320e-002	1.944744e-003	-3.977359e-003
1313325.760	4.447299e-003	-2.177505e-003	1.001227e+000	-2.171676e-002	1.000975e+000	-2.143003e-002	2.680524e-003	-3.766029e-003
1375864.844	4.182472e-003	-2.382221e-003	1.000985e+000	-2.361212e-002	1.000430e+000	-2.339039e-002	2.532164e-003	-3.500310e-003
1438403.927	4.072061e-003	-2.555561e-003	1.000899e+000	-2.426356e-002	1.000892e+000	-2.311953e-002	2.608139e-003	-3.247672e-003
1500943.011	4.301441e-003	-2.493020e-003	1.001560e+000	-2.508124e-002	1.001322e+000	-2.462837e-002	2.974128e-003	-3.653577e-003
1563482.095	4.301409e-003	-2.868573e-003	1.001236e+000	-2.654069e-002	1.000619e+000	-2.530645e-002	3.097805e-003	-3.454396e-003
1626021.179	4.094195e-003	-2.741777e-003	1.001100e+000	-2.772598e-002	1.000887e+000	-2.789246e-002	3.367982e-003	-3.516436e-003
1688560.263	3.796415e-003	-2.695159e-003	1.000782e+000	-2.947191e-002	1.001317e+000	-2.899879e-002	3.547099e-003	-3.527108e-003
1751099.346	3.938986e-003	-2.592088e-003	1.001298e+000	-3.069944e-002	1.000697e+000	-2.968833e-002	3.357656e-003	-2.707151e-003
1813638.430	3.581016e-003	-2.650346e-003	1.001473e+000	-3.205957e-002	1.001020e+000	-3.155109e-002	3.552807e-003	-3.092775e-003
1876177.514	3.613258e-003	-2.382345e-003	1.001786e+000	-3.312149e-002	1.001276e+000	-3.314378e-002	3.212636e-003	-2.426692e-003
1938716.598	3.058454e-003	-2.306843e-003	1.001988e+000	-3.386103e-002	1.001284e+000	-3.288816e-002	3.365733e-003	-2.043868e-003
2001255.682	2.978874e-003	-2.785846e-003	1.002008e+000	-3.529696e-002	1.001169e+000	-3.466399e-002	3.126494e-003	-2.509454e-003
2063794.765	3.065725e-003	-2.406759e-003	1.001587e+000	-3.626649e-002	1.000676e+000	-3.631975e-002	3.515089e-003	-2.603617e-003
2126333.849	2.604885e-003	-2.946115e-003	1.000968e+000	-3.762413e-002	1.000196e+000	-3.656588e-002	3.767080e-003	-2.370491e-003
2188872.933	3.082017e-003	-2.957297e-003	1.000675e+000	-3.871822e-002	1.000053e+000	-3.761967e-002	3.661537e-003	-2.419498e-003
2251412.017	3.192390e-003	-3.320157e-003	1.000610e+000	-4.021052e-002	1.000287e+000	-3.860939e-002	3.640284e-003	-2.545351e-003
2313951.101	3.510327e-003	-2.910965e-003	9.999549e-001	-4.113172e-002	1.000112e+000	-3.964056e-002	3.944348e-003	-2.618967e-003
2376490.184	3.255676e-003	-2.945732e-003	1.000080e+000	-4.157986e-002	1.000229e+000	-4.148196e-002	3.909283e-003	-2.623949e-003
2439029.268	3.713256e-003	-2.999801e-003	9.998943e-001	-4.334344e-002	9.992512e-001	-4.253358e-002	3.564915e-003	-2.536933e-003
2501568.352	3.670392e-003	-2.997675e-003	9.997043e-001	-4.342407e-002	1.000157e+000	-4.308832e-002	3.850453e-003	-2.576588e-003
2564107.436	3.579538e-003	-3.173991e-003	9.998490e-001	-4.528615e-002	9.998719e-001	-4.472997e-002	3.154595e-003	-2.966455e-003
2626646.520	4.055314e-003	-3.374114e-003	9.996953e-001	-4.643213e-002	9.988212e-001	-4.580813e-002	3.412111e-003	-3.052352e-003
2689185.604	4.025087e-003	-3.218318e-003	1.000154e+000	-4.722793e-002	9.994738e-001	-4.660588e-002	3.527655e-003	-2.997240e-003
2751724.687	4.121218e-003	-3.320877e-003	9.999678e-001	-4.789799e-002	9.996050e-001	-4.738932e-002	3.138818e-003	-3.062707e-003
2814263.771	4.075044e-003	-3.400443e-003	9.991340e-001	-4.981324e-002	9.991861e-001	-4.872194e-002	3.113845e-003	-3.196946e-003
2876802.855	4.028765e-003	-3.634355e-003	9.992681e-001	-5.109504e-002	9.992715e-001	-4.985223e-002	3.200779e-003	-3.079672e-003
2939341.939	4.149270e-003	-3.562337e-003	9.997714e-001	-5.166035e-002	9.990467e-001	-5.137727e-002	3.092159e-003	-3.209625e-003
3001881.023	4.075425e-003	-3.567314e-003	9.994366e-001	-5.276140e-002	9.990185e-001	-5.225432e-002	3.168511e-003	-3.350953e-003
3064420.106	4.113090e-003	-3.641597e-003	1.000026e+000	-5.377005e-002	9.990190e-001	-5.332670e-002	3.003068e-003	-3.508993e-003
3126959.190	4.305611e-003	-3.756511e-003	9.995581e-001	-5.503200e-002	9.991667e-001	-5.452823e-002	3.171376e-003	-3.587057e-003
3189498.274	4.279207e-003	-3.747413e-003	9.994641e-001	-5.596903e-002	9.990766e-001	-5.561257e-002	3.177824e-003	-3.677116e-003
3252037.358	4.196896e-003	-4.132622e-003	9.995633e-001	-5.714158e-002	9.991667e-001	-5.664920e-002	3.112995e-003	-3.639219e-003
3314576.442	4.202870e-003	-3.998630e-003	9.993862e-001	-5.818928e-002	9.989964e-001	-5.778094e-002	3.166217e-003	-3.779601e-003
3377115.525	4.168317e-003	-4.022688e-003	9.992369e-001	-5.917478e-002	9.987642e-001	-5.903822e-002	3.005026e-003	-3.946760e-003
3439654.609	4.165552e-003	-4.119830e-003	9.990139e-001	-6.026776e-002	9.990399e-001	-6.005257e-002	3.017026e-003	-3.779435e-003
3502193.693	4.127451e-003	-4.455558e-003	9.989962e-001	-6.155502e-002	9.986941e-001	-6.098385e-002	3.191270e-003	-3.862244e-003
3564732.777	4.183292e-003	-4.348391e-003	9.990364e-001	-6.256678e-002	9.987079e-001	-6.218367e-002	3.267197e-003	-3.879180e-003
3627271.861	4.018648e-003	-4.515160e-003	9.990664e-001	-6.377417e-002	9.987163e-001	-6.318468e-002	3.037123e-003	-4.121831e-003
3689810.944	3.914354e-003	-4.690683e-003	9.988831e-001	-6.485623e-002	9.986521e-001	-6.424047e-002	3.187779e-003	-4.154822e-003
3752350.028	4.031216e-003	-4.693763e-003	9.988251e-001	-6.571526e-002	9.984340e-001	-6.528956e-002	3.118956e-003	-4.242902e-003
3814889.112	4.131256e-003	-4.620982e-003	9.986179e-001	-6.686184e-002	9.985948e-001	-6.664145e-002	3.036624e-003	-4.418197e-003
3877428.196	4.074410e-003	-4.647246e-003	9.988304e-001	-6.799722e-002	9.984693e-001	-6.752560e-002	3.351688e-003	-4.455583e-003
3939967.280	4.039168e-003	-4.990118e-003	9.986543e-001	-6.916721e-002	9.985214e-001	-6.862192e-002	3.329320e-003	-4.417031e-003
4002506.363	4.088617e-003	-4.900260e-003	9.986644e-001	-7.019426e-002	9.983694e-001	-6.958673e-002	3.258862e-003	-4.554812e-003
4065045.447	3.912478e-003	-5.048930e-003	9.983719e-001	-7.136644e-002	9.981862e-001	-7.079045e-002	3.345107e-003	-4.719439e-003
4127584.531	3.876591e-003	-5.126710e-003	9.983345e-001	-7.242111e-002	9.981352e-001	-7.184353e-002	3.362290e-003	-4.659584e-003
4190123.615	3.912713e-003	-5.172365e-003	9.983289e-001	-7.368986e-002	9.979450e-001	-7.312409e-002	3.253809e-003	-4.940996e-003
4252662.699	3.873985e-003	-5.310518e-003	9.983431e-001	-7.476944e-002	9.978592e-001	-7.431028e-002	3.359271e-003	-4.980641e-003
4315201.782	4.000387e-003	-5.408822e-003	9.982080e-001	-7.568468e-002	9.980196e-001	-7.540699e-002	3.173730e-003	-5.244360e-003
4377740.866	3.895436e-003	-5.500259e-003	9.982242e-001	-7.692056e-002	9.977256e-001	-7.647757e-002	3.343201e-003	-4.998300e-003
4440279.950	3.798658e-003	-5.693642e-003	9.981171e-001	-7.788232e-002	9.975685e-001	-7.746106e-002	3.233814e-003	-5.244406e-003
4502819.034	3.780241e-003	-5.643642e-003	9.977737e-001	-7.906861e-002	9.976118e-001	-7.854972e-002	3.302863e-003	-5.155598e-003
4565358.118	3.692744e-003	-5.758424e-003	9.977765e-001	-8.012133e-002	9.973579e-001	-7.944096e-002	3.303115e-003	-5.325001e-003
4627897.201	3.870390e-003	-5.706095e-003	9.978541e-001	-8.120153e-002	9.974227e-001	-8.055348e-002	3.415384e-003	-5.293268e-003
4690436.285	3.693899e-003	-5.885389e-003	9.977851e-001	-8.241035e-002	9.973422e-001	-8.201883e-002	3.390303e-003	-5.561218e-003
4752975.369	3.683492e-003	-5.954926e-003	9.974721e-001	-8.356250e-002	9.973765e-001	-8.302784e-002	3.210603e-003	-5.682830e-003
4815514.453	3.800016e-003	-6.043956e-003	9.975709e-001	-8.453702e-002	9.971997e-001	-8.420515e-002	3.413019e-003	-5.662036e-003
4878053.537	3.883131e-003	-6.204710e-003	9.975481e-001	-8.556838e-002	9.971233e-001	-8.511295e-002	3.378825e-003	-5.810364e-003
4940592.620	3.613031e-003	-6.245798e-003	9.973217e-001	-8.678710e-002	9.971091e-001	-8.636357e-002	3.133859e-003	-5.919262e-003
5003131.704	3.677252e-003	-6.450351e-003	9.971997e-001	-8.784265e-002	9.970371e-001	-8.715951e-002	3.262675e-003	-6.057216e-003
5065670.788	3.599697e-003	-6.328873e-003	9.970869e-001	-8.896788e-002	9.968454e-001	-8.836418e-002	3.219159e-003	-6.093096e-003
5128209.872	3.722327e-003	-6.537930e-003	9.971707e-001	-9.002252e-002	9.967468e-001	-8.946627e-002	3.182156e-003	-6.371663e-003
5190748.956	3.618028e-003	-6.629563e-003	9.969684e-001	-9.113493e-002	9.967675e-001	-9.068843e-002	3.149408e-003	-6.319395e-003
5253288.039	3.652028e-003	-6.759641e-003	9.969857e-001	-9.223380e-002	9.966483e-001	-9.173601e-002	3.063851e-003	-6.328761e-003
5315827.123	3.615671e-003	-6.899592e-003	9.967001e-001	-9.332838e-002	9.965036e-001	-9.286752e-002	3.045284e-003	-6.499787e-003
5378366.207	3.690896e-003	-6.915969e-003	9.967594e-001	-9.441763e-002	9.964769e-001	-9.414988e-002	3.036300e-003	-6.676775e-003
5440905.291	3.499134e-003	-6.912020e-003	9.967330e-001	-9.553250e-002	9.964105e-001	-9.512289e-002	2.909564e-003	-6.699009e-003
5503444.375	3.702309e-003	-7.160724e-003	9.965601e-001	-9.672285e-002	9.963673e-001	-9.605507e-002	3.099845e-003	-6.864978e-003
5565983.458	3.344803e-003	-7.117883e-003	9.965072e-001	-9.769909e-002	9.962780e-001	-9.711820e-002	3.009282e-003	-6.783135e-003
5628522.542	3.587737e-003	-7.274174e-003	9.964153e-001	-9.871270e-002	9.961317e-001	-9.836192e-002	3.039388e-003	-6.995381e-003
5691061.626	3.645842e-003	-7.538480e-003	9.962440e-001	-1.000156e-001	9.959522e-001	-9.947285e-002	2.919541e-003	-7.023339e-003
5753600.710	3.483369e-003	-7.542617e-003	9.960576e-001	-1.009904e-001	9.959105e-001	-1.005208e-001	2.981760e-003	-7.245388e-003
5816139.794	3.568842e-003	-7.432057e-003	9.960468e-001	-1.021328e-001	9.956410e-001	-1.018522e-001	2.814937e-003	-7.282476e-003
5878678.877	3.471950e-003	-7.759616e-003	9.959078e-001	-1.032636e-001	9.956138e-001	-1.027914e-001	2.925597e-003	-7.506196e-003
5941217.961	3.445195e-003	-7.911875e-003	9.957577e-001	-1.044391e-001	9.955002e-001	-1.037253e-001	2.724694e-003	-7.498017e-003
6003757.045	3.278376e-003	-7.775396e-003	9.954952e-001	-1.053584e-001	9.953967e-001	-1.048237e-001	2.838070e-003	-7.594254e-003
6066296.129	3.388707e-003	-8.041888e-003	9.956316e-001	-1.064899e-001	9.952509e-001	-1.058575e-001	2.809704e-003	-7.709505e-003
6128835.213	3.484295e-003	-8.093030e-003	9.954879e-001	-1.073166e-001	9.953323e-001	-1.070668e-001	2.883929e-003	-7.799837e-003
6191374.296	3.423404e-003	-8.230467e-003	9.952730e-001	-1.086430e-001	9.950194e-001	-1.083261e-001	2.707158e-003	-7.797229e-003
6253913.380	3.324019e-003	-8.183119e-003	9.952408e-001	-1.097631e-001	9.949553e-001	-1.092495e-001	2.577721e-003	-7.776708e-003
6316452.464	3.266537e-003	-8.200076e-003	9.951440e-001	-1.107578e-001	9.947169e-001	-1.105831e-001	2.613074e-003	-8.086339e-003
6378991.548	3.227334e-003	-8.439043e-003	9.949859e-001	-1.122369e-001	9.948035e-001	-1.115565e-001	2.673801e-003	-8.295908e-003
6441530.632	3.148503e-003	-8.605186e-003	9.948183e-001	-1.129783e-001	9.946359e-001	-1.127135e-001	2.686069e-003	-8.270558e-003
6504069.715	3.124641e-003	-8.723870e-003	9.946611e-001	-1.143400e-001	9.946752e-001	-1.137471e-001	2.693253e-003	-8.366941e-003
6566608.799	3.269738e-003	-8.862960e-003	9.946786e-001	-1.154887e-001	9.944115e-001	-1.148948e-001	2.578257e-003	-8.269923e-003
6629147.883	3.197615e-003	-8.815792e-003	9.945008e-001	-1.162410e-001	9.942387e-001	-1.160086e-001	2.657465e-003	-8.487754e-003
6691686.967	3.062285e-003	-8.902554e-003	9.942397e-001	-1.174364e-001	9.940604e-001	-1.170798e-001	2.664152e-003	-8.497925e-003
6754226.051	2.991434e-003	-8.990689e-003	9.941249e-001	-1.186499e-001	9.938097e-001	-1.183061e-001	2.452901e-003	-8.799273e-003
6816765.134	3.080278e-003	-9.094585e-003	9.941077e-001	-1.196754e-001	9.938499e-001	-1.192570e-001	2.497546e-003	-8.687440e-003
6879304.218	2.948992e-003	-9.350169e-003	9.938709e-001	-1.207902e-001	9.937514e-001	-1.203506e-001	2.461547e-003	-8.830434e-003
6941843.302	3.019372e-003	-9.268366e-003	9.937192e-001	-1.219306e-001	9.935749e-001	-1.214197e-001	2.437090e-003	-8.854388e-003
7004382.386	2.798853e-003	-9.299756e-003	9.936813e-001	-1.229195e-001	9.934179e-001	-1.224963e-001	2.340603e-003	-8.898919e-003
7066921.470	2.880628e-003	-9.436755e-003	9.934412e-001	-1.241793e-001	9.933386e-001	-1.234323e-001	2.491105e-003	-9.139400e-003
7129460.553	2.763723e-003	-9.633484e-003	9.933965e-001	-1.250567e-001	9.931771e-001	-1.246594e-001	2.461459e-003	-9.170049e-003
7191999.637	2.731940e-003	-9.489090e-003	9.930390e-001	-1.262285e-001	9.928854e-001	-1.257375e-001	2.304793e-003	-9.257063e-003
7254538.721	2.765572e-003	-9.685924e-003	9.932199e-001	-1.273853e-001	9.929156e-001	-1.268812e-001	2.325121e-003	-9.327833e-003
7317077.805	2.922714e-003	-9.794992e-003	9.929780e-001	-1.283203e-001	9.928183e-001	-1.279293e-001	2.297824e-003	-9.523282e-003
7379616.889	2.763524e-003	-9.884966e-003	9.930178e-001	-1.297039e-001	9.925905e-001	-1.290149e-001	2.237225e-003	-9.576354e-003
7442155.972	2.600043e-003	-9.966413e-003	9.926962e-001	-1.305957e-001	9.925075e-001	-1.300966e-001	2.303242e-003	-9.457710e-003
7504695.056	2.615147e-003	-1.015093e-002	9.924510e-001	-1.316037e-001	9.922016e-001	-1.313252e-001	2.301120e-003	-9.475091e-003
7567234.140	2.776811e-003	-1.031032e-002	9.924666e-001	-1.326896e-001	9.920988e-001	-1.323857e-001	2.212576e-003	-9.664420e-003
7629773.224	2.653161e-003	-1.010866e-002	9.923171e-001	-1.339464e-001	9.920819e-001	-1.333956e-001	2.112125e-003	-9.793657e-003
7692312.308	2.494565e-003	-1.025373e-002	9.921703e-001	-1.350252e-001	9.918041e-001	-1.345781e-001	2.160237e-003	-9.972175e-003
7754851.391	2.458421e-003	-1.048763e-002	9.919926e-001	-1.361313e-001	9.915275e-001	-1.354729e-001	2.075755e-003	-9.929944e-003
7817390.475	2.516570e-003	-1.036032e-002	9.918671e-001	-1.373762e-001	9.914818e-001	-1.368242e-001	1.972834e-003	-9.892729e-003
7879929.559	2.415526e-003	-1.063897e-002	9.915892e-001	-1.384184e-001	9.913385e-001	-1.380828e-001	2.072826e-003	-9.996995e-003
7942468.643	2.336975e-003	-1.078095e-002	9.916015e-001	-1.394159e-001	9.912615e-001	-1.390773e-001	2.031165e-003	-1.024730e-002
8005007.727	2.418665e-003	-1.082937e-002	9.913283e-001	-1.406010e-001	9.911329e-001	-1.401404e-001	1.915824e-003	-1.010171e-002
8067546.811	2.248335e-003	-1.087818e-002	9.912217e-001	-1.416268e-001	9.908184e-001	-1.411865e-001	1.813262e-003	-1.041007e-002
8130085.894	2.285057e-003	-1.102548e-002	9.910016e-001	-1.426153e-001	9.907726e-001	-1.422859e-001	2.001715e-003	-1.053534e-002
8192624.978	2.099338e-003	-1.117186e-002	9.907217e-001	-1.438757e-001	9.905652e-001	-1.433566e-001	2.026931e-003	-1.062957e-002
8255164.062	2.197281e-003	-1.122844e-002	9.906807e-001	-1.449202e-001	9.903799e-001	-1.444588e-001	1.962531e-003	-1.074636e-002
8317703.146	2.052611e-003	-1.120993e-002	9.905265e-001	-1.460200e-001	9.903304e-001	-1.455612e-001	1.756813e-003	-1.078550e-002
8380242.230	2.149696e-003	-1.152185e-002	9.902182e-001	-1.472610e-001	9.900529e-001	-1.465619e-001	1.690938e-003	-1.092640e-002
8442781.313	2.092241e-003	-1.157524e-002	9.903176e-001	-1.481630e-001	9.899643e-001	-1.476536e-001	1.653405e-003	-1.110090e-002
8505320.397	2.056125e-003	-1.150642e-002	9.900842e-001	-1.493461e-001	9.897401e-001	-1.487832e-001	1.568106e-003	-1.112706e-002
8567859.481	1.962476e-003	-1.145373e-002	9.898543e-001	-1.502457e-001	9.896917e-001	-1.498536e-001	1.582930e-003	-1.104280e-002
8630398.565	2.021690e-003	-1.158520e-002	9.895215e-001	-1.513055e-001	9.894768e-001	-1.508711e-001	1.429255e-003	-1.138335e-002
8692937.649	1.932382e-003	-1.188647e-002	9.894719e-001	-1.524026e-001	9.891474e-001	-1.520099e-001	1.332303e-003	-1.135897e-002
8755476.732	1.912629e-003	-1.189680e-002	9.893263e-001	-1.536219e-001	9.890120e-001	-1.530024e-001	1.367824e-003	-1.143589e-002
8818015.816	1.760417e-003	-1.202395e-002	9.891007e-001	-1.546976e-001	9.886523e-001	-1.541564e-001	1.451654e-003	-1.161310e-002
8880554.900	1.944733e-003	-1.206106e-002	9.890839e-001	-1.558535e-001	9.888324e-001	-1.550945e-001	1.277959e-003	-1.186048e-002
8943093.984	1.747349e-003	-1.204309e-002	9.888280e-001	-1.568019e-001	9.886418e-001	-1.562370e-001	1.273542e-003	-1.187964e-002
9005633.068	1.782438e-003	-1.222258e-002	9.885535e-001	-1.579543e-001	9.885267e-001	-1.574232e-001	1.138355e-003	-1.209278e-002
9068172.151	1.588349e-003	-1.230415e-002	9.885155e-001	-1.590366e-001	9.882064e-001	-1.584192e-001	1.163342e-003	-1.212368e-002
9130711.235	1.772295e-003	-1.246382e-002	9.882454e-001	-1.601467e-001	9.880520e-001	-1.594864e-001	1.161701e-003	-1.239913e-002
9193250.319	1.717803e-003	-1.257505e-002	9.882133e-001	-1.610479e-001	9.878204e-001	-1.606881e-001	1.061500e-003	-1.240761e-002
9255789.403	1.584611e-003	-1.280756e-002	9.880610e-001	-1.620164e-001	9.876635e-001	-1.616487e-001	8.865605e-004	-1.244288e-002
9318328.487	1.501529e-003	-1.279899e-002	9.878242e-001	-1.634091e-001	9.876491e-001	-1.627408e-001	9.538345e-004	-1.252156e-002
9380867.570	1.470157e-003	-1.276612e-002	9.876663e-001	-1.644670e-001	9.872767e-001	-1.639584e-001	9.259955e-004	-1.261735e-002
9443406.654	1.497119e-003	-1.285280e-002	9.875315e-001	-1.654544e-001	9.872566e-001	-1.651065e-001	9.107432e-004	-1.279365e-002
9505945.738	1.426203e-003	-1.291766e-002	9.871601e-001	-1.667278e-001	9.870974e-001	-1.661622e-001	8.362983e-004	-1.287942e-002
9568484.822	1.440414e-003	-1.303248e-002	9.871015e-001	-1.677821e-001	9.866886e-001	-1.672011e-001	5.890641e-004	-1.271825e-002
