!Agilent Technologies,E5061B,MY49102235,A.02.00
!Date: Tue Jul 11 17:04:38 2023
!Data & Calibration Information:
!Freq	S11:SOLT2(ON)	S21:SOLT2(ON)	S12:SOLT2(ON)	S22:SOLT2(ON)
# Hz S RI R 50
5.000	-5.225075e-003	-5.632474e-003	1.002180e+000	7.969278e-003	1.000585e+000	1.024883e-002	-1.403721e-003	-7.560519e-003
62544.084	5.835876e-003	-2.558701e-004	1.001393e+000	3.883946e-004	1.000776e+000	9.745338e-004	7.698648e-003	-2.634313e-003
125083.168	5.713966e-003	-7.802550e-007	1.001005e+000	-1.310079e-003	1.000624e+000	-1.254932e-003	7.506028e-003	-1.797656e-003
187622.251	5.490476e-003	3.853520e-004	1.000508e+000	-2.822171e-003	1.000821e+000	-1.665176e-003	7.386534e-003	-1.647143e-003
250161.335	5.327358e-003	7.798802e-004	1.000555e+000	-4.130033e-003	1.000642e+000	-4.079065e-003	7.279600e-003	-1.083813e-003
312700.419	5.470080e-003	1.730191e-003	1.000907e+000	-4.959389e-003	1.000537e+000	-4.831063e-003	7.793268e-003	-1.142911e-003
375239.503	5.367108e-003	4.548219e-004	1.001020e+000	-6.637707e-003	1.000515e+000	-6.306375e-003	7.283022e-003	-1.095474e-003
437778.587	5.200976e-003	1.055508e-003	1.001369e+000	-6.978017e-003	1.000880e+000	-7.671206e-003	6.666404e-003	-5.675247e-004
500317.670	4.643636e-003	1.436147e-003	1.001320e+000	-9.751995e-003	1.001644e+000	-9.398501e-003	4.837125e-003	-1.621644e-004
562856.754	5.983986e-003	1.349184e-003	1.001377e+000	-1.134388e-002	1.001179e+000	-1.128047e-002	6.048403e-003	5.755324e-004
625395.838	5.177983e-003	1.720107e-003	1.002317e+000	-1.275800e-002	1.002101e+000	-1.235570e-002	6.164107e-003	1.375590e-003
687934.922	5.227744e-003	1.639624e-003	1.001334e+000	-1.407653e-002	1.001075e+000	-1.415301e-002	5.831923e-003	1.155110e-003
750474.006	4.358312e-003	2.189244e-003	1.000995e+000	-1.359933e-002	1.000630e+000	-1.319750e-002	5.560322e-003	1.517218e-003
813013.089	4.579017e-003	2.436366e-003	1.001398e+000	-1.581891e-002	1.000384e+000	-1.527413e-002	4.922851e-003	1.925435e-003
875552.173	4.319107e-003	2.834550e-003	1.001296e+000	-1.693122e-002	1.000773e+000	-1.672685e-002	5.727799e-003	1.750383e-003
938091.257	4.418977e-003	3.146105e-003	1.001444e+000	-1.873696e-002	1.000909e+000	-1.808062e-002	5.985296e-003	2.556888e-003
1000630.341	3.869056e-003	3.014249e-003	1.000885e+000	-2.030201e-002	1.000732e+000	-1.971819e-002	5.239128e-003	2.081228e-003
1063169.425	4.239374e-003	3.077541e-003	1.001221e+000	-2.185534e-002	1.000465e+000	-2.079306e-002	4.432947e-003	1.978639e-003
1125708.508	4.134844e-003	3.346525e-003	1.000922e+000	-2.333558e-002	1.000580e+000	-2.234493e-002	3.962837e-003	2.501909e-003
1188247.592	4.672930e-003	3.124503e-003	1.001017e+000	-2.453546e-002	1.000659e+000	-2.372625e-002	2.876577e-003	2.170019e-003
1250786.676	4.525154e-003	2.606960e-003	1.000536e+000	-2.482973e-002	1.000548e+000	-2.467859e-002	2.140418e-003	7.458235e-004
1313325.760	4.679352e-003	2.742127e-003	1.001093e+000	-2.668652e-002	1.000631e+000	-2.650336e-002	2.884271e-003	1.170843e-003
1375864.844	4.420220e-003	2.786978e-003	1.000771e+000	-2.870665e-002	1.000213e+000	-2.849422e-002	2.760007e-003	1.688306e-003
1438403.927	4.322862e-003	2.838108e-003	1.000657e+000	-2.960096e-002	1.000670e+000	-2.868476e-002	2.868834e-003	2.179493e-003
1500943.011	4.566690e-003	3.141926e-003	1.001288e+000	-3.082661e-002	1.001071e+000	-3.034706e-002	3.230585e-003	2.001274e-003
1563482.095	4.594726e-003	2.995983e-003	1.000782e+000	-3.235482e-002	1.000137e+000	-3.126032e-002	3.382780e-003	2.414873e-003
1626021.179	4.406212e-003	3.353384e-003	1.000591e+000	-3.382367e-002	1.000582e+000	-3.413455e-002	3.682227e-003	2.589603e-003
1688560.263	4.132912e-003	3.646766e-003	1.000371e+000	-3.576058e-002	1.000942e+000	-3.563487e-002	3.858919e-003	2.810489e-003
1751099.346	4.288456e-003	3.958915e-003	1.000887e+000	-3.725478e-002	1.000266e+000	-3.633249e-002	3.711708e-003	3.877767e-003
1813638.430	3.944121e-003	4.147953e-003	1.001082e+000	-3.889993e-002	1.000628e+000	-3.836967e-002	3.907434e-003	3.723878e-003
1876177.514	4.010839e-003	4.673125e-003	1.001481e+000	-4.009568e-002	1.000877e+000	-4.022878e-002	3.593517e-003	4.615203e-003
1938716.598	3.485599e-003	4.983266e-003	1.001630e+000	-4.100641e-002	1.000843e+000	-4.046644e-002	3.794337e-003	5.217882e-003
2001255.682	3.415901e-003	4.730789e-003	1.001538e+000	-4.283085e-002	1.000843e+000	-4.222411e-002	3.563988e-003	4.996549e-003
2063794.765	3.522407e-003	5.335738e-003	1.001035e+000	-4.401423e-002	1.000296e+000	-4.416723e-002	3.979965e-003	5.126593e-003
2126333.849	3.082021e-003	5.033625e-003	1.000577e+000	-4.544156e-002	9.997203e-001	-4.463975e-002	4.258801e-003	5.592797e-003
2188872.933	3.580779e-003	5.257290e-003	1.000248e+000	-4.686300e-002	9.995449e-001	-4.589576e-002	4.173104e-003	5.781510e-003
2251412.017	3.713017e-003	5.119567e-003	1.000049e+000	-4.868167e-002	9.996349e-001	-4.723317e-002	4.174224e-003	5.882821e-003
2313951.101	4.074061e-003	5.771336e-003	9.995757e-001	-4.980080e-002	9.996436e-001	-4.841967e-002	4.508953e-003	6.052006e-003
2376490.184	3.835778e-003	5.949973e-003	9.994050e-001	-5.048936e-002	9.996128e-001	-5.046542e-002	4.499861e-003	6.268294e-003
2439029.268	4.312638e-003	6.129949e-003	9.993283e-001	-5.239418e-002	9.987656e-001	-5.170109e-002	4.181794e-003	6.595967e-003
2501568.352	4.314940e-003	6.356230e-003	9.990388e-001	-5.289536e-002	9.995749e-001	-5.254065e-002	4.507066e-003	6.789538e-003
2564107.436	4.245771e-003	6.433481e-003	9.991551e-001	-5.484672e-002	9.993162e-001	-5.448053e-002	3.836072e-003	6.633423e-003
2626646.520	4.765389e-003	6.452617e-003	9.990444e-001	-5.626442e-002	9.981410e-001	-5.574314e-002	4.114312e-003	6.789822e-003
2689185.604	4.755826e-003	6.847969e-003	9.994826e-001	-5.728832e-002	9.988734e-001	-5.671010e-002	4.269950e-003	7.070599e-003
2751724.687	4.881060e-003	6.969690e-003	9.992068e-001	-5.826645e-002	9.987407e-001	-5.774349e-002	3.900898e-003	7.257719e-003
2814263.771	4.863885e-003	7.119570e-003	9.982988e-001	-6.026078e-002	9.983211e-001	-5.935444e-002	3.906237e-003	7.345366e-003
2876802.855	4.832051e-003	7.134299e-003	9.983633e-001	-6.190984e-002	9.984512e-001	-6.070715e-002	4.027282e-003	7.694713e-003
2939341.939	4.991814e-003	7.440412e-003	9.989989e-001	-6.268913e-002	9.982876e-001	-6.235406e-002	3.947085e-003	7.811051e-003
3001881.023	4.952456e-003	7.672712e-003	9.985603e-001	-6.397597e-002	9.982551e-001	-6.366986e-002	4.057812e-003	7.897197e-003
3064420.106	5.034354e-003	7.817235e-003	9.990859e-001	-6.535644e-002	9.980910e-001	-6.482951e-002	3.928733e-003	7.986025e-003
3126959.190	5.255544e-003	7.932340e-003	9.986117e-001	-6.675544e-002	9.982297e-001	-6.633912e-002	4.132626e-003	8.134397e-003
3189498.274	5.269841e-003	8.175430e-003	9.984657e-001	-6.793635e-002	9.980889e-001	-6.766132e-002	4.166062e-003	8.287103e-003
3252037.358	5.208779e-003	8.038066e-003	9.985080e-001	-6.938281e-002	9.981140e-001	-6.891986e-002	4.142568e-003	8.555697e-003
3314576.442	5.271252e-003	8.410399e-003	9.983578e-001	-7.058688e-002	9.979623e-001	-7.034923e-002	4.231267e-003	8.648022e-003
3377115.525	5.260781e-003	8.626865e-003	9.981227e-001	-7.183865e-002	9.976886e-001	-7.179130e-002	4.106921e-003	8.721565e-003
3439654.609	5.291103e-003	8.761535e-003	9.979497e-001	-7.321401e-002	9.978629e-001	-7.304509e-002	4.162285e-003	9.118305e-003
3502193.693	5.297959e-003	8.668673e-003	9.978508e-001	-7.466865e-002	9.975393e-001	-7.421625e-002	4.371573e-003	9.282754e-003
3564732.777	5.382193e-003	9.005905e-003	9.978625e-001	-7.593881e-002	9.975177e-001	-7.566155e-002	4.499461e-003	9.495925e-003
3627271.861	5.264965e-003	9.075112e-003	9.978203e-001	-7.739561e-002	9.975444e-001	-7.690400e-002	4.297071e-003	9.495779e-003
3689810.944	5.208150e-003	9.154883e-003	9.976166e-001	-7.870319e-002	9.973759e-001	-7.821593e-002	4.500457e-003	9.702917e-003
3752350.028	5.362468e-003	9.378005e-003	9.974902e-001	-7.980950e-002	9.970937e-001	-7.948731e-002	4.473696e-003	9.845254e-003
3814889.112	5.503188e-003	9.685206e-003	9.972923e-001	-8.120680e-002	9.972358e-001	-8.109063e-002	4.411776e-003	9.915113e-003
3877428.196	5.499082e-003	9.905291e-003	9.974074e-001	-8.260427e-002	9.970812e-001	-8.220144e-002	4.783383e-003	1.010469e-002
3939967.280	5.495556e-003	9.791563e-003	9.972063e-001	-8.397061e-002	9.970409e-001	-8.359800e-002	4.789160e-003	1.039344e-002
4002506.363	5.606852e-003	1.012763e-002	9.971540e-001	-8.531316e-002	9.968829e-001	-8.472697e-002	4.784510e-003	1.049740e-002
4065045.447	5.470704e-003	1.021626e-002	9.968542e-001	-8.670665e-002	9.966369e-001	-8.624612e-002	4.922944e-003	1.056801e-002
4127584.531	5.475690e-003	1.038662e-002	9.967177e-001	-8.799328e-002	9.965763e-001	-8.745757e-002	4.968874e-003	1.087160e-002
4190123.615	5.568330e-003	1.059163e-002	9.966891e-001	-8.952855e-002	9.963537e-001	-8.897726e-002	4.919293e-003	1.082446e-002
4252662.699	5.561632e-003	1.069569e-002	9.966868e-001	-9.089510e-002	9.961441e-001	-9.045238e-002	5.075998e-003	1.104340e-002
4315201.782	5.745297e-003	1.082532e-002	9.964893e-001	-9.199662e-002	9.963000e-001	-9.178391e-002	4.929358e-003	1.102628e-002
4377740.866	5.699677e-003	1.098126e-002	9.965065e-001	-9.348513e-002	9.959551e-001	-9.309767e-002	5.161274e-003	1.149652e-002
4440279.950	5.645773e-003	1.102775e-002	9.962974e-001	-9.462570e-002	9.957595e-001	-9.432482e-002	5.094566e-003	1.150992e-002
4502819.034	5.685446e-003	1.132799e-002	9.959017e-001	-9.610917e-002	9.957243e-001	-9.565138e-002	5.216810e-003	1.182831e-002
4565358.118	5.649095e-003	1.145310e-002	9.958225e-001	-9.739499e-002	9.954310e-001	-9.683787e-002	5.274923e-003	1.188656e-002
4627897.201	5.878329e-003	1.175415e-002	9.958498e-001	-9.875702e-002	9.953882e-001	-9.814478e-002	5.440412e-003	1.218301e-002
4690436.285	5.755552e-003	1.181022e-002	9.957275e-001	-1.001313e-001	9.952899e-001	-9.987165e-002	5.480472e-003	1.214426e-002
4752975.369	5.820873e-003	1.196832e-002	9.953324e-001	-1.015718e-001	9.952270e-001	-1.011589e-001	5.353687e-003	1.227560e-002
4815514.453	5.983479e-003	1.214743e-002	9.954280e-001	-1.028026e-001	9.950722e-001	-1.025342e-001	5.623779e-003	1.252877e-002
4878053.537	6.136096e-003	1.221342e-002	9.952864e-001	-1.041030e-001	9.948898e-001	-1.037177e-001	5.647352e-003	1.262738e-002
4940592.620	5.930335e-003	1.244609e-002	9.950198e-001	-1.054850e-001	9.947573e-001	-1.051632e-001	5.468358e-003	1.276199e-002
5003131.704	6.053492e-003	1.245383e-002	9.948202e-001	-1.067964e-001	9.947071e-001	-1.062605e-001	5.646297e-003	1.286915e-002
5065670.788	6.051778e-003	1.282209e-002	9.946538e-001	-1.082154e-001	9.944323e-001	-1.076707e-001	5.678337e-003	1.308720e-002
5128209.872	6.223236e-003	1.284546e-002	9.946658e-001	-1.095189e-001	9.942757e-001	-1.090081e-001	5.701657e-003	1.303973e-002
5190748.956	6.192950e-003	1.301376e-002	9.944059e-001	-1.108620e-001	9.942039e-001	-1.104940e-001	5.740534e-003	1.333041e-002
5253288.039	6.286066e-003	1.312994e-002	9.942920e-001	-1.122150e-001	9.939959e-001	-1.118072e-001	5.733154e-003	1.358128e-002
5315827.123	6.308040e-003	1.323205e-002	9.939798e-001	-1.135396e-001	9.938168e-001	-1.131593e-001	5.772848e-003	1.363484e-002
5378366.207	6.478848e-003	1.343139e-002	9.939836e-001	-1.148690e-001	9.937152e-001	-1.146573e-001	5.800193e-003	1.371005e-002
5440905.291	6.350745e-003	1.369644e-002	9.938796e-001	-1.162715e-001	9.935381e-001	-1.158773e-001	5.781402e-003	1.392453e-002
5503444.375	6.621389e-003	1.367853e-002	9.936620e-001	-1.176473e-001	9.934443e-001	-1.170970e-001	6.018668e-003	1.400037e-002
5565983.458	6.338789e-003	1.396700e-002	9.935143e-001	-1.188828e-001	9.932493e-001	-1.183886e-001	6.017411e-003	1.431870e-002
5628522.542	6.648914e-003	1.405150e-002	9.933612e-001	-1.200872e-001	9.930851e-001	-1.198759e-001	6.111825e-003	1.435715e-002
5691061.626	6.774156e-003	1.402973e-002	9.930991e-001	-1.216605e-001	9.928323e-001	-1.212580e-001	6.079558e-003	1.456257e-002
5753600.710	6.694251e-003	1.427607e-002	9.928602e-001	-1.228961e-001	9.927403e-001	-1.225256e-001	6.199340e-003	1.458345e-002
5816139.794	6.853192e-003	1.461401e-002	9.927498e-001	-1.242515e-001	9.923395e-001	-1.240705e-001	6.119311e-003	1.480908e-002
5878678.877	6.816329e-003	1.454070e-002	9.925342e-001	-1.256438e-001	9.922494e-001	-1.252718e-001	6.297945e-003	1.480473e-002
5941217.961	6.874518e-003	1.462586e-002	9.923075e-001	-1.270701e-001	9.921181e-001	-1.264393e-001	6.166821e-003	1.507233e-002
6003757.045	6.795084e-003	1.502426e-002	9.920083e-001	-1.282217e-001	9.918812e-001	-1.278000e-001	6.366054e-003	1.521097e-002
6066296.129	6.981584e-003	1.497256e-002	9.920497e-001	-1.296620e-001	9.917130e-001	-1.291163e-001	6.404994e-003	1.534099e-002
6128835.213	7.142166e-003	1.515876e-002	9.918123e-001	-1.307151e-001	9.916749e-001	-1.306033e-001	6.576923e-003	1.548783e-002
6191374.296	7.163197e-003	1.529417e-002	9.915381e-001	-1.322351e-001	9.912472e-001	-1.320429e-001	6.487596e-003	1.573995e-002
6253913.380	7.152043e-003	1.556329e-002	9.914001e-001	-1.336867e-001	9.911352e-001	-1.332326e-001	6.434065e-003	1.600009e-002
6316452.464	7.196291e-003	1.580868e-002	9.912449e-001	-1.348660e-001	9.908015e-001	-1.347755e-001	6.535054e-003	1.594001e-002
6378991.548	7.213788e-003	1.580180e-002	9.909697e-001	-1.365750e-001	9.908412e-001	-1.360181e-001	6.666183e-003	1.599064e-002
6441530.632	7.226583e-003	1.589180e-002	9.907376e-001	-1.376129e-001	9.905551e-001	-1.374497e-001	6.778761e-003	1.624352e-002
6504069.715	7.290098e-003	1.601890e-002	9.904921e-001	-1.392248e-001	9.904375e-001	-1.387277e-001	6.869978e-003	1.638912e-002
6566608.799	7.505975e-003	1.611915e-002	9.904091e-001	-1.405881e-001	9.900775e-001	-1.400758e-001	6.867824e-003	1.675036e-002
6629147.883	7.534337e-003	1.641020e-002	9.901596e-001	-1.416085e-001	9.898679e-001	-1.414355e-001	6.998902e-003	1.675345e-002
6691686.967	7.487452e-003	1.659159e-002	9.898145e-001	-1.430474e-001	9.896515e-001	-1.427537e-001	7.117626e-003	1.699555e-002
6754226.051	7.511443e-003	1.673295e-002	9.895890e-001	-1.445126e-001	9.892887e-001	-1.442638e-001	6.981185e-003	1.695728e-002
6816765.134	7.689012e-003	1.687498e-002	9.894658e-001	-1.457476e-001	9.892257e-001	-1.454603e-001	7.127270e-003	1.732219e-002
6879304.218	7.651466e-003	1.688494e-002	9.891792e-001	-1.471131e-001	9.890285e-001	-1.467654e-001	7.189143e-003	1.741259e-002
6941843.302	7.812151e-003	1.719375e-002	9.889132e-001	-1.485607e-001	9.887678e-001	-1.481198e-001	7.258746e-003	1.765149e-002
7004382.386	7.705876e-003	1.743087e-002	9.887590e-001	-1.497476e-001	9.884702e-001	-1.494178e-001	7.252202e-003	1.784942e-002
7066921.470	7.870132e-003	1.753220e-002	9.884451e-001	-1.512567e-001	9.882889e-001	-1.506251e-001	7.486848e-003	1.784377e-002
7129460.553	7.844622e-003	1.758140e-002	9.882809e-001	-1.524242e-001	9.880479e-001	-1.521316e-001	7.572972e-003	1.806422e-002
7191999.637	7.925452e-003	1.798525e-002	9.878620e-001	-1.538760e-001	9.876960e-001	-1.534286e-001	7.521147e-003	1.822833e-002
7254538.721	8.064563e-003	1.802367e-002	9.879309e-001	-1.552210e-001	9.876305e-001	-1.548136e-001	7.647132e-003	1.841558e-002
7317077.805	8.315299e-003	1.815275e-002	9.875890e-001	-1.564348e-001	9.873961e-001	-1.561067e-001	7.714987e-003	1.846657e-002
7379616.889	8.266551e-003	1.832338e-002	9.874947e-001	-1.580442e-001	9.870561e-001	-1.574797e-001	7.749397e-003	1.865266e-002
7442155.972	8.203559e-003	1.850252e-002	9.870537e-001	-1.591612e-001	9.868521e-001	-1.587421e-001	7.935301e-003	1.903376e-002
7504695.056	8.327232e-003	1.856859e-002	9.867419e-001	-1.604201e-001	9.864480e-001	-1.602283e-001	8.055581e-003	1.926389e-002
7567234.140	8.583707e-003	1.865660e-002	9.866072e-001	-1.617883e-001	9.862141e-001	-1.615584e-001	8.055017e-003	1.932904e-002
7629773.224	8.594781e-003	1.911205e-002	9.863627e-001	-1.632765e-001	9.860902e-001	-1.628417e-001	8.061365e-003	1.944277e-002
7692312.308	8.554038e-003	1.921744e-002	9.861085e-001	-1.646151e-001	9.857674e-001	-1.642954e-001	8.226453e-003	1.951347e-002
7754851.391	8.620134e-003	1.922733e-002	9.857550e-001	-1.659899e-001	9.853934e-001	-1.654136e-001	8.262473e-003	1.981785e-002
7817390.475	8.805347e-003	1.958724e-002	9.855714e-001	-1.674384e-001	9.851721e-001	-1.670079e-001	8.288208e-003	2.010155e-002
7879929.559	8.797674e-003	1.957826e-002	9.852062e-001	-1.687709e-001	9.848563e-001	-1.684887e-001	8.507316e-003	2.025683e-002
7942468.643	8.845866e-003	1.969855e-002	9.850412e-001	-1.700402e-001	9.846817e-001	-1.697670e-001	8.560701e-003	2.024242e-002
8005007.727	9.041739e-003	1.988765e-002	9.846739e-001	-1.714265e-001	9.844559e-001	-1.711122e-001	8.596761e-003	2.063209e-002
8067546.811	8.997061e-003	2.010535e-002	9.843884e-001	-1.727270e-001	9.840186e-001	-1.723538e-001	8.585995e-003	2.060015e-002
8130085.894	9.171302e-003	2.020401e-002	9.840767e-001	-1.740266e-001	9.838306e-001	-1.737845e-001	8.901058e-003	2.071222e-002
8192624.978	9.097563e-003	2.031542e-002	9.836427e-001	-1.754948e-001	9.835384e-001	-1.750685e-001	9.052186e-003	2.086013e-002
8255164.062	9.329499e-003	2.049872e-002	9.834933e-001	-1.767970e-001	9.832341e-001	-1.764131e-001	9.126600e-003	2.099879e-002
8317703.146	9.312228e-003	2.077710e-002	9.832569e-001	-1.781567e-001	9.830102e-001	-1.777734e-001	9.046674e-003	2.121891e-002
8380242.230	9.532711e-003	2.069252e-002	9.828007e-001	-1.795947e-001	9.826341e-001	-1.790408e-001	9.116240e-003	2.132437e-002
8442781.313	9.599608e-003	2.090034e-002	9.827713e-001	-1.808066e-001	9.823635e-001	-1.803716e-001	9.199546e-003	2.141255e-002
8505320.397	9.713586e-003	2.120750e-002	9.823762e-001	-1.822100e-001	9.820891e-001	-1.817512e-001	9.251169e-003	2.162494e-002
8567859.481	9.782740e-003	2.152742e-002	9.820078e-001	-1.833674e-001	9.818152e-001	-1.830482e-001	9.409160e-003	2.196448e-002
8630398.565	9.964549e-003	2.163830e-002	9.815454e-001	-1.846540e-001	9.814758e-001	-1.843580e-001	9.392048e-003	2.187858e-002
8692937.649	1.000903e-002	2.159175e-002	9.813421e-001	-1.860152e-001	9.810085e-001	-1.856968e-001	9.448323e-003	2.215399e-002
8755476.732	1.014771e-002	2.182593e-002	9.810872e-001	-1.875164e-001	9.807334e-001	-1.869765e-001	9.629113e-003	2.233039e-002
8818015.816	1.014086e-002	2.195505e-002	9.806795e-001	-1.887809e-001	9.802851e-001	-1.883718e-001	9.830031e-003	2.239113e-002
8880554.900	1.046918e-002	2.214492e-002	9.804995e-001	-1.902064e-001	9.802584e-001	-1.895933e-001	9.822607e-003	2.240978e-002
8943093.984	1.042171e-002	2.242569e-002	9.801236e-001	-1.913819e-001	9.799041e-001	-1.909405e-001	9.952539e-003	2.262760e-002
9005633.068	1.059479e-002	2.247747e-002	9.796688e-001	-1.928197e-001	9.796430e-001	-1.924101e-001	9.956281e-003	2.266248e-002
9068172.151	1.056309e-002	2.265169e-002	9.794987e-001	-1.941750e-001	9.791527e-001	-1.936186e-001	1.013986e-002	2.286095e-002
9130711.235	1.090343e-002	2.272529e-002	9.790590e-001	-1.954990e-001	9.788709e-001	-1.949672e-001	1.028899e-002	2.284786e-002
9193250.319	1.099361e-002	2.285860e-002	9.788543e-001	-1.966641e-001	9.785166e-001	-1.963981e-001	1.033831e-002	2.308490e-002
9255789.403	1.100811e-002	2.287108e-002	9.785614e-001	-1.978822e-001	9.781810e-001	-1.976444e-001	1.033983e-002	2.330632e-002
9318328.487	1.110323e-002	2.314181e-002	9.781610e-001	-1.995101e-001	9.779915e-001	-1.989048e-001	1.056779e-002	2.344960e-002
9380867.570	1.123832e-002	2.341312e-002	9.778414e-001	-2.008081e-001	9.774787e-001	-2.004040e-001	1.068936e-002	2.359416e-002
9443406.654	1.142068e-002	2.355769e-002	9.775459e-001	-2.020371e-001	9.772715e-001	-2.017515e-001	1.084503e-002	2.366684e-002
9505945.738	1.152627e-002	2.373860e-002	9.769699e-001	-2.035378e-001	9.769648e-001	-2.030724e-001	1.092516e-002	2.382998e-002
9568484.822	1.170465e-002	2.384092e-002	9.767597e-001	-2.048354e-001	9.763444e-001	-2.043848e-001	1.088680e-002	2.424213e-002
9631023.906	1.182423e-002	2.400382e-002	9.764246e-001	-2.061169e-001	9.760187e-001	-2.057546e-001	1.117998e-002	2.406272e-002
9693562.989	1.197573e-002	2.414459e-002	9.759382e-001	-2.074352e-001	9.757689e-001	-2.069990e-001	1.107475e-002	2.435033e-002
9756102.073	1.208734e-002	2.425383e-002	9.758336e-001	-2.087847e-001	9.754101e-001	-2.082604e-001	1.124352e-002	2.435917e-002
