!Agilent Technologies,E5061B,MY49102235,A.02.00
!Date: Tue Jul 11 17:12:41 2023
!Data & Calibration Information:
!Freq	S11:SOLT2(ON)	S21:SOLT2(ON)	S12:SOLT2(ON)	S22:SOLT2(ON)
# Hz S RI R 50
5.000	-5.228336e-003	-5.622980e-003	1.002407e+000	7.917839e-003	1.000794e+000	1.029003e-002	-1.426208e-003	-7.565659e-003
62544.084	5.825808e-003	-5.102910e-004	1.001442e+000	5.604767e-004	1.000833e+000	1.372793e-003	7.709236e-003	-2.893350e-003
125083.168	5.707531e-003	-4.875002e-004	1.000967e+000	-8.028296e-004	1.000566e+000	-6.831639e-004	7.507373e-003	-2.283964e-003
187622.251	5.477861e-003	-3.366861e-004	1.000581e+000	-2.250044e-003	1.000862e+000	-8.662248e-004	7.389193e-003	-2.376972e-003
250161.335	5.297846e-003	-2.269108e-004	1.000728e+000	-3.151476e-003	1.000618e+000	-3.034823e-003	7.261342e-003	-2.055651e-003
312700.419	5.451239e-003	5.003329e-004	1.000961e+000	-3.843017e-003	1.000608e+000	-3.510725e-003	7.774524e-003	-2.370365e-003
375239.503	5.345627e-003	-1.016481e-003	1.001064e+000	-5.197184e-003	1.000481e+000	-4.867162e-003	7.257357e-003	-2.539651e-003
437778.587	5.158720e-003	-6.509747e-004	1.001504e+000	-5.391639e-003	1.000880e+000	-6.061197e-003	6.625131e-003	-2.243376e-003
500317.670	4.594797e-003	-5.122186e-004	1.001367e+000	-7.867258e-003	1.001664e+000	-7.476801e-003	4.812796e-003	-2.076819e-003
562856.754	5.950026e-003	-8.255239e-004	1.001343e+000	-9.247235e-003	1.001004e+000	-9.078142e-003	6.019492e-003	-1.587240e-003
625395.838	5.110603e-003	-7.138537e-004	1.002400e+000	-1.044349e-002	1.002161e+000	-1.003220e-002	6.092781e-003	-1.032542e-003
687934.922	5.152183e-003	-1.044886e-003	1.001374e+000	-1.153600e-002	1.001200e+000	-1.127125e-002	5.762950e-003	-1.533708e-003
750474.006	4.278146e-003	-7.420571e-004	1.001203e+000	-1.107435e-002	1.000595e+000	-1.020367e-002	5.459327e-003	-1.404735e-003
813013.089	4.441608e-003	-7.294942e-004	1.001535e+000	-1.270500e-002	1.000499e+000	-1.198177e-002	4.817639e-003	-1.249896e-003
875552.173	4.184193e-003	-5.649986e-004	1.001461e+000	-1.352516e-002	1.000777e+000	-1.332794e-002	5.606758e-003	-1.658100e-003
938091.257	4.256086e-003	-5.107217e-004	1.001603e+000	-1.523442e-002	1.001030e+000	-1.438453e-002	5.838064e-003	-1.093513e-003
1000630.341	3.705350e-003	-8.775640e-004	1.001068e+000	-1.652824e-002	1.000845e+000	-1.573908e-002	5.075287e-003	-1.796233e-003
1063169.425	4.063391e-003	-1.046704e-003	1.001441e+000	-1.774659e-002	1.000557e+000	-1.665211e-002	4.253746e-003	-2.144594e-003
1125708.508	3.942738e-003	-1.005785e-003	1.001212e+000	-1.889158e-002	1.000625e+000	-1.785859e-002	3.766997e-003	-1.865182e-003
1188247.592	4.485817e-003	-1.467999e-003	1.001341e+000	-2.037478e-002	1.000916e+000	-1.904534e-002	2.661442e-003	-2.450328e-003
1250786.676	4.324877e-003	-2.228865e-003	1.000878e+000	-2.002986e-002	1.000617e+000	-1.972419e-002	1.930947e-003	-4.115378e-003
1313325.760	4.453715e-003	-2.341988e-003	1.001273e+000	-2.166905e-002	1.000789e+000	-2.133839e-002	2.665472e-003	-3.933285e-003
1375864.844	4.173388e-003	-2.538645e-003	1.001048e+000	-2.350542e-002	1.000348e+000	-2.306698e-002	2.516510e-003	-3.657993e-003
1438403.927	4.067773e-003	-2.717629e-003	1.000940e+000	-2.415784e-002	1.000726e+000	-2.299083e-002	2.610657e-003	-3.406904e-003
1500943.011	4.279626e-003	-2.672027e-003	1.001473e+000	-2.509415e-002	1.001288e+000	-2.432396e-002	2.961694e-003	-3.817671e-003
1563482.095	4.278979e-003	-3.052681e-003	1.001199e+000	-2.642574e-002	1.000544e+000	-2.511600e-002	3.089716e-003	-3.636924e-003
1626021.179	4.100522e-003	-2.926770e-003	1.001148e+000	-2.773978e-002	1.000989e+000	-2.754690e-002	3.358580e-003	-3.694858e-003
1688560.263	3.780618e-003	-2.886798e-003	1.000705e+000	-2.929185e-002	1.001336e+000	-2.892319e-002	3.539667e-003	-3.728318e-003
1751099.346	3.906461e-003	-2.798975e-003	1.001205e+000	-3.045070e-002	1.000562e+000	-2.940023e-002	3.346945e-003	-2.896734e-003
1813638.430	3.564902e-003	-2.864954e-003	1.001658e+000	-3.201328e-002	1.000984e+000	-3.124806e-002	3.518323e-003	-3.288431e-003
1876177.514	3.594070e-003	-2.577355e-003	1.001891e+000	-3.287983e-002	1.001314e+000	-3.295660e-002	3.184519e-003	-2.638319e-003
1938716.598	3.047066e-003	-2.515998e-003	1.002071e+000	-3.368726e-002	1.001444e+000	-3.266821e-002	3.348365e-003	-2.271363e-003
2001255.682	2.952899e-003	-3.016365e-003	1.001988e+000	-3.511567e-002	1.001294e+000	-3.428665e-002	3.109646e-003	-2.751077e-003
2063794.765	3.040750e-003	-2.640639e-003	1.001514e+000	-3.614966e-002	1.000732e+000	-3.589862e-002	3.497087e-003	-2.841131e-003
2126333.849	2.594011e-003	-3.188386e-003	1.001045e+000	-3.740187e-002	1.000127e+000	-3.630734e-002	3.758474e-003	-2.607300e-003
2188872.933	3.071466e-003	-3.196795e-003	1.000859e+000	-3.853171e-002	1.000056e+000	-3.738388e-002	3.629419e-003	-2.671353e-003
2251412.017	3.176548e-003	-3.574746e-003	1.000702e+000	-3.998617e-002	1.000174e+000	-3.844451e-002	3.611985e-003	-2.792486e-003
2313951.101	3.484985e-003	-3.174317e-003	1.000118e+000	-4.099521e-002	1.000119e+000	-3.921581e-002	3.915078e-003	-2.892499e-003
2376490.184	3.238581e-003	-3.221473e-003	9.999860e-001	-4.148074e-002	1.000271e+000	-4.120521e-002	3.884066e-003	-2.881876e-003
2439029.268	3.689150e-003	-3.264416e-003	1.000006e+000	-4.308854e-002	9.993225e-001	-4.221877e-002	3.539035e-003	-2.814471e-003
2501568.352	3.654358e-003	-3.290150e-003	9.996455e-001	-4.331784e-002	1.000074e+000	-4.284538e-002	3.823867e-003	-2.867048e-003
2564107.436	3.558760e-003	-3.454193e-003	9.998899e-001	-4.504022e-002	9.999792e-001	-4.443467e-002	3.148021e-003	-3.252329e-003
2626646.520	4.051663e-003	-3.651488e-003	9.997169e-001	-4.616767e-002	9.987770e-001	-4.554328e-002	3.388728e-003	-3.346497e-003
2689185.604	4.001732e-003	-3.511339e-003	1.000181e+000	-4.686651e-002	9.995575e-001	-4.615452e-002	3.505042e-003	-3.298735e-003
2751724.687	4.099119e-003	-3.629597e-003	1.000044e+000	-4.761182e-002	9.995591e-001	-4.707899e-002	3.109425e-003	-3.368669e-003
2814263.771	4.057379e-003	-3.713001e-003	9.992163e-001	-4.953145e-002	9.990536e-001	-4.841269e-002	3.079942e-003	-3.513245e-003
2876802.855	4.020986e-003	-3.945948e-003	9.992802e-001	-5.095125e-002	9.991372e-001	-4.944644e-002	3.161969e-003	-3.407091e-003
2939341.939	4.119252e-003	-3.888876e-003	9.998289e-001	-5.136250e-002	9.990472e-001	-5.092007e-002	3.048321e-003	-3.531534e-003
3001881.023	4.035031e-003	-3.901931e-003	9.994892e-001	-5.247347e-002	9.990958e-001	-5.196069e-002	3.135886e-003	-3.693727e-003
3064420.106	4.070769e-003	-3.988875e-003	1.000099e+000	-5.339788e-002	9.989806e-001	-5.295807e-002	2.963635e-003	-3.851409e-003
3126959.190	4.282330e-003	-4.111662e-003	9.995924e-001	-5.471147e-002	9.991737e-001	-5.414582e-002	3.146910e-003	-3.936920e-003
3189498.274	4.253280e-003	-4.109366e-003	9.994804e-001	-5.567259e-002	9.990919e-001	-5.519366e-002	3.130193e-003	-4.032699e-003
3252037.358	4.157194e-003	-4.497662e-003	9.995880e-001	-5.686769e-002	9.991405e-001	-5.621292e-002	3.073676e-003	-4.011715e-003
3314576.442	4.162819e-003	-4.362628e-003	9.994360e-001	-5.782723e-002	9.990246e-001	-5.737938e-002	3.124990e-003	-4.149260e-003
3377115.525	4.135321e-003	-4.396878e-003	9.992800e-001	-5.886768e-002	9.987575e-001	-5.857075e-002	2.958267e-003	-4.306434e-003
3439654.609	4.127084e-003	-4.490806e-003	9.990558e-001	-5.998118e-002	9.990367e-001	-5.958339e-002	2.974115e-003	-4.172327e-003
3502193.693	4.098080e-003	-4.841737e-003	9.990947e-001	-6.121326e-002	9.987307e-001	-6.056860e-002	3.151585e-003	-4.248177e-003
3564732.777	4.145760e-003	-4.738013e-003	9.991288e-001	-6.221938e-002	9.987079e-001	-6.172845e-002	3.225219e-003	-4.270558e-003
3627271.861	3.981051e-003	-4.926219e-003	9.991255e-001	-6.342577e-002	9.987265e-001	-6.267822e-002	2.987697e-003	-4.528016e-003
3689810.944	3.888841e-003	-5.101667e-003	9.989715e-001	-6.454312e-002	9.986409e-001	-6.376532e-002	3.148906e-003	-4.568531e-003
3752350.028	3.992904e-003	-5.114714e-003	9.988891e-001	-6.534465e-002	9.984172e-001	-6.482870e-002	3.075642e-003	-4.662047e-003
3814889.112	4.094905e-003	-5.037148e-003	9.987149e-001	-6.654030e-002	9.986210e-001	-6.619934e-002	2.988988e-003	-4.847138e-003
3877428.196	4.031803e-003	-5.077170e-003	9.988367e-001	-6.765063e-002	9.984922e-001	-6.703533e-002	3.293292e-003	-4.899655e-003
3939967.280	3.993790e-003	-5.431905e-003	9.987356e-001	-6.878777e-002	9.985118e-001	-6.812131e-002	3.274361e-003	-4.848864e-003
4002506.363	4.057226e-003	-5.349495e-003	9.987246e-001	-6.982720e-002	9.983713e-001	-6.911257e-002	3.213564e-003	-4.990282e-003
4065045.447	3.871565e-003	-5.512544e-003	9.984262e-001	-7.101009e-002	9.981698e-001	-7.029135e-002	3.300425e-003	-5.154146e-003
4127584.531	3.844013e-003	-5.571760e-003	9.983754e-001	-7.203875e-002	9.981722e-001	-7.130314e-002	3.301364e-003	-5.111021e-003
4190123.615	3.873566e-003	-5.615257e-003	9.983869e-001	-7.327563e-002	9.980003e-001	-7.257409e-002	3.210286e-003	-5.419474e-003
4252662.699	3.819832e-003	-5.780626e-003	9.984104e-001	-7.439509e-002	9.978377e-001	-7.375880e-002	3.307168e-003	-5.446498e-003
4315201.782	3.964978e-003	-5.884761e-003	9.983174e-001	-7.526226e-002	9.980886e-001	-7.485882e-002	3.124421e-003	-5.726035e-003
4377740.866	3.861726e-003	-5.978402e-003	9.983359e-001	-7.649417e-002	9.977613e-001	-7.594733e-002	3.280148e-003	-5.472581e-003
4440279.950	3.740000e-003	-6.204093e-003	9.981755e-001	-7.742806e-002	9.976150e-001	-7.688757e-002	3.167242e-003	-5.734202e-003
4502819.034	3.741703e-003	-6.137352e-003	9.978723e-001	-7.860012e-002	9.976653e-001	-7.797305e-002	3.237999e-003	-5.656366e-003
4565358.118	3.634638e-003	-6.263659e-003	9.978406e-001	-7.971477e-002	9.973817e-001	-7.885799e-002	3.248810e-003	-5.838650e-003
4627897.201	3.820512e-003	-6.201659e-003	9.979468e-001	-8.077918e-002	9.974076e-001	-8.000247e-002	3.345628e-003	-5.804316e-003
4690436.285	3.640729e-003	-6.406408e-003	9.978923e-001	-8.189881e-002	9.973725e-001	-8.145695e-002	3.330231e-003	-6.073734e-003
4752975.369	3.637444e-003	-6.491056e-003	9.975260e-001	-8.309169e-002	9.974056e-001	-8.244437e-002	3.146410e-003	-6.204862e-003
4815514.453	3.748953e-003	-6.575841e-003	9.976546e-001	-8.409879e-002	9.972571e-001	-8.365744e-002	3.350670e-003	-6.194077e-003
4878053.537	3.837112e-003	-6.740146e-003	9.976103e-001	-8.509225e-002	9.971420e-001	-8.451472e-002	3.310438e-003	-6.348202e-003
4940592.620	3.566332e-003	-6.788161e-003	9.973746e-001	-8.630657e-002	9.971034e-001	-8.567600e-002	3.065680e-003	-6.463445e-003
5003131.704	3.622923e-003	-7.016218e-003	9.972398e-001	-8.731577e-002	9.970583e-001	-8.659551e-002	3.193039e-003	-6.593046e-003
5065670.788	3.534726e-003	-6.911805e-003	9.971609e-001	-8.848865e-002	9.969021e-001	-8.773970e-002	3.148656e-003	-6.649026e-003
5128209.872	3.661861e-003	-7.104413e-003	9.972848e-001	-8.955414e-002	9.968211e-001	-8.882098e-002	3.111308e-003	-6.927313e-003
5190748.956	3.551251e-003	-7.202981e-003	9.970563e-001	-9.064437e-002	9.967971e-001	-9.002462e-002	3.081157e-003	-6.894420e-003
5253288.039	3.587738e-003	-7.336037e-003	9.970576e-001	-9.175602e-002	9.966699e-001	-9.112937e-002	2.996654e-003	-6.899566e-003
5315827.123	3.542917e-003	-7.479300e-003	9.967591e-001	-9.281230e-002	9.965984e-001	-9.223958e-002	2.967103e-003	-7.084850e-003
5378366.207	3.626787e-003	-7.517257e-003	9.968440e-001	-9.393410e-002	9.965216e-001	-9.346365e-002	2.938364e-003	-7.258998e-003
5440905.291	3.447687e-003	-7.524607e-003	9.968019e-001	-9.500255e-002	9.964033e-001	-9.447951e-002	2.821971e-003	-7.303530e-003
5503444.375	3.650396e-003	-7.771390e-003	9.966785e-001	-9.616939e-002	9.964195e-001	-9.538877e-002	3.012420e-003	-7.464955e-003
5565983.458	3.283689e-003	-7.738889e-003	9.966082e-001	-9.712889e-002	9.962595e-001	-9.646764e-002	2.934530e-003	-7.398119e-003
5628522.542	3.530086e-003	-7.898617e-003	9.964981e-001	-9.814410e-002	9.961927e-001	-9.770780e-002	2.953879e-003	-7.598014e-003
5691061.626	3.579582e-003	-8.159215e-003	9.963312e-001	-9.946291e-002	9.960275e-001	-9.883076e-002	2.843079e-003	-7.652321e-003
5753600.710	3.417483e-003	-8.172321e-003	9.961338e-001	-1.004438e-001	9.959491e-001	-9.983693e-002	2.895283e-003	-7.866024e-003
5816139.794	3.505779e-003	-8.082457e-003	9.961558e-001	-1.015516e-001	9.956871e-001	-1.011823e-001	2.737956e-003	-7.925258e-003
5878678.877	3.398760e-003	-8.396903e-003	9.959959e-001	-1.026653e-001	9.956718e-001	-1.021000e-001	2.843932e-003	-8.146563e-003
5941217.961	3.370411e-003	-8.568858e-003	9.958452e-001	-1.038019e-001	9.956044e-001	-1.030192e-001	2.637162e-003	-8.140243e-003
6003757.045	3.205783e-003	-8.441122e-003	9.955790e-001	-1.047559e-001	9.954270e-001	-1.040928e-001	2.747024e-003	-8.245752e-003
6066296.129	3.318638e-003	-8.713184e-003	9.957661e-001	-1.058991e-001	9.953591e-001	-1.051837e-001	2.704347e-003	-8.365446e-003
6128835.213	3.408075e-003	-8.783782e-003	9.956237e-001	-1.067312e-001	9.954244e-001	-1.063898e-001	2.792880e-003	-8.464540e-003
6191374.296	3.346644e-003	-8.905110e-003	9.953747e-001	-1.079968e-001	9.950397e-001	-1.075834e-001	2.620227e-003	-8.476588e-003
6253913.380	3.240645e-003	-8.887086e-003	9.953131e-001	-1.091445e-001	9.950468e-001	-1.085232e-001	2.489364e-003	-8.450816e-003
6316452.464	3.193352e-003	-8.891263e-003	9.952463e-001	-1.101206e-001	9.948306e-001	-1.098301e-001	2.530061e-003	-8.768253e-003
6378991.548	3.139978e-003	-9.147066e-003	9.950666e-001	-1.115396e-001	9.948828e-001	-1.107660e-001	2.568914e-003	-8.978914e-003
6441530.632	3.073926e-003	-9.325650e-003	9.948740e-001	-1.123190e-001	9.947390e-001	-1.120209e-001	2.584375e-003	-8.970599e-003
6504069.715	3.039748e-003	-9.439858e-003	9.948191e-001	-1.136945e-001	9.947018e-001	-1.130131e-001	2.591649e-003	-9.074888e-003
6566608.799	3.178230e-003	-9.589409e-003	9.948145e-001	-1.148461e-001	9.944210e-001	-1.141012e-001	2.485381e-003	-8.970184e-003
6629147.883	3.111179e-003	-9.548922e-003	9.945431e-001	-1.155543e-001	9.943042e-001	-1.152113e-001	2.555187e-003	-9.209157e-003
6691686.967	2.971857e-003	-9.631484e-003	9.943286e-001	-1.167868e-001	9.941494e-001	-1.162614e-001	2.559279e-003	-9.222336e-003
6754226.051	2.905435e-003	-9.753948e-003	9.942566e-001	-1.180151e-001	9.938861e-001	-1.174902e-001	2.351564e-003	-9.527605e-003
6816765.134	2.984044e-003	-9.851217e-003	9.942041e-001	-1.189725e-001	9.938960e-001	-1.184734e-001	2.390057e-003	-9.426462e-003
6879304.218	2.860361e-003	-1.010488e-002	9.939834e-001	-1.201026e-001	9.938125e-001	-1.195283e-001	2.351011e-003	-9.584369e-003
6941843.302	2.923244e-003	-1.003611e-002	9.938791e-001	-1.212071e-001	9.936624e-001	-1.206302e-001	2.331643e-003	-9.594857e-003
7004382.386	2.695017e-003	-1.006830e-002	9.938544e-001	-1.222118e-001	9.934626e-001	-1.216564e-001	2.222360e-003	-9.651967e-003
7066921.470	2.780441e-003	-1.022242e-002	9.935510e-001	-1.234385e-001	9.934022e-001	-1.226090e-001	2.364352e-003	-9.905476e-003
7129460.553	2.652839e-003	-1.041233e-002	9.935011e-001	-1.243477e-001	9.932815e-001	-1.238104e-001	2.345597e-003	-9.930140e-003
7191999.637	2.629723e-003	-1.027520e-002	9.931827e-001	-1.255188e-001	9.929548e-001	-1.248482e-001	2.194757e-003	-1.003491e-002
7254538.721	2.665426e-003	-1.048471e-002	9.933888e-001	-1.266426e-001	9.930273e-001	-1.260119e-001	2.203216e-003	-1.011610e-002
7317077.805	2.819778e-003	-1.060803e-002	9.931348e-001	-1.276239e-001	9.928834e-001	-1.270601e-001	2.187901e-003	-1.031726e-002
7379616.889	2.654881e-003	-1.070345e-002	9.931355e-001	-1.289496e-001	9.926747e-001	-1.281808e-001	2.105062e-003	-1.038188e-002
7442155.972	2.491454e-003	-1.080201e-002	9.928092e-001	-1.298161e-001	9.925985e-001	-1.291860e-001	2.167626e-003	-1.025804e-002
7504695.056	2.516192e-003	-1.099113e-002	9.925877e-001	-1.308346e-001	9.922965e-001	-1.304525e-001	2.171385e-003	-1.029553e-002
7567234.140	2.670018e-003	-1.114443e-002	9.925867e-001	-1.319225e-001	9.921822e-001	-1.314626e-001	2.078930e-003	-1.047479e-002
7629773.224	2.544319e-003	-1.094334e-002	9.924846e-001	-1.331907e-001	9.921739e-001	-1.324992e-001	1.988755e-003	-1.062759e-002
7692312.308	2.385998e-003	-1.109879e-002	9.923070e-001	-1.342022e-001	9.919244e-001	-1.337021e-001	2.029040e-003	-1.081219e-002
7754851.391	2.343825e-003	-1.135044e-002	9.920918e-001	-1.353311e-001	9.916881e-001	-1.345777e-001	1.945916e-003	-1.076815e-002
7817390.475	2.407286e-003	-1.123827e-002	9.920321e-001	-1.365613e-001	9.916187e-001	-1.359288e-001	1.848320e-003	-1.075328e-002
7879929.559	2.288433e-003	-1.150513e-002	9.917599e-001	-1.376163e-001	9.914085e-001	-1.371547e-001	1.935630e-003	-1.084624e-002
7942468.643	2.218662e-003	-1.165508e-002	9.917722e-001	-1.386190e-001	9.913962e-001	-1.381833e-001	1.902416e-003	-1.110281e-002
8005007.727	2.310060e-003	-1.170991e-002	9.914491e-001	-1.397639e-001	9.912645e-001	-1.392222e-001	1.782759e-003	-1.096839e-002
8067546.811	2.121725e-003	-1.175196e-002	9.913377e-001	-1.407974e-001	9.909343e-001	-1.402565e-001	1.667739e-003	-1.126331e-002
8130085.894	2.164805e-003	-1.192327e-002	9.911581e-001	-1.418429e-001	9.908934e-001	-1.413468e-001	1.858740e-003	-1.140730e-002
8192624.978	1.974873e-003	-1.206531e-002	9.908787e-001	-1.430524e-001	9.907019e-001	-1.424177e-001	1.880378e-003	-1.150280e-002
8255164.062	2.069731e-003	-1.213977e-002	9.907958e-001	-1.440615e-001	9.905072e-001	-1.434887e-001	1.812083e-003	-1.163064e-002
8317703.146	1.916386e-003	-1.211656e-002	9.907343e-001	-1.451803e-001	9.904751e-001	-1.445631e-001	1.616259e-003	-1.167980e-002
8380242.230	2.009370e-003	-1.244437e-002	9.903904e-001	-1.463665e-001	9.901851e-001	-1.456327e-001	1.543572e-003	-1.183345e-002
8442781.313	1.951334e-003	-1.249678e-002	9.905156e-001	-1.473007e-001	9.901183e-001	-1.466938e-001	1.502288e-003	-1.200712e-002
8505320.397	1.915653e-003	-1.245203e-002	9.902542e-001	-1.484977e-001	9.899407e-001	-1.477850e-001	1.415581e-003	-1.204128e-002
8567859.481	1.822421e-003	-1.239306e-002	9.900436e-001	-1.493364e-001	9.898410e-001	-1.488768e-001	1.424886e-003	-1.195169e-002
8630398.565	1.874816e-003	-1.253543e-002	9.896768e-001	-1.504282e-001	9.896821e-001	-1.499009e-001	1.272920e-003	-1.230216e-002
8692937.649	1.794667e-003	-1.283742e-002	9.896269e-001	-1.515284e-001	9.893149e-001	-1.509964e-001	1.178609e-003	-1.229386e-002
8755476.732	1.792033e-003	-1.286201e-002	9.894945e-001	-1.527267e-001	9.891794e-001	-1.519950e-001	1.217752e-003	-1.236958e-002
8818015.816	1.625477e-003	-1.298450e-002	9.892545e-001	-1.537731e-001	9.888569e-001	-1.531323e-001	1.279855e-003	-1.254678e-002
8880554.900	1.812341e-003	-1.303743e-002	9.892356e-001	-1.549141e-001	9.889517e-001	-1.540512e-001	1.115719e-003	-1.279972e-002
8943093.984	1.598325e-003	-1.302016e-002	9.890131e-001	-1.558822e-001	9.887821e-001	-1.552060e-001	1.100250e-003	-1.282895e-002
9005633.068	1.624355e-003	-1.321122e-002	9.887444e-001	-1.570352e-001	9.886929e-001	-1.563984e-001	9.716151e-004	-1.305795e-002
9068172.151	1.429347e-003	-1.329839e-002	9.886954e-001	-1.581032e-001	9.883332e-001	-1.573206e-001	9.935559e-004	-1.308995e-002
9130711.235	1.620836e-003	-1.346106e-002	9.884181e-001	-1.591890e-001	9.882214e-001	-1.584341e-001	1.000404e-003	-1.337891e-002
9193250.319	1.573300e-003	-1.356994e-002	9.883854e-001	-1.601534e-001	9.880295e-001	-1.595754e-001	8.855308e-004	-1.338772e-002
9255789.403	1.438603e-003	-1.382160e-002	9.882014e-001	-1.611166e-001	9.878456e-001	-1.605958e-001	7.102268e-004	-1.342776e-002
9318328.487	1.338868e-003	-1.381430e-002	9.879805e-001	-1.624664e-001	9.878476e-001	-1.616503e-001	7.817801e-004	-1.352213e-002
9380867.570	1.313337e-003	-1.378872e-002	9.878776e-001	-1.634878e-001	9.874549e-001	-1.628850e-001	7.338389e-004	-1.361969e-002
9443406.654	1.327045e-003	-1.388482e-002	9.876996e-001	-1.644756e-001	9.874274e-001	-1.639942e-001	7.403466e-004	-1.379640e-002
9505945.738	1.266028e-003	-1.394709e-002	9.873617e-001	-1.657264e-001	9.873046e-001	-1.650586e-001	6.524878e-004	-1.389467e-002
9568484.822	1.280251e-003	-1.408144e-002	9.872908e-001	-1.667532e-001	9.868856e-001	-1.661492e-001	4.023373e-004	-1.374947e-002
