!Agilent Technologies,E5061B,MY49102235,A.02.00
!Date: Tue Jul 11 17:03:48 2023
!Data & Calibration Information:
!Freq	S11:SOLT2(ON)	S21:SOLT2(ON)	S12:SOLT2(ON)	S22:SOLT2(ON)
# Hz S RI R 50
5.000	-5.150921e-003	-5.624029e-003	1.002186e+000	8.004026e-003	1.000619e+000	1.022283e-002	-1.413937e-003	-7.550905e-003
62544.084	5.834547e-003	-1.268162e-004	1.001396e+000	2.370659e-004	1.000846e+000	8.516972e-004	7.705512e-003	-2.525491e-003
125083.168	5.714081e-003	2.254047e-004	1.000993e+000	-1.486656e-003	1.000662e+000	-1.646491e-003	7.504808e-003	-1.558642e-003
187622.251	5.506941e-003	7.474576e-004	1.000448e+000	-3.263547e-003	1.000931e+000	-1.987911e-003	7.403153e-003	-1.317357e-003
250161.335	5.345551e-003	1.214087e-003	1.000619e+000	-4.572133e-003	1.000601e+000	-4.570740e-003	7.308040e-003	-6.332984e-004
312700.419	5.528346e-003	2.280161e-003	1.000710e+000	-5.497758e-003	1.000482e+000	-5.319535e-003	7.837451e-003	-6.019289e-004
375239.503	5.390995e-003	1.125951e-003	1.001042e+000	-7.354527e-003	1.000449e+000	-7.049578e-003	7.328546e-003	-4.041415e-004
437778.587	5.248812e-003	1.862219e-003	1.001277e+000	-7.831846e-003	1.000929e+000	-8.472390e-003	6.702799e-003	2.073279e-004
500317.670	4.711314e-003	2.332696e-003	1.001252e+000	-1.059860e-002	1.001550e+000	-1.035398e-002	4.910795e-003	7.446273e-004
562856.754	6.040563e-003	2.337871e-003	1.001335e+000	-1.237222e-002	1.001058e+000	-1.220694e-002	6.133394e-003	1.562818e-003
625395.838	5.270051e-003	2.845451e-003	1.002075e+000	-1.394202e-002	1.001959e+000	-1.354791e-002	6.265310e-003	2.478437e-003
687934.922	5.331632e-003	2.850068e-003	1.001066e+000	-1.531817e-002	1.001051e+000	-1.534868e-002	5.925631e-003	2.347385e-003
750474.006	4.508478e-003	3.496834e-003	1.000822e+000	-1.512970e-002	1.000386e+000	-1.468486e-002	5.678043e-003	2.824455e-003
813013.089	4.699241e-003	3.853722e-003	1.001105e+000	-1.724017e-002	1.000334e+000	-1.665009e-002	5.062980e-003	3.344532e-003
875552.173	4.447575e-003	4.348795e-003	1.001083e+000	-1.848583e-002	1.000663e+000	-1.824965e-002	5.862580e-003	3.276561e-003
938091.257	4.575620e-003	4.759226e-003	1.001293e+000	-2.033130e-002	1.000726e+000	-1.966881e-002	6.131648e-003	4.176138e-003
1000630.341	4.029329e-003	4.736209e-003	1.000676e+000	-2.215672e-002	1.000587e+000	-2.149105e-002	5.391963e-003	3.807183e-003
1063169.425	4.408773e-003	4.932708e-003	1.001002e+000	-2.363846e-002	1.000311e+000	-2.270233e-002	4.593556e-003	3.831044e-003
1125708.508	4.321842e-003	5.307554e-003	1.000803e+000	-2.522996e-002	1.000401e+000	-2.446772e-002	4.141486e-003	4.460158e-003
1188247.592	4.880610e-003	5.169593e-003	1.000793e+000	-2.674400e-002	1.000646e+000	-2.586874e-002	3.065048e-003	4.225246e-003
1250786.676	4.740609e-003	4.769011e-003	1.000380e+000	-2.691969e-002	1.000323e+000	-2.688922e-002	2.323822e-003	2.910345e-003
1313325.760	4.885557e-003	5.017530e-003	1.000815e+000	-2.874766e-002	1.000508e+000	-2.889410e-002	3.101906e-003	3.448524e-003
1375864.844	4.647018e-003	5.155809e-003	1.000400e+000	-3.103060e-002	1.000066e+000	-3.090344e-002	2.991694e-003	4.076448e-003
1438403.927	4.577539e-003	5.328466e-003	1.000383e+000	-3.217235e-002	1.000428e+000	-3.120017e-002	3.109788e-003	4.675821e-003
1500943.011	4.847669e-003	5.733095e-003	1.001075e+000	-3.336937e-002	1.000650e+000	-3.301193e-002	3.474825e-003	4.580433e-003
1563482.095	4.863100e-003	5.692759e-003	1.000600e+000	-3.513307e-002	1.000029e+000	-3.406272e-002	3.652018e-003	5.126381e-003
1626021.179	4.703344e-003	6.164620e-003	1.000396e+000	-3.668886e-002	1.000404e+000	-3.695098e-002	3.969729e-003	5.413789e-003
1688560.263	4.448491e-003	6.581644e-003	1.000062e+000	-3.864985e-002	1.000667e+000	-3.852038e-002	4.174073e-003	5.728863e-003
1751099.346	4.609184e-003	7.000596e-003	1.000596e+000	-4.007584e-002	1.000088e+000	-3.942573e-002	4.042895e-003	6.908068e-003
1813638.430	4.296974e-003	7.300175e-003	1.000818e+000	-4.204538e-002	1.000306e+000	-4.155187e-002	4.248925e-003	6.871546e-003
1876177.514	4.384867e-003	7.923008e-003	1.001028e+000	-4.326875e-002	1.000525e+000	-4.357688e-002	3.974619e-003	7.886367e-003
1938716.598	3.889481e-003	8.351525e-003	1.001240e+000	-4.448492e-002	1.000523e+000	-4.378237e-002	4.183884e-003	8.610549e-003
2001255.682	3.824401e-003	8.228816e-003	1.001083e+000	-4.629996e-002	1.000384e+000	-4.571581e-002	3.994885e-003	8.504709e-003
2063794.765	3.967276e-003	8.946299e-003	1.000585e+000	-4.764699e-002	9.997976e-001	-4.776794e-002	4.405810e-003	8.740110e-003
2126333.849	3.542410e-003	8.780003e-003	1.000065e+000	-4.923978e-002	9.993213e-001	-4.848890e-002	4.723665e-003	9.320013e-003
2188872.933	4.082887e-003	9.125263e-003	9.998520e-001	-5.074206e-002	9.990997e-001	-4.988977e-002	4.646877e-003	9.625433e-003
2251412.017	4.212566e-003	9.102175e-003	9.995983e-001	-5.255446e-002	9.993377e-001	-5.128584e-002	4.684188e-003	9.859319e-003
2313951.101	4.613940e-003	9.838088e-003	9.988519e-001	-5.394803e-002	9.990972e-001	-5.254280e-002	5.035403e-003	1.012837e-002
2376490.184	4.396168e-003	1.016772e-002	9.988001e-001	-5.460775e-002	9.991315e-001	-5.476164e-002	5.054686e-003	1.047153e-002
2439029.268	4.913874e-003	1.046486e-002	9.985933e-001	-5.686955e-002	9.982231e-001	-5.608483e-002	4.784710e-003	1.093985e-002
2501568.352	4.948389e-003	1.081127e-002	9.983324e-001	-5.734011e-002	9.989053e-001	-5.717362e-002	5.140466e-003	1.124858e-002
2564107.436	4.907924e-003	1.101681e-002	9.986390e-001	-5.936472e-002	9.987259e-001	-5.909322e-002	4.493555e-003	1.123499e-002
2626646.520	5.465195e-003	1.116889e-002	9.984056e-001	-6.091880e-002	9.974451e-001	-6.057355e-002	4.821131e-003	1.149934e-002
2689185.604	5.469804e-003	1.167765e-002	9.986654e-001	-6.197939e-002	9.981468e-001	-6.170602e-002	5.001248e-003	1.189693e-002
2751724.687	5.648920e-003	1.192418e-002	9.984565e-001	-6.310159e-002	9.980347e-001	-6.289416e-002	4.672803e-003	1.222859e-002
2814263.771	5.684774e-003	1.220689e-002	9.974678e-001	-6.532707e-002	9.976021e-001	-6.452855e-002	4.721141e-003	1.242936e-002
2876802.855	5.703389e-003	1.234438e-002	9.974510e-001	-6.700279e-002	9.975839e-001	-6.595227e-002	4.886187e-003	1.291159e-002
2939341.939	5.911780e-003	1.277592e-002	9.980734e-001	-6.795863e-002	9.973197e-001	-6.787702e-002	4.863371e-003	1.315806e-002
3001881.023	5.901000e-003	1.313349e-002	9.975435e-001	-6.937049e-002	9.972057e-001	-6.923938e-002	5.027983e-003	1.335774e-002
3064420.106	6.035165e-003	1.341268e-002	9.980748e-001	-7.082136e-002	9.971947e-001	-7.048339e-002	4.929944e-003	1.358226e-002
3126959.190	6.307644e-003	1.365691e-002	9.975282e-001	-7.246309e-002	9.971886e-001	-7.211176e-002	5.195600e-003	1.386553e-002
3189498.274	6.378015e-003	1.402295e-002	9.973433e-001	-7.375739e-002	9.970177e-001	-7.358664e-002	5.274316e-003	1.414513e-002
3252037.358	6.356900e-003	1.401701e-002	9.973392e-001	-7.531549e-002	9.969927e-001	-7.497328e-002	5.310645e-003	1.453074e-002
3314576.442	6.477755e-003	1.451007e-002	9.971227e-001	-7.671960e-002	9.967743e-001	-7.648995e-002	5.445213e-003	1.476897e-002
3377115.525	6.533563e-003	1.486651e-002	9.968504e-001	-7.807123e-002	9.964373e-001	-7.810165e-002	5.386530e-003	1.498367e-002
3439654.609	6.637540e-003	1.513948e-002	9.965338e-001	-7.956778e-002	9.965826e-001	-7.944495e-002	5.510303e-003	1.549806e-002
3502193.693	6.690100e-003	1.517561e-002	9.964474e-001	-8.120724e-002	9.961484e-001	-8.083904e-002	5.763588e-003	1.578483e-002
3564732.777	6.835166e-003	1.563587e-002	9.963788e-001	-8.260345e-002	9.960756e-001	-8.236687e-002	5.958106e-003	1.615126e-002
3627271.861	6.775894e-003	1.585292e-002	9.963100e-001	-8.414416e-002	9.960147e-001	-8.373664e-002	5.836980e-003	1.628087e-002
3689810.944	6.798255e-003	1.606541e-002	9.960206e-001	-8.564324e-002	9.958017e-001	-8.518226e-002	6.094950e-003	1.662134e-002
3752350.028	7.025830e-003	1.643161e-002	9.957808e-001	-8.685170e-002	9.954393e-001	-8.661246e-002	6.139777e-003	1.691053e-002
3814889.112	7.258575e-003	1.688413e-002	9.955341e-001	-8.840665e-002	9.955030e-001	-8.840431e-002	6.164895e-003	1.711571e-002
3877428.196	7.317589e-003	1.723530e-002	9.955533e-001	-8.995202e-002	9.952657e-001	-8.960099e-002	6.619898e-003	1.744599e-002
3939967.280	7.412345e-003	1.727009e-002	9.952736e-001	-9.152118e-002	9.951460e-001	-9.112675e-002	6.727244e-003	1.787054e-002
4002506.363	7.611843e-003	1.773336e-002	9.951257e-001	-9.290778e-002	9.948764e-001	-9.246987e-002	6.801609e-003	1.811998e-002
4065045.447	7.566319e-003	1.797798e-002	9.947352e-001	-9.440751e-002	9.945495e-001	-9.408744e-002	7.029804e-003	1.832757e-002
4127584.531	7.684581e-003	1.827488e-002	9.944995e-001	-9.587969e-002	9.943887e-001	-9.546406e-002	7.187996e-003	1.876486e-002
4190123.615	7.882208e-003	1.861453e-002	9.943648e-001	-9.756824e-002	9.940483e-001	-9.707332e-002	7.241396e-003	1.886416e-002
4252662.699	7.977598e-003	1.884466e-002	9.942283e-001	-9.903743e-002	9.937333e-001	-9.867453e-002	7.497844e-003	1.918928e-002
4315201.782	8.279953e-003	1.910672e-002	9.939482e-001	-1.002682e-001	9.938015e-001	-1.001236e-001	7.468403e-003	1.932062e-002
4377740.866	8.351274e-003	1.939840e-002	9.937841e-001	-1.019104e-001	9.933358e-001	-1.016226e-001	7.822768e-003	1.991997e-002
4440279.950	8.416395e-003	1.955706e-002	9.934942e-001	-1.032046e-001	9.929723e-001	-1.029412e-001	7.883249e-003	2.005403e-002
4502819.034	8.582711e-003	1.998957e-002	9.929970e-001	-1.047629e-001	9.928258e-001	-1.043807e-001	8.130980e-003	2.049470e-002
4565358.118	8.679935e-003	2.023258e-002	9.927395e-001	-1.061730e-001	9.924032e-001	-1.056865e-001	8.323448e-003	2.067304e-002
4627897.201	9.051871e-003	2.064487e-002	9.926797e-001	-1.076657e-001	9.922546e-001	-1.071166e-001	8.619816e-003	2.106587e-002
4690436.285	9.061095e-003	2.080895e-002	9.923961e-001	-1.091619e-001	9.920187e-001	-1.089630e-001	8.785269e-003	2.115036e-002
4752975.369	9.253243e-003	2.107007e-002	9.918463e-001	-1.106777e-001	9.918064e-001	-1.103117e-001	8.793363e-003	2.137458e-002
4815514.453	9.550689e-003	2.133712e-002	9.917995e-001	-1.120519e-001	9.914915e-001	-1.118360e-001	9.205958e-003	2.172972e-002
4878053.537	9.835006e-003	2.151816e-002	9.915382e-001	-1.134362e-001	9.911742e-001	-1.131140e-001	9.354889e-003	2.192567e-002
4940592.620	9.779013e-003	2.182886e-002	9.911337e-001	-1.149300e-001	9.909312e-001	-1.146581e-001	9.315860e-003	2.217312e-002
5003131.704	1.001569e-002	2.194315e-002	9.908142e-001	-1.162844e-001	9.907218e-001	-1.158386e-001	9.624081e-003	2.237519e-002
5065670.788	1.014849e-002	2.241303e-002	9.905202e-001	-1.177828e-001	9.903550e-001	-1.173649e-001	9.790217e-003	2.266177e-002
5128209.872	1.046549e-002	2.251058e-002	9.904068e-001	-1.191970e-001	9.900640e-001	-1.188118e-001	9.968562e-003	2.271102e-002
5190748.956	1.056939e-002	2.275781e-002	9.899991e-001	-1.206606e-001	9.898301e-001	-1.203609e-001	1.012849e-002	2.309515e-002
5253288.039	1.081397e-002	2.295778e-002	9.897910e-001	-1.220735e-001	9.894929e-001	-1.217412e-001	1.026675e-002	2.341437e-002
5315827.123	1.097645e-002	2.314590e-002	9.893105e-001	-1.235027e-001	9.891682e-001	-1.232192e-001	1.044144e-002	2.356907e-002
5378366.207	1.126686e-002	2.343776e-002	9.891544e-001	-1.249214e-001	9.889128e-001	-1.247974e-001	1.061980e-002	2.372208e-002
5440905.291	1.128418e-002	2.376952e-002	9.888902e-001	-1.263507e-001	9.885957e-001	-1.260517e-001	1.071560e-002	2.401840e-002
5503444.375	1.167704e-002	2.382594e-002	9.885093e-001	-1.278653e-001	9.883664e-001	-1.273685e-001	1.110941e-002	2.417119e-002
5565983.458	1.153605e-002	2.420947e-002	9.882695e-001	-1.291480e-001	9.880350e-001	-1.287591e-001	1.124262e-002	2.456989e-002
5628522.542	1.198740e-002	2.436321e-002	9.879666e-001	-1.304842e-001	9.877232e-001	-1.303179e-001	1.146949e-002	2.468293e-002
5691061.626	1.224773e-002	2.441609e-002	9.875730e-001	-1.321789e-001	9.873563e-001	-1.317600e-001	1.159882e-002	2.497580e-002
5753600.710	1.230307e-002	2.474448e-002	9.871320e-001	-1.334082e-001	9.870673e-001	-1.331306e-001	1.184104e-002	2.507465e-002
5816139.794	1.262897e-002	2.516202e-002	9.869722e-001	-1.348881e-001	9.865394e-001	-1.347436e-001	1.191285e-002	2.536361e-002
5878678.877	1.273201e-002	2.517306e-002	9.866008e-001	-1.363568e-001	9.863630e-001	-1.359812e-001	1.221794e-002	2.545528e-002
5941217.961	1.293108e-002	2.532909e-002	9.861873e-001	-1.378210e-001	9.859846e-001	-1.373426e-001	1.225322e-002	2.580344e-002
6003757.045	1.300892e-002	2.581084e-002	9.857436e-001	-1.390462e-001	9.856550e-001	-1.387485e-001	1.258369e-002	2.601933e-002
6066296.129	1.332707e-002	2.582724e-002	9.856743e-001	-1.405079e-001	9.853395e-001	-1.400462e-001	1.278270e-002	2.619482e-002
6128835.213	1.363984e-002	2.608030e-002	9.853322e-001	-1.416333e-001	9.851415e-001	-1.415560e-001	1.309895e-002	2.642257e-002
6191374.296	1.381268e-002	2.630302e-002	9.848161e-001	-1.433328e-001	9.846172e-001	-1.432787e-001	1.315625e-002	2.676691e-002
6253913.380	1.394726e-002	2.664590e-002	9.845519e-001	-1.447947e-001	9.842889e-001	-1.444481e-001	1.327751e-002	2.710319e-002
6316452.464	1.414531e-002	2.694595e-002	9.842221e-001	-1.460337e-001	9.838444e-001	-1.460599e-001	1.352423e-002	2.711644e-002
6378991.548	1.433008e-002	2.703149e-002	9.838254e-001	-1.478391e-001	9.836699e-001	-1.473126e-001	1.381660e-002	2.720871e-002
6441530.632	1.449495e-002	2.717140e-002	9.833895e-001	-1.489085e-001	9.832167e-001	-1.488522e-001	1.408583e-002	2.755845e-002
6504069.715	1.472964e-002	2.738714e-002	9.830013e-001	-1.505877e-001	9.829779e-001	-1.501946e-001	1.434144e-002	2.776012e-002
6566608.799	1.510723e-002	2.753797e-002	9.827125e-001	-1.520364e-001	9.824771e-001	-1.516295e-001	1.449890e-002	2.817452e-002
6629147.883	1.530309e-002	2.788768e-002	9.822840e-001	-1.530996e-001	9.820627e-001	-1.530226e-001	1.480387e-002	2.826018e-002
6691686.967	1.544843e-002	2.813543e-002	9.818210e-001	-1.546434e-001	9.816446e-001	-1.544364e-001	1.508330e-002	2.856234e-002
6754226.051	1.562887e-002	2.832561e-002	9.814169e-001	-1.561675e-001	9.811700e-001	-1.559932e-001	1.511859e-002	2.858066e-002
6816765.134	1.596182e-002	2.853861e-002	9.811121e-001	-1.574560e-001	9.808635e-001	-1.572358e-001	1.543594e-002	2.899074e-002
6879304.218	1.610092e-002	2.859679e-002	9.806722e-001	-1.588890e-001	9.805245e-001	-1.585953e-001	1.568062e-002	2.913077e-002
6941843.302	1.642883e-002	2.896513e-002	9.802150e-001	-1.603417e-001	9.800759e-001	-1.599794e-001	1.593024e-002	2.942290e-002
7004382.386	1.652099e-002	2.925562e-002	9.798632e-001	-1.616324e-001	9.796093e-001	-1.613868e-001	1.611158e-002	2.968151e-002
7066921.470	1.687892e-002	2.940064e-002	9.793654e-001	-1.631517e-001	9.792775e-001	-1.625957e-001	1.651492e-002	2.972573e-002
7129460.553	1.702252e-002	2.949666e-002	9.790680e-001	-1.643355e-001	9.788480e-001	-1.641149e-001	1.679746e-002	2.998789e-002
7191999.637	1.731041e-002	2.993887e-002	9.783809e-001	-1.658233e-001	9.782636e-001	-1.655081e-001	1.692291e-002	3.019004e-002
7254538.721	1.761677e-002	3.001933e-002	9.782716e-001	-1.672874e-001	9.780133e-001	-1.669445e-001	1.723166e-002	3.041204e-002
7317077.805	1.805384e-002	3.018293e-002	9.778183e-001	-1.685246e-001	9.775963e-001	-1.682478e-001	1.748646e-002	3.051242e-002
7379616.889	1.819476e-002	3.039522e-002	9.774895e-001	-1.701188e-001	9.771029e-001	-1.696525e-001	1.771057e-002	3.072586e-002
7442155.972	1.831603e-002	3.059900e-002	9.768480e-001	-1.712994e-001	9.766649e-001	-1.709666e-001	1.809782e-002	3.112629e-002
7504695.056	1.863280e-002	3.068572e-002	9.763364e-001	-1.725993e-001	9.760973e-001	-1.724802e-001	1.840759e-002	3.137643e-002
7567234.140	1.908136e-002	3.079285e-002	9.760241e-001	-1.739550e-001	9.756825e-001	-1.738313e-001	1.860974e-002	3.146528e-002
7629773.224	1.929338e-002	3.127242e-002	9.755918e-001	-1.755045e-001	9.753407e-001	-1.751299e-001	1.882028e-002	3.161162e-002
7692312.308	1.944564e-002	3.140054e-002	9.751357e-001	-1.768417e-001	9.747962e-001	-1.765718e-001	1.916118e-002	3.170825e-002
7754851.391	1.971802e-002	3.143232e-002	9.746209e-001	-1.782262e-001	9.742524e-001	-1.777198e-001	1.940618e-002	3.201356e-002
7817390.475	2.010362e-002	3.179606e-002	9.741688e-001	-1.796838e-001	9.737981e-001	-1.793452e-001	1.963634e-002	3.229684e-002
7879929.559	2.028842e-002	3.180394e-002	9.736135e-001	-1.810124e-001	9.733288e-001	-1.807929e-001	2.004457e-002	3.246475e-002
7942468.643	2.053234e-002	3.192843e-002	9.732549e-001	-1.822968e-001	9.729194e-001	-1.821422e-001	2.030462e-002	3.246726e-002
8005007.727	2.094024e-002	3.211523e-002	9.726872e-001	-1.836905e-001	9.724912e-001	-1.834135e-001	2.053908e-002	3.286381e-002
8067546.811	2.108386e-002	3.232242e-002	9.722137e-001	-1.849883e-001	9.718706e-001	-1.846874e-001	2.073752e-002	3.283073e-002
8130085.894	2.145900e-002	3.241724e-002	9.717142e-001	-1.862726e-001	9.714392e-001	-1.860750e-001	2.125080e-002	3.292493e-002
8192624.978	2.160079e-002	3.253189e-002	9.710509e-001	-1.877209e-001	9.709748e-001	-1.873693e-001	2.158933e-002	3.306851e-002
8255164.062	2.201305e-002	3.268193e-002	9.707075e-001	-1.889913e-001	9.704406e-001	-1.887497e-001	2.185559e-002	3.317932e-002
8317703.146	2.221869e-002	3.295519e-002	9.702665e-001	-1.903617e-001	9.700499e-001	-1.900406e-001	2.200467e-002	3.340067e-002
8380242.230	2.262150e-002	3.285753e-002	9.695962e-001	-1.917946e-001	9.694389e-001	-1.912939e-001	2.227185e-002	3.347815e-002
8442781.313	2.290565e-002	3.304113e-002	9.693311e-001	-1.929762e-001	9.689986e-001	-1.926231e-001	2.256167e-002	3.354700e-002
8505320.397	2.320817e-002	3.331035e-002	9.687646e-001	-1.943751e-001	9.684176e-001	-1.939876e-001	2.283223e-002	3.373561e-002
8567859.481	2.349141e-002	3.360668e-002	9.681822e-001	-1.954609e-001	9.680105e-001	-1.952106e-001	2.318458e-002	3.403145e-002
8630398.565	2.387771e-002	3.366730e-002	9.675407e-001	-1.967452e-001	9.675141e-001	-1.965049e-001	2.336796e-002	3.393206e-002
8692937.649	2.412625e-002	3.359031e-002	9.671433e-001	-1.980978e-001	9.668147e-001	-1.978531e-001	2.362010e-002	3.414898e-002
8755476.732	2.445828e-002	3.378207e-002	9.666367e-001	-1.994828e-001	9.663367e-001	-1.990548e-001	2.401043e-002	3.428252e-002
8818015.816	2.464930e-002	3.387137e-002	9.660189e-001	-2.007399e-001	9.656549e-001	-2.003929e-001	2.441549e-002	3.430374e-002
8880554.900	2.517945e-002	3.400147e-002	9.656732e-001	-2.020916e-001	9.654487e-001	-2.015282e-001	2.459521e-002	3.429646e-002
8943093.984	2.534324e-002	3.423490e-002	9.650714e-001	-2.032748e-001	9.649130e-001	-2.029085e-001	2.493302e-002	3.443959e-002
9005633.068	2.569984e-002	3.424107e-002	9.644602e-001	-2.045842e-001	9.644149e-001	-2.042967e-001	2.512708e-002	3.443793e-002
9068172.151	2.587448e-002	3.436151e-002	9.640566e-001	-2.058788e-001	9.637511e-001	-2.054184e-001	2.551109e-002	3.456896e-002
9130711.235	2.640599e-002	3.436871e-002	9.634326e-001	-2.070952e-001	9.632564e-001	-2.066805e-001	2.585934e-002	3.449254e-002
9193250.319	2.670650e-002	3.443143e-002	9.630896e-001	-2.082745e-001	9.626990e-001	-2.080354e-001	2.611767e-002	3.465323e-002
9255789.403	2.689770e-002	3.438435e-002	9.625289e-001	-2.094389e-001	9.621797e-001	-2.092142e-001	2.630014e-002	3.481900e-002
9318328.487	2.718652e-002	3.456486e-002	9.619306e-001	-2.109192e-001	9.618153e-001	-2.104506e-001	2.672874e-002	3.489318e-002
9380867.570	2.753029e-002	3.476921e-002	9.614492e-001	-2.121885e-001	9.610898e-001	-2.118093e-001	2.704397e-002	3.495890e-002
9443406.654	2.789539e-002	3.483461e-002	9.609137e-001	-2.133559e-001	9.606815e-001	-2.131288e-001	2.738849e-002	3.495150e-002
9505945.738	2.819631e-002	3.491999e-002	9.601952e-001	-2.147335e-001	9.602078e-001	-2.143487e-001	2.765750e-002	3.502266e-002
9568484.822	2.855433e-002	3.494014e-002	9.597926e-001	-2.159563e-001	9.594256e-001	-2.155624e-001	2.781225e-002	3.534819e-002
9631023.906	2.886648e-002	3.502429e-002	9.592830e-001	-2.171512e-001	9.588585e-001	-2.168334e-001	2.828933e-002	3.508305e-002
9693562.989	2.919487e-002	3.506195e-002	9.586165e-001	-2.183916e-001	9.584072e-001	-2.179754e-001	2.836863e-002	3.527818e-002
9756102.073	2.948926e-002	3.506965e-002	9.582919e-001	-2.196296e-001	9.579235e-001	-2.191908e-001	2.871949e-002	3.520728e-002
