!Agilent Technologies,E5061B,MY49102235,A.02.00
!Date: Tue Jul 11 17:05:55 2023
!Data & Calibration Information:
!Freq	S11:SOLT2(ON)	S21:SOLT2(ON)	S12:SOLT2(ON)	S22:SOLT2(ON)
# Hz S RI R 50
5.000	-5.148591e-003	-5.636575e-003	1.002284e+000	7.969031e-003	1.000726e+000	1.023667e-002	-1.452605e-003	-7.562728e-003
62544.084	5.820759e-003	-4.500146e-004	1.001430e+000	5.634341e-004	1.000823e+000	1.236308e-003	7.699299e-003	-2.842335e-003
125083.168	5.693739e-003	-4.165593e-004	1.001032e+000	-9.606695e-004	1.000639e+000	-9.376312e-004	7.495078e-003	-2.194791e-003
187622.251	5.484973e-003	-2.110842e-004	1.000539e+000	-2.251964e-003	1.000860e+000	-1.117794e-003	7.387390e-003	-2.246131e-003
250161.335	5.293285e-003	-4.320525e-005	1.000781e+000	-3.287276e-003	1.000642e+000	-3.226264e-003	7.273520e-003	-1.878143e-003
312700.419	5.456570e-003	7.175640e-004	1.000846e+000	-3.972958e-003	1.000592e+000	-3.712255e-003	7.777352e-003	-2.153908e-003
375239.503	5.333114e-003	-7.844395e-004	1.001189e+000	-5.294149e-003	1.000444e+000	-5.050014e-003	7.270936e-003	-2.295816e-003
437778.587	5.169948e-003	-3.224364e-004	1.001447e+000	-5.690264e-003	1.000963e+000	-6.247288e-003	6.621189e-003	-1.980358e-003
500317.670	4.595473e-003	-1.835923e-004	1.001374e+000	-8.055925e-003	1.001653e+000	-7.848799e-003	4.812745e-003	-1.745286e-003
562856.754	5.908602e-003	-4.377260e-004	1.001495e+000	-9.707484e-003	1.001055e+000	-9.428655e-003	6.033542e-003	-1.212632e-003
625395.838	5.116723e-003	-2.719541e-004	1.002347e+000	-1.080655e-002	1.002025e+000	-1.038476e-002	6.118909e-003	-6.286329e-004
687934.922	5.154449e-003	-5.739809e-004	1.001488e+000	-1.187215e-002	1.001157e+000	-1.196693e-002	5.759465e-003	-1.041854e-003
750474.006	4.293751e-003	-2.151876e-004	1.001038e+000	-1.143265e-002	1.000693e+000	-1.096900e-002	5.479964e-003	-9.016062e-004
813013.089	4.469363e-003	-1.698429e-004	1.001408e+000	-1.314888e-002	1.000484e+000	-1.254491e-002	4.821200e-003	-6.834883e-004
875552.173	4.213402e-003	2.817623e-005	1.001379e+000	-1.426167e-002	1.000727e+000	-1.395912e-002	5.626410e-003	-1.053983e-003
938091.257	4.281662e-003	1.388266e-004	1.001460e+000	-1.570409e-002	1.000973e+000	-1.507823e-002	5.861816e-003	-4.519223e-004
1000630.341	3.740746e-003	-1.909680e-004	1.001085e+000	-1.719578e-002	1.000847e+000	-1.649304e-002	5.111903e-003	-1.117144e-003
1063169.425	4.100611e-003	-3.133052e-004	1.001445e+000	-1.854779e-002	1.000655e+000	-1.736929e-002	4.287916e-003	-1.408784e-003
1125708.508	3.973926e-003	-2.481750e-004	1.001133e+000	-1.973920e-002	1.000688e+000	-1.882760e-002	3.806398e-003	-1.092927e-003
1188247.592	4.507765e-003	-6.642946e-004	1.001340e+000	-2.102875e-002	1.000906e+000	-1.985840e-002	2.690501e-003	-1.624528e-003
1250786.676	4.361717e-003	-1.370737e-003	1.000895e+000	-2.085671e-002	1.000625e+000	-2.068132e-002	1.966932e-003	-3.257694e-003
1313325.760	4.470937e-003	-1.450689e-003	1.001122e+000	-2.249152e-002	1.000881e+000	-2.221822e-002	2.695364e-003	-3.013378e-003
1375864.844	4.212629e-003	-1.597145e-003	1.001019e+000	-2.447297e-002	1.000344e+000	-2.411423e-002	2.553790e-003	-2.715602e-003
1438403.927	4.098390e-003	-1.745554e-003	1.000919e+000	-2.512046e-002	1.000689e+000	-2.397949e-002	2.637348e-003	-2.415651e-003
1500943.011	4.317891e-003	-1.629754e-003	1.001430e+000	-2.604875e-002	1.001266e+000	-2.558270e-002	3.001820e-003	-2.788021e-003
1563482.095	4.323532e-003	-1.973844e-003	1.001200e+000	-2.746495e-002	1.000551e+000	-2.612900e-002	3.130911e-003	-2.557403e-003
1626021.179	4.132766e-003	-1.813699e-003	1.001000e+000	-2.866384e-002	1.000870e+000	-2.875168e-002	3.394632e-003	-2.584238e-003
1688560.263	3.838619e-003	-1.719031e-003	1.000689e+000	-3.045146e-002	1.001115e+000	-3.021338e-002	3.561920e-003	-2.566436e-003
1751099.346	3.978477e-003	-1.599295e-003	1.001326e+000	-3.167317e-002	1.000574e+000	-3.067046e-002	3.393984e-003	-1.700964e-003
1813638.430	3.623274e-003	-1.605533e-003	1.001679e+000	-3.316435e-002	1.000975e+000	-3.257724e-002	3.575944e-003	-2.049526e-003
1876177.514	3.655934e-003	-1.300303e-003	1.001772e+000	-3.421109e-002	1.001357e+000	-3.417367e-002	3.250510e-003	-1.338282e-003
1938716.598	3.112652e-003	-1.185549e-003	1.001974e+000	-3.504450e-002	1.001337e+000	-3.412534e-002	3.405230e-003	-9.242228e-004
2001255.682	3.024307e-003	-1.638893e-003	1.001981e+000	-3.637991e-002	1.001030e+000	-3.585957e-002	3.162049e-003	-1.368707e-003
2063794.765	3.103868e-003	-1.225740e-003	1.001498e+000	-3.752767e-002	1.000659e+000	-3.747406e-002	3.556721e-003	-1.433986e-003
2126333.849	2.650858e-003	-1.717650e-003	1.001020e+000	-3.878887e-002	1.000169e+000	-3.791478e-002	3.823615e-003	-1.140425e-003
2188872.933	3.147857e-003	-1.707464e-003	1.000765e+000	-3.992416e-002	1.000033e+000	-3.887790e-002	3.710781e-003	-1.162895e-003
2251412.017	3.258264e-003	-2.036505e-003	1.000534e+000	-4.155253e-002	1.000125e+000	-3.999902e-002	3.678658e-003	-1.250643e-003
2313951.101	3.571287e-003	-1.580189e-003	1.000061e+000	-4.254330e-002	1.000180e+000	-4.100759e-002	3.993842e-003	-1.291622e-003
2376490.184	3.314272e-003	-1.587632e-003	9.999012e-001	-4.292902e-002	1.000159e+000	-4.292256e-002	3.964605e-003	-1.271750e-003
2439029.268	3.764274e-003	-1.601304e-003	9.998638e-001	-4.480055e-002	9.992607e-001	-4.401687e-002	3.622367e-003	-1.139926e-003
2501568.352	3.720511e-003	-1.574953e-003	9.994954e-001	-4.496981e-002	1.000224e+000	-4.454898e-002	3.917438e-003	-1.145460e-003
2564107.436	3.637609e-003	-1.715395e-003	9.998578e-001	-4.679077e-002	9.998180e-001	-4.622919e-002	3.225633e-003	-1.485738e-003
2626646.520	4.141796e-003	-1.854316e-003	9.998267e-001	-4.793601e-002	9.987008e-001	-4.738989e-002	3.481112e-003	-1.533957e-003
2689185.604	4.087251e-003	-1.671393e-003	1.000033e+000	-4.875257e-002	9.996152e-001	-4.825341e-002	3.615449e-003	-1.458638e-003
2751724.687	4.188916e-003	-1.743949e-003	9.999318e-001	-4.931871e-002	9.993424e-001	-4.902765e-002	3.215000e-003	-1.474760e-003
2814263.771	4.159105e-003	-1.786310e-003	9.991515e-001	-5.123623e-002	9.990346e-001	-5.035444e-002	3.183831e-003	-1.581845e-003
2876802.855	4.104102e-003	-1.985891e-003	9.991354e-001	-5.269457e-002	9.990611e-001	-5.149820e-002	3.280822e-003	-1.439457e-003
2939341.939	4.225415e-003	-1.875383e-003	9.996028e-001	-5.327602e-002	9.990609e-001	-5.295974e-002	3.174922e-003	-1.517653e-003
3001881.023	4.161776e-003	-1.853936e-003	9.993682e-001	-5.448333e-002	9.988530e-001	-5.408627e-002	3.262366e-003	-1.632862e-003
3064420.106	4.204141e-003	-1.878071e-003	9.999920e-001	-5.547853e-002	9.988017e-001	-5.503056e-002	3.091534e-003	-1.749034e-003
3126959.190	4.400528e-003	-1.958454e-003	9.994568e-001	-5.683472e-002	9.990406e-001	-5.635377e-002	3.275544e-003	-1.799303e-003
3189498.274	4.382870e-003	-1.925433e-003	9.993705e-001	-5.779780e-002	9.989767e-001	-5.745524e-002	3.268096e-003	-1.850034e-003
3252037.358	4.291865e-003	-2.275492e-003	9.994286e-001	-5.899191e-002	9.990133e-001	-5.851878e-002	3.218861e-003	-1.781540e-003
3314576.442	4.309325e-003	-2.101745e-003	9.993043e-001	-6.006741e-002	9.988739e-001	-5.973527e-002	3.278335e-003	-1.871101e-003
3377115.525	4.281161e-003	-2.091567e-003	9.991186e-001	-6.112007e-002	9.986342e-001	-6.101992e-002	3.110972e-003	-2.009068e-003
3439654.609	4.280554e-003	-2.137393e-003	9.989201e-001	-6.227860e-002	9.988761e-001	-6.203187e-002	3.143659e-003	-1.810762e-003
3502193.693	4.255125e-003	-2.452143e-003	9.989144e-001	-6.356915e-002	9.985760e-001	-6.303727e-002	3.305005e-003	-1.850053e-003
3564732.777	4.300221e-003	-2.309860e-003	9.989729e-001	-6.462002e-002	9.985757e-001	-6.430711e-002	3.410003e-003	-1.833605e-003
3627271.861	4.134116e-003	-2.456583e-003	9.989632e-001	-6.583794e-002	9.986007e-001	-6.525445e-002	3.176988e-003	-2.053368e-003
3689810.944	4.050067e-003	-2.581655e-003	9.987804e-001	-6.695746e-002	9.984709e-001	-6.636655e-002	3.324283e-003	-2.033740e-003
3752350.028	4.169917e-003	-2.547947e-003	9.986945e-001	-6.780786e-002	9.982441e-001	-6.747126e-002	3.269342e-003	-2.089798e-003
3814889.112	4.263731e-003	-2.431815e-003	9.985081e-001	-6.904458e-002	9.984527e-001	-6.888334e-002	3.183677e-003	-2.228692e-003
3877428.196	4.224442e-003	-2.425964e-003	9.986653e-001	-7.023619e-002	9.983085e-001	-6.978302e-002	3.512501e-003	-2.234577e-003
3939967.280	4.195490e-003	-2.744155e-003	9.985386e-001	-7.145795e-002	9.983042e-001	-7.093454e-002	3.487186e-003	-2.172284e-003
4002506.363	4.257811e-003	-2.624228e-003	9.985111e-001	-7.253942e-002	9.981992e-001	-7.189810e-002	3.425819e-003	-2.262439e-003
4065045.447	4.075857e-003	-2.729170e-003	9.982515e-001	-7.368535e-002	9.979746e-001	-7.320620e-002	3.522593e-003	-2.385160e-003
4127584.531	4.056292e-003	-2.762918e-003	9.981975e-001	-7.479508e-002	9.979543e-001	-7.424446e-002	3.527244e-003	-2.298624e-003
4190123.615	4.103118e-003	-2.767662e-003	9.981632e-001	-7.609771e-002	9.977955e-001	-7.554402e-002	3.444800e-003	-2.548490e-003
4252662.699	4.045712e-003	-2.872011e-003	9.982007e-001	-7.724343e-002	9.976396e-001	-7.676442e-002	3.544429e-003	-2.553403e-003
4315201.782	4.190102e-003	-2.950448e-003	9.980809e-001	-7.813650e-002	9.978272e-001	-7.788427e-002	3.370619e-003	-2.770309e-003
4377740.866	4.077427e-003	-2.993278e-003	9.980755e-001	-7.943343e-002	9.975216e-001	-7.902117e-002	3.548666e-003	-2.501115e-003
4440279.950	3.989824e-003	-3.170587e-003	9.979332e-001	-8.040083e-002	9.973815e-001	-8.000815e-002	3.434699e-003	-2.705359e-003
4502819.034	3.980595e-003	-3.064022e-003	9.976094e-001	-8.164774e-002	9.974266e-001	-8.115132e-002	3.507207e-003	-2.579399e-003
4565358.118	3.886216e-003	-3.150002e-003	9.976106e-001	-8.271093e-002	9.971474e-001	-8.208272e-002	3.524503e-003	-2.722099e-003
4627897.201	4.077796e-003	-3.046624e-003	9.976684e-001	-8.389540e-002	9.971549e-001	-8.321959e-002	3.629324e-003	-2.657036e-003
4690436.285	3.899003e-003	-3.203944e-003	9.975963e-001	-8.510027e-002	9.971191e-001	-8.475429e-002	3.625508e-003	-2.880614e-003
4752975.369	3.905858e-003	-3.254094e-003	9.972746e-001	-8.632508e-002	9.971145e-001	-8.579672e-002	3.426614e-003	-2.967918e-003
4815514.453	4.025744e-003	-3.288379e-003	9.973780e-001	-8.728861e-002	9.969934e-001	-8.697663e-002	3.651813e-003	-2.899232e-003
4878053.537	4.120465e-003	-3.409187e-003	9.973413e-001	-8.839244e-002	9.968449e-001	-8.794945e-002	3.615606e-003	-3.029394e-003
4940592.620	3.852365e-003	-3.417126e-003	9.970673e-001	-8.959955e-002	9.968335e-001	-8.918011e-002	3.386865e-003	-3.099137e-003
5003131.704	3.917088e-003	-3.588942e-003	9.969872e-001	-9.065995e-002	9.967865e-001	-9.008855e-002	3.518217e-003	-3.179235e-003
5065670.788	3.845763e-003	-3.432804e-003	9.968296e-001	-9.189106e-002	9.966185e-001	-9.128765e-002	3.474606e-003	-3.196644e-003
5128209.872	3.975320e-003	-3.607779e-003	9.969222e-001	-9.301283e-002	9.965020e-001	-9.243432e-002	3.446194e-003	-3.444392e-003
5190748.956	3.877575e-003	-3.656155e-003	9.966975e-001	-9.412663e-002	9.964734e-001	-9.372592e-002	3.416431e-003	-3.354714e-003
5253288.039	3.926182e-003	-3.747519e-003	9.966956e-001	-9.528932e-002	9.963906e-001	-9.481522e-002	3.343276e-003	-3.321315e-003
5315827.123	3.892101e-003	-3.852468e-003	9.964527e-001	-9.638547e-002	9.962238e-001	-9.592223e-002	3.334549e-003	-3.458531e-003
5378366.207	3.971329e-003	-3.857393e-003	9.964943e-001	-9.752842e-002	9.961766e-001	-9.724989e-002	3.315371e-003	-3.587057e-003
5440905.291	3.791926e-003	-3.809081e-003	9.964733e-001	-9.864940e-002	9.960566e-001	-9.825835e-002	3.204251e-003	-3.592815e-003
5503444.375	4.010936e-003	-4.018219e-003	9.962759e-001	-9.986507e-002	9.960219e-001	-9.925685e-002	3.393735e-003	-3.729921e-003
5565983.458	3.648271e-003	-3.948311e-003	9.962060e-001	-1.009001e-001	9.959078e-001	-1.003318e-001	3.325053e-003	-3.610310e-003
5628522.542	3.898737e-003	-4.061388e-003	9.961211e-001	-1.019529e-001	9.957874e-001	-1.016457e-001	3.349002e-003	-3.773253e-003
5691061.626	3.950269e-003	-4.290844e-003	9.959227e-001	-1.033217e-001	9.955960e-001	-1.028230e-001	3.267171e-003	-3.787444e-003
5753600.710	3.803850e-003	-4.259065e-003	9.957539e-001	-1.042772e-001	9.955438e-001	-1.038524e-001	3.322634e-003	-3.963982e-003
5816139.794	3.903278e-003	-4.109983e-003	9.957312e-001	-1.054637e-001	9.952265e-001	-1.052049e-001	3.159257e-003	-3.963388e-003
5878678.877	3.801182e-003	-4.395170e-003	9.955793e-001	-1.066182e-001	9.952591e-001	-1.061504e-001	3.276370e-003	-4.153943e-003
5941217.961	3.792976e-003	-4.517927e-003	9.954281e-001	-1.078135e-001	9.951696e-001	-1.071711e-001	3.077858e-003	-4.099987e-003
6003757.045	3.634997e-003	-4.344343e-003	9.951804e-001	-1.087995e-001	9.950294e-001	-1.082973e-001	3.199738e-003	-4.164188e-003
6066296.129	3.759680e-003	-4.581327e-003	9.952524e-001	-1.100113e-001	9.948971e-001	-1.093566e-001	3.164920e-003	-4.255992e-003
6128835.213	3.850892e-003	-4.607676e-003	9.951129e-001	-1.108339e-001	9.949561e-001	-1.106589e-001	3.259361e-003	-4.312299e-003
6191374.296	3.790711e-003	-4.688931e-003	9.949300e-001	-1.122225e-001	9.946296e-001	-1.119109e-001	3.093773e-003	-4.271858e-003
6253913.380	3.688632e-003	-4.617774e-003	9.948612e-001	-1.133691e-001	9.945832e-001	-1.128633e-001	2.974453e-003	-4.200610e-003
6316452.464	3.654462e-003	-4.596219e-003	9.947770e-001	-1.143744e-001	9.943470e-001	-1.142385e-001	3.013787e-003	-4.492762e-003
6378991.548	3.610820e-003	-4.806713e-003	9.946069e-001	-1.158475e-001	9.943436e-001	-1.152153e-001	3.070894e-003	-4.655455e-003
6441530.632	3.556027e-003	-4.927462e-003	9.944406e-001	-1.166766e-001	9.942258e-001	-1.164617e-001	3.110675e-003	-4.604411e-003
6504069.715	3.544955e-003	-5.001964e-003	9.942861e-001	-1.180538e-001	9.941972e-001	-1.175263e-001	3.117591e-003	-4.651631e-003
6566608.799	3.691377e-003	-5.118253e-003	9.942623e-001	-1.192419e-001	9.939225e-001	-1.187009e-001	3.005148e-003	-4.521623e-003
6629147.883	3.617404e-003	-5.044331e-003	9.940746e-001	-1.199976e-001	9.937778e-001	-1.198445e-001	3.089033e-003	-4.716917e-003
6691686.967	3.500336e-003	-5.077536e-003	9.938580e-001	-1.212606e-001	9.935796e-001	-1.209457e-001	3.105050e-003	-4.687340e-003
6754226.051	3.436787e-003	-5.152636e-003	9.936482e-001	-1.225103e-001	9.933726e-001	-1.222447e-001	2.908393e-003	-4.944449e-003
6816765.134	3.529030e-003	-5.203596e-003	9.936610e-001	-1.235889e-001	9.933723e-001	-1.231702e-001	2.953774e-003	-4.806232e-003
6879304.218	3.419944e-003	-5.432091e-003	9.934460e-001	-1.247192e-001	9.932422e-001	-1.243182e-001	2.938688e-003	-4.929074e-003
6941843.302	3.475536e-003	-5.312469e-003	9.932768e-001	-1.258990e-001	9.930979e-001	-1.254498e-001	2.915378e-003	-4.892211e-003
7004382.386	3.276511e-003	-5.306833e-003	9.932108e-001	-1.269291e-001	9.928952e-001	-1.265493e-001	2.826018e-003	-4.913368e-003
7066921.470	3.370885e-003	-5.405562e-003	9.929483e-001	-1.282004e-001	9.928183e-001	-1.274986e-001	2.979312e-003	-5.117693e-003
7129460.553	3.250083e-003	-5.575053e-003	9.929015e-001	-1.291513e-001	9.926566e-001	-1.287620e-001	2.963540e-003	-5.115508e-003
7191999.637	3.232504e-003	-5.393426e-003	9.925682e-001	-1.304031e-001	9.923736e-001	-1.298839e-001	2.827159e-003	-5.165645e-003
7254538.721	3.266403e-003	-5.558916e-003	9.927213e-001	-1.315262e-001	9.923931e-001	-1.310797e-001	2.847958e-003	-5.204573e-003
7317077.805	3.446210e-003	-5.639207e-003	9.924931e-001	-1.325133e-001	9.922567e-001	-1.321351e-001	2.837196e-003	-5.354564e-003
7379616.889	3.287611e-003	-5.675244e-003	9.924671e-001	-1.338620e-001	9.920163e-001	-1.332867e-001	2.765724e-003	-5.386021e-003
7442155.972	3.128361e-003	-5.735203e-003	9.921684e-001	-1.348171e-001	9.919319e-001	-1.343843e-001	2.844603e-003	-5.214163e-003
7504695.056	3.164875e-003	-5.876223e-003	9.919245e-001	-1.358667e-001	9.916426e-001	-1.356271e-001	2.856820e-003	-5.201131e-003
7567234.140	3.325104e-003	-6.003387e-003	9.918832e-001	-1.370176e-001	9.914925e-001	-1.367297e-001	2.782211e-003	-5.359577e-003
7629773.224	3.216763e-003	-5.760198e-003	9.917910e-001	-1.383188e-001	9.915108e-001	-1.377797e-001	2.682163e-003	-5.459874e-003
7692312.308	3.068345e-003	-5.875722e-003	9.916200e-001	-1.394078e-001	9.912430e-001	-1.390255e-001	2.744681e-003	-5.604977e-003
7754851.391	3.035211e-003	-6.083070e-003	9.913970e-001	-1.405502e-001	9.909712e-001	-1.399444e-001	2.668255e-003	-5.526763e-003
7817390.475	3.112607e-003	-5.928011e-003	9.912590e-001	-1.418076e-001	9.908639e-001	-1.413304e-001	2.577336e-003	-5.456643e-003
7879929.559	3.008551e-003	-6.145184e-003	9.910142e-001	-1.428977e-001	9.907101e-001	-1.426303e-001	2.698658e-003	-5.515387e-003
7942468.643	2.939502e-003	-6.251285e-003	9.909485e-001	-1.439273e-001	9.906213e-001	-1.436325e-001	2.655758e-003	-5.737192e-003
8005007.727	3.038234e-003	-6.284894e-003	9.907303e-001	-1.451665e-001	9.904739e-001	-1.447632e-001	2.555198e-003	-5.555602e-003
8067546.811	2.871653e-003	-6.282428e-003	9.905642e-001	-1.462298e-001	9.901637e-001	-1.458093e-001	2.446449e-003	-5.823425e-003
8130085.894	2.932773e-003	-6.404696e-003	9.903735e-001	-1.472982e-001	9.901073e-001	-1.470158e-001	2.656925e-003	-5.917950e-003
8192624.978	2.747969e-003	-6.511276e-003	9.900566e-001	-1.485278e-001	9.899041e-001	-1.480724e-001	2.690171e-003	-5.979006e-003
8255164.062	2.846565e-003	-6.541365e-003	9.899809e-001	-1.496468e-001	9.896915e-001	-1.492512e-001	2.635233e-003	-6.072046e-003
8317703.146	2.708135e-003	-6.472028e-003	9.899039e-001	-1.507565e-001	9.896621e-001	-1.503067e-001	2.441938e-003	-6.065153e-003
8380242.230	2.824417e-003	-6.764529e-003	9.895620e-001	-1.520230e-001	9.893583e-001	-1.514221e-001	2.378912e-003	-6.172150e-003
8442781.313	2.770392e-003	-6.769236e-003	9.896238e-001	-1.529987e-001	9.892512e-001	-1.525168e-001	2.354370e-003	-6.307683e-003
8505320.397	2.736642e-003	-6.693027e-003	9.894008e-001	-1.541995e-001	9.890289e-001	-1.536865e-001	2.271111e-003	-6.305108e-003
8567859.481	2.672823e-003	-6.581113e-003	9.891873e-001	-1.551611e-001	9.889492e-001	-1.547990e-001	2.310997e-003	-6.180894e-003
8630398.565	2.731234e-003	-6.681118e-003	9.887915e-001	-1.562630e-001	9.887398e-001	-1.558453e-001	2.153968e-003	-6.482606e-003
8692937.649	2.665717e-003	-6.930831e-003	9.887454e-001	-1.573707e-001	9.884392e-001	-1.570332e-001	2.075985e-003	-6.434475e-003
8755476.732	2.648424e-003	-6.930142e-003	9.885866e-001	-1.586283e-001	9.882840e-001	-1.580472e-001	2.127588e-003	-6.469905e-003
8818015.816	2.514060e-003	-7.010773e-003	9.883559e-001	-1.596885e-001	9.879267e-001	-1.592224e-001	2.205527e-003	-6.602996e-003
8880554.900	2.700981e-003	-7.020572e-003	9.883024e-001	-1.608846e-001	9.880154e-001	-1.601901e-001	2.056448e-003	-6.812347e-003
8943093.984	2.526140e-003	-6.966714e-003	9.880661e-001	-1.619013e-001	9.878572e-001	-1.613676e-001	2.047032e-003	-6.804832e-003
9005633.068	2.556055e-003	-7.111200e-003	9.877569e-001	-1.630761e-001	9.877024e-001	-1.626005e-001	1.929647e-003	-6.981605e-003
9068172.151	2.378785e-003	-7.158582e-003	9.877234e-001	-1.642151e-001	9.873585e-001	-1.636146e-001	1.959881e-003	-6.985715e-003
9130711.235	2.580902e-003	-7.274015e-003	9.874542e-001	-1.653111e-001	9.872234e-001	-1.647238e-001	1.988905e-003	-7.238151e-003
9193250.319	2.536791e-003	-7.361152e-003	9.873636e-001	-1.663067e-001	9.870013e-001	-1.659307e-001	1.880637e-003	-7.198004e-003
9255789.403	2.402728e-003	-7.551897e-003	9.872225e-001	-1.673379e-001	9.868109e-001	-1.669881e-001	1.724271e-003	-7.188741e-003
9318328.487	2.342041e-003	-7.518584e-003	9.869625e-001	-1.687132e-001	9.868062e-001	-1.680846e-001	1.809884e-003	-7.247850e-003
9380867.570	2.321664e-003	-7.434052e-003	9.868820e-001	-1.698398e-001	9.864048e-001	-1.693550e-001	1.785697e-003	-7.319485e-003
9443406.654	2.349868e-003	-7.487388e-003	9.866900e-001	-1.708541e-001	9.863867e-001	-1.705033e-001	1.790683e-003	-7.429946e-003
9505945.738	2.299327e-003	-7.524309e-003	9.862609e-001	-1.721415e-001	9.862527e-001	-1.715894e-001	1.718435e-003	-7.489609e-003
9568484.822	2.314798e-003	-7.609480e-003	9.862131e-001	-1.732192e-001	9.857958e-001	-1.727088e-001	1.487171e-003	-7.300401e-003
