!Agilent Technologies,E5061B,MY49102235,A.02.00
!Date: Tue Jul 11 15:37:37 2023
!Data & Calibration Information:
!Freq	S11:SOLT2(ON)	S21:SOLT2(ON)	S12:SOLT2(ON)	S22:SOLT2(ON)
# Hz S RI R 50
5.000	-5.249004e-003	-5.642757e-003	1.001909e+000	8.043469e-003	1.000413e+000	1.021721e-002	-1.462858e-003	-7.541791e-003
62544.084	5.817053e-003	-9.180256e-005	1.001366e+000	1.561530e-004	1.000842e+000	7.367709e-004	7.709954e-003	-2.485198e-003
125083.168	5.715619e-003	2.879268e-004	1.000963e+000	-1.537549e-003	1.000683e+000	-1.707119e-003	7.508738e-003	-1.496062e-003
187622.251	5.498113e-003	8.559024e-004	1.000422e+000	-3.371538e-003	1.000967e+000	-2.105705e-003	7.404145e-003	-1.211786e-003
250161.335	5.342873e-003	1.355854e-003	1.000585e+000	-4.685908e-003	1.000516e+000	-4.638491e-003	7.323842e-003	-4.851401e-004
312700.419	5.488826e-003	2.469461e-003	1.000886e+000	-5.785252e-003	1.000544e+000	-5.528156e-003	7.846545e-003	-4.242174e-004
375239.503	5.406873e-003	1.336932e-003	1.001023e+000	-7.548320e-003	1.000380e+000	-7.299678e-003	7.339328e-003	-2.047894e-004
437778.587	5.264776e-003	2.098053e-003	1.001282e+000	-8.002091e-003	1.000883e+000	-8.922477e-003	6.710444e-003	4.621502e-004
500317.670	4.722923e-003	2.594477e-003	1.001252e+000	-1.077663e-002	1.001510e+000	-1.079178e-002	4.932009e-003	1.025422e-003
562856.754	6.065862e-003	2.657436e-003	1.001243e+000	-1.267890e-002	1.001038e+000	-1.258629e-002	6.162906e-003	1.867914e-003
625395.838	5.274220e-003	3.195407e-003	1.002111e+000	-1.434957e-002	1.001927e+000	-1.391508e-002	6.293376e-003	2.804370e-003
687934.922	5.360347e-003	3.227678e-003	1.001179e+000	-1.563989e-002	1.000959e+000	-1.579550e-002	5.961811e-003	2.714040e-003
750474.006	4.581301e-003	3.925974e-003	1.000727e+000	-1.559529e-002	1.000530e+000	-1.527396e-002	5.775363e-003	3.262198e-003
813013.089	4.791060e-003	4.334321e-003	1.001149e+000	-1.756137e-002	1.000415e+000	-1.730608e-002	5.157488e-003	3.805704e-003
875552.173	4.561381e-003	4.853334e-003	1.000900e+000	-1.890611e-002	1.000633e+000	-1.898664e-002	5.963162e-003	3.759911e-003
938091.257	4.668793e-003	5.296972e-003	1.001073e+000	-2.070266e-002	1.000790e+000	-2.046269e-002	6.233850e-003	4.699504e-003
1000630.341	4.147848e-003	5.326542e-003	1.000600e+000	-2.257455e-002	1.000643e+000	-2.213174e-002	5.509051e-003	4.384975e-003
1063169.425	4.531974e-003	5.524763e-003	1.000853e+000	-2.420888e-002	1.000311e+000	-2.337343e-002	4.712880e-003	4.443671e-003
1125708.508	4.445777e-003	5.949121e-003	1.000593e+000	-2.584822e-002	1.000323e+000	-2.511631e-002	4.263704e-003	5.110844e-003
1188247.592	5.025309e-003	5.875044e-003	1.000746e+000	-2.734409e-002	1.000575e+000	-2.666922e-002	3.197200e-003	4.927098e-003
1250786.676	4.888585e-003	5.503501e-003	1.000205e+000	-2.755759e-002	1.000232e+000	-2.767739e-002	2.473732e-003	3.662454e-003
1313325.760	5.038306e-003	5.798746e-003	1.000660e+000	-2.954123e-002	1.000489e+000	-2.964032e-002	3.246297e-003	4.241770e-003
1375864.844	4.795120e-003	5.978727e-003	1.000275e+000	-3.187298e-002	1.000015e+000	-3.190303e-002	3.142225e-003	4.895695e-003
1438403.927	4.741910e-003	6.210363e-003	1.000269e+000	-3.282020e-002	1.000348e+000	-3.214854e-002	3.276544e-003	5.541369e-003
1500943.011	5.023348e-003	6.644054e-003	1.000780e+000	-3.430960e-002	1.000663e+000	-3.403369e-002	3.658307e-003	5.513406e-003
1563482.095	5.046835e-003	6.655985e-003	1.000330e+000	-3.595234e-002	9.999583e-001	-3.504414e-002	3.841454e-003	6.096310e-003
1626021.179	4.911253e-003	7.187470e-003	1.000151e+000	-3.760692e-002	1.000216e+000	-3.801900e-002	4.157005e-003	6.434459e-003
1688560.263	4.655420e-003	7.645584e-003	9.998560e-001	-3.970925e-002	1.000503e+000	-3.972116e-002	4.376327e-003	6.805365e-003
1751099.346	4.842508e-003	8.132895e-003	1.000318e+000	-4.130372e-002	9.999496e-001	-4.071884e-002	4.263733e-003	8.044157e-003
1813638.430	4.535725e-003	8.485968e-003	1.000558e+000	-4.322796e-002	1.000076e+000	-4.283679e-002	4.494333e-003	8.064862e-003
1876177.514	4.641062e-003	9.183567e-003	1.000773e+000	-4.454948e-002	1.000375e+000	-4.486940e-002	4.226730e-003	9.140614e-003
1938716.598	4.172576e-003	9.684135e-003	1.001035e+000	-4.586382e-002	1.000368e+000	-4.522313e-002	4.462551e-003	9.934452e-003
2001255.682	4.112085e-003	9.622367e-003	1.000802e+000	-4.769257e-002	1.000232e+000	-4.718207e-002	4.282363e-003	9.900625e-003
2063794.765	4.294002e-003	1.041556e-002	1.000256e+000	-4.897740e-002	9.995969e-001	-4.922910e-002	4.727666e-003	1.021314e-002
2126333.849	3.896640e-003	1.033082e-002	9.996933e-001	-5.080690e-002	9.990130e-001	-5.009450e-002	5.069216e-003	1.086878e-002
2188872.933	4.468137e-003	1.075113e-002	9.994816e-001	-5.227524e-002	9.988198e-001	-5.152205e-002	5.034910e-003	1.125833e-002
2251412.017	4.630448e-003	1.079930e-002	9.990773e-001	-5.425737e-002	9.987484e-001	-5.306563e-002	5.105145e-003	1.155500e-002
2313951.101	5.060396e-003	1.164185e-002	9.984140e-001	-5.554306e-002	9.989114e-001	-5.431601e-002	5.513596e-003	1.192961e-002
2376490.184	4.949668e-003	1.205685e-002	9.983214e-001	-5.654095e-002	9.986152e-001	-5.677241e-002	5.584852e-003	1.235866e-002
2439029.268	5.504838e-003	1.246730e-002	9.981526e-001	-5.872248e-002	9.975994e-001	-5.823117e-002	5.368016e-003	1.291724e-002
2501568.352	5.593401e-003	1.289033e-002	9.976448e-001	-5.929194e-002	9.983319e-001	-5.923194e-002	5.790943e-003	1.330356e-002
2564107.436	5.640673e-003	1.318150e-002	9.979040e-001	-6.149511e-002	9.978990e-001	-6.129732e-002	5.218198e-003	1.339589e-002
2626646.520	6.278969e-003	1.340334e-002	9.975693e-001	-6.310873e-002	9.967068e-001	-6.278757e-002	5.634559e-003	1.374231e-002
2689185.604	6.394674e-003	1.399614e-002	9.977936e-001	-6.427148e-002	9.972691e-001	-6.404763e-002	5.927604e-003	1.422692e-002
2751724.687	6.669816e-003	1.432517e-002	9.974561e-001	-6.551626e-002	9.970873e-001	-6.524208e-002	5.692831e-003	1.463276e-002
2814263.771	6.801453e-003	1.466608e-002	9.964053e-001	-6.774193e-002	9.964318e-001	-6.699011e-002	5.838017e-003	1.490312e-002
2876802.855	6.916436e-003	1.488546e-002	9.962361e-001	-6.954256e-002	9.964101e-001	-6.856945e-002	6.111363e-003	1.545586e-002
2939341.939	7.227083e-003	1.538672e-002	9.967290e-001	-7.040820e-002	9.962267e-001	-7.052496e-002	6.200078e-003	1.577086e-002
3001881.023	7.345441e-003	1.578380e-002	9.961194e-001	-7.204841e-002	9.958949e-001	-7.197832e-002	6.478860e-003	1.602512e-002
3064420.106	7.592143e-003	1.613583e-002	9.965455e-001	-7.351678e-002	9.956070e-001	-7.327785e-002	6.483953e-003	1.630913e-002
3126959.190	7.996805e-003	1.641498e-002	9.958477e-001	-7.516721e-002	9.955810e-001	-7.494487e-002	6.881999e-003	1.662535e-002
3189498.274	8.178924e-003	1.683981e-002	9.955963e-001	-7.654732e-002	9.952923e-001	-7.643475e-002	7.075568e-003	1.696007e-002
3252037.358	8.281399e-003	1.687386e-002	9.954052e-001	-7.814543e-002	9.951030e-001	-7.787307e-002	7.235301e-003	1.739910e-002
3314576.442	8.522601e-003	1.742132e-002	9.951082e-001	-7.957243e-002	9.947575e-001	-7.945721e-002	7.502462e-003	1.768803e-002
3377115.525	8.710413e-003	1.782156e-002	9.946812e-001	-8.097374e-002	9.942830e-001	-8.110985e-002	7.563642e-003	1.794051e-002
3439654.609	8.945959e-003	1.813588e-002	9.942400e-001	-8.254383e-002	9.943309e-001	-8.254197e-002	7.829923e-003	1.851328e-002
3502193.693	9.130954e-003	1.821180e-002	9.939914e-001	-8.413474e-002	9.937261e-001	-8.391361e-002	8.225636e-003	1.883958e-002
3564732.777	9.429907e-003	1.872424e-002	9.937882e-001	-8.558417e-002	9.935041e-001	-8.550639e-002	8.561356e-003	1.923287e-002
3627271.861	9.539512e-003	1.896931e-002	9.935742e-001	-8.723164e-002	9.932663e-001	-8.695956e-002	8.588538e-003	1.940591e-002
3689810.944	9.691186e-003	1.922061e-002	9.931041e-001	-8.872577e-002	9.929115e-001	-8.836451e-002	9.004413e-003	1.978527e-002
3752350.028	1.008394e-002	1.960890e-002	9.927310e-001	-8.997009e-002	9.924392e-001	-8.985244e-002	9.218714e-003	2.010474e-002
3814889.112	1.049037e-002	2.009088e-002	9.923130e-001	-9.151902e-002	9.923221e-001	-9.164038e-002	9.404774e-003	2.032783e-002
3877428.196	1.071618e-002	2.045965e-002	9.921437e-001	-9.307443e-002	9.918925e-001	-9.291875e-002	1.002248e-002	2.067738e-002
3939967.280	1.097943e-002	2.050932e-002	9.917191e-001	-9.462267e-002	9.915941e-001	-9.440626e-002	1.030823e-002	2.110455e-002
4002506.363	1.135960e-002	2.097044e-002	9.913874e-001	-9.610268e-002	9.911459e-001	-9.575315e-002	1.056401e-002	2.136517e-002
4065045.447	1.150019e-002	2.121005e-002	9.908057e-001	-9.763595e-002	9.906453e-001	-9.736518e-002	1.096420e-002	2.159409e-002
4127584.531	1.180318e-002	2.151098e-002	9.903866e-001	-9.909016e-002	9.902833e-001	-9.875861e-002	1.132234e-002	2.200696e-002
4190123.615	1.218393e-002	2.184726e-002	9.900462e-001	-1.006751e-001	9.897392e-001	-1.003617e-001	1.155911e-002	2.209158e-002
4252662.699	1.248848e-002	2.206935e-002	9.897031e-001	-1.021604e-001	9.892396e-001	-1.019479e-001	1.200853e-002	2.240457e-002
4315201.782	1.296908e-002	2.229723e-002	9.892598e-001	-1.033627e-001	9.891296e-001	-1.033819e-001	1.216693e-002	2.250360e-002
4377740.866	1.322589e-002	2.254733e-002	9.888887e-001	-1.049728e-001	9.884675e-001	-1.047754e-001	1.272159e-002	2.306441e-002
4440279.950	1.349796e-002	2.268476e-002	9.884172e-001	-1.062650e-001	9.879040e-001	-1.060906e-001	1.298402e-002	2.316790e-002
4502819.034	1.386928e-002	2.306183e-002	9.876928e-001	-1.077250e-001	9.875589e-001	-1.075061e-001	1.343292e-002	2.355366e-002
4565358.118	1.416382e-002	2.324495e-002	9.872669e-001	-1.091237e-001	9.869450e-001	-1.087184e-001	1.380847e-002	2.367422e-002
4627897.201	1.472701e-002	2.358781e-002	9.870112e-001	-1.105071e-001	9.865753e-001	-1.101052e-001	1.429144e-002	2.399214e-002
4690436.285	1.493019e-002	2.368475e-002	9.865158e-001	-1.119480e-001	9.861576e-001	-1.119019e-001	1.466924e-002	2.401245e-002
4752975.369	1.530482e-002	2.387671e-002	9.858043e-001	-1.134056e-001	9.857625e-001	-1.131404e-001	1.487455e-002	2.417012e-002
4815514.453	1.580511e-002	2.405519e-002	9.855536e-001	-1.146474e-001	9.852750e-001	-1.145890e-001	1.547398e-002	2.444266e-002
4878053.537	1.629043e-002	2.413980e-002	9.851266e-001	-1.159564e-001	9.847167e-001	-1.157725e-001	1.582764e-002	2.453319e-002
4940592.620	1.642039e-002	2.435717e-002	9.844862e-001	-1.173637e-001	9.842704e-001	-1.171880e-001	1.597961e-002	2.468508e-002
5003131.704	1.684509e-002	2.435679e-002	9.839857e-001	-1.186504e-001	9.838701e-001	-1.182987e-001	1.648311e-002	2.478473e-002
5065670.788	1.716303e-002	2.471104e-002	9.834791e-001	-1.200019e-001	9.833429e-001	-1.196976e-001	1.684431e-002	2.496769e-002
5128209.872	1.766952e-002	2.471449e-002	9.832320e-001	-1.212898e-001	9.828193e-001	-1.210073e-001	1.717716e-002	2.489712e-002
5190748.956	1.795264e-002	2.482606e-002	9.825815e-001	-1.226004e-001	9.824437e-001	-1.224218e-001	1.753175e-002	2.514734e-002
5253288.039	1.838033e-002	2.490246e-002	9.822131e-001	-1.239206e-001	9.819323e-001	-1.236691e-001	1.784301e-002	2.535267e-002
5315827.123	1.871102e-002	2.495515e-002	9.815062e-001	-1.252087e-001	9.814332e-001	-1.250005e-001	1.818819e-002	2.536239e-002
5378366.207	1.915497e-002	2.509887e-002	9.812135e-001	-1.265096e-001	9.809862e-001	-1.264197e-001	1.854262e-002	2.537901e-002
5440905.291	1.935712e-002	2.528214e-002	9.807621e-001	-1.277784e-001	9.804915e-001	-1.275980e-001	1.881001e-002	2.552886e-002
5503444.375	1.991133e-002	2.520605e-002	9.802820e-001	-1.290710e-001	9.801073e-001	-1.286820e-001	1.935263e-002	2.552806e-002
5565983.458	1.994327e-002	2.543332e-002	9.798481e-001	-1.302849e-001	9.796084e-001	-1.299179e-001	1.967068e-002	2.577521e-002
5628522.542	2.055620e-002	2.541413e-002	9.793795e-001	-1.314565e-001	9.791656e-001	-1.313611e-001	2.005289e-002	2.572388e-002
5691061.626	2.096074e-002	2.530606e-002	9.788505e-001	-1.329169e-001	9.786250e-001	-1.326590e-001	2.031858e-002	2.584509e-002
5753600.710	2.117499e-002	2.547015e-002	9.783019e-001	-1.340408e-001	9.781704e-001	-1.338142e-001	2.072499e-002	2.577938e-002
5816139.794	2.165016e-002	2.569273e-002	9.778856e-001	-1.352780e-001	9.775296e-001	-1.352525e-001	2.093997e-002	2.588894e-002
5878678.877	2.188928e-002	2.552494e-002	9.774171e-001	-1.365755e-001	9.771465e-001	-1.363444e-001	2.140850e-002	2.580195e-002
5941217.961	2.222966e-002	2.551027e-002	9.768733e-001	-1.378449e-001	9.766683e-001	-1.374282e-001	2.156933e-002	2.596103e-002
6003757.045	2.244036e-002	2.578966e-002	9.762574e-001	-1.389298e-001	9.761836e-001	-1.386641e-001	2.203923e-002	2.596641e-002
6066296.129	2.288646e-002	2.562283e-002	9.760611e-001	-1.401547e-001	9.757525e-001	-1.398680e-001	2.235402e-002	2.597860e-002
6128835.213	2.332618e-002	2.567466e-002	9.755727e-001	-1.411146e-001	9.754450e-001	-1.412087e-001	2.279799e-002	2.599956e-002
6191374.296	2.360663e-002	2.569205e-002	9.749938e-001	-1.425779e-001	9.747408e-001	-1.425204e-001	2.298288e-002	2.613394e-002
6253913.380	2.387321e-002	2.582493e-002	9.745864e-001	-1.438435e-001	9.743503e-001	-1.435463e-001	2.322445e-002	2.626808e-002
6316452.464	2.417684e-002	2.591352e-002	9.741540e-001	-1.448697e-001	9.737785e-001	-1.449686e-001	2.358930e-002	2.606584e-002
6378991.548	2.446452e-002	2.579230e-002	9.736401e-001	-1.464438e-001	9.735167e-001	-1.460337e-001	2.397235e-002	2.596199e-002
6441530.632	2.473680e-002	2.572193e-002	9.731183e-001	-1.473493e-001	9.729471e-001	-1.473820e-001	2.433299e-002	2.606515e-002
6504069.715	2.505822e-002	2.571266e-002	9.726325e-001	-1.487969e-001	9.726320e-001	-1.484731e-001	2.468855e-002	2.607696e-002
6566608.799	2.552135e-002	2.564291e-002	9.722857e-001	-1.500531e-001	9.720036e-001	-1.497051e-001	2.492715e-002	2.626724e-002
6629147.883	2.579788e-002	2.577411e-002	9.717691e-001	-1.508223e-001	9.715402e-001	-1.508836e-001	2.532235e-002	2.613039e-002
6691686.967	2.600979e-002	2.580039e-002	9.712252e-001	-1.521552e-001	9.710431e-001	-1.519943e-001	2.567783e-002	2.620225e-002
6754226.051	2.626572e-002	2.576849e-002	9.707536e-001	-1.534549e-001	9.704756e-001	-1.533778e-001	2.579446e-002	2.600048e-002
6816765.134	2.666966e-002	2.574872e-002	9.703693e-001	-1.545217e-001	9.701302e-001	-1.543866e-001	2.617880e-002	2.617673e-002
6879304.218	2.687052e-002	2.558367e-002	9.698261e-001	-1.557221e-001	9.697196e-001	-1.555189e-001	2.646839e-002	2.609684e-002
6941843.302	2.726815e-002	2.571865e-002	9.693755e-001	-1.569422e-001	9.692051e-001	-1.566620e-001	2.677899e-002	2.616029e-002
7004382.386	2.740386e-002	2.577145e-002	9.689539e-001	-1.579854e-001	9.687092e-001	-1.578442e-001	2.700856e-002	2.617904e-002
7066921.470	2.778680e-002	2.568255e-002	9.684091e-001	-1.593031e-001	9.683163e-001	-1.588224e-001	2.746132e-002	2.598912e-002
7129460.553	2.797788e-002	2.554718e-002	9.680565e-001	-1.602520e-001	9.678601e-001	-1.601260e-001	2.777062e-002	2.602713e-002
7191999.637	2.828275e-002	2.576180e-002	9.673678e-001	-1.614799e-001	9.672136e-001	-1.612477e-001	2.793019e-002	2.600669e-002
7254538.721	2.862239e-002	2.561458e-002	9.672287e-001	-1.626663e-001	9.669438e-001	-1.624369e-001	2.826349e-002	2.598540e-002
7317077.805	2.909541e-002	2.553502e-002	9.667270e-001	-1.637292e-001	9.664889e-001	-1.635477e-001	2.855131e-002	2.583687e-002
7379616.889	2.923738e-002	2.551386e-002	9.664041e-001	-1.650589e-001	9.659971e-001	-1.647346e-001	2.879171e-002	2.583297e-002
7442155.972	2.938903e-002	2.548396e-002	9.657814e-001	-1.660058e-001	9.655816e-001	-1.657624e-001	2.917482e-002	2.600062e-002
7504695.056	2.969939e-002	2.534857e-002	9.652385e-001	-1.670791e-001	9.649785e-001	-1.670510e-001	2.949671e-002	2.601406e-002
7567234.140	3.015129e-002	2.523462e-002	9.649215e-001	-1.682112e-001	9.645597e-001	-1.681245e-001	2.970787e-002	2.587630e-002
7629773.224	3.035177e-002	2.547181e-002	9.644935e-001	-1.695009e-001	9.642308e-001	-1.692523e-001	2.990906e-002	2.578393e-002
7692312.308	3.049802e-002	2.536785e-002	9.639901e-001	-1.706041e-001	9.636873e-001	-1.704722e-001	3.023528e-002	2.564345e-002
7754851.391	3.075082e-002	2.517525e-002	9.635506e-001	-1.717867e-001	9.631490e-001	-1.713916e-001	3.047517e-002	2.573355e-002
7817390.475	3.111752e-002	2.530725e-002	9.631077e-001	-1.730052e-001	9.627511e-001	-1.727159e-001	3.068687e-002	2.578820e-002
7879929.559	3.129085e-002	2.508178e-002	9.625610e-001	-1.741038e-001	9.622899e-001	-1.739915e-001	3.107305e-002	2.573181e-002
7942468.643	3.150737e-002	2.499041e-002	9.622147e-001	-1.751856e-001	9.619445e-001	-1.750492e-001	3.130254e-002	2.550470e-002
8005007.727	3.187012e-002	2.495483e-002	9.616947e-001	-1.763331e-001	9.615160e-001	-1.761506e-001	3.149986e-002	2.566908e-002
8067546.811	3.199017e-002	2.494661e-002	9.612923e-001	-1.774000e-001	9.609315e-001	-1.771923e-001	3.167460e-002	2.542259e-002
8130085.894	3.230716e-002	2.482065e-002	9.608159e-001	-1.784634e-001	9.605854e-001	-1.783602e-001	3.212966e-002	2.529741e-002
8192624.978	3.241232e-002	2.471307e-002	9.602027e-001	-1.796995e-001	9.601019e-001	-1.794261e-001	3.242354e-002	2.522614e-002
8255164.062	3.278836e-002	2.465769e-002	9.599047e-001	-1.808144e-001	9.596274e-001	-1.805875e-001	3.264286e-002	2.512064e-002
8317703.146	3.293168e-002	2.470654e-002	9.595045e-001	-1.819249e-001	9.592880e-001	-1.816819e-001	3.274973e-002	2.513030e-002
8380242.230	3.327831e-002	2.441238e-002	9.589178e-001	-1.830988e-001	9.587520e-001	-1.827334e-001	3.295988e-002	2.500398e-002
8442781.313	3.349782e-002	2.438713e-002	9.587091e-001	-1.840725e-001	9.583524e-001	-1.837987e-001	3.318310e-002	2.486494e-002
8505320.397	3.374618e-002	2.444363e-002	9.582360e-001	-1.852516e-001	9.578609e-001	-1.849480e-001	3.338402e-002	2.483842e-002
8567859.481	3.396785e-002	2.452131e-002	9.577076e-001	-1.861709e-001	9.575350e-001	-1.860444e-001	3.368257e-002	2.491776e-002
8630398.565	3.427028e-002	2.439279e-002	9.571115e-001	-1.872427e-001	9.570761e-001	-1.871166e-001	3.379590e-002	2.462463e-002
8692937.649	3.444137e-002	2.411561e-002	9.567859e-001	-1.883599e-001	9.564966e-001	-1.882356e-001	3.398431e-002	2.464560e-002
8755476.732	3.469519e-002	2.411445e-002	9.563839e-001	-1.895553e-001	9.561002e-001	-1.892432e-001	3.428309e-002	2.457915e-002
8818015.816	3.480921e-002	2.401464e-002	9.558766e-001	-1.905897e-001	9.555063e-001	-1.903774e-001	3.461460e-002	2.441493e-002
8880554.900	3.525764e-002	2.394490e-002	9.555561e-001	-1.917878e-001	9.553297e-001	-1.913369e-001	3.470415e-002	2.419675e-002
8943093.984	3.533321e-002	2.398542e-002	9.550885e-001	-1.927826e-001	9.548778e-001	-1.924705e-001	3.495548e-002	2.416510e-002
9005633.068	3.560498e-002	2.380805e-002	9.545471e-001	-1.938980e-001	9.545047e-001	-1.937011e-001	3.507300e-002	2.397287e-002
9068172.151	3.569366e-002	2.373768e-002	9.542444e-001	-1.950387e-001	9.539310e-001	-1.946764e-001	3.536138e-002	2.393690e-002
9130711.235	3.612016e-002	2.356603e-002	9.537259e-001	-1.961030e-001	9.535637e-001	-1.957063e-001	3.561239e-002	2.367533e-002
9193250.319	3.632008e-002	2.346349e-002	9.534370e-001	-1.970528e-001	9.530529e-001	-1.969145e-001	3.577643e-002	2.365793e-002
9255789.403	3.642407e-002	2.325657e-002	9.530119e-001	-1.980366e-001	9.526360e-001	-1.979160e-001	3.587686e-002	2.364390e-002
9318328.487	3.660994e-002	2.325438e-002	9.525067e-001	-1.993695e-001	9.523558e-001	-1.989674e-001	3.618922e-002	2.353565e-002
9380867.570	3.684549e-002	2.326834e-002	9.521201e-001	-2.004563e-001	9.517459e-001	-2.001335e-001	3.640541e-002	2.343594e-002
9443406.654	3.711152e-002	2.317965e-002	9.516997e-001	-2.014450e-001	9.514754e-001	-2.012740e-001	3.664551e-002	2.326289e-002
9505945.738	3.729937e-002	2.309929e-002	9.510695e-001	-2.026624e-001	9.510601e-001	-2.023416e-001	3.680713e-002	2.318109e-002
9568484.822	3.754158e-002	2.296428e-002	9.508020e-001	-2.037025e-001	9.503789e-001	-2.034173e-001	3.686043e-002	2.332327e-002
9631023.906	3.774754e-002	2.288509e-002	9.503955e-001	-2.047628e-001	9.499716e-001	-2.045294e-001	3.721717e-002	2.291256e-002
9693562.989	3.796686e-002	2.277378e-002	9.498594e-001	-2.058502e-001	9.496028e-001	-2.055280e-001	3.719988e-002	2.294070e-002
9756102.073	3.815496e-002	2.263580e-002	9.496477e-001	-2.069322e-001	9.492558e-001	-2.065193e-001	3.744320e-002	2.273046e-002
