!Agilent Technologies,E5061B,MY49102235,A.02.00
!Date: Tue Jul 11 17:02:52 2023
!Data & Calibration Information:
!Freq	S11:SOLT2(ON)	S21:SOLT2(ON)	S12:SOLT2(ON)	S22:SOLT2(ON)
# Hz S RI R 50
5.000	-5.150845e-003	-5.643034e-003	1.002213e+000	8.027672e-003	1.000558e+000	1.022174e-002	-1.441421e-003	-7.553777e-003
62544.084	5.839888e-003	-1.059440e-004	1.001274e+000	1.519069e-004	1.000781e+000	7.641668e-004	7.707514e-003	-2.488326e-003
125083.168	5.721770e-003	2.782450e-004	1.000896e+000	-1.613314e-003	1.000782e+000	-1.626404e-003	7.512344e-003	-1.531357e-003
187622.251	5.508062e-003	8.157357e-004	1.000422e+000	-3.261012e-003	1.000895e+000	-2.126403e-003	7.413616e-003	-1.246555e-003
250161.335	5.364080e-003	1.323034e-003	1.000582e+000	-4.658007e-003	1.000596e+000	-4.736168e-003	7.310001e-003	-5.225674e-004
312700.419	5.541262e-003	2.410148e-003	1.000738e+000	-5.610262e-003	1.000516e+000	-5.458912e-003	7.848090e-003	-4.878118e-004
375239.503	5.411314e-003	1.255211e-003	1.000975e+000	-7.439332e-003	1.000516e+000	-7.261925e-003	7.334793e-003	-2.758698e-004
437778.587	5.259080e-003	2.007032e-003	1.001321e+000	-7.899495e-003	1.000768e+000	-8.729027e-003	6.730113e-003	3.751540e-004
500317.670	4.726987e-003	2.486742e-003	1.001220e+000	-1.069035e-002	1.001512e+000	-1.055214e-002	4.930804e-003	9.267668e-004
562856.754	6.063804e-003	2.544813e-003	1.001354e+000	-1.254031e-002	1.000922e+000	-1.250441e-002	6.176799e-003	1.787558e-003
625395.838	5.283946e-003	3.066020e-003	1.002116e+000	-1.410005e-002	1.001848e+000	-1.372346e-002	6.307416e-003	2.693138e-003
687934.922	5.362189e-003	3.083460e-003	1.001132e+000	-1.553693e-002	1.000950e+000	-1.565362e-002	5.964367e-003	2.595471e-003
750474.006	4.546344e-003	3.778426e-003	1.000882e+000	-1.536810e-002	1.000437e+000	-1.500440e-002	5.700033e-003	3.093673e-003
813013.089	4.735913e-003	4.147153e-003	1.000968e+000	-1.755487e-002	1.000345e+000	-1.699209e-002	5.093259e-003	3.639962e-003
875552.173	4.491900e-003	4.685067e-003	1.001065e+000	-1.874065e-002	1.000603e+000	-1.872099e-002	5.899101e-003	3.595976e-003
938091.257	4.604340e-003	5.107109e-003	1.001100e+000	-2.060091e-002	1.000847e+000	-2.023153e-002	6.172102e-003	4.511883e-003
1000630.341	4.079581e-003	5.111094e-003	1.000595e+000	-2.240446e-002	1.000586e+000	-2.185973e-002	5.446533e-003	4.175563e-003
1063169.425	4.466996e-003	5.309663e-003	1.000992e+000	-2.422897e-002	1.000393e+000	-2.311863e-002	4.657018e-003	4.240057e-003
1125708.508	4.376654e-003	5.725898e-003	1.000719e+000	-2.558395e-002	1.000351e+000	-2.474498e-002	4.183056e-003	4.887612e-003
1188247.592	4.942681e-003	5.626433e-003	1.000817e+000	-2.716301e-002	1.000493e+000	-2.621820e-002	3.121132e-003	4.692992e-003
1250786.676	4.811833e-003	5.248640e-003	1.000315e+000	-2.738704e-002	1.000355e+000	-2.724656e-002	2.393127e-003	3.406668e-003
1313325.760	4.968926e-003	5.520337e-003	1.000561e+000	-2.928060e-002	1.000392e+000	-2.934811e-002	3.169808e-003	3.941964e-003
1375864.844	4.728584e-003	5.681829e-003	1.000275e+000	-3.173397e-002	9.998418e-001	-3.147538e-002	3.066384e-003	4.606794e-003
1438403.927	4.653967e-003	5.877975e-003	1.000188e+000	-3.272829e-002	1.000392e+000	-3.186712e-002	3.188558e-003	5.217895e-003
1500943.011	4.919071e-003	6.306349e-003	1.000833e+000	-3.390248e-002	1.000814e+000	-3.361624e-002	3.582922e-003	5.182732e-003
1563482.095	4.940676e-003	6.302794e-003	1.000414e+000	-3.565956e-002	9.999915e-001	-3.473191e-002	3.743881e-003	5.737327e-003
1626021.179	4.817652e-003	6.815669e-003	1.000331e+000	-3.728822e-002	1.000326e+000	-3.754076e-002	4.074247e-003	6.072186e-003
1688560.263	4.565673e-003	7.270321e-003	9.999275e-001	-3.931696e-002	1.000685e+000	-3.929761e-002	4.288459e-003	6.423513e-003
1751099.346	4.726785e-003	7.712010e-003	1.000490e+000	-4.090842e-002	9.999815e-001	-4.017009e-002	4.163573e-003	7.640056e-003
1813638.430	4.431937e-003	8.058256e-003	1.000613e+000	-4.276034e-002	1.000227e+000	-4.244810e-002	4.387559e-003	7.619318e-003
1876177.514	4.518294e-003	8.722016e-003	1.000900e+000	-4.407994e-002	1.000438e+000	-4.446411e-002	4.107765e-003	8.679293e-003
1938716.598	4.034648e-003	9.190935e-003	1.000945e+000	-4.539809e-002	1.000466e+000	-4.466448e-002	4.344595e-003	9.443821e-003
2001255.682	3.977695e-003	9.107982e-003	1.000843e+000	-4.708468e-002	1.000355e+000	-4.663976e-002	4.153066e-003	9.383266e-003
2063794.765	4.148625e-003	9.860278e-003	1.000510e+000	-4.852028e-002	9.995768e-001	-4.876632e-002	4.588304e-003	9.644204e-003
2126333.849	3.731902e-003	9.756361e-003	9.997551e-001	-5.022902e-002	9.991525e-001	-4.949459e-002	4.925522e-003	1.028179e-002
2188872.933	4.311965e-003	1.012519e-002	9.995843e-001	-5.170064e-002	9.989076e-001	-5.096289e-002	4.856868e-003	1.063956e-002
2251412.017	4.462462e-003	1.013956e-002	9.991721e-001	-5.371633e-002	9.989498e-001	-5.226192e-002	4.928161e-003	1.091611e-002
2313951.101	4.872700e-003	1.095234e-002	9.987638e-001	-5.502551e-002	9.990439e-001	-5.366953e-002	5.308257e-003	1.124876e-002
2376490.184	4.701091e-003	1.132090e-002	9.984263e-001	-5.574283e-002	9.988369e-001	-5.587514e-002	5.367685e-003	1.163437e-002
2439029.268	5.253228e-003	1.169155e-002	9.983008e-001	-5.794443e-002	9.978240e-001	-5.751377e-002	5.131797e-003	1.213925e-002
2501568.352	5.324251e-003	1.206203e-002	9.978630e-001	-5.854754e-002	9.986204e-001	-5.846659e-002	5.532254e-003	1.248799e-002
2564107.436	5.331337e-003	1.231489e-002	9.982211e-001	-6.075517e-002	9.981774e-001	-6.035517e-002	4.909488e-003	1.254283e-002
2626646.520	5.926107e-003	1.251225e-002	9.979444e-001	-6.233412e-002	9.971035e-001	-6.183916e-002	5.293129e-003	1.286054e-002
2689185.604	6.006817e-003	1.306730e-002	9.981088e-001	-6.342813e-002	9.975922e-001	-6.298805e-002	5.523871e-003	1.330433e-002
2751724.687	6.226208e-003	1.335988e-002	9.978246e-001	-6.460613e-002	9.975315e-001	-6.432198e-002	5.251043e-003	1.366498e-002
2814263.771	6.299344e-003	1.369181e-002	9.969071e-001	-6.675546e-002	9.971960e-001	-6.588118e-002	5.357791e-003	1.392407e-002
2876802.855	6.383140e-003	1.384998e-002	9.966375e-001	-6.855097e-002	9.968944e-001	-6.761550e-002	5.585437e-003	1.441251e-002
2939341.939	6.639449e-003	1.433736e-002	9.973130e-001	-6.942558e-002	9.967266e-001	-6.944943e-002	5.605776e-003	1.471834e-002
3001881.023	6.707580e-003	1.470701e-002	9.966781e-001	-7.103532e-002	9.964663e-001	-7.083419e-002	5.834255e-003	1.494030e-002
3064420.106	6.900568e-003	1.501886e-002	9.971111e-001	-7.249688e-002	9.962441e-001	-7.219583e-002	5.789949e-003	1.519671e-002
3126959.190	7.235214e-003	1.528415e-002	9.965698e-001	-7.402943e-002	9.963073e-001	-7.380461e-002	6.117135e-003	1.550935e-002
3189498.274	7.367528e-003	1.569121e-002	9.963129e-001	-7.541440e-002	9.960456e-001	-7.530547e-002	6.257292e-003	1.581464e-002
3252037.358	7.420303e-003	1.570388e-002	9.962729e-001	-7.702910e-002	9.959471e-001	-7.672459e-002	6.358071e-003	1.623845e-002
3314576.442	7.592960e-003	1.623980e-002	9.959769e-001	-7.839117e-002	9.956958e-001	-7.826489e-002	6.571727e-003	1.649828e-002
3377115.525	7.721244e-003	1.661744e-002	9.956356e-001	-7.983469e-002	9.952685e-001	-7.993013e-002	6.575037e-003	1.674336e-002
3439654.609	7.891377e-003	1.691837e-002	9.952627e-001	-8.134629e-002	9.953482e-001	-8.129148e-002	6.769303e-003	1.729321e-002
3502193.693	8.002316e-003	1.698052e-002	9.950811e-001	-8.299274e-002	9.948648e-001	-8.268164e-002	7.108578e-003	1.760565e-002
3564732.777	8.237803e-003	1.748463e-002	9.949390e-001	-8.441898e-002	9.947047e-001	-8.425146e-002	7.371799e-003	1.799370e-002
3627271.861	8.266243e-003	1.772847e-002	9.947531e-001	-8.600106e-002	9.945369e-001	-8.567983e-002	7.318383e-003	1.813951e-002
3689810.944	8.365954e-003	1.795411e-002	9.944166e-001	-8.748663e-002	9.942478e-001	-8.708517e-002	7.680245e-003	1.851730e-002
3752350.028	8.675260e-003	1.832351e-002	9.941039e-001	-8.873143e-002	9.938165e-001	-8.856161e-002	7.803431e-003	1.881749e-002
3814889.112	9.009625e-003	1.880066e-002	9.937470e-001	-9.028215e-002	9.938016e-001	-9.035312e-002	7.916018e-003	1.904719e-002
3877428.196	9.153746e-003	1.916932e-002	9.936617e-001	-9.184521e-002	9.934646e-001	-9.161475e-002	8.459818e-003	1.940211e-002
3939967.280	9.333880e-003	1.921485e-002	9.933279e-001	-9.342566e-002	9.932220e-001	-9.310488e-002	8.667369e-003	1.982735e-002
4002506.363	9.628817e-003	1.968654e-002	9.930585e-001	-9.488223e-002	9.928722e-001	-9.448662e-002	8.833681e-003	2.008314e-002
4065045.447	9.694943e-003	1.994612e-002	9.926113e-001	-9.636966e-002	9.924443e-001	-9.609003e-002	9.151362e-003	2.030616e-002
4127584.531	9.897761e-003	2.023901e-002	9.922072e-001	-9.784370e-002	9.921497e-001	-9.747226e-002	9.410806e-003	2.074280e-002
4190123.615	1.021073e-002	2.058172e-002	9.919920e-001	-9.948984e-002	9.917477e-001	-9.911272e-002	9.567411e-003	2.082201e-002
4252662.699	1.041781e-002	2.081565e-002	9.917366e-001	-1.009759e-001	9.913301e-001	-1.006739e-001	9.930896e-003	2.115797e-002
4315201.782	1.081113e-002	2.105985e-002	9.913416e-001	-1.021889e-001	9.912548e-001	-1.021183e-001	1.000744e-002	2.127816e-002
4377740.866	1.098333e-002	2.133845e-002	9.910931e-001	-1.038004e-001	9.906947e-001	-1.035780e-001	1.048511e-002	2.185338e-002
4440279.950	1.115863e-002	2.147813e-002	9.907204e-001	-1.050934e-001	9.902376e-001	-1.049023e-001	1.063594e-002	2.197332e-002
4502819.034	1.143445e-002	2.187666e-002	9.901030e-001	-1.066169e-001	9.900299e-001	-1.063559e-001	1.100023e-002	2.238378e-002
4565358.118	1.164005e-002	2.211304e-002	9.897714e-001	-1.080024e-001	9.895114e-001	-1.075986e-001	1.127582e-002	2.254397e-002
4627897.201	1.210196e-002	2.247899e-002	9.895793e-001	-1.094080e-001	9.891424e-001	-1.090094e-001	1.167657e-002	2.289074e-002
4690436.285	1.222223e-002	2.262112e-002	9.891948e-001	-1.109292e-001	9.888893e-001	-1.108343e-001	1.196363e-002	2.294989e-002
4752975.369	1.251675e-002	2.282787e-002	9.885756e-001	-1.124219e-001	9.885511e-001	-1.121358e-001	1.205937e-002	2.314509e-002
4815514.453	1.290335e-002	2.305804e-002	9.883911e-001	-1.137177e-001	9.881193e-001	-1.136221e-001	1.258288e-002	2.345468e-002
4878053.537	1.328991e-002	2.319213e-002	9.880506e-001	-1.150341e-001	9.877515e-001	-1.148223e-001	1.283449e-002	2.360266e-002
4940592.620	1.334406e-002	2.345578e-002	9.875168e-001	-1.165327e-001	9.873529e-001	-1.163421e-001	1.289723e-002	2.379082e-002
5003131.704	1.368064e-002	2.352169e-002	9.871227e-001	-1.178675e-001	9.870479e-001	-1.174717e-001	1.330198e-002	2.393768e-002
5065670.788	1.391667e-002	2.392054e-002	9.866954e-001	-1.192850e-001	9.865753e-001	-1.189380e-001	1.357997e-002	2.419131e-002
5128209.872	1.432634e-002	2.398518e-002	9.864812e-001	-1.206714e-001	9.861777e-001	-1.202986e-001	1.382719e-002	2.417687e-002
5190748.956	1.452375e-002	2.416905e-002	9.859700e-001	-1.219947e-001	9.858490e-001	-1.217888e-001	1.409058e-002	2.449536e-002
5253288.039	1.486602e-002	2.430738e-002	9.857000e-001	-1.234113e-001	9.854567e-001	-1.231301e-001	1.431181e-002	2.477405e-002
5315827.123	1.510340e-002	2.442921e-002	9.851480e-001	-1.247098e-001	9.850435e-001	-1.245173e-001	1.459659e-002	2.484187e-002
5378366.207	1.549095e-002	2.464617e-002	9.848827e-001	-1.261329e-001	9.846625e-001	-1.260374e-001	1.487133e-002	2.493726e-002
5440905.291	1.560819e-002	2.490377e-002	9.845218e-001	-1.274878e-001	9.842781e-001	-1.272793e-001	1.504944e-002	2.516740e-002
5503444.375	1.609075e-002	2.491139e-002	9.840877e-001	-1.288918e-001	9.839560e-001	-1.284544e-001	1.552825e-002	2.523959e-002
5565983.458	1.604058e-002	2.520929e-002	9.837248e-001	-1.301287e-001	9.835419e-001	-1.297734e-001	1.575482e-002	2.556070e-002
5628522.542	1.657011e-002	2.527928e-002	9.833398e-001	-1.313853e-001	9.831394e-001	-1.312793e-001	1.606921e-002	2.560345e-002
5691061.626	1.690720e-002	2.525559e-002	9.828686e-001	-1.329648e-001	9.826808e-001	-1.326341e-001	1.625813e-002	2.580825e-002
5753600.710	1.706850e-002	2.550301e-002	9.823910e-001	-1.341818e-001	9.822886e-001	-1.339200e-001	1.659946e-002	2.583642e-002
5816139.794	1.745132e-002	2.584709e-002	9.820322e-001	-1.355057e-001	9.816998e-001	-1.354224e-001	1.674428e-002	2.605119e-002
5878678.877	1.763875e-002	2.576759e-002	9.816356e-001	-1.368950e-001	9.814230e-001	-1.366712e-001	1.714309e-002	2.604872e-002
5941217.961	1.790578e-002	2.583167e-002	9.811495e-001	-1.383385e-001	9.810022e-001	-1.378523e-001	1.724702e-002	2.631397e-002
6003757.045	1.807001e-002	2.622086e-002	9.806489e-001	-1.394249e-001	9.806004e-001	-1.391545e-001	1.765759e-002	2.641524e-002
6066296.129	1.845152e-002	2.616778e-002	9.804746e-001	-1.408853e-001	9.801730e-001	-1.404290e-001	1.792365e-002	2.652373e-002
6128835.213	1.884019e-002	2.631516e-002	9.800043e-001	-1.418736e-001	9.799416e-001	-1.418825e-001	1.830341e-002	2.665575e-002
6191374.296	1.907695e-002	2.642982e-002	9.795483e-001	-1.433842e-001	9.792857e-001	-1.433808e-001	1.844312e-002	2.690076e-002
6253913.380	1.928189e-002	2.668008e-002	9.791282e-001	-1.448029e-001	9.789047e-001	-1.444773e-001	1.863464e-002	2.713274e-002
6316452.464	1.955525e-002	2.688127e-002	9.787885e-001	-1.460029e-001	9.783459e-001	-1.460203e-001	1.894817e-002	2.703718e-002
6378991.548	1.979327e-002	2.687147e-002	9.782567e-001	-1.476190e-001	9.782195e-001	-1.471827e-001	1.929452e-002	2.703966e-002
6441530.632	2.002873e-002	2.690826e-002	9.777802e-001	-1.486215e-001	9.776565e-001	-1.485966e-001	1.962566e-002	2.726571e-002
6504069.715	2.032207e-002	2.700512e-002	9.773518e-001	-1.501692e-001	9.774076e-001	-1.498538e-001	1.993995e-002	2.738191e-002
6566608.799	2.074896e-002	2.705832e-002	9.770167e-001	-1.515195e-001	9.768257e-001	-1.511886e-001	2.013820e-002	2.768994e-002
6629147.883	2.099169e-002	2.730613e-002	9.765566e-001	-1.525027e-001	9.763248e-001	-1.524735e-001	2.051455e-002	2.765977e-002
6691686.967	2.116560e-002	2.742929e-002	9.760045e-001	-1.539026e-001	9.758312e-001	-1.537431e-001	2.084714e-002	2.784737e-002
6754226.051	2.141474e-002	2.752513e-002	9.755828e-001	-1.553167e-001	9.753240e-001	-1.551934e-001	2.092661e-002	2.776272e-002
6816765.134	2.180792e-002	2.760889e-002	9.752019e-001	-1.565206e-001	9.750196e-001	-1.563665e-001	2.129815e-002	2.804566e-002
6879304.218	2.199788e-002	2.755802e-002	9.746655e-001	-1.578064e-001	9.745962e-001	-1.576016e-001	2.157024e-002	2.808442e-002
6941843.302	2.236520e-002	2.781588e-002	9.742289e-001	-1.591577e-001	9.741363e-001	-1.588176e-001	2.186979e-002	2.826277e-002
7004382.386	2.248315e-002	2.798118e-002	9.738626e-001	-1.603249e-001	9.736338e-001	-1.601364e-001	2.209360e-002	2.839649e-002
7066921.470	2.286228e-002	2.802409e-002	9.732953e-001	-1.617449e-001	9.732563e-001	-1.612321e-001	2.253515e-002	2.832159e-002
7129460.553	2.304782e-002	2.800325e-002	9.729584e-001	-1.628111e-001	9.727757e-001	-1.626595e-001	2.283779e-002	2.847191e-002
7191999.637	2.336429e-002	2.830811e-002	9.722980e-001	-1.641633e-001	9.721790e-001	-1.638977e-001	2.299949e-002	2.856223e-002
7254538.721	2.369723e-002	2.828058e-002	9.721360e-001	-1.655216e-001	9.718883e-001	-1.651888e-001	2.331922e-002	2.865263e-002
7317077.805	2.416303e-002	2.832015e-002	9.715982e-001	-1.666177e-001	9.714554e-001	-1.663992e-001	2.362614e-002	2.863167e-002
7379616.889	2.432367e-002	2.840734e-002	9.712753e-001	-1.681062e-001	9.708969e-001	-1.676962e-001	2.385720e-002	2.873057e-002
7442155.972	2.447584e-002	2.850179e-002	9.706611e-001	-1.691910e-001	9.705140e-001	-1.688842e-001	2.425527e-002	2.900879e-002
7504695.056	2.479804e-002	2.846212e-002	9.700976e-001	-1.703173e-001	9.698787e-001	-1.702636e-001	2.458909e-002	2.913113e-002
7567234.140	2.526561e-002	2.845289e-002	9.698107e-001	-1.715646e-001	9.694340e-001	-1.714595e-001	2.480869e-002	2.910856e-002
7629773.224	2.548306e-002	2.881589e-002	9.693612e-001	-1.729924e-001	9.691711e-001	-1.726755e-001	2.501198e-002	2.913851e-002
7692312.308	2.565234e-002	2.881655e-002	9.688453e-001	-1.741759e-001	9.685670e-001	-1.740218e-001	2.537401e-002	2.911185e-002
7754851.391	2.592130e-002	2.874380e-002	9.683964e-001	-1.754791e-001	9.679925e-001	-1.750418e-001	2.561986e-002	2.929104e-002
7817390.475	2.630263e-002	2.897865e-002	9.678997e-001	-1.768501e-001	9.675760e-001	-1.765163e-001	2.585386e-002	2.945257e-002
7879929.559	2.648319e-002	2.886760e-002	9.673462e-001	-1.780443e-001	9.670832e-001	-1.778744e-001	2.626259e-002	2.949299e-002
7942468.643	2.673325e-002	2.886408e-002	9.669941e-001	-1.792167e-001	9.667201e-001	-1.790628e-001	2.652381e-002	2.938415e-002
8005007.727	2.712761e-002	2.893520e-002	9.664060e-001	-1.804779e-001	9.662333e-001	-1.802583e-001	2.675246e-002	2.965045e-002
8067546.811	2.728308e-002	2.903623e-002	9.659721e-001	-1.816497e-001	9.656408e-001	-1.813875e-001	2.694221e-002	2.951657e-002
8130085.894	2.763249e-002	2.900132e-002	9.654304e-001	-1.827637e-001	9.652699e-001	-1.826342e-001	2.744260e-002	2.948496e-002
8192624.978	2.776190e-002	2.900435e-002	9.648384e-001	-1.841903e-001	9.647747e-001	-1.838470e-001	2.777785e-002	2.951164e-002
8255164.062	2.817166e-002	2.904454e-002	9.645178e-001	-1.853276e-001	9.642475e-001	-1.850657e-001	2.803405e-002	2.950401e-002
8317703.146	2.835443e-002	2.920411e-002	9.640627e-001	-1.865573e-001	9.638866e-001	-1.862546e-001	2.814668e-002	2.960014e-002
8380242.230	2.873855e-002	2.898126e-002	9.634396e-001	-1.878384e-001	9.633000e-001	-1.874582e-001	2.840196e-002	2.958642e-002
8442781.313	2.900919e-002	2.905167e-002	9.631836e-001	-1.889159e-001	9.628606e-001	-1.886143e-001	2.867146e-002	2.952902e-002
8505320.397	2.929609e-002	2.920659e-002	9.626731e-001	-1.902071e-001	9.623555e-001	-1.898506e-001	2.891704e-002	2.961577e-002
8567859.481	2.955250e-002	2.937986e-002	9.620927e-001	-1.912090e-001	9.619435e-001	-1.910459e-001	2.924866e-002	2.978178e-002
8630398.565	2.991512e-002	2.934708e-002	9.614809e-001	-1.923494e-001	9.614364e-001	-1.921981e-001	2.940269e-002	2.957106e-002
8692937.649	3.012095e-002	2.916399e-002	9.610828e-001	-1.935515e-001	9.607990e-001	-1.934082e-001	2.963353e-002	2.968706e-002
8755476.732	3.042499e-002	2.923704e-002	9.606571e-001	-1.948546e-001	9.603609e-001	-1.944664e-001	2.998905e-002	2.971218e-002
8818015.816	3.059515e-002	2.921629e-002	9.600340e-001	-1.960305e-001	9.597233e-001	-1.957344e-001	3.035602e-002	2.962264e-002
8880554.900	3.107596e-002	2.924825e-002	9.597215e-001	-1.972284e-001	9.594982e-001	-1.967640e-001	3.051298e-002	2.950521e-002
8943093.984	3.119909e-002	2.936825e-002	9.591094e-001	-1.983118e-001	9.590028e-001	-1.979881e-001	3.080026e-002	2.954888e-002
9005633.068	3.153551e-002	2.927796e-002	9.585843e-001	-1.995169e-001	9.585737e-001	-1.993072e-001	3.097950e-002	2.944256e-002
9068172.151	3.166674e-002	2.928710e-002	9.582560e-001	-2.007672e-001	9.579314e-001	-2.003283e-001	3.130727e-002	2.947585e-002
9130711.235	3.215203e-002	2.918231e-002	9.576532e-001	-2.019055e-001	9.575436e-001	-2.014953e-001	3.161237e-002	2.928749e-002
9193250.319	3.240386e-002	2.915840e-002	9.573055e-001	-2.029124e-001	9.570149e-001	-2.027440e-001	3.183325e-002	2.936256e-002
9255789.403	3.256941e-002	2.902603e-002	9.568525e-001	-2.039979e-001	9.565087e-001	-2.038270e-001	3.198427e-002	2.940770e-002
9318328.487	3.280933e-002	2.910803e-002	9.562908e-001	-2.054137e-001	9.561752e-001	-2.049607e-001	3.235533e-002	2.938768e-002
9380867.570	3.309509e-002	2.919268e-002	9.558539e-001	-2.065467e-001	9.555112e-001	-2.062711e-001	3.262713e-002	2.934590e-002
9443406.654	3.340753e-002	2.916281e-002	9.553582e-001	-2.075829e-001	9.551261e-001	-2.074580e-001	3.291934e-002	2.926103e-002
9505945.738	3.366104e-002	2.916389e-002	9.547158e-001	-2.088990e-001	9.547241e-001	-2.085761e-001	3.314380e-002	2.922789e-002
9568484.822	3.396252e-002	2.909176e-002	9.543396e-001	-2.100043e-001	9.539611e-001	-2.096874e-001	3.324502e-002	2.945155e-002
9631023.906	3.422679e-002	2.908375e-002	9.538822e-001	-2.110997e-001	9.534968e-001	-2.108907e-001	3.365885e-002	2.911351e-002
9693562.989	3.449356e-002	2.903282e-002	9.532591e-001	-2.122925e-001	9.530619e-001	-2.119299e-001	3.369045e-002	2.922099e-002
9756102.073	3.475124e-002	2.896502e-002	9.529971e-001	-2.134746e-001	9.526320e-001	-2.130266e-001	3.398908e-002	2.905459e-002
