!Agilent Technologies,E5061B,MY49102235,A.02.00
!Date: Tue Jul 11 17:05:27 2023
!Data & Calibration Information:
!Freq	S11:SOLT2(ON)	S21:SOLT2(ON)	S12:SOLT2(ON)	S22:SOLT2(ON)
# Hz S RI R 50
5.000	-5.238980e-003	-5.635741e-003	1.002306e+000	7.967129e-003	1.000604e+000	1.022483e-002	-1.382931e-003	-7.545801e-003
62544.084	5.831132e-003	-4.221869e-004	1.001415e+000	5.393053e-004	1.000817e+000	1.170666e-003	7.704485e-003	-2.805403e-003
125083.168	5.699336e-003	-3.280383e-004	1.001042e+000	-9.704040e-004	1.000689e+000	-1.149174e-003	7.473862e-003	-2.114563e-003
187622.251	5.483166e-003	-9.879454e-005	1.000481e+000	-2.409097e-003	1.000935e+000	-1.261072e-003	7.370027e-003	-2.141380e-003
250161.335	5.284947e-003	9.889102e-005	1.000751e+000	-3.559981e-003	1.000453e+000	-3.452292e-003	7.287789e-003	-1.730788e-003
312700.419	5.444604e-003	9.191483e-004	1.000911e+000	-4.287742e-003	1.000619e+000	-3.866051e-003	7.763345e-003	-1.984151e-003
375239.503	5.334399e-003	-5.357352e-004	1.001100e+000	-5.702467e-003	1.000532e+000	-5.290441e-003	7.255902e-003	-2.083444e-003
437778.587	5.181759e-003	-6.931153e-005	1.001361e+000	-5.953081e-003	1.000871e+000	-6.586388e-003	6.625139e-003	-1.703238e-003
500317.670	4.624811e-003	1.026680e-004	1.001277e+000	-8.311832e-003	1.001610e+000	-8.107310e-003	4.809527e-003	-1.465760e-003
562856.754	5.927166e-003	-1.208638e-004	1.001424e+000	-1.000819e-002	1.001064e+000	-9.838854e-003	6.030130e-003	-8.771926e-004
625395.838	5.127761e-003	9.604629e-005	1.002258e+000	-1.122668e-002	1.002048e+000	-1.081347e-002	6.128175e-003	-2.567760e-004
687934.922	5.176144e-003	-1.850093e-004	1.001407e+000	-1.225116e-002	1.001225e+000	-1.229170e-002	5.763150e-003	-6.686717e-004
750474.006	4.310326e-003	2.138049e-004	1.001212e+000	-1.190087e-002	1.000695e+000	-1.132172e-002	5.489096e-003	-4.459008e-004
813013.089	4.475692e-003	3.009756e-004	1.001352e+000	-1.377020e-002	1.000541e+000	-1.317107e-002	4.844237e-003	-2.093910e-004
875552.173	4.207569e-003	5.340133e-004	1.001323e+000	-1.474115e-002	1.000795e+000	-1.442251e-002	5.630808e-003	-5.451714e-004
938091.257	4.291912e-003	6.673696e-004	1.001434e+000	-1.617608e-002	1.001055e+000	-1.568726e-002	5.881160e-003	8.672067e-005
1000630.341	3.754727e-003	3.880083e-004	1.001020e+000	-1.770227e-002	1.000817e+000	-1.714558e-002	5.115674e-003	-5.404977e-004
1063169.425	4.093008e-003	3.025176e-004	1.001421e+000	-1.900506e-002	1.000639e+000	-1.798435e-002	4.297228e-003	-7.957675e-004
1125708.508	3.994222e-003	4.121536e-004	1.001219e+000	-2.028749e-002	1.000689e+000	-1.958007e-002	3.811932e-003	-4.468299e-004
1188247.592	4.528604e-003	2.340484e-005	1.001204e+000	-2.168656e-002	1.000847e+000	-2.068734e-002	2.724326e-003	-9.364846e-004
1250786.676	4.369881e-003	-6.526101e-004	1.000896e+000	-2.156375e-002	1.000710e+000	-2.131842e-002	1.993503e-003	-2.519979e-003
1313325.760	4.497470e-003	-6.860475e-004	1.001199e+000	-2.322825e-002	1.000878e+000	-2.307560e-002	2.721727e-003	-2.249913e-003
1375864.844	4.224215e-003	-7.973668e-004	1.000884e+000	-2.512110e-002	1.000493e+000	-2.495125e-002	2.584238e-003	-1.916514e-003
1438403.927	4.116180e-003	-8.961536e-004	1.000857e+000	-2.577610e-002	1.000822e+000	-2.475690e-002	2.661113e-003	-1.575590e-003
1500943.011	4.356966e-003	-7.613149e-004	1.001606e+000	-2.698905e-002	1.001290e+000	-2.642995e-002	3.014579e-003	-1.919357e-003
1563482.095	4.344830e-003	-1.079660e-003	1.001000e+000	-2.836862e-002	1.000528e+000	-2.712613e-002	3.164566e-003	-1.664313e-003
1626021.179	4.159129e-003	-8.779867e-004	1.000826e+000	-2.954434e-002	1.000878e+000	-2.978527e-002	3.433864e-003	-1.636240e-003
1688560.263	3.876662e-003	-7.286910e-004	1.000896e+000	-3.137228e-002	1.001238e+000	-3.115952e-002	3.610974e-003	-1.590880e-003
1751099.346	4.017061e-003	-5.772069e-004	1.001354e+000	-3.267342e-002	1.000559e+000	-3.181595e-002	3.427292e-003	-6.811570e-004
1813638.430	3.663639e-003	-5.699928e-004	1.001560e+000	-3.424791e-002	1.000772e+000	-3.366140e-002	3.613164e-003	-1.000831e-003
1876177.514	3.694241e-003	-2.126972e-004	1.001689e+000	-3.516049e-002	1.001177e+000	-3.538559e-002	3.287365e-003	-2.699037e-004
1938716.598	3.156297e-003	-6.235453e-005	1.001976e+000	-3.614875e-002	1.001310e+000	-3.525403e-002	3.452755e-003	1.895345e-004
2001255.682	3.062760e-003	-4.703175e-004	1.001906e+000	-3.750039e-002	1.001235e+000	-3.691332e-002	3.208592e-003	-2.022918e-004
2063794.765	3.157618e-003	-2.607257e-005	1.001480e+000	-3.848268e-002	1.000642e+000	-3.866819e-002	3.604419e-003	-2.398079e-004
2126333.849	2.711113e-003	-4.976888e-004	1.000913e+000	-4.010858e-002	1.000051e+000	-3.906797e-002	3.874673e-003	7.998762e-005
2188872.933	3.210313e-003	-4.174875e-004	1.000700e+000	-4.112234e-002	9.999048e-001	-4.026630e-002	3.754635e-003	8.951635e-005
2251412.017	3.295652e-003	-7.417825e-004	1.000465e+000	-4.273456e-002	1.000100e+000	-4.125365e-002	3.750054e-003	4.188504e-005
2313951.101	3.622106e-003	-2.459504e-004	9.998920e-001	-4.386555e-002	1.000048e+000	-4.234562e-002	4.056322e-003	3.963435e-005
2376490.184	3.374882e-003	-2.229340e-004	9.998669e-001	-4.439263e-002	1.000026e+000	-4.424244e-002	4.026338e-003	1.054667e-004
2439029.268	3.820277e-003	-1.875492e-004	9.997611e-001	-4.607011e-002	9.991571e-001	-4.542408e-002	3.700801e-003	2.655016e-004
2501568.352	3.818788e-003	-1.217995e-004	9.995940e-001	-4.641289e-002	1.000066e+000	-4.612028e-002	4.001297e-003	3.024067e-004
2564107.436	3.728835e-003	-2.354762e-004	9.998035e-001	-4.823214e-002	9.997787e-001	-4.775694e-002	3.301197e-003	-1.687628e-005
2626646.520	4.219369e-003	-3.507405e-004	9.996214e-001	-4.951274e-002	9.987584e-001	-4.892890e-002	3.570508e-003	-2.676393e-005
2689185.604	4.172880e-003	-1.203594e-004	9.999304e-001	-5.028348e-002	9.994787e-001	-4.974638e-002	3.704450e-003	8.864419e-005
2751724.687	4.296836e-003	-1.597984e-004	9.998537e-001	-5.105273e-002	9.993960e-001	-5.060129e-002	3.315577e-003	1.055811e-004
2814263.771	4.242211e-003	-1.764522e-004	9.989425e-001	-5.296412e-002	9.991351e-001	-5.190725e-002	3.294344e-003	4.832141e-005
2876802.855	4.201799e-003	-3.265142e-004	9.990361e-001	-5.441331e-002	9.990977e-001	-5.317642e-002	3.375993e-003	2.189663e-004
2939341.939	4.330485e-003	-1.925446e-004	9.995520e-001	-5.506402e-002	9.989367e-001	-5.470906e-002	3.277661e-003	1.822340e-004
3001881.023	4.264259e-003	-1.357133e-004	9.992558e-001	-5.621509e-002	9.987055e-001	-5.591988e-002	3.369600e-003	8.505122e-005
3064420.106	4.313428e-003	-1.223937e-004	9.996838e-001	-5.738584e-002	9.988818e-001	-5.698102e-002	3.213162e-003	1.326017e-005
3126959.190	4.513095e-003	-1.726148e-004	9.993736e-001	-5.861488e-002	9.989682e-001	-5.815317e-002	3.380903e-003	1.032771e-005
3189498.274	4.501094e-003	-8.733301e-005	9.992684e-001	-5.960071e-002	9.988364e-001	-5.938153e-002	3.384723e-003	-1.144499e-005
3252037.358	4.406099e-003	-3.962260e-004	9.993322e-001	-6.091654e-002	9.988945e-001	-6.041877e-002	3.345992e-003	8.928587e-005
3314576.442	4.442806e-003	-1.876286e-004	9.992147e-001	-6.196636e-002	9.987866e-001	-6.167879e-002	3.407558e-003	4.144388e-005
3377115.525	4.410340e-003	-1.420464e-004	9.989954e-001	-6.303672e-002	9.985375e-001	-6.293814e-002	3.247676e-003	-6.652037e-005
3439654.609	4.421054e-003	-1.681201e-004	9.987380e-001	-6.427255e-002	9.987566e-001	-6.400379e-002	3.280718e-003	1.641830e-004
3502193.693	4.391266e-003	-4.354700e-004	9.987836e-001	-6.557027e-002	9.984113e-001	-6.507643e-002	3.451127e-003	1.618323e-004
3564732.777	4.448395e-003	-2.519967e-004	9.988181e-001	-6.667184e-002	9.984418e-001	-6.630197e-002	3.551602e-003	2.162888e-004
3627271.861	4.291711e-003	-3.715319e-004	9.987999e-001	-6.792614e-002	9.984603e-001	-6.734888e-002	3.325700e-003	3.285477e-005
3689810.944	4.206870e-003	-4.539853e-004	9.986391e-001	-6.905890e-002	9.983645e-001	-6.852311e-002	3.481477e-003	8.976576e-005
3752350.028	4.319170e-003	-3.861199e-004	9.985181e-001	-7.001096e-002	9.981310e-001	-6.966845e-002	3.423342e-003	6.354442e-005
3814889.112	4.448390e-003	-2.381616e-004	9.983800e-001	-7.125136e-002	9.983043e-001	-7.111724e-002	3.350863e-003	-3.475102e-005
3877428.196	4.397296e-003	-2.028539e-004	9.985204e-001	-7.244731e-002	9.981387e-001	-7.201674e-002	3.672288e-003	-1.290993e-005
3939967.280	4.364205e-003	-4.834369e-004	9.983489e-001	-7.373348e-002	9.981117e-001	-7.327091e-002	3.665077e-003	8.736720e-005
4002506.363	4.432651e-003	-3.333556e-004	9.983217e-001	-7.479111e-002	9.979950e-001	-7.425891e-002	3.604381e-003	3.141245e-005
4065045.447	4.258612e-003	-3.882446e-004	9.980695e-001	-7.600618e-002	9.977885e-001	-7.558306e-002	3.690046e-003	-4.956084e-005
4127584.531	4.246876e-003	-3.943326e-004	9.979659e-001	-7.717292e-002	9.977876e-001	-7.662099e-002	3.721510e-003	8.101514e-005
4190123.615	4.294571e-003	-3.697801e-004	9.979565e-001	-7.849570e-002	9.976143e-001	-7.795998e-002	3.645535e-003	-1.430687e-004
4252662.699	4.249014e-003	-4.229394e-004	9.980300e-001	-7.971002e-002	9.974709e-001	-7.925426e-002	3.738976e-003	-1.061810e-004
4315201.782	4.387743e-003	-4.696772e-004	9.978614e-001	-8.063396e-002	9.976701e-001	-8.041149e-002	3.580992e-003	-2.917275e-004
4377740.866	4.309656e-003	-4.845083e-004	9.979019e-001	-8.199135e-002	9.973463e-001	-8.155115e-002	3.760079e-003	1.601251e-005
4440279.950	4.205661e-003	-6.118363e-004	9.977306e-001	-8.299112e-002	9.971745e-001	-8.256876e-002	3.649123e-003	-1.416409e-004
4502819.034	4.208660e-003	-4.775407e-004	9.973997e-001	-8.423638e-002	9.972053e-001	-8.375390e-002	3.732685e-003	6.770340e-006
4565358.118	4.124060e-003	-5.319087e-004	9.973576e-001	-8.533674e-002	9.969274e-001	-8.473911e-002	3.741647e-003	-9.481730e-005
4627897.201	4.320401e-003	-3.912108e-004	9.974334e-001	-8.651743e-002	9.969078e-001	-8.593384e-002	3.855703e-003	8.656881e-006
4690436.285	4.143471e-003	-5.156329e-004	9.973400e-001	-8.775489e-002	9.968782e-001	-8.745981e-002	3.853390e-003	-1.921239e-004
4752975.369	4.148993e-003	-5.215235e-004	9.969791e-001	-8.903483e-002	9.969034e-001	-8.849271e-002	3.683574e-003	-2.493775e-004
4815514.453	4.281600e-003	-5.261866e-004	9.971077e-001	-9.008175e-002	9.967463e-001	-8.981665e-002	3.910889e-003	-1.416592e-004
4878053.537	4.388710e-003	-6.159137e-004	9.970588e-001	-9.120591e-002	9.966210e-001	-9.079689e-002	3.874675e-003	-2.190551e-004
4940592.620	4.132640e-003	-5.774018e-004	9.968334e-001	-9.241562e-002	9.965327e-001	-9.205540e-002	3.653893e-003	-2.532273e-004
5003131.704	4.205885e-003	-7.216214e-004	9.967109e-001	-9.357912e-002	9.964990e-001	-9.297128e-002	3.787349e-003	-3.219039e-004
5065670.788	4.128449e-003	-5.260754e-004	9.965742e-001	-9.478108e-002	9.963177e-001	-9.424397e-002	3.753804e-003	-2.894993e-004
5128209.872	4.272528e-003	-6.762031e-004	9.966467e-001	-9.594686e-002	9.962004e-001	-9.542341e-002	3.739955e-003	-4.992484e-004
5190748.956	4.174242e-003	-6.971198e-004	9.964338e-001	-9.710921e-002	9.961858e-001	-9.669722e-002	3.717494e-003	-3.770844e-004
5253288.039	4.226231e-003	-7.359082e-004	9.964086e-001	-9.828791e-002	9.960654e-001	-9.782844e-002	3.646836e-003	-3.066790e-004
5315827.123	4.208436e-003	-7.955654e-004	9.961539e-001	-9.946855e-002	9.959560e-001	-9.904716e-002	3.632442e-003	-4.022749e-004
5378366.207	4.282727e-003	-7.646172e-004	9.961798e-001	-1.006118e-001	9.958450e-001	-1.003855e-001	3.628272e-003	-5.159426e-004
5440905.291	4.126457e-003	-6.847344e-004	9.961070e-001	-1.017950e-001	9.957305e-001	-1.013978e-001	3.520453e-003	-4.728872e-004
5503444.375	4.333732e-003	-8.671056e-004	9.959693e-001	-1.030516e-001	9.957033e-001	-1.024284e-001	3.725885e-003	-5.543566e-004
5565983.458	3.982062e-003	-7.504619e-004	9.958652e-001	-1.040806e-001	9.956037e-001	-1.036012e-001	3.663648e-003	-4.166112e-004
5628522.542	4.251783e-003	-8.378129e-004	9.957357e-001	-1.051692e-001	9.954520e-001	-1.049135e-001	3.699723e-003	-5.545997e-004
5691061.626	4.305704e-003	-1.030915e-003	9.955991e-001	-1.065373e-001	9.952727e-001	-1.061021e-001	3.614594e-003	-5.087957e-004
5753600.710	4.169815e-003	-9.523784e-004	9.953902e-001	-1.076381e-001	9.952192e-001	-1.072016e-001	3.679256e-003	-6.650941e-004
5816139.794	4.270176e-003	-7.825640e-004	9.954065e-001	-1.088079e-001	9.948910e-001	-1.085744e-001	3.540855e-003	-6.269489e-004
5878678.877	4.168185e-003	-1.028334e-003	9.951931e-001	-1.100093e-001	9.948940e-001	-1.095923e-001	3.642961e-003	-7.672763e-004
5941217.961	4.179506e-003	-1.116463e-003	9.950251e-001	-1.112660e-001	9.947704e-001	-1.106182e-001	3.464148e-003	-6.840711e-004
6003757.045	4.028432e-003	-8.947081e-004	9.947924e-001	-1.122332e-001	9.946634e-001	-1.117779e-001	3.585161e-003	-7.159358e-004
6066296.129	4.159297e-003	-1.112120e-003	9.948683e-001	-1.134826e-001	9.945038e-001	-1.129098e-001	3.567302e-003	-7.769429e-004
6128835.213	4.250321e-003	-1.104602e-003	9.947064e-001	-1.143697e-001	9.945196e-001	-1.142059e-001	3.669457e-003	-8.002839e-004
6191374.296	4.201355e-003	-1.142188e-003	9.945345e-001	-1.157537e-001	9.942241e-001	-1.155501e-001	3.499139e-003	-7.138734e-004
6253913.380	4.115320e-003	-1.037438e-003	9.944522e-001	-1.169634e-001	9.941352e-001	-1.164896e-001	3.393953e-003	-6.264319e-004
6316452.464	4.086562e-003	-9.704052e-004	9.943407e-001	-1.180127e-001	9.938891e-001	-1.178966e-001	3.443996e-003	-8.684306e-004
6378991.548	4.062799e-003	-1.145793e-003	9.941670e-001	-1.195551e-001	9.939571e-001	-1.189085e-001	3.510649e-003	-1.001664e-003
6441530.632	3.999691e-003	-1.233553e-003	9.939779e-001	-1.203782e-001	9.937848e-001	-1.201747e-001	3.546450e-003	-9.023709e-004
6504069.715	3.996246e-003	-1.280950e-003	9.938090e-001	-1.217854e-001	9.937782e-001	-1.212722e-001	3.565454e-003	-9.185987e-004
6566608.799	4.142819e-003	-1.366138e-003	9.937968e-001	-1.230013e-001	9.934604e-001	-1.224972e-001	3.473280e-003	-7.593508e-004
6629147.883	4.108198e-003	-1.233889e-003	9.936116e-001	-1.238717e-001	9.933236e-001	-1.236217e-001	3.564324e-003	-9.196973e-004
6691686.967	3.985506e-003	-1.243498e-003	9.933688e-001	-1.251415e-001	9.931383e-001	-1.247936e-001	3.597896e-003	-8.449946e-004
6754226.051	3.922820e-003	-1.284348e-003	9.932001e-001	-1.263587e-001	9.928647e-001	-1.261413e-001	3.399911e-003	-1.082338e-003
6816765.134	4.025656e-003	-1.306526e-003	9.931273e-001	-1.274595e-001	9.928697e-001	-1.271284e-001	3.451923e-003	-8.953931e-004
6879304.218	3.923902e-003	-1.486816e-003	9.929131e-001	-1.286549e-001	9.927604e-001	-1.282513e-001	3.446334e-003	-9.854389e-004
6941843.302	4.010180e-003	-1.350033e-003	9.927660e-001	-1.299262e-001	9.926061e-001	-1.294263e-001	3.447674e-003	-9.057302e-004
7004382.386	3.810540e-003	-1.292364e-003	9.927117e-001	-1.309589e-001	9.923697e-001	-1.306022e-001	3.344968e-003	-8.924696e-004
7066921.470	3.905912e-003	-1.361498e-003	9.924080e-001	-1.322748e-001	9.923222e-001	-1.316005e-001	3.503985e-003	-1.075031e-003
7129460.553	3.784931e-003	-1.497315e-003	9.923479e-001	-1.332271e-001	9.921060e-001	-1.329053e-001	3.521292e-003	-1.016554e-003
7191999.637	3.790629e-003	-1.268609e-003	9.919771e-001	-1.344801e-001	9.917977e-001	-1.340183e-001	3.376838e-003	-1.038441e-003
7254538.721	3.850636e-003	-1.400391e-003	9.921574e-001	-1.357052e-001	9.918571e-001	-1.352619e-001	3.416965e-003	-1.044954e-003
7317077.805	4.020218e-003	-1.449942e-003	9.919520e-001	-1.367253e-001	9.917098e-001	-1.363856e-001	3.401776e-003	-1.175872e-003
7379616.889	3.886970e-003	-1.459624e-003	9.919020e-001	-1.381192e-001	9.914261e-001	-1.375356e-001	3.352041e-003	-1.165848e-003
7442155.972	3.734220e-003	-1.481093e-003	9.915653e-001	-1.390667e-001	9.913651e-001	-1.387065e-001	3.444872e-003	-9.557669e-004
7504695.056	3.768217e-003	-1.594462e-003	9.913253e-001	-1.401604e-001	9.910115e-001	-1.399701e-001	3.478151e-003	-9.138492e-004
7567234.140	3.942848e-003	-1.670795e-003	9.912978e-001	-1.413519e-001	9.908851e-001	-1.410899e-001	3.392100e-003	-1.024750e-003
7629773.224	3.847613e-003	-1.388048e-003	9.911810e-001	-1.426728e-001	9.908713e-001	-1.421862e-001	3.305704e-003	-1.091192e-003
7692312.308	3.713112e-003	-1.471018e-003	9.909526e-001	-1.438142e-001	9.906396e-001	-1.434355e-001	3.370639e-003	-1.191018e-003
7754851.391	3.689288e-003	-1.634991e-003	9.907568e-001	-1.450342e-001	9.903284e-001	-1.444188e-001	3.314463e-003	-1.073596e-003
7817390.475	3.776611e-003	-1.444356e-003	9.906367e-001	-1.462880e-001	9.902327e-001	-1.458436e-001	3.236695e-003	-9.759153e-004
7879929.559	3.681530e-003	-1.647720e-003	9.903233e-001	-1.474750e-001	9.900491e-001	-1.471550e-001	3.354528e-003	-1.003905e-003
7942468.643	3.631267e-003	-1.724510e-003	9.902826e-001	-1.484790e-001	9.899758e-001	-1.482412e-001	3.334898e-003	-1.185482e-003
8005007.727	3.716786e-003	-1.702382e-003	9.899981e-001	-1.497528e-001	9.898328e-001	-1.493713e-001	3.247780e-003	-9.731694e-004
8067546.811	3.573043e-003	-1.668298e-003	9.898662e-001	-1.508751e-001	9.894852e-001	-1.505042e-001	3.140493e-003	-1.199378e-003
8130085.894	3.648510e-003	-1.750754e-003	9.896568e-001	-1.520036e-001	9.893761e-001	-1.516804e-001	3.363858e-003	-1.266279e-003
8192624.978	3.469795e-003	-1.823122e-003	9.893005e-001	-1.532810e-001	9.892067e-001	-1.527911e-001	3.393440e-003	-1.288301e-003
8255164.062	3.578200e-003	-1.827404e-003	9.892603e-001	-1.543633e-001	9.889595e-001	-1.540081e-001	3.359145e-003	-1.340671e-003
8317703.146	3.465920e-003	-1.721918e-003	9.891405e-001	-1.555596e-001	9.888793e-001	-1.551488e-001	3.184080e-003	-1.289044e-003
8380242.230	3.571688e-003	-1.974388e-003	9.887735e-001	-1.568173e-001	9.885831e-001	-1.562483e-001	3.138019e-003	-1.370164e-003
8442781.313	3.539242e-003	-1.941970e-003	9.888424e-001	-1.578295e-001	9.884751e-001	-1.573870e-001	3.113553e-003	-1.473556e-003
8505320.397	3.519810e-003	-1.825781e-003	9.886174e-001	-1.590504e-001	9.882377e-001	-1.585731e-001	3.050461e-003	-1.427817e-003
8567859.481	3.457560e-003	-1.679444e-003	9.883244e-001	-1.600495e-001	9.881491e-001	-1.597100e-001	3.082990e-003	-1.266075e-003
8630398.565	3.542660e-003	-1.751864e-003	9.879914e-001	-1.612055e-001	9.879902e-001	-1.608343e-001	2.956068e-003	-1.546234e-003
8692937.649	3.474147e-003	-1.979200e-003	9.879211e-001	-1.623638e-001	9.876183e-001	-1.620321e-001	2.882319e-003	-1.462539e-003
8755476.732	3.478936e-003	-1.926264e-003	9.877603e-001	-1.636280e-001	9.874379e-001	-1.630810e-001	2.941526e-003	-1.457136e-003
8818015.816	3.358829e-003	-1.975413e-003	9.874926e-001	-1.647549e-001	9.871208e-001	-1.643071e-001	3.046770e-003	-1.549657e-003
8880554.900	3.561440e-003	-1.954130e-003	9.874242e-001	-1.659699e-001	9.871898e-001	-1.653304e-001	2.888507e-003	-1.720792e-003
8943093.984	3.380366e-003	-1.859172e-003	9.872064e-001	-1.670496e-001	9.869798e-001	-1.665419e-001	2.897979e-003	-1.685232e-003
9005633.068	3.432623e-003	-1.969769e-003	9.868971e-001	-1.682212e-001	9.868597e-001	-1.678050e-001	2.788893e-003	-1.830846e-003
9068172.151	3.268035e-003	-1.974644e-003	9.868563e-001	-1.693991e-001	9.864861e-001	-1.688530e-001	2.837550e-003	-1.790834e-003
9130711.235	3.475082e-003	-2.075878e-003	9.865081e-001	-1.705368e-001	9.863942e-001	-1.699836e-001	2.860199e-003	-1.995746e-003
9193250.319	3.441742e-003	-2.105878e-003	9.864453e-001	-1.715578e-001	9.860959e-001	-1.712391e-001	2.775073e-003	-1.933400e-003
9255789.403	3.330084e-003	-2.271308e-003	9.862943e-001	-1.726384e-001	9.858778e-001	-1.723088e-001	2.632649e-003	-1.904665e-003
9318328.487	3.268833e-003	-2.195056e-003	9.860163e-001	-1.740512e-001	9.858491e-001	-1.734571e-001	2.727789e-003	-1.917227e-003
9380867.570	3.270937e-003	-2.089669e-003	9.859090e-001	-1.751910e-001	9.854888e-001	-1.747427e-001	2.714227e-003	-1.939226e-003
9443406.654	3.302394e-003	-2.104604e-003	9.856841e-001	-1.762751e-001	9.853934e-001	-1.759009e-001	2.737799e-003	-2.050564e-003
9505945.738	3.276724e-003	-2.093085e-003	9.852857e-001	-1.776051e-001	9.852597e-001	-1.770558e-001	2.671996e-003	-2.058598e-003
9568484.822	3.304021e-003	-2.152046e-003	9.852211e-001	-1.786846e-001	9.847913e-001	-1.782074e-001	2.453045e-003	-1.825270e-003
9631023.906	3.277153e-003	-2.143843e-003	9.850551e-001	-1.798388e-001	9.845939e-001	-1.794143e-001	2.641059e-003	-2.154625e-003
