!Agilent Technologies,E5061B,MY49102235,A.02.00
!Date: Tue Jul 11 17:11:30 2023
!Data & Calibration Information:
!Freq	S11:SOLT2(ON)	S21:SOLT2(ON)	S12:SOLT2(ON)	S22:SOLT2(ON)
# Hz S RI R 50
5.000	-5.152064e-003	-5.623161e-003	1.002483e+000	7.915532e-003	1.000777e+000	1.027483e-002	-1.397449e-003	-7.563642e-003
62544.084	5.823880e-003	-4.922587e-004	1.001441e+000	4.334062e-004	1.000782e+000	1.188823e-003	7.700829e-003	-2.878156e-003
125083.168	5.702989e-003	-4.834679e-004	1.000926e+000	-9.407701e-004	1.000655e+000	-7.656773e-004	7.491956e-003	-2.278039e-003
187622.251	5.487355e-003	-3.398003e-004	1.000507e+000	-2.155932e-003	1.000823e+000	-9.166465e-004	7.378264e-003	-2.361240e-003
250161.335	5.303770e-003	-1.889856e-004	1.000738e+000	-3.279830e-003	1.000610e+000	-3.186904e-003	7.256669e-003	-2.022654e-003
312700.419	5.442919e-003	5.180697e-004	1.000965e+000	-3.906176e-003	1.000369e+000	-3.487324e-003	7.800903e-003	-2.347841e-003
375239.503	5.338296e-003	-1.002501e-003	1.001128e+000	-5.283271e-003	1.000331e+000	-4.923078e-003	7.269113e-003	-2.513705e-003
437778.587	5.175417e-003	-6.334684e-004	1.001384e+000	-5.317467e-003	1.000933e+000	-5.964761e-003	6.628070e-003	-2.249389e-003
500317.670	4.611169e-003	-5.129425e-004	1.001304e+000	-7.797823e-003	1.001587e+000	-7.474694e-003	4.815477e-003	-2.078211e-003
562856.754	5.926182e-003	-8.054133e-004	1.001454e+000	-9.390387e-003	1.001104e+000	-9.075462e-003	6.010670e-003	-1.583085e-003
625395.838	5.106211e-003	-6.891948e-004	1.002355e+000	-1.042474e-002	1.002052e+000	-9.916400e-003	6.107910e-003	-1.040025e-003
687934.922	5.160509e-003	-1.026228e-003	1.001486e+000	-1.150520e-002	1.001135e+000	-1.146620e-002	5.764554e-003	-1.503607e-003
750474.006	4.282025e-003	-7.104480e-004	1.001158e+000	-1.111856e-002	1.000556e+000	-1.035506e-002	5.462193e-003	-1.385758e-003
813013.089	4.448046e-003	-7.187803e-004	1.001412e+000	-1.280882e-002	1.000524e+000	-1.205735e-002	4.825194e-003	-1.228692e-003
875552.173	4.199156e-003	-5.545608e-004	1.001478e+000	-1.366618e-002	1.000765e+000	-1.328464e-002	5.606861e-003	-1.622622e-003
938091.257	4.266538e-003	-4.859363e-004	1.001600e+000	-1.516061e-002	1.000984e+000	-1.438666e-002	5.850504e-003	-1.076761e-003
1000630.341	3.707491e-003	-8.509161e-004	1.001012e+000	-1.655230e-002	1.000893e+000	-1.577095e-002	5.088034e-003	-1.783939e-003
1063169.425	4.065183e-003	-1.017272e-003	1.001513e+000	-1.781971e-002	1.000555e+000	-1.667765e-002	4.254959e-003	-2.116346e-003
1125708.508	3.939910e-003	-9.921444e-004	1.001223e+000	-1.912148e-002	1.000631e+000	-1.803907e-002	3.777087e-003	-1.836537e-003
1188247.592	4.497866e-003	-1.435021e-003	1.001426e+000	-2.022624e-002	1.000785e+000	-1.903245e-002	2.667565e-003	-2.415867e-003
1250786.676	4.325452e-003	-2.200220e-003	1.000951e+000	-2.006154e-002	1.000615e+000	-1.973409e-002	1.931441e-003	-4.083127e-003
1313325.760	4.443287e-003	-2.299205e-003	1.001393e+000	-2.155249e-002	1.000954e+000	-2.131919e-002	2.659170e-003	-3.885904e-003
1375864.844	4.176267e-003	-2.515209e-003	1.001040e+000	-2.352534e-002	1.000380e+000	-2.302023e-002	2.518716e-003	-3.626875e-003
1438403.927	4.056916e-003	-2.682007e-003	1.001008e+000	-2.420403e-002	1.000787e+000	-2.295105e-002	2.599192e-003	-3.374078e-003
1500943.011	4.282607e-003	-2.631543e-003	1.001631e+000	-2.524101e-002	1.001288e+000	-2.448227e-002	2.958126e-003	-3.778369e-003
1563482.095	4.291503e-003	-3.013046e-003	1.001119e+000	-2.642344e-002	1.000503e+000	-2.520642e-002	3.094067e-003	-3.596773e-003
1626021.179	4.095642e-003	-2.886820e-003	1.001162e+000	-2.762647e-002	1.000908e+000	-2.762351e-002	3.368375e-003	-3.652963e-003
1688560.263	3.780700e-003	-2.830694e-003	1.000613e+000	-2.931467e-002	1.001239e+000	-2.896875e-002	3.534595e-003	-3.682828e-003
1751099.346	3.928113e-003	-2.748249e-003	1.001348e+000	-3.059424e-002	1.000621e+000	-2.937097e-002	3.344450e-003	-2.846119e-003
1813638.430	3.569325e-003	-2.828840e-003	1.001549e+000	-3.205889e-002	1.000858e+000	-3.119528e-002	3.532023e-003	-3.246856e-003
1876177.514	3.605858e-003	-2.533524e-003	1.001863e+000	-3.285066e-002	1.001355e+000	-3.296501e-002	3.193184e-003	-2.584673e-003
1938716.598	3.061340e-003	-2.472182e-003	1.002142e+000	-3.382693e-002	1.001293e+000	-3.290897e-002	3.372515e-003	-2.210769e-003
2001255.682	2.966323e-003	-2.953005e-003	1.002023e+000	-3.522696e-002	1.001192e+000	-3.438715e-002	3.119337e-003	-2.689249e-003
2063794.765	3.044654e-003	-2.595037e-003	1.001651e+000	-3.619551e-002	1.000701e+000	-3.601771e-002	3.495574e-003	-2.786213e-003
2126333.849	2.585640e-003	-3.127456e-003	1.000972e+000	-3.751861e-002	1.000118e+000	-3.644036e-002	3.765333e-003	-2.549291e-003
2188872.933	3.072809e-003	-3.141433e-003	1.000744e+000	-3.852275e-002	1.000223e+000	-3.736517e-002	3.644215e-003	-2.605760e-003
2251412.017	3.183568e-003	-3.521082e-003	1.000790e+000	-4.021096e-002	1.000126e+000	-3.839529e-002	3.617093e-003	-2.731899e-003
2313951.101	3.503649e-003	-3.102202e-003	1.000033e+000	-4.108888e-002	1.000198e+000	-3.944312e-002	3.924711e-003	-2.829401e-003
2376490.184	3.235868e-003	-3.159159e-003	1.000003e+000	-4.144660e-002	1.000103e+000	-4.121432e-002	3.876096e-003	-2.835308e-003
2439029.268	3.685387e-003	-3.204722e-003	9.999990e-001	-4.322945e-002	9.992799e-001	-4.229350e-002	3.543348e-003	-2.749410e-003
2501568.352	3.651418e-003	-3.222635e-003	9.997885e-001	-4.332595e-002	1.000290e+000	-4.296598e-002	3.836183e-003	-2.787504e-003
2564107.436	3.560558e-003	-3.382844e-003	1.000018e+000	-4.502309e-002	9.999124e-001	-4.447838e-002	3.141508e-003	-3.194949e-003
2626646.520	4.054160e-003	-3.590302e-003	9.998652e-001	-4.621251e-002	9.987821e-001	-4.554344e-002	3.387189e-003	-3.266309e-003
2689185.604	4.005300e-003	-3.448249e-003	1.000143e+000	-4.699665e-002	9.995084e-001	-4.632604e-002	3.501146e-003	-3.228414e-003
2751724.687	4.111454e-003	-3.549949e-003	1.000039e+000	-4.765415e-002	9.996159e-001	-4.717677e-002	3.120686e-003	-3.300072e-003
2814263.771	4.049185e-003	-3.643596e-003	9.991902e-001	-4.953416e-002	9.992382e-001	-4.842378e-002	3.088174e-003	-3.434875e-003
2876802.855	4.008304e-003	-3.875423e-003	9.992582e-001	-5.088305e-002	9.992570e-001	-4.951432e-002	3.169483e-003	-3.333223e-003
2939341.939	4.119245e-003	-3.819436e-003	9.997876e-001	-5.145901e-002	9.990291e-001	-5.092744e-002	3.053879e-003	-3.459028e-003
3001881.023	4.038338e-003	-3.830299e-003	9.994103e-001	-5.258060e-002	9.990677e-001	-5.195492e-002	3.146585e-003	-3.623612e-003
3064420.106	4.076171e-003	-3.905859e-003	1.000056e+000	-5.358418e-002	9.989459e-001	-5.302991e-002	2.976736e-003	-3.768205e-003
3126959.190	4.288893e-003	-4.025461e-003	9.996131e-001	-5.482154e-002	9.991622e-001	-5.421616e-002	3.145829e-003	-3.856266e-003
3189498.274	4.259389e-003	-4.019822e-003	9.995310e-001	-5.578111e-002	9.990873e-001	-5.526315e-002	3.144450e-003	-3.942969e-003
3252037.358	4.163382e-003	-4.428543e-003	9.995449e-001	-5.691877e-002	9.991185e-001	-5.633729e-002	3.080536e-003	-3.925339e-003
3314576.442	4.179723e-003	-4.289981e-003	9.994606e-001	-5.794381e-002	9.990149e-001	-5.746598e-002	3.131994e-003	-4.067524e-003
3377115.525	4.140938e-003	-4.306632e-003	9.993090e-001	-5.892697e-002	9.987670e-001	-5.870384e-002	2.976133e-003	-4.236142e-003
3439654.609	4.141462e-003	-4.413550e-003	9.990694e-001	-6.006346e-002	9.990216e-001	-5.967131e-002	2.986122e-003	-4.080650e-003
3502193.693	4.102305e-003	-4.749518e-003	9.990803e-001	-6.130287e-002	9.986751e-001	-6.066287e-002	3.147156e-003	-4.167258e-003
3564732.777	4.156495e-003	-4.654728e-003	9.991111e-001	-6.232834e-002	9.986759e-001	-6.180979e-002	3.227067e-003	-4.179513e-003
3627271.861	3.989830e-003	-4.833871e-003	9.991003e-001	-6.349655e-002	9.987312e-001	-6.277370e-002	3.008314e-003	-4.433911e-003
3689810.944	3.900595e-003	-5.005743e-003	9.989230e-001	-6.457875e-002	9.986129e-001	-6.386007e-002	3.154662e-003	-4.474779e-003
3752350.028	4.010962e-003	-5.020682e-003	9.988602e-001	-6.542278e-002	9.984176e-001	-6.492952e-002	3.072038e-003	-4.567808e-003
3814889.112	4.102708e-003	-4.944679e-003	9.987055e-001	-6.659932e-002	9.986053e-001	-6.628612e-002	3.007315e-003	-4.756872e-003
3877428.196	4.046021e-003	-4.976791e-003	9.988452e-001	-6.771377e-002	9.984729e-001	-6.714651e-002	3.316750e-003	-4.792699e-003
3939967.280	4.010864e-003	-5.330576e-003	9.987111e-001	-6.888931e-002	9.984619e-001	-6.825716e-002	3.286361e-003	-4.762057e-003
4002506.363	4.066042e-003	-5.249403e-003	9.987473e-001	-6.994969e-002	9.983927e-001	-6.919036e-002	3.221519e-003	-4.891753e-003
4065045.447	3.883740e-003	-5.404226e-003	9.984977e-001	-7.110408e-002	9.981850e-001	-7.045247e-002	3.309076e-003	-5.062550e-003
4127584.531	3.850869e-003	-5.492701e-003	9.984073e-001	-7.214838e-002	9.981633e-001	-7.142403e-002	3.321233e-003	-5.018068e-003
4190123.615	3.894622e-003	-5.521861e-003	9.984111e-001	-7.336657e-002	9.979865e-001	-7.267792e-002	3.221948e-003	-5.310357e-003
4252662.699	3.838141e-003	-5.665514e-003	9.984229e-001	-7.449259e-002	9.978869e-001	-7.390949e-002	3.331153e-003	-5.347495e-003
4315201.782	3.962372e-003	-5.778114e-003	9.982879e-001	-7.533469e-002	9.980388e-001	-7.494761e-002	3.131116e-003	-5.601475e-003
4377740.866	3.870419e-003	-5.877624e-003	9.983066e-001	-7.660972e-002	9.977233e-001	-7.605054e-002	3.296714e-003	-5.382477e-003
4440279.950	3.761476e-003	-6.095163e-003	9.982373e-001	-7.754942e-002	9.975691e-001	-7.699690e-002	3.185148e-003	-5.621322e-003
4502819.034	3.748564e-003	-6.030589e-003	9.978761e-001	-7.873433e-002	9.976471e-001	-7.809416e-002	3.259596e-003	-5.541759e-003
4565358.118	3.656520e-003	-6.141301e-003	9.978392e-001	-7.980763e-002	9.973707e-001	-7.899329e-002	3.253555e-003	-5.712215e-003
4627897.201	3.833710e-003	-6.096668e-003	9.979362e-001	-8.086302e-002	9.973876e-001	-8.010373e-002	3.361594e-003	-5.695080e-003
4690436.285	3.651030e-003	-6.293656e-003	9.978290e-001	-8.205321e-002	9.974058e-001	-8.158867e-002	3.353242e-003	-5.956464e-003
4752975.369	3.651581e-003	-6.375190e-003	9.975081e-001	-8.319177e-002	9.974241e-001	-8.256167e-002	3.160466e-003	-6.093022e-003
4815514.453	3.759526e-003	-6.456484e-003	9.976618e-001	-8.419966e-002	9.972546e-001	-8.373638e-002	3.358834e-003	-6.068758e-003
4878053.537	3.856569e-003	-6.629422e-003	9.976270e-001	-8.523333e-002	9.971123e-001	-8.466240e-002	3.326345e-003	-6.237617e-003
4940592.620	3.575495e-003	-6.678016e-003	9.973726e-001	-8.640049e-002	9.970499e-001	-8.584258e-002	3.071515e-003	-6.349863e-003
5003131.704	3.627062e-003	-6.871280e-003	9.972361e-001	-8.742535e-002	9.970296e-001	-8.667431e-002	3.193992e-003	-6.484604e-003
5065670.788	3.546943e-003	-6.766188e-003	9.971659e-001	-8.863683e-002	9.968852e-001	-8.788697e-002	3.175507e-003	-6.511594e-003
5128209.872	3.676220e-003	-6.972370e-003	9.972702e-001	-8.965683e-002	9.967652e-001	-8.896649e-002	3.128053e-003	-6.800124e-003
5190748.956	3.575869e-003	-7.076771e-003	9.970314e-001	-9.079271e-002	9.967903e-001	-9.019452e-002	3.090527e-003	-6.759525e-003
5253288.039	3.608380e-003	-7.203094e-003	9.970679e-001	-9.188487e-002	9.966546e-001	-9.125130e-002	3.004379e-003	-6.767052e-003
5315827.123	3.568912e-003	-7.344855e-003	9.967901e-001	-9.291973e-002	9.965520e-001	-9.236769e-002	2.984673e-003	-6.945033e-003
5378366.207	3.652727e-003	-7.380201e-003	9.968492e-001	-9.408378e-002	9.964649e-001	-9.363953e-002	2.970005e-003	-7.127701e-003
5440905.291	3.455442e-003	-7.389378e-003	9.968039e-001	-9.513639e-002	9.963781e-001	-9.458198e-002	2.842901e-003	-7.165507e-003
5503444.375	3.650896e-003	-7.624197e-003	9.966400e-001	-9.627435e-002	9.963663e-001	-9.555022e-002	3.035647e-003	-7.327024e-003
5565983.458	3.285813e-003	-7.598546e-003	9.966068e-001	-9.726672e-002	9.962524e-001	-9.660021e-002	2.937925e-003	-7.251290e-003
5628522.542	3.533134e-003	-7.755241e-003	9.965071e-001	-9.830048e-002	9.961116e-001	-9.781876e-002	2.976949e-003	-7.468483e-003
5691061.626	3.599236e-003	-8.026201e-003	9.963055e-001	-9.962791e-002	9.959893e-001	-9.894142e-002	2.863691e-003	-7.505010e-003
5753600.710	3.430908e-003	-8.032514e-003	9.961578e-001	-1.005592e-001	9.959384e-001	-9.998216e-002	2.916828e-003	-7.735249e-003
5816139.794	3.498573e-003	-7.929023e-003	9.961267e-001	-1.017002e-001	9.956712e-001	-1.012690e-001	2.765902e-003	-7.780695e-003
5878678.877	3.404195e-003	-8.251205e-003	9.960181e-001	-1.028172e-001	9.956206e-001	-1.022214e-001	2.849997e-003	-8.007552e-003
5941217.961	3.386539e-003	-8.420207e-003	9.958697e-001	-1.040359e-001	9.955243e-001	-1.031698e-001	2.643256e-003	-7.998791e-003
6003757.045	3.210878e-003	-8.291986e-003	9.956234e-001	-1.048939e-001	9.954173e-001	-1.042132e-001	2.771007e-003	-8.101805e-003
6066296.129	3.348564e-003	-8.562630e-003	9.957344e-001	-1.060270e-001	9.953286e-001	-1.053184e-001	2.728683e-003	-8.223197e-003
6128835.213	3.437888e-003	-8.631193e-003	9.955745e-001	-1.068791e-001	9.954058e-001	-1.065207e-001	2.802538e-003	-8.315956e-003
6191374.296	3.351551e-003	-8.760899e-003	9.954110e-001	-1.081697e-001	9.950141e-001	-1.077575e-001	2.635944e-003	-8.312213e-003
6253913.380	3.264766e-003	-8.722519e-003	9.953654e-001	-1.093235e-001	9.950235e-001	-1.087092e-001	2.502963e-003	-8.287094e-003
6316452.464	3.207210e-003	-8.743416e-003	9.952411e-001	-1.102387e-001	9.947680e-001	-1.100633e-001	2.540372e-003	-8.610981e-003
6378991.548	3.155257e-003	-8.978883e-003	9.951116e-001	-1.117398e-001	9.948528e-001	-1.109582e-001	2.601736e-003	-8.824652e-003
6441530.632	3.099536e-003	-9.155590e-003	9.949232e-001	-1.124822e-001	9.946549e-001	-1.121755e-001	2.610760e-003	-8.805837e-003
6504069.715	3.060279e-003	-9.282054e-003	9.947737e-001	-1.138382e-001	9.946923e-001	-1.131698e-001	2.617461e-003	-8.914815e-003
6566608.799	3.198445e-003	-9.424661e-003	9.948040e-001	-1.150048e-001	9.944264e-001	-1.142616e-001	2.497972e-003	-8.809862e-003
6629147.883	3.130932e-003	-9.384233e-003	9.945737e-001	-1.157228e-001	9.942865e-001	-1.154214e-001	2.561264e-003	-9.039057e-003
6691686.967	2.997705e-003	-9.476734e-003	9.943811e-001	-1.169488e-001	9.940901e-001	-1.164640e-001	2.592468e-003	-9.061009e-003
6754226.051	2.922458e-003	-9.588866e-003	9.942477e-001	-1.181615e-001	9.939114e-001	-1.176622e-001	2.367156e-003	-9.362839e-003
6816765.134	3.009432e-003	-9.680577e-003	9.941896e-001	-1.191323e-001	9.939301e-001	-1.186162e-001	2.399398e-003	-9.254701e-003
6879304.218	2.884905e-003	-9.942403e-003	9.940076e-001	-1.202714e-001	9.938025e-001	-1.197100e-001	2.373914e-003	-9.407426e-003
6941843.302	2.936668e-003	-9.865215e-003	9.938504e-001	-1.214020e-001	9.936240e-001	-1.207966e-001	2.342949e-003	-9.423665e-003
7004382.386	2.725525e-003	-9.888313e-003	9.938199e-001	-1.224008e-001	9.934348e-001	-1.218428e-001	2.235835e-003	-9.487913e-003
7066921.470	2.808343e-003	-1.003727e-002	9.935695e-001	-1.236494e-001	9.934291e-001	-1.227701e-001	2.397577e-003	-9.740583e-003
7129460.553	2.684847e-003	-1.024746e-002	9.935168e-001	-1.245142e-001	9.932397e-001	-1.240179e-001	2.359899e-003	-9.764257e-003
7191999.637	2.662544e-003	-1.010535e-002	9.931816e-001	-1.257003e-001	9.929374e-001	-1.250716e-001	2.214903e-003	-9.849499e-003
7254538.721	2.685882e-003	-1.030386e-002	9.933479e-001	-1.268298e-001	9.929919e-001	-1.261868e-001	2.231287e-003	-9.930920e-003
7317077.805	2.840503e-003	-1.042411e-002	9.931172e-001	-1.278156e-001	9.928772e-001	-1.272728e-001	2.206126e-003	-1.013268e-002
7379616.889	2.682017e-003	-1.052766e-002	9.931616e-001	-1.290824e-001	9.926560e-001	-1.283682e-001	2.132606e-003	-1.019640e-002
7442155.972	2.506820e-003	-1.060988e-002	9.928084e-001	-1.299877e-001	9.925903e-001	-1.293855e-001	2.195616e-003	-1.006641e-002
7504695.056	2.531341e-003	-1.079703e-002	9.926062e-001	-1.309884e-001	9.922833e-001	-1.306357e-001	2.209264e-003	-1.009592e-002
7567234.140	2.688511e-003	-1.096039e-002	9.925515e-001	-1.320730e-001	9.921267e-001	-1.316547e-001	2.107411e-003	-1.029291e-002
7629773.224	2.568924e-003	-1.075015e-002	9.925050e-001	-1.333514e-001	9.921530e-001	-1.326721e-001	2.009333e-003	-1.043594e-002
7692312.308	2.404056e-003	-1.089997e-002	9.923196e-001	-1.344252e-001	9.918967e-001	-1.338704e-001	2.048237e-003	-1.061405e-002
7754851.391	2.370976e-003	-1.115451e-002	9.921064e-001	-1.355539e-001	9.916374e-001	-1.347831e-001	1.966250e-003	-1.056679e-002
7817390.475	2.429627e-003	-1.102446e-002	9.920568e-001	-1.367255e-001	9.915826e-001	-1.361018e-001	1.876582e-003	-1.055052e-002
7879929.559	2.315409e-003	-1.130872e-002	9.917094e-001	-1.378396e-001	9.914292e-001	-1.373303e-001	1.966950e-003	-1.063260e-002
7942468.643	2.243018e-003	-1.145169e-002	9.916947e-001	-1.387907e-001	9.913779e-001	-1.383559e-001	1.917480e-003	-1.090882e-002
8005007.727	2.321155e-003	-1.151439e-002	9.914627e-001	-1.399559e-001	9.912331e-001	-1.394275e-001	1.805113e-003	-1.076803e-002
8067546.811	2.150635e-003	-1.156172e-002	9.913309e-001	-1.409931e-001	9.908957e-001	-1.404618e-001	1.694448e-003	-1.106036e-002
8130085.894	2.184284e-003	-1.172114e-002	9.911310e-001	-1.420265e-001	9.908681e-001	-1.415847e-001	1.892947e-003	-1.120119e-002
8192624.978	2.002958e-003	-1.186826e-002	9.908306e-001	-1.432558e-001	9.906487e-001	-1.425761e-001	1.906547e-003	-1.130677e-002
8255164.062	2.093315e-003	-1.193016e-002	9.908299e-001	-1.442945e-001	9.904699e-001	-1.437305e-001	1.851144e-003	-1.143553e-002
8317703.146	1.953211e-003	-1.190876e-002	9.907483e-001	-1.453801e-001	9.904047e-001	-1.447891e-001	1.634513e-003	-1.146885e-002
8380242.230	2.047215e-003	-1.223673e-002	9.903845e-001	-1.465687e-001	9.901491e-001	-1.458228e-001	1.585970e-003	-1.162148e-002
8442781.313	1.985595e-003	-1.230021e-002	9.905194e-001	-1.475258e-001	9.900617e-001	-1.469039e-001	1.532987e-003	-1.180169e-002
8505320.397	1.927001e-003	-1.224549e-002	9.902345e-001	-1.486595e-001	9.898565e-001	-1.480058e-001	1.447437e-003	-1.182011e-002
8567859.481	1.855355e-003	-1.218172e-002	9.899936e-001	-1.495631e-001	9.897938e-001	-1.490681e-001	1.454630e-003	-1.173749e-002
8630398.565	1.917437e-003	-1.232253e-002	9.897249e-001	-1.506439e-001	9.896087e-001	-1.501188e-001	1.307404e-003	-1.209718e-002
8692937.649	1.814917e-003	-1.262426e-002	9.896081e-001	-1.517461e-001	9.892575e-001	-1.512668e-001	1.220957e-003	-1.208585e-002
8755476.732	1.808896e-003	-1.263056e-002	9.894939e-001	-1.529535e-001	9.891460e-001	-1.522377e-001	1.250286e-003	-1.215381e-002
8818015.816	1.651170e-003	-1.277667e-002	9.892369e-001	-1.539768e-001	9.887964e-001	-1.533614e-001	1.320903e-003	-1.231412e-002
8880554.900	1.831504e-003	-1.281985e-002	9.892352e-001	-1.551165e-001	9.889145e-001	-1.542893e-001	1.144642e-003	-1.258063e-002
8943093.984	1.629481e-003	-1.280193e-002	9.889781e-001	-1.561360e-001	9.887495e-001	-1.554171e-001	1.130365e-003	-1.261996e-002
9005633.068	1.657205e-003	-1.298744e-002	9.887095e-001	-1.572320e-001	9.886071e-001	-1.566224e-001	1.004364e-003	-1.284038e-002
9068172.151	1.476544e-003	-1.307260e-002	9.886925e-001	-1.583598e-001	9.882809e-001	-1.576080e-001	1.017167e-003	-1.286837e-002
9130711.235	1.650625e-003	-1.323342e-002	9.884493e-001	-1.594050e-001	9.881893e-001	-1.586381e-001	1.026785e-003	-1.316470e-002
9193250.319	1.603615e-003	-1.337180e-002	9.883419e-001	-1.603439e-001	9.879653e-001	-1.598086e-001	9.225580e-004	-1.316587e-002
9255789.403	1.459958e-003	-1.359516e-002	9.882041e-001	-1.613511e-001	9.877924e-001	-1.608263e-001	7.498830e-004	-1.320120e-002
9318328.487	1.389480e-003	-1.359178e-002	9.879874e-001	-1.626870e-001	9.877570e-001	-1.618800e-001	8.274950e-004	-1.328404e-002
9380867.570	1.346009e-003	-1.355744e-002	9.878698e-001	-1.637460e-001	9.873971e-001	-1.631035e-001	7.827535e-004	-1.340031e-002
9443406.654	1.352157e-003	-1.365748e-002	9.876992e-001	-1.647142e-001	9.873807e-001	-1.642685e-001	7.763082e-004	-1.356783e-002
9505945.738	1.312564e-003	-1.371831e-002	9.873038e-001	-1.659907e-001	9.872738e-001	-1.653275e-001	6.944675e-004	-1.365907e-002
9568484.822	1.306299e-003	-1.384833e-002	9.872726e-001	-1.670187e-001	9.868589e-001	-1.664058e-001	4.513804e-004	-1.350858e-002
