!Agilent Technologies,E5061B,MY49102235,A.02.00
!Date: Tue Jul 11 17:02:26 2023
!Data & Calibration Information:
!Freq	S11:SOLT2(ON)	S21:SOLT2(ON)	S12:SOLT2(ON)	S22:SOLT2(ON)
# Hz S RI R 50
5.000	-5.227343e-003	-5.637661e-003	1.002148e+000	8.050391e-003	1.000617e+000	1.022689e-002	-1.448069e-003	-7.551924e-003
62544.084	5.824299e-003	-9.083913e-005	1.001296e+000	1.584256e-004	1.000797e+000	7.820252e-004	7.721532e-003	-2.480544e-003
125083.168	5.724355e-003	2.755628e-004	1.000898e+000	-1.573524e-003	1.000688e+000	-1.583494e-003	7.529442e-003	-1.508384e-003
187622.251	5.510508e-003	8.319178e-004	1.000428e+000	-3.291923e-003	1.000962e+000	-2.134036e-003	7.412490e-003	-1.236742e-003
250161.335	5.363232e-003	1.321844e-003	1.000591e+000	-4.596243e-003	1.000586e+000	-4.698295e-003	7.318714e-003	-5.158211e-004
312700.419	5.517067e-003	2.446204e-003	1.000772e+000	-5.787529e-003	1.000430e+000	-5.394215e-003	7.862269e-003	-4.625870e-004
375239.503	5.439980e-003	1.264698e-003	1.000902e+000	-7.415681e-003	1.000551e+000	-7.144823e-003	7.340145e-003	-2.821960e-004
437778.587	5.258475e-003	2.036303e-003	1.001311e+000	-7.988031e-003	1.000914e+000	-8.737018e-003	6.719139e-003	4.038705e-004
500317.670	4.737484e-003	2.527080e-003	1.001163e+000	-1.072350e-002	1.001469e+000	-1.062875e-002	4.948540e-003	9.553732e-004
562856.754	6.067232e-003	2.586033e-003	1.001352e+000	-1.262904e-002	1.000983e+000	-1.250870e-002	6.166944e-003	1.810870e-003
625395.838	5.286381e-003	3.114051e-003	1.002152e+000	-1.423486e-002	1.002077e+000	-1.383069e-002	6.268315e-003	2.741182e-003
687934.922	5.352787e-003	3.143829e-003	1.001158e+000	-1.563648e-002	1.001006e+000	-1.567009e-002	5.967613e-003	2.641154e-003
750474.006	4.551009e-003	3.806872e-003	1.000823e+000	-1.543620e-002	1.000541e+000	-1.494418e-002	5.704657e-003	3.150945e-003
813013.089	4.741659e-003	4.198184e-003	1.000969e+000	-1.752107e-002	1.000344e+000	-1.713264e-002	5.109210e-003	3.679295e-003
875552.173	4.503349e-003	4.721724e-003	1.000964e+000	-1.893240e-002	1.000511e+000	-1.868960e-002	5.913099e-003	3.643831e-003
938091.257	4.605227e-003	5.162826e-003	1.001073e+000	-2.069779e-002	1.000756e+000	-2.022690e-002	6.186636e-003	4.568128e-003
1000630.341	4.092944e-003	5.172412e-003	1.000507e+000	-2.253287e-002	1.000635e+000	-2.196276e-002	5.454753e-003	4.240798e-003
1063169.425	4.480295e-003	5.392762e-003	1.000857e+000	-2.423980e-002	1.000406e+000	-2.324185e-002	4.665957e-003	4.307960e-003
1125708.508	4.387866e-003	5.793967e-003	1.000567e+000	-2.567684e-002	1.000324e+000	-2.493807e-002	4.205935e-003	4.950665e-003
1188247.592	4.957781e-003	5.703449e-003	1.000758e+000	-2.722756e-002	1.000623e+000	-2.637559e-002	3.126925e-003	4.768596e-003
1250786.676	4.826985e-003	5.338715e-003	1.000348e+000	-2.746410e-002	1.000263e+000	-2.743590e-002	2.408915e-003	3.493232e-003
1313325.760	4.990122e-003	5.600283e-003	1.000611e+000	-2.942392e-002	1.000497e+000	-2.938865e-002	3.176687e-003	4.047067e-003
1375864.844	4.740855e-003	5.791771e-003	1.000201e+000	-3.165186e-002	1.000020e+000	-3.168129e-002	3.089832e-003	4.701684e-003
1438403.927	4.675781e-003	5.994868e-003	1.000305e+000	-3.270336e-002	1.000297e+000	-3.191877e-002	3.206549e-003	5.339087e-003
1500943.011	4.930140e-003	6.426957e-003	1.000803e+000	-3.402402e-002	1.000793e+000	-3.379098e-002	3.609366e-003	5.301200e-003
1563482.095	4.980325e-003	6.430675e-003	1.000326e+000	-3.580063e-002	9.998628e-001	-3.486887e-002	3.777159e-003	5.858260e-003
1626021.179	4.834712e-003	6.950312e-003	1.000179e+000	-3.738592e-002	1.000229e+000	-3.782600e-002	4.106680e-003	6.194214e-003
1688560.263	4.590316e-003	7.399846e-003	9.997891e-001	-3.949139e-002	1.000504e+000	-3.950748e-002	4.312351e-003	6.558869e-003
1751099.346	4.765348e-003	7.873172e-003	1.000408e+000	-4.099659e-002	9.999106e-001	-4.029885e-002	4.187513e-003	7.783852e-003
1813638.430	4.470956e-003	8.216618e-003	1.000577e+000	-4.298457e-002	1.000285e+000	-4.265191e-002	4.427797e-003	7.785846e-003
1876177.514	4.561350e-003	8.905958e-003	1.000855e+000	-4.421758e-002	1.000328e+000	-4.464889e-002	4.157648e-003	8.856365e-003
1938716.598	4.082790e-003	9.378001e-003	1.000934e+000	-4.550325e-002	1.000448e+000	-4.481468e-002	4.385351e-003	9.632208e-003
2001255.682	4.037990e-003	9.303258e-003	1.000917e+000	-4.740620e-002	1.000101e+000	-4.696526e-002	4.197026e-003	9.561662e-003
2063794.765	4.212504e-003	1.008779e-002	1.000411e+000	-4.868822e-002	9.996112e-001	-4.896401e-002	4.650608e-003	9.871822e-003
2126333.849	3.806834e-003	9.983200e-003	9.998432e-001	-5.033220e-002	9.989286e-001	-4.965075e-002	4.977171e-003	1.051869e-002
2188872.933	4.381259e-003	1.038316e-002	9.994276e-001	-5.198471e-002	9.988915e-001	-5.122243e-002	4.955209e-003	1.088657e-002
2251412.017	4.551351e-003	1.041858e-002	9.993054e-001	-5.389224e-002	9.988807e-001	-5.269438e-002	5.000196e-003	1.118538e-002
2313951.101	4.986632e-003	1.125310e-002	9.985184e-001	-5.518308e-002	9.989313e-001	-5.397303e-002	5.418955e-003	1.152543e-002
2376490.184	4.830068e-003	1.162330e-002	9.982015e-001	-5.614967e-002	9.987268e-001	-5.619062e-002	5.483929e-003	1.193528e-002
2439029.268	5.396129e-003	1.199599e-002	9.981694e-001	-5.836101e-002	9.976538e-001	-5.776941e-002	5.273997e-003	1.245709e-002
2501568.352	5.483699e-003	1.240595e-002	9.977985e-001	-5.872415e-002	9.984310e-001	-5.873242e-002	5.674053e-003	1.282900e-002
2564107.436	5.526723e-003	1.267400e-002	9.979483e-001	-6.105318e-002	9.980352e-001	-6.063922e-002	5.101567e-003	1.288708e-002
2626646.520	6.142094e-003	1.288491e-002	9.976852e-001	-6.258280e-002	9.967770e-001	-6.228275e-002	5.497858e-003	1.321272e-002
2689185.604	6.239277e-003	1.344512e-002	9.978635e-001	-6.374052e-002	9.973875e-001	-6.349250e-002	5.758256e-003	1.366934e-002
2751724.687	6.496549e-003	1.373767e-002	9.976238e-001	-6.498191e-002	9.970662e-001	-6.473153e-002	5.518219e-003	1.404676e-002
2814263.771	6.613548e-003	1.406489e-002	9.965208e-001	-6.721924e-002	9.966879e-001	-6.641459e-002	5.636583e-003	1.430260e-002
2876802.855	6.708180e-003	1.423511e-002	9.964059e-001	-6.889194e-002	9.964434e-001	-6.793702e-002	5.896203e-003	1.481728e-002
2939341.939	6.990358e-003	1.471865e-002	9.967493e-001	-6.980938e-002	9.963348e-001	-6.986252e-002	5.964135e-003	1.510528e-002
3001881.023	7.097039e-003	1.511029e-002	9.963099e-001	-7.151651e-002	9.961720e-001	-7.121910e-002	6.215695e-003	1.534584e-002
3064420.106	7.309465e-003	1.542060e-002	9.966366e-001	-7.278839e-002	9.958406e-001	-7.268611e-002	6.206347e-003	1.560545e-002
3126959.190	7.666109e-003	1.570142e-002	9.961088e-001	-7.444852e-002	9.959039e-001	-7.423926e-002	6.566272e-003	1.591081e-002
3189498.274	7.840851e-003	1.610675e-002	9.958599e-001	-7.585519e-002	9.955606e-001	-7.573408e-002	6.738976e-003	1.622893e-002
3252037.358	7.913419e-003	1.612510e-002	9.957471e-001	-7.741058e-002	9.954733e-001	-7.711529e-002	6.854561e-003	1.665096e-002
3314576.442	8.129063e-003	1.665840e-002	9.954241e-001	-7.883275e-002	9.951377e-001	-7.867669e-002	7.105080e-003	1.691156e-002
3377115.525	8.287581e-003	1.702572e-002	9.950497e-001	-8.025103e-002	9.947023e-001	-8.030294e-002	7.130365e-003	1.713950e-002
3439654.609	8.489482e-003	1.732707e-002	9.946489e-001	-8.179223e-002	9.947704e-001	-8.171755e-002	7.363222e-003	1.769872e-002
3502193.693	8.639643e-003	1.739136e-002	9.944339e-001	-8.340777e-002	9.941986e-001	-8.311453e-002	7.745805e-003	1.801809e-002
3564732.777	8.906322e-003	1.788099e-002	9.942750e-001	-8.481070e-002	9.939791e-001	-8.468089e-002	8.041748e-003	1.838368e-002
3627271.861	8.985939e-003	1.811223e-002	9.940682e-001	-8.639999e-002	9.938107e-001	-8.606918e-002	8.021374e-003	1.855334e-002
3689810.944	9.095869e-003	1.836787e-002	9.936549e-001	-8.792153e-002	9.935278e-001	-8.753081e-002	8.405725e-003	1.889946e-002
3752350.028	9.458104e-003	1.872692e-002	9.933851e-001	-8.913176e-002	9.930595e-001	-8.902183e-002	8.573592e-003	1.921479e-002
3814889.112	9.813506e-003	1.917455e-002	9.929084e-001	-9.070632e-002	9.929608e-001	-9.076816e-002	8.733613e-003	1.942219e-002
3877428.196	1.000332e-002	1.952647e-002	9.928243e-001	-9.220448e-002	9.926093e-001	-9.198688e-002	9.300672e-003	1.975961e-002
3939967.280	1.021379e-002	1.957503e-002	9.924186e-001	-9.377352e-002	9.923477e-001	-9.347563e-002	9.551898e-003	2.017283e-002
4002506.363	1.057027e-002	2.002531e-002	9.921421e-001	-9.518158e-002	9.919361e-001	-9.484419e-002	9.764456e-003	2.040569e-002
4065045.447	1.064002e-002	2.026066e-002	9.916201e-001	-9.667581e-002	9.915065e-001	-9.640925e-002	1.012647e-002	2.063817e-002
4127584.531	1.090578e-002	2.054694e-002	9.911908e-001	-9.811607e-002	9.911315e-001	-9.779029e-002	1.041772e-002	2.103819e-002
4190123.615	1.124971e-002	2.086510e-002	9.909397e-001	-9.977049e-002	9.907226e-001	-9.941731e-002	1.062524e-002	2.111925e-002
4252662.699	1.149529e-002	2.108183e-002	9.906648e-001	-1.012531e-001	9.902631e-001	-1.009459e-001	1.101302e-002	2.142893e-002
4315201.782	1.193598e-002	2.130171e-002	9.902327e-001	-1.024363e-001	9.901321e-001	-1.023945e-001	1.112735e-002	2.151796e-002
4377740.866	1.215442e-002	2.155344e-002	9.899359e-001	-1.040567e-001	9.895334e-001	-1.038232e-001	1.163117e-002	2.205592e-002
4440279.950	1.235363e-002	2.167056e-002	9.894975e-001	-1.052767e-001	9.890298e-001	-1.051007e-001	1.182955e-002	2.217290e-002
4502819.034	1.267741e-002	2.205751e-002	9.888717e-001	-1.068069e-001	9.887715e-001	-1.065202e-001	1.223335e-002	2.255537e-002
4565358.118	1.290706e-002	2.223504e-002	9.884404e-001	-1.081677e-001	9.881884e-001	-1.077264e-001	1.255126e-002	2.268346e-002
4627897.201	1.340765e-002	2.257579e-002	9.882397e-001	-1.095652e-001	9.878993e-001	-1.091499e-001	1.298586e-002	2.300080e-002
4690436.285	1.356937e-002	2.268638e-002	9.878355e-001	-1.110414e-001	9.875327e-001	-1.109339e-001	1.330508e-002	2.300757e-002
4752975.369	1.388771e-002	2.286530e-002	9.871741e-001	-1.124960e-001	9.871664e-001	-1.121689e-001	1.344251e-002	2.317621e-002
4815514.453	1.432681e-002	2.307121e-002	9.869915e-001	-1.137182e-001	9.867095e-001	-1.136307e-001	1.397391e-002	2.345672e-002
4878053.537	1.473243e-002	2.315935e-002	9.866177e-001	-1.150394e-001	9.862873e-001	-1.148268e-001	1.427236e-002	2.356716e-002
4940592.620	1.481629e-002	2.339676e-002	9.860619e-001	-1.164860e-001	9.858971e-001	-1.162816e-001	1.437007e-002	2.372771e-002
5003131.704	1.518568e-002	2.342994e-002	9.855768e-001	-1.177628e-001	9.855330e-001	-1.173994e-001	1.480898e-002	2.383306e-002
5065670.788	1.543361e-002	2.378084e-002	9.851644e-001	-1.191667e-001	9.850279e-001	-1.188030e-001	1.509236e-002	2.404610e-002
5128209.872	1.587054e-002	2.379805e-002	9.849226e-001	-1.204380e-001	9.846240e-001	-1.201503e-001	1.538207e-002	2.400168e-002
5190748.956	1.609866e-002	2.395044e-002	9.844031e-001	-1.218081e-001	9.842630e-001	-1.216006e-001	1.567205e-002	2.428458e-002
5253288.039	1.647399e-002	2.405283e-002	9.840634e-001	-1.231175e-001	9.838363e-001	-1.228938e-001	1.591908e-002	2.450556e-002
5315827.123	1.673371e-002	2.412049e-002	9.834910e-001	-1.244190e-001	9.833892e-001	-1.242392e-001	1.622124e-002	2.454188e-002
5378366.207	1.713918e-002	2.430003e-002	9.831941e-001	-1.257849e-001	9.829906e-001	-1.256841e-001	1.651388e-002	2.458420e-002
5440905.291	1.726280e-002	2.451767e-002	9.828169e-001	-1.270909e-001	9.826022e-001	-1.268893e-001	1.671491e-002	2.477473e-002
5503444.375	1.777783e-002	2.446270e-002	9.823754e-001	-1.284557e-001	9.822454e-001	-1.280847e-001	1.721356e-002	2.480390e-002
5565983.458	1.774637e-002	2.473858e-002	9.819671e-001	-1.296493e-001	9.817967e-001	-1.293039e-001	1.746094e-002	2.507764e-002
5628522.542	1.829113e-002	2.476688e-002	9.815781e-001	-1.308522e-001	9.813645e-001	-1.307764e-001	1.779585e-002	2.507754e-002
5691061.626	1.865105e-002	2.470178e-002	9.810752e-001	-1.323872e-001	9.809000e-001	-1.321344e-001	1.800146e-002	2.524272e-002
5753600.710	1.883014e-002	2.490451e-002	9.806131e-001	-1.335606e-001	9.805445e-001	-1.333145e-001	1.835327e-002	2.522250e-002
5816139.794	1.923204e-002	2.517330e-002	9.802757e-001	-1.348619e-001	9.799218e-001	-1.348024e-001	1.852365e-002	2.537643e-002
5878678.877	1.943510e-002	2.506615e-002	9.798155e-001	-1.361935e-001	9.796101e-001	-1.359617e-001	1.893593e-002	2.533276e-002
5941217.961	1.971495e-002	2.508707e-002	9.793657e-001	-1.375060e-001	9.792163e-001	-1.370845e-001	1.905420e-002	2.554037e-002
6003757.045	1.988632e-002	2.541660e-002	9.788014e-001	-1.385906e-001	9.787690e-001	-1.383302e-001	1.948250e-002	2.560713e-002
6066296.129	2.026608e-002	2.530382e-002	9.786393e-001	-1.399922e-001	9.783321e-001	-1.396034e-001	1.973654e-002	2.566480e-002
6128835.213	2.067233e-002	2.541520e-002	9.782279e-001	-1.409675e-001	9.780841e-001	-1.410466e-001	2.012472e-002	2.574064e-002
6191374.296	2.093122e-002	2.548072e-002	9.776126e-001	-1.424324e-001	9.774461e-001	-1.423949e-001	2.028779e-002	2.593482e-002
6253913.380	2.113943e-002	2.567856e-002	9.772977e-001	-1.437734e-001	9.770765e-001	-1.435390e-001	2.047592e-002	2.612900e-002
6316452.464	2.139726e-002	2.584043e-002	9.768647e-001	-1.449023e-001	9.765098e-001	-1.449828e-001	2.080691e-002	2.597381e-002
6378991.548	2.164840e-002	2.576165e-002	9.763969e-001	-1.465120e-001	9.763458e-001	-1.461000e-001	2.114788e-002	2.592978e-002
6441530.632	2.188615e-002	2.575776e-002	9.759276e-001	-1.474404e-001	9.758274e-001	-1.474695e-001	2.149315e-002	2.611356e-002
6504069.715	2.217715e-002	2.580382e-002	9.755069e-001	-1.490016e-001	9.755291e-001	-1.486411e-001	2.179358e-002	2.616916e-002
6566608.799	2.259916e-002	2.580124e-002	9.751789e-001	-1.502962e-001	9.749251e-001	-1.499444e-001	2.198776e-002	2.641965e-002
6629147.883	2.285010e-002	2.601201e-002	9.746701e-001	-1.511602e-001	9.744789e-001	-1.511920e-001	2.236791e-002	2.635512e-002
6691686.967	2.302883e-002	2.608343e-002	9.741601e-001	-1.525275e-001	9.740178e-001	-1.524020e-001	2.268875e-002	2.649785e-002
6754226.051	2.326281e-002	2.612357e-002	9.737282e-001	-1.538965e-001	9.734470e-001	-1.538064e-001	2.277455e-002	2.635262e-002
6816765.134	2.363838e-002	2.616567e-002	9.733105e-001	-1.550934e-001	9.731441e-001	-1.549103e-001	2.313919e-002	2.659742e-002
6879304.218	2.382575e-002	2.605509e-002	9.728609e-001	-1.563004e-001	9.727720e-001	-1.561171e-001	2.340245e-002	2.658543e-002
6941843.302	2.419146e-002	2.626331e-002	9.723929e-001	-1.575754e-001	9.723161e-001	-1.573004e-001	2.368342e-002	2.670671e-002
7004382.386	2.430701e-002	2.639448e-002	9.720494e-001	-1.586891e-001	9.718010e-001	-1.585569e-001	2.390461e-002	2.679136e-002
7066921.470	2.467822e-002	2.636540e-002	9.714665e-001	-1.600863e-001	9.714380e-001	-1.596015e-001	2.434505e-002	2.666831e-002
7129460.553	2.484216e-002	2.630653e-002	9.711215e-001	-1.611115e-001	9.709753e-001	-1.609824e-001	2.461983e-002	2.677891e-002
7191999.637	2.513094e-002	2.658788e-002	9.704561e-001	-1.624064e-001	9.703555e-001	-1.621479e-001	2.477101e-002	2.681757e-002
7254538.721	2.547333e-002	2.649933e-002	9.703752e-001	-1.636868e-001	9.701332e-001	-1.634238e-001	2.510750e-002	2.686992e-002
7317077.805	2.591657e-002	2.648607e-002	9.698412e-001	-1.647948e-001	9.697128e-001	-1.646152e-001	2.537680e-002	2.679348e-002
7379616.889	2.607124e-002	2.654870e-002	9.695141e-001	-1.661961e-001	9.691794e-001	-1.658401e-001	2.560362e-002	2.686013e-002
7442155.972	2.620279e-002	2.658362e-002	9.689222e-001	-1.672053e-001	9.687634e-001	-1.669505e-001	2.598183e-002	2.710155e-002
7504695.056	2.651591e-002	2.651987e-002	9.683937e-001	-1.683768e-001	9.681930e-001	-1.683231e-001	2.629929e-002	2.717203e-002
7567234.140	2.695373e-002	2.646152e-002	9.680784e-001	-1.695427e-001	9.677710e-001	-1.694612e-001	2.649490e-002	2.710719e-002
7629773.224	2.716209e-002	2.676094e-002	9.676379e-001	-1.708915e-001	9.674419e-001	-1.706406e-001	2.669592e-002	2.707832e-002
7692312.308	2.730998e-002	2.673737e-002	9.671848e-001	-1.721027e-001	9.669222e-001	-1.719166e-001	2.702174e-002	2.701564e-002
7754851.391	2.755550e-002	2.661700e-002	9.667125e-001	-1.733104e-001	9.663343e-001	-1.729504e-001	2.726410e-002	2.715454e-002
7817390.475	2.792835e-002	2.681144e-002	9.662665e-001	-1.746471e-001	9.659423e-001	-1.743369e-001	2.747230e-002	2.728840e-002
7879929.559	2.810248e-002	2.664447e-002	9.657105e-001	-1.758517e-001	9.654478e-001	-1.756626e-001	2.785954e-002	2.727857e-002
7942468.643	2.831574e-002	2.663195e-002	9.654221e-001	-1.769466e-001	9.651296e-001	-1.768318e-001	2.810597e-002	2.713545e-002
8005007.727	2.869618e-002	2.664885e-002	9.648440e-001	-1.781672e-001	9.646495e-001	-1.779635e-001	2.830851e-002	2.736140e-002
8067546.811	2.881536e-002	2.670557e-002	9.644409e-001	-1.792976e-001	9.641112e-001	-1.790568e-001	2.847704e-002	2.717793e-002
8130085.894	2.915938e-002	2.665011e-002	9.639324e-001	-1.804480e-001	9.637353e-001	-1.802766e-001	2.895936e-002	2.711260e-002
8192624.978	2.927464e-002	2.659897e-002	9.633574e-001	-1.817655e-001	9.632681e-001	-1.814632e-001	2.927639e-002	2.709443e-002
8255164.062	2.964594e-002	2.659924e-002	9.630264e-001	-1.828645e-001	9.627775e-001	-1.826048e-001	2.947947e-002	2.706681e-002
8317703.146	2.980789e-002	2.672295e-002	9.626178e-001	-1.840629e-001	9.624013e-001	-1.837905e-001	2.959637e-002	2.713854e-002
8380242.230	3.017638e-002	2.647828e-002	9.619973e-001	-1.853195e-001	9.618574e-001	-1.849025e-001	2.982245e-002	2.705916e-002
8442781.313	3.039478e-002	2.651235e-002	9.617916e-001	-1.863362e-001	9.614890e-001	-1.860576e-001	3.007138e-002	2.698142e-002
8505320.397	3.066639e-002	2.663685e-002	9.612796e-001	-1.875993e-001	9.609559e-001	-1.872572e-001	3.028267e-002	2.701697e-002
8567859.481	3.090726e-002	2.676550e-002	9.607420e-001	-1.885902e-001	9.605883e-001	-1.884014e-001	3.059601e-002	2.716646e-002
8630398.565	3.122940e-002	2.670324e-002	9.601050e-001	-1.896983e-001	9.601259e-001	-1.895370e-001	3.072646e-002	2.692251e-002
8692937.649	3.140159e-002	2.647480e-002	9.597706e-001	-1.908645e-001	9.594979e-001	-1.907199e-001	3.093393e-002	2.701152e-002
8755476.732	3.169422e-002	2.652660e-002	9.593543e-001	-1.921163e-001	9.590622e-001	-1.918110e-001	3.126092e-002	2.698347e-002
8818015.816	3.183247e-002	2.647021e-002	9.588042e-001	-1.932662e-001	9.584801e-001	-1.929821e-001	3.159968e-002	2.687457e-002
8880554.900	3.229240e-002	2.647881e-002	9.584973e-001	-1.944638e-001	9.582817e-001	-1.939917e-001	3.170839e-002	2.671724e-002
8943093.984	3.238073e-002	2.655902e-002	9.579598e-001	-1.955081e-001	9.578394e-001	-1.951788e-001	3.198644e-002	2.673648e-002
9005633.068	3.267695e-002	2.643869e-002	9.574316e-001	-1.966799e-001	9.574340e-001	-1.964725e-001	3.211426e-002	2.659954e-002
9068172.151	3.279780e-002	2.642152e-002	9.571100e-001	-1.978424e-001	9.568034e-001	-1.974955e-001	3.243402e-002	2.660811e-002
9130711.235	3.324421e-002	2.629574e-002	9.565203e-001	-1.989814e-001	9.564291e-001	-1.986122e-001	3.270661e-002	2.638975e-002
9193250.319	3.348328e-002	2.624891e-002	9.562684e-001	-1.999599e-001	9.559247e-001	-1.998235e-001	3.289784e-002	2.643603e-002
9255789.403	3.360574e-002	2.606410e-002	9.558268e-001	-2.010351e-001	9.554714e-001	-2.008695e-001	3.301188e-002	2.645585e-002
9318328.487	3.382157e-002	2.612992e-002	9.552434e-001	-2.023907e-001	9.551590e-001	-2.019651e-001	3.336204e-002	2.641756e-002
9380867.570	3.407930e-002	2.619888e-002	9.548532e-001	-2.035200e-001	9.545725e-001	-2.032373e-001	3.360021e-002	2.634518e-002
9443406.654	3.436692e-002	2.614302e-002	9.543894e-001	-2.045630e-001	9.542188e-001	-2.044327e-001	3.386699e-002	2.622648e-002
9505945.738	3.458915e-002	2.612353e-002	9.537674e-001	-2.058526e-001	9.538039e-001	-2.055453e-001	3.405662e-002	2.617360e-002
9568484.822	3.485530e-002	2.602608e-002	9.534483e-001	-2.069058e-001	9.530694e-001	-2.066377e-001	3.413553e-002	2.638555e-002
9631023.906	3.508069e-002	2.598262e-002	9.529849e-001	-2.080169e-001	9.526141e-001	-2.077852e-001	3.452736e-002	2.601206e-002
9693562.989	3.532779e-002	2.592621e-002	9.524387e-001	-2.090948e-001	9.522770e-001	-2.088107e-001	3.453071e-002	2.609763e-002
9756102.073	3.555059e-002	2.583427e-002	9.522022e-001	-2.102997e-001	9.518673e-001	-2.098839e-001	3.479030e-002	2.590956e-002
