!Agilent Technologies,E5061B,MY49102235,A.02.00
!Date: Tue Jul 11 14:51:46 2023
!Data & Calibration Information:
!Freq	S11:SOLT2(ON)	S21:SOLT2(ON)	S12:SOLT2(ON)	S22:SOLT2(ON)
# Hz S RI R 50
5.000	-5.205119e-003	-5.622499e-003	1.001625e+000	7.996000e-003	1.000192e+000	1.022333e-002	-1.493060e-003	-7.559916e-003
62544.084	5.822383e-003	-1.037781e-004	1.001374e+000	1.275644e-004	1.000783e+000	8.150748e-004	7.719832e-003	-2.480509e-003
125083.168	5.695455e-003	2.872253e-004	1.001000e+000	-1.642898e-003	1.000675e+000	-1.629563e-003	7.505175e-003	-1.502057e-003
187622.251	5.492592e-003	8.497053e-004	1.000397e+000	-3.277321e-003	1.000960e+000	-2.148739e-003	7.406286e-003	-1.219386e-003
250161.335	5.297117e-003	1.363130e-003	1.000675e+000	-4.815841e-003	1.000720e+000	-4.605577e-003	7.314337e-003	-5.188293e-004
312700.419	5.503208e-003	2.460190e-003	1.000772e+000	-5.757180e-003	1.000550e+000	-5.577276e-003	7.825147e-003	-4.199397e-004
375239.503	5.370380e-003	1.354025e-003	1.000962e+000	-7.661837e-003	1.000531e+000	-7.191686e-003	7.322037e-003	-2.443190e-004
437778.587	5.235572e-003	2.100001e-003	1.001303e+000	-8.102859e-003	1.000833e+000	-8.882212e-003	6.708140e-003	4.525802e-004
500317.670	4.701475e-003	2.631521e-003	1.001137e+000	-1.098821e-002	1.001536e+000	-1.082979e-002	4.931295e-003	1.015230e-003
562856.754	6.040325e-003	2.670128e-003	1.001284e+000	-1.279518e-002	1.001138e+000	-1.260525e-002	6.138956e-003	1.865387e-003
625395.838	5.245379e-003	3.191247e-003	1.002069e+000	-1.437905e-002	1.001989e+000	-1.386501e-002	6.263712e-003	2.797138e-003
687934.922	5.321716e-003	3.223795e-003	1.001152e+000	-1.570285e-002	1.001095e+000	-1.595493e-002	5.910742e-003	2.711198e-003
750474.006	4.592432e-003	3.951104e-003	1.000764e+000	-1.541514e-002	1.000565e+000	-1.526428e-002	5.759988e-003	3.259630e-003
813013.089	4.795967e-003	4.348149e-003	1.001034e+000	-1.765846e-002	1.000489e+000	-1.732549e-002	5.158084e-003	3.817140e-003
875552.173	4.550632e-003	4.869475e-003	1.000893e+000	-1.902861e-002	1.000723e+000	-1.897120e-002	5.954632e-003	3.788689e-003
938091.257	4.663402e-003	5.308954e-003	1.001048e+000	-2.085037e-002	1.000876e+000	-2.047705e-002	6.220396e-003	4.725405e-003
1000630.341	4.135054e-003	5.329937e-003	1.000475e+000	-2.260824e-002	1.000688e+000	-2.226959e-002	5.482798e-003	4.393874e-003
1063169.425	4.527555e-003	5.538462e-003	1.000817e+000	-2.441188e-002	1.000469e+000	-2.355120e-002	4.692157e-003	4.445143e-003
1125708.508	4.426699e-003	5.961362e-003	1.000461e+000	-2.586415e-002	1.000464e+000	-2.520696e-002	4.241501e-003	5.117531e-003
1188247.592	5.002479e-003	5.864338e-003	1.000674e+000	-2.737488e-002	1.000610e+000	-2.657156e-002	3.156886e-003	4.927292e-003
1250786.676	4.874844e-003	5.504560e-003	1.000235e+000	-2.763656e-002	1.000262e+000	-2.770435e-002	2.447718e-003	3.636725e-003
1313325.760	5.018314e-003	5.778026e-003	1.000644e+000	-2.956450e-002	1.000436e+000	-2.967446e-002	3.199475e-003	4.219952e-003
1375864.844	4.783845e-003	5.962427e-003	1.000391e+000	-3.198111e-002	1.000026e+000	-3.182443e-002	3.100811e-003	4.876152e-003
1438403.927	4.703286e-003	6.164877e-003	1.000178e+000	-3.278037e-002	1.000493e+000	-3.215537e-002	3.229403e-003	5.500727e-003
1500943.011	4.977269e-003	6.613773e-003	1.000851e+000	-3.422252e-002	1.000781e+000	-3.403088e-002	3.608156e-003	5.475347e-003
1563482.095	5.000184e-003	6.610577e-003	1.000467e+000	-3.589843e-002	1.000040e+000	-3.516051e-002	3.781394e-003	6.054208e-003
1626021.179	4.850658e-003	7.138758e-003	1.000356e+000	-3.743463e-002	1.000410e+000	-3.817701e-002	4.103108e-003	6.372276e-003
1688560.263	4.602225e-003	7.561665e-003	9.998511e-001	-3.969873e-002	1.000641e+000	-3.971283e-002	4.306355e-003	6.738199e-003
1751099.346	4.784964e-003	8.047389e-003	1.000394e+000	-4.114302e-002	9.999524e-001	-4.072072e-002	4.199614e-003	7.947423e-003
1813638.430	4.467203e-003	8.390946e-003	1.000730e+000	-4.304906e-002	1.000295e+000	-4.286899e-002	4.396757e-003	7.933019e-003
1876177.514	4.563620e-003	9.045058e-003	1.000774e+000	-4.434745e-002	1.000385e+000	-4.480539e-002	4.130222e-003	8.996149e-003
1938716.598	4.071655e-003	9.525278e-003	1.001024e+000	-4.557089e-002	1.000492e+000	-4.517979e-002	4.365083e-003	9.779778e-003
2001255.682	4.030357e-003	9.436813e-003	1.000984e+000	-4.754259e-002	1.000333e+000	-4.706410e-002	4.153996e-003	9.720079e-003
2063794.765	4.180155e-003	1.019943e-002	1.000376e+000	-4.892890e-002	9.998005e-001	-4.907892e-002	4.591834e-003	9.994655e-003
2126333.849	3.765696e-003	1.008879e-002	9.999659e-001	-5.050824e-002	9.991352e-001	-4.986379e-002	4.921257e-003	1.063235e-002
2188872.933	4.304076e-003	1.045777e-002	9.995746e-001	-5.200603e-002	9.990869e-001	-5.126327e-002	4.850804e-003	1.098138e-002
2251412.017	4.457612e-003	1.047534e-002	9.992821e-001	-5.395339e-002	9.989867e-001	-5.258906e-002	4.886881e-003	1.124992e-002
2313951.101	4.859474e-003	1.129874e-002	9.987398e-001	-5.527528e-002	9.989425e-001	-5.406696e-002	5.278819e-003	1.157122e-002
2376490.184	4.669207e-003	1.165506e-002	9.985267e-001	-5.612798e-002	9.989604e-001	-5.623849e-002	5.309858e-003	1.197494e-002
2439029.268	5.211522e-003	1.200977e-002	9.983838e-001	-5.836252e-002	9.979519e-001	-5.789267e-002	5.069254e-003	1.247879e-002
2501568.352	5.264460e-003	1.239749e-002	9.979570e-001	-5.889435e-002	9.986406e-001	-5.882594e-002	5.433648e-003	1.282853e-002
2564107.436	5.242771e-003	1.263013e-002	9.983386e-001	-6.103598e-002	9.982256e-001	-6.068120e-002	4.784629e-003	1.287830e-002
2626646.520	5.817725e-003	1.284626e-002	9.979974e-001	-6.249785e-002	9.970940e-001	-6.230134e-002	5.149944e-003	1.319290e-002
2689185.604	5.866968e-003	1.341185e-002	9.982766e-001	-6.372143e-002	9.979937e-001	-6.360327e-002	5.376739e-003	1.363536e-002
2751724.687	6.076384e-003	1.369948e-002	9.981691e-001	-6.489185e-002	9.975957e-001	-6.475338e-002	5.067245e-003	1.400422e-002
2814263.771	6.121000e-003	1.402069e-002	9.970116e-001	-6.714591e-002	9.973401e-001	-6.634597e-002	5.149265e-003	1.427558e-002
2876802.855	6.181488e-003	1.420836e-002	9.970370e-001	-6.888098e-002	9.971930e-001	-6.793161e-002	5.344213e-003	1.477087e-002
2939341.939	6.415467e-003	1.467290e-002	9.975507e-001	-6.995597e-002	9.969338e-001	-6.986664e-002	5.343891e-003	1.506665e-002
3001881.023	6.436842e-003	1.506173e-002	9.969905e-001	-7.142466e-002	9.968488e-001	-7.123391e-002	5.546434e-003	1.531401e-002
3064420.106	6.586848e-003	1.540152e-002	9.974853e-001	-7.280922e-002	9.965791e-001	-7.275876e-002	5.480990e-003	1.558534e-002
3126959.190	6.897700e-003	1.568224e-002	9.969393e-001	-7.439865e-002	9.967022e-001	-7.423135e-002	5.762113e-003	1.589950e-002
3189498.274	7.000084e-003	1.608816e-002	9.967088e-001	-7.580237e-002	9.964399e-001	-7.579476e-002	5.877233e-003	1.622153e-002
3252037.358	7.017898e-003	1.611907e-002	9.966739e-001	-7.737087e-002	9.963936e-001	-7.722772e-002	5.943223e-003	1.666289e-002
3314576.442	7.163885e-003	1.667339e-002	9.964399e-001	-7.877717e-002	9.961838e-001	-7.876979e-002	6.124388e-003	1.693660e-002
3377115.525	7.251229e-003	1.704497e-002	9.961023e-001	-8.022857e-002	9.957971e-001	-8.037750e-002	6.081230e-003	1.718590e-002
3439654.609	7.392304e-003	1.736747e-002	9.958019e-001	-8.177409e-002	9.959041e-001	-8.180853e-002	6.238468e-003	1.775573e-002
3502193.693	7.461608e-003	1.743724e-002	9.956483e-001	-8.342213e-002	9.954333e-001	-8.321626e-002	6.536183e-003	1.807780e-002
3564732.777	7.673258e-003	1.796990e-002	9.955480e-001	-8.485315e-002	9.953315e-001	-8.480474e-002	6.775831e-003	1.848499e-002
3627271.861	7.649216e-003	1.820593e-002	9.954190e-001	-8.645643e-002	9.952169e-001	-8.618816e-002	6.685113e-003	1.865641e-002
3689810.944	7.705813e-003	1.846178e-002	9.950932e-001	-8.800073e-002	9.949772e-001	-8.770795e-002	6.986220e-003	1.903874e-002
3752350.028	7.967468e-003	1.887139e-002	9.948749e-001	-8.924468e-002	9.945719e-001	-8.916941e-002	7.061065e-003	1.937809e-002
3814889.112	8.236699e-003	1.935083e-002	9.945313e-001	-9.082560e-002	9.946175e-001	-9.097157e-002	7.134834e-003	1.962995e-002
3877428.196	8.352733e-003	1.976081e-002	9.945244e-001	-9.243406e-002	9.943348e-001	-9.226016e-002	7.627327e-003	1.998920e-002
3939967.280	8.488667e-003	1.982261e-002	9.942088e-001	-9.400536e-002	9.941514e-001	-9.383274e-002	7.789788e-003	2.046438e-002
4002506.363	8.731752e-003	2.033065e-002	9.940301e-001	-9.548466e-002	9.938614e-001	-9.520029e-002	7.911603e-003	2.074788e-002
4065045.447	8.748133e-003	2.061523e-002	9.935553e-001	-9.707004e-002	9.934473e-001	-9.684240e-002	8.181310e-003	2.100434e-002
4127584.531	8.910128e-003	2.096452e-002	9.932551e-001	-9.855531e-002	9.932515e-001	-9.824298e-002	8.394882e-003	2.146941e-002
4190123.615	9.146482e-003	2.133222e-002	9.930917e-001	-1.002229e-001	9.928311e-001	-9.989423e-002	8.503767e-003	2.160512e-002
4252662.699	9.317550e-003	2.160917e-002	9.929313e-001	-1.017876e-001	9.924820e-001	-1.015278e-001	8.808536e-003	2.197298e-002
4315201.782	9.672468e-003	2.191175e-002	9.925359e-001	-1.030081e-001	9.924986e-001	-1.030476e-001	8.834921e-003	2.214380e-002
4377740.866	9.786754e-003	2.223677e-002	9.923498e-001	-1.046832e-001	9.919250e-001	-1.045066e-001	9.248745e-003	2.276568e-002
4440279.950	9.911350e-003	2.243564e-002	9.920141e-001	-1.060356e-001	9.915463e-001	-1.059139e-001	9.364792e-003	2.293783e-002
4502819.034	1.013728e-002	2.289161e-002	9.913989e-001	-1.075903e-001	9.913855e-001	-1.074450e-001	9.681265e-003	2.341425e-002
4565358.118	1.030044e-002	2.317407e-002	9.911506e-001	-1.091000e-001	9.908804e-001	-1.087132e-001	9.917505e-003	2.363159e-002
4627897.201	1.072135e-002	2.360762e-002	9.910119e-001	-1.105671e-001	9.906257e-001	-1.102106e-001	1.027415e-002	2.402972e-002
4690436.285	1.079384e-002	2.380848e-002	9.906512e-001	-1.121071e-001	9.903467e-001	-1.120536e-001	1.051048e-002	2.415608e-002
4752975.369	1.104752e-002	2.409705e-002	9.900737e-001	-1.136876e-001	9.900855e-001	-1.134145e-001	1.058048e-002	2.441583e-002
4815514.453	1.141320e-002	2.438680e-002	9.899561e-001	-1.150004e-001	9.896818e-001	-1.149746e-001	1.105106e-002	2.480153e-002
4878053.537	1.175975e-002	2.458649e-002	9.896259e-001	-1.164367e-001	9.893219e-001	-1.162431e-001	1.126412e-002	2.502152e-002
4940592.620	1.176919e-002	2.492767e-002	9.891427e-001	-1.179796e-001	9.889990e-001	-1.178352e-001	1.129677e-002	2.527658e-002
5003131.704	1.206970e-002	2.506954e-002	9.887724e-001	-1.193524e-001	9.887234e-001	-1.190701e-001	1.169024e-002	2.550420e-002
5065670.788	1.228139e-002	2.553275e-002	9.883866e-001	-1.209170e-001	9.882902e-001	-1.205899e-001	1.190931e-002	2.582247e-002
5128209.872	1.265950e-002	2.565614e-002	9.881643e-001	-1.223465e-001	9.878896e-001	-1.220522e-001	1.214181e-002	2.588241e-002
5190748.956	1.282809e-002	2.592575e-002	9.877383e-001	-1.237824e-001	9.876369e-001	-1.235644e-001	1.236565e-002	2.628103e-002
5253288.039	1.314862e-002	2.614532e-002	9.874549e-001	-1.251961e-001	9.872462e-001	-1.249894e-001	1.257213e-002	2.662149e-002
5315827.123	1.336885e-002	2.634629e-002	9.868739e-001	-1.266149e-001	9.868221e-001	-1.264897e-001	1.282193e-002	2.678116e-002
5378366.207	1.371537e-002	2.665517e-002	9.866687e-001	-1.280785e-001	9.865015e-001	-1.280729e-001	1.307430e-002	2.694778e-002
5440905.291	1.381538e-002	2.698484e-002	9.863544e-001	-1.295333e-001	9.861177e-001	-1.293841e-001	1.323874e-002	2.726515e-002
5503444.375	1.427526e-002	2.706967e-002	9.859456e-001	-1.310129e-001	9.858242e-001	-1.306866e-001	1.369612e-002	2.742620e-002
5565983.458	1.421964e-002	2.745421e-002	9.855697e-001	-1.323831e-001	9.853684e-001	-1.320731e-001	1.390634e-002	2.783663e-002
5628522.542	1.474479e-002	2.761277e-002	9.852564e-001	-1.336597e-001	9.850242e-001	-1.335865e-001	1.420629e-002	2.794449e-002
5691061.626	1.507403e-002	2.767790e-002	9.847390e-001	-1.353458e-001	9.845714e-001	-1.351062e-001	1.440189e-002	2.824353e-002
5753600.710	1.519936e-002	2.800938e-002	9.843032e-001	-1.366281e-001	9.842130e-001	-1.364390e-001	1.471857e-002	2.833766e-002
5816139.794	1.559450e-002	2.842631e-002	9.839630e-001	-1.380839e-001	9.836041e-001	-1.380685e-001	1.486624e-002	2.864591e-002
5878678.877	1.577365e-002	2.841937e-002	9.835274e-001	-1.395578e-001	9.833434e-001	-1.393398e-001	1.526051e-002	2.873043e-002
5941217.961	1.604239e-002	2.858421e-002	9.830957e-001	-1.409988e-001	9.829546e-001	-1.406183e-001	1.534649e-002	2.907669e-002
6003757.045	1.619841e-002	2.905223e-002	9.825604e-001	-1.422403e-001	9.825106e-001	-1.420334e-001	1.576085e-002	2.927309e-002
6066296.129	1.658338e-002	2.908733e-002	9.823828e-001	-1.437538e-001	9.821082e-001	-1.434346e-001	1.604561e-002	2.947131e-002
6128835.213	1.697693e-002	2.932460e-002	9.819097e-001	-1.448672e-001	9.818525e-001	-1.449686e-001	1.642852e-002	2.968431e-002
6191374.296	1.723040e-002	2.952771e-002	9.814416e-001	-1.464601e-001	9.812396e-001	-1.465082e-001	1.657056e-002	3.002048e-002
6253913.380	1.744802e-002	2.986778e-002	9.810254e-001	-1.479755e-001	9.808277e-001	-1.477286e-001	1.676504e-002	3.035039e-002
6316452.464	1.772660e-002	3.015393e-002	9.806293e-001	-1.492235e-001	9.803106e-001	-1.493222e-001	1.709334e-002	3.033953e-002
6378991.548	1.797944e-002	3.022707e-002	9.801726e-001	-1.509508e-001	9.800592e-001	-1.505999e-001	1.744799e-002	3.042265e-002
6441530.632	1.822243e-002	3.034898e-002	9.796627e-001	-1.520430e-001	9.795436e-001	-1.521032e-001	1.779278e-002	3.073863e-002
6504069.715	1.852683e-002	3.053089e-002	9.791627e-001	-1.536944e-001	9.792383e-001	-1.534180e-001	1.811989e-002	3.093661e-002
6566608.799	1.897000e-002	3.066654e-002	9.788853e-001	-1.551176e-001	9.786246e-001	-1.548142e-001	1.834770e-002	3.133332e-002
6629147.883	1.925269e-002	3.100712e-002	9.783472e-001	-1.561501e-001	9.781925e-001	-1.562204e-001	1.875262e-002	3.139193e-002
6691686.967	1.944404e-002	3.120119e-002	9.778014e-001	-1.576457e-001	9.776290e-001	-1.575441e-001	1.908645e-002	3.166296e-002
6754226.051	1.971987e-002	3.138833e-002	9.772913e-001	-1.591732e-001	9.771028e-001	-1.591015e-001	1.920955e-002	3.165250e-002
6816765.134	2.012957e-002	3.156604e-002	9.769858e-001	-1.604345e-001	9.767899e-001	-1.603216e-001	1.959067e-002	3.203577e-002
6879304.218	2.034478e-002	3.159331e-002	9.763839e-001	-1.618783e-001	9.762943e-001	-1.616596e-001	1.989518e-002	3.215615e-002
6941843.302	2.075153e-002	3.191611e-002	9.758949e-001	-1.632680e-001	9.757631e-001	-1.629940e-001	2.022053e-002	3.240013e-002
7004382.386	2.089543e-002	3.217507e-002	9.755067e-001	-1.645123e-001	9.752944e-001	-1.643716e-001	2.048751e-002	3.262127e-002
7066921.470	2.132195e-002	3.228777e-002	9.748979e-001	-1.660144e-001	9.748852e-001	-1.655520e-001	2.096083e-002	3.263037e-002
7129460.553	2.152919e-002	3.235217e-002	9.745286e-001	-1.671416e-001	9.743523e-001	-1.670521e-001	2.129315e-002	3.286065e-002
7191999.637	2.188202e-002	3.276561e-002	9.737957e-001	-1.685813e-001	9.737370e-001	-1.683741e-001	2.148629e-002	3.302435e-002
7254538.721	2.225406e-002	3.278853e-002	9.736061e-001	-1.699740e-001	9.734058e-001	-1.697741e-001	2.186956e-002	3.320458e-002
7317077.805	2.275804e-002	3.290075e-002	9.730785e-001	-1.711797e-001	9.729249e-001	-1.710484e-001	2.219503e-002	3.326066e-002
7379616.889	2.296403e-002	3.306160e-002	9.727204e-001	-1.727373e-001	9.723557e-001	-1.723967e-001	2.248648e-002	3.342089e-002
7442155.972	2.316392e-002	3.323031e-002	9.720202e-001	-1.739019e-001	9.718766e-001	-1.736315e-001	2.292402e-002	3.376957e-002
7504695.056	2.353904e-002	3.327331e-002	9.714100e-001	-1.751294e-001	9.712409e-001	-1.751092e-001	2.330062e-002	3.397810e-002
7567234.140	2.404382e-002	3.332191e-002	9.710732e-001	-1.764253e-001	9.707371e-001	-1.763934e-001	2.356208e-002	3.402337e-002
7629773.224	2.430802e-002	3.374274e-002	9.705684e-001	-1.779374e-001	9.703930e-001	-1.776591e-001	2.382382e-002	3.410269e-002
7692312.308	2.452131e-002	3.382386e-002	9.700346e-001	-1.791878e-001	9.697734e-001	-1.790704e-001	2.422995e-002	3.415980e-002
7754851.391	2.483434e-002	3.381189e-002	9.694582e-001	-1.805510e-001	9.691543e-001	-1.801906e-001	2.451553e-002	3.440144e-002
7817390.475	2.527786e-002	3.411393e-002	9.690040e-001	-1.819826e-001	9.686460e-001	-1.816699e-001	2.480206e-002	3.464184e-002
7879929.559	2.551310e-002	3.406432e-002	9.683869e-001	-1.832323e-001	9.681099e-001	-1.831475e-001	2.527517e-002	3.473456e-002
7942468.643	2.579966e-002	3.413652e-002	9.679820e-001	-1.844554e-001	9.676896e-001	-1.843729e-001	2.557486e-002	3.468426e-002
8005007.727	2.625136e-002	3.427020e-002	9.673390e-001	-1.858123e-001	9.672150e-001	-1.856116e-001	2.586025e-002	3.503092e-002
8067546.811	2.644230e-002	3.441294e-002	9.668391e-001	-1.870406e-001	9.665021e-001	-1.868318e-001	2.609319e-002	3.493693e-002
8130085.894	2.686270e-002	3.445035e-002	9.662863e-001	-1.882406e-001	9.660755e-001	-1.881533e-001	2.664895e-002	3.496721e-002
8192624.978	2.704104e-002	3.450159e-002	9.655924e-001	-1.896459e-001	9.655560e-001	-1.893718e-001	2.702879e-002	3.505288e-002
8255164.062	2.749874e-002	3.460008e-002	9.652309e-001	-1.908594e-001	9.649720e-001	-1.907099e-001	2.734757e-002	3.511057e-002
8317703.146	2.774298e-002	3.481338e-002	9.647164e-001	-1.921471e-001	9.645573e-001	-1.919399e-001	2.752297e-002	3.527058e-002
8380242.230	2.817242e-002	3.465276e-002	9.640356e-001	-1.935044e-001	9.638818e-001	-1.931749e-001	2.782370e-002	3.529177e-002
8442781.313	2.848782e-002	3.478847e-002	9.637367e-001	-1.946400e-001	9.634439e-001	-1.943790e-001	2.814955e-002	3.530892e-002
8505320.397	2.884398e-002	3.499424e-002	9.631234e-001	-1.959249e-001	9.628517e-001	-1.956624e-001	2.845239e-002	3.542131e-002
8567859.481	2.915392e-002	3.519602e-002	9.625120e-001	-1.970073e-001	9.624007e-001	-1.969421e-001	2.885633e-002	3.564863e-002
8630398.565	2.958122e-002	3.522118e-002	9.618218e-001	-1.982330e-001	9.618107e-001	-1.981072e-001	2.906100e-002	3.548338e-002
8692937.649	2.983571e-002	3.508570e-002	9.613821e-001	-1.995028e-001	9.611070e-001	-1.994071e-001	2.934787e-002	3.565163e-002
8755476.732	3.020611e-002	3.521534e-002	9.608849e-001	-2.008421e-001	9.606498e-001	-2.005656e-001	2.975853e-002	3.572499e-002
8818015.816	3.042829e-002	3.524812e-002	9.602551e-001	-2.020471e-001	9.599260e-001	-2.017779e-001	3.019393e-002	3.568481e-002
8880554.900	3.098519e-002	3.531791e-002	9.598607e-001	-2.033317e-001	9.596979e-001	-2.029130e-001	3.038197e-002	3.560471e-002
8943093.984	3.116243e-002	3.548546e-002	9.592438e-001	-2.044607e-001	9.590903e-001	-2.041470e-001	3.074418e-002	3.570320e-002
9005633.068	3.154411e-002	3.543240e-002	9.586323e-001	-2.056785e-001	9.586269e-001	-2.054990e-001	3.097471e-002	3.562801e-002
9068172.151	3.173465e-002	3.548386e-002	9.582136e-001	-2.069363e-001	9.579312e-001	-2.066028e-001	3.136961e-002	3.571759e-002
9130711.235	3.228031e-002	3.543170e-002	9.575668e-001	-2.081219e-001	9.574670e-001	-2.077864e-001	3.172789e-002	3.557473e-002
9193250.319	3.258286e-002	3.542656e-002	9.571599e-001	-2.091879e-001	9.568327e-001	-2.090747e-001	3.200800e-002	3.568148e-002
9255789.403	3.281703e-002	3.533733e-002	9.566515e-001	-2.103200e-001	9.562849e-001	-2.102305e-001	3.221093e-002	3.578288e-002
9318328.487	3.311461e-002	3.546106e-002	9.559971e-001	-2.117741e-001	9.559066e-001	-2.113956e-001	3.265653e-002	3.579535e-002
9380867.570	3.346760e-002	3.559361e-002	9.554926e-001	-2.129535e-001	9.551857e-001	-2.126874e-001	3.298373e-002	3.579952e-002
9443406.654	3.385023e-002	3.559987e-002	9.549858e-001	-2.140176e-001	9.547788e-001	-2.139178e-001	3.334196e-002	3.573983e-002
9505945.738	3.415285e-002	3.563322e-002	9.542054e-001	-2.153585e-001	9.542377e-001	-2.150790e-001	3.362835e-002	3.574037e-002
9568484.822	3.452105e-002	3.559950e-002	9.537965e-001	-2.165274e-001	9.534257e-001	-2.162721e-001	3.378579e-002	3.601465e-002
9631023.906	3.483699e-002	3.561859e-002	9.533087e-001	-2.176776e-001	9.529338e-001	-2.174737e-001	3.426339e-002	3.569664e-002
9693562.989	3.517422e-002	3.560854e-002	9.526073e-001	-2.188656e-001	9.524752e-001	-2.185598e-001	3.435858e-002	3.583289e-002
9756102.073	3.548010e-002	3.556708e-002	9.522570e-001	-2.200507e-001	9.519472e-001	-2.196704e-001	3.471851e-002	3.570949e-002
