!Agilent Technologies,E5061B,MY49102235,A.02.00
!Date: Tue Jul 11 15:40:22 2023
!Data & Calibration Information:
!Freq	S11:SOLT2(ON)	S21:SOLT2(ON)	S12:SOLT2(ON)	S22:SOLT2(ON)
# Hz S RI R 50
5.000	-5.251193e-003	-5.633717e-003	1.001842e+000	7.943137e-003	1.000367e+000	1.026034e-002	-1.509059e-003	-7.557514e-003
62544.084	5.823095e-003	-5.091115e-004	1.001308e+000	5.426702e-004	1.000809e+000	1.296654e-003	7.696788e-003	-2.884201e-003
125083.168	5.677032e-003	-5.025185e-004	1.000911e+000	-8.696841e-004	1.000778e+000	-7.741935e-004	7.491485e-003	-2.297780e-003
187622.251	5.461242e-003	-3.428293e-004	1.000427e+000	-2.186460e-003	1.001009e+000	-9.853575e-004	7.373578e-003	-2.387120e-003
250161.335	5.294643e-003	-2.154116e-004	1.000516e+000	-3.107215e-003	1.000687e+000	-3.088124e-003	7.264410e-003	-2.057209e-003
312700.419	5.431694e-003	5.047721e-004	1.000814e+000	-3.788114e-003	1.000600e+000	-3.452611e-003	7.783107e-003	-2.393479e-003
375239.503	5.301616e-003	-1.018869e-003	1.001077e+000	-5.242082e-003	1.000522e+000	-4.884955e-003	7.260253e-003	-2.553017e-003
437778.587	5.136251e-003	-6.415417e-004	1.001393e+000	-5.380438e-003	1.001015e+000	-6.008742e-003	6.613009e-003	-2.275321e-003
500317.670	4.594736e-003	-5.269842e-004	1.001239e+000	-7.640167e-003	1.001705e+000	-7.485379e-003	4.806924e-003	-2.110965e-003
562856.754	5.909157e-003	-8.449245e-004	1.001360e+000	-9.239487e-003	1.001180e+000	-9.010032e-003	6.016257e-003	-1.632743e-003
625395.838	5.078536e-003	-6.927769e-004	1.002266e+000	-1.046651e-002	1.002200e+000	-1.000252e-002	6.090045e-003	-1.062567e-003
687934.922	5.144028e-003	-1.050914e-003	1.001295e+000	-1.138329e-002	1.001230e+000	-1.148737e-002	5.757982e-003	-1.541600e-003
750474.006	4.335213e-003	-7.333637e-004	1.000871e+000	-1.087194e-002	1.000866e+000	-1.065816e-002	5.510840e-003	-1.393277e-003
813013.089	4.495921e-003	-7.234911e-004	1.001204e+000	-1.258968e-002	1.000744e+000	-1.215497e-002	4.874944e-003	-1.225763e-003
875552.173	4.246369e-003	-5.611469e-004	1.001162e+000	-1.351355e-002	1.001005e+000	-1.351011e-002	5.676042e-003	-1.643007e-003
938091.257	4.321720e-003	-5.142561e-004	1.001334e+000	-1.505693e-002	1.001113e+000	-1.461870e-002	5.891395e-003	-1.080432e-003
1000630.341	3.761003e-003	-8.716701e-004	1.000805e+000	-1.630574e-002	1.001102e+000	-1.589172e-002	5.138314e-003	-1.785524e-003
1063169.425	4.105591e-003	-1.041153e-003	1.001122e+000	-1.770990e-002	1.000898e+000	-1.667109e-002	4.317215e-003	-2.119766e-003
1125708.508	3.998045e-003	-1.007520e-003	1.001018e+000	-1.882588e-002	1.000790e+000	-1.812335e-002	3.820119e-003	-1.850882e-003
1188247.592	4.537856e-003	-1.464942e-003	1.001193e+000	-2.004582e-002	1.001050e+000	-1.918386e-002	2.711495e-003	-2.422449e-003
1250786.676	4.379768e-003	-2.227705e-003	1.000748e+000	-1.982338e-002	1.000782e+000	-1.986776e-002	1.982436e-003	-4.111805e-003
1313325.760	4.486648e-003	-2.331868e-003	1.001024e+000	-2.142946e-002	1.001049e+000	-2.153579e-002	2.719543e-003	-3.918266e-003
1375864.844	4.230188e-003	-2.543119e-003	1.000784e+000	-2.340754e-002	1.000519e+000	-2.332551e-002	2.568288e-003	-3.648726e-003
1438403.927	4.117190e-003	-2.712939e-003	1.000758e+000	-2.391810e-002	1.001006e+000	-2.314735e-002	2.655738e-003	-3.391892e-003
1500943.011	4.332316e-003	-2.649488e-003	1.001332e+000	-2.496135e-002	1.001457e+000	-2.460384e-002	3.001007e-003	-3.811148e-003
1563482.095	4.337323e-003	-3.043259e-003	1.001095e+000	-2.628230e-002	1.000708e+000	-2.534319e-002	3.135491e-003	-3.634198e-003
1626021.179	4.138865e-003	-2.927340e-003	1.000854e+000	-2.742172e-002	1.001177e+000	-2.791185e-002	3.407120e-003	-3.703349e-003
1688560.263	3.840612e-003	-2.876786e-003	1.000523e+000	-2.922523e-002	1.001385e+000	-2.905463e-002	3.577579e-003	-3.718905e-003
1751099.346	3.974984e-003	-2.796316e-003	1.001140e+000	-3.029699e-002	1.000809e+000	-2.967052e-002	3.395614e-003	-2.895182e-003
1813638.430	3.615023e-003	-2.857621e-003	1.001446e+000	-3.174261e-002	1.001079e+000	-3.147310e-002	3.567940e-003	-3.290354e-003
1876177.514	3.637317e-003	-2.574996e-003	1.001669e+000	-3.275830e-002	1.001433e+000	-3.303733e-002	3.226308e-003	-2.635489e-003
1938716.598	3.088983e-003	-2.526562e-003	1.001871e+000	-3.357079e-002	1.001432e+000	-3.290783e-002	3.404145e-003	-2.259647e-003
2001255.682	3.006285e-003	-3.012871e-003	1.001806e+000	-3.491923e-002	1.001311e+000	-3.456903e-002	3.151665e-003	-2.734272e-003
2063794.765	3.095877e-003	-2.640339e-003	1.001431e+000	-3.595033e-002	1.000749e+000	-3.619470e-002	3.534421e-003	-2.841582e-003
2126333.849	2.645497e-003	-3.176509e-003	1.000965e+000	-3.718517e-002	1.000262e+000	-3.645480e-002	3.792659e-003	-2.595540e-003
2188872.933	3.121891e-003	-3.197227e-003	1.000755e+000	-3.838425e-002	1.000188e+000	-3.760684e-002	3.675084e-003	-2.654500e-003
2251412.017	3.223235e-003	-3.582188e-003	1.000536e+000	-3.984224e-002	1.000236e+000	-3.855462e-002	3.657253e-003	-2.797974e-003
2313951.101	3.534873e-003	-3.161770e-003	9.999623e-001	-4.078240e-002	1.000332e+000	-3.951574e-002	3.963794e-003	-2.877966e-003
2376490.184	3.279829e-003	-3.219536e-003	9.997237e-001	-4.109416e-002	1.000317e+000	-4.139164e-002	3.931753e-003	-2.892947e-003
2439029.268	3.717470e-003	-3.257129e-003	9.997486e-001	-4.291291e-002	9.994396e-001	-4.242132e-002	3.577618e-003	-2.802965e-003
2501568.352	3.695498e-003	-3.287964e-003	9.994315e-001	-4.303167e-002	1.000243e+000	-4.293103e-002	3.880427e-003	-2.859748e-003
2564107.436	3.611972e-003	-3.463560e-003	9.998228e-001	-4.489189e-002	9.999942e-001	-4.456925e-002	3.186500e-003	-3.244235e-003
2626646.520	4.098387e-003	-3.653570e-003	9.996642e-001	-4.595145e-002	9.989163e-001	-4.574572e-002	3.443315e-003	-3.326038e-003
2689185.604	4.053147e-003	-3.507897e-003	1.000120e+000	-4.670114e-002	9.995687e-001	-4.648717e-002	3.558630e-003	-3.299440e-003
2751724.687	4.154609e-003	-3.613934e-003	9.999682e-001	-4.738880e-002	9.996156e-001	-4.731327e-002	3.161017e-003	-3.366949e-003
2814263.771	4.104149e-003	-3.719675e-003	9.989352e-001	-4.926854e-002	9.993798e-001	-4.850319e-002	3.139412e-003	-3.502664e-003
2876802.855	4.051438e-003	-3.953193e-003	9.991557e-001	-5.067680e-002	9.992275e-001	-4.964427e-002	3.203272e-003	-3.403326e-003
2939341.939	4.150216e-003	-3.885222e-003	9.996057e-001	-5.111189e-002	9.992133e-001	-5.111291e-002	3.112175e-003	-3.524408e-003
3001881.023	4.087619e-003	-3.911671e-003	9.994070e-001	-5.233298e-002	9.990001e-001	-5.216724e-002	3.181329e-003	-3.686150e-003
3064420.106	4.124065e-003	-3.987673e-003	9.997606e-001	-5.329813e-002	9.990779e-001	-5.310236e-002	3.018510e-003	-3.839133e-003
3126959.190	4.316111e-003	-4.104876e-003	9.994480e-001	-5.450560e-002	9.992691e-001	-5.427831e-002	3.186919e-003	-3.934977e-003
3189498.274	4.301934e-003	-4.100411e-003	9.993150e-001	-5.549109e-002	9.991485e-001	-5.536641e-002	3.189215e-003	-4.017785e-003
3252037.358	4.201737e-003	-4.490741e-003	9.994617e-001	-5.667919e-002	9.992339e-001	-5.634251e-002	3.118509e-003	-3.993457e-003
3314576.442	4.214172e-003	-4.367102e-003	9.993046e-001	-5.765896e-002	9.990858e-001	-5.749500e-002	3.175940e-003	-4.142479e-003
3377115.525	4.168907e-003	-4.395455e-003	9.991344e-001	-5.865102e-002	9.988109e-001	-5.873824e-002	3.016333e-003	-4.309722e-003
3439654.609	4.184678e-003	-4.507316e-003	9.989019e-001	-5.982395e-002	9.990725e-001	-5.971543e-002	3.031526e-003	-4.157672e-003
3502193.693	4.140745e-003	-4.839822e-003	9.988975e-001	-6.102511e-002	9.988092e-001	-6.071402e-002	3.194569e-003	-4.240718e-003
3564732.777	4.191536e-003	-4.745376e-003	9.989770e-001	-6.201597e-002	9.987674e-001	-6.186240e-002	3.282229e-003	-4.256959e-003
3627271.861	4.022542e-003	-4.930894e-003	9.989720e-001	-6.322476e-002	9.988092e-001	-6.283667e-002	3.041404e-003	-4.523854e-003
3689810.944	3.925686e-003	-5.105079e-003	9.988309e-001	-6.429328e-002	9.987030e-001	-6.394149e-002	3.198469e-003	-4.551913e-003
3752350.028	4.035555e-003	-5.113351e-003	9.987167e-001	-6.514501e-002	9.984978e-001	-6.495644e-002	3.131097e-003	-4.649557e-003
3814889.112	4.146173e-003	-5.042456e-003	9.985622e-001	-6.629997e-002	9.986898e-001	-6.633366e-002	3.036552e-003	-4.842431e-003
3877428.196	4.071872e-003	-5.077958e-003	9.986927e-001	-6.746562e-002	9.985701e-001	-6.715645e-002	3.359347e-003	-4.875596e-003
3939967.280	4.044682e-003	-5.427078e-003	9.986174e-001	-6.864288e-002	9.986019e-001	-6.830071e-002	3.339337e-003	-4.858447e-003
4002506.363	4.092473e-003	-5.354913e-003	9.985966e-001	-6.963465e-002	9.984284e-001	-6.923075e-002	3.273801e-003	-4.986383e-003
4065045.447	3.911743e-003	-5.500225e-003	9.983113e-001	-7.074811e-002	9.982429e-001	-7.045982e-002	3.347876e-003	-5.164501e-003
4127584.531	3.883869e-003	-5.592668e-003	9.982344e-001	-7.185877e-002	9.982168e-001	-7.146566e-002	3.370043e-003	-5.114003e-003
4190123.615	3.924630e-003	-5.634397e-003	9.982536e-001	-7.310504e-002	9.980206e-001	-7.267380e-002	3.265495e-003	-5.406587e-003
4252662.699	3.873168e-003	-5.778981e-003	9.983118e-001	-7.419076e-002	9.979241e-001	-7.391627e-002	3.368585e-003	-5.435308e-003
4315201.782	4.010741e-003	-5.886729e-003	9.981761e-001	-7.504204e-002	9.981244e-001	-7.498071e-002	3.175360e-003	-5.711261e-003
4377740.866	3.893035e-003	-5.975172e-003	9.981794e-001	-7.630927e-002	9.978496e-001	-7.607974e-002	3.350787e-003	-5.493004e-003
4440279.950	3.787151e-003	-6.195994e-003	9.980797e-001	-7.721349e-002	9.976876e-001	-7.699919e-002	3.229438e-003	-5.726267e-003
4502819.034	3.771784e-003	-6.140001e-003	9.977621e-001	-7.839371e-002	9.977155e-001	-7.809510e-002	3.297827e-003	-5.647670e-003
4565358.118	3.686681e-003	-6.263120e-003	9.976944e-001	-7.944375e-002	9.974738e-001	-7.899966e-002	3.297990e-003	-5.824724e-003
4627897.201	3.862927e-003	-6.206985e-003	9.978296e-001	-8.057030e-002	9.974657e-001	-8.008206e-002	3.398234e-003	-5.805456e-003
4690436.285	3.675731e-003	-6.408330e-003	9.977303e-001	-8.173401e-002	9.974422e-001	-8.158396e-002	3.396996e-003	-6.081524e-003
4752975.369	3.672078e-003	-6.495774e-003	9.973936e-001	-8.287184e-002	9.974487e-001	-8.256378e-002	3.205504e-003	-6.209037e-003
4815514.453	3.781543e-003	-6.577634e-003	9.975336e-001	-8.385900e-002	9.973451e-001	-8.370960e-002	3.411272e-003	-6.195560e-003
4878053.537	3.867747e-003	-6.743186e-003	9.974787e-001	-8.488340e-002	9.971987e-001	-8.464116e-002	3.367725e-003	-6.355418e-003
4940592.620	3.601709e-003	-6.786227e-003	9.972529e-001	-8.606599e-002	9.971777e-001	-8.583515e-002	3.121156e-003	-6.477986e-003
5003131.704	3.656046e-003	-7.014681e-003	9.971239e-001	-8.708839e-002	9.971252e-001	-8.667433e-002	3.243813e-003	-6.605355e-003
5065670.788	3.567189e-003	-6.902399e-003	9.970327e-001	-8.826590e-002	9.969758e-001	-8.784368e-002	3.203421e-003	-6.646998e-003
5128209.872	3.696009e-003	-7.110034e-003	9.971379e-001	-8.930671e-002	9.968797e-001	-8.896266e-002	3.172618e-003	-6.931692e-003
5190748.956	3.587441e-003	-7.205020e-003	9.969198e-001	-9.040206e-002	9.968382e-001	-9.018379e-002	3.126352e-003	-6.894239e-003
5253288.039	3.635675e-003	-7.333359e-003	9.969294e-001	-9.149992e-002	9.967706e-001	-9.117750e-002	3.043161e-003	-6.899503e-003
5315827.123	3.588945e-003	-7.487032e-003	9.966563e-001	-9.260680e-002	9.966258e-001	-9.234468e-002	3.027216e-003	-7.086096e-003
5378366.207	3.665286e-003	-7.518492e-003	9.967149e-001	-9.371144e-002	9.966112e-001	-9.358403e-002	3.006015e-003	-7.265371e-003
5440905.291	3.477489e-003	-7.519953e-003	9.966937e-001	-9.477510e-002	9.964746e-001	-9.454965e-002	2.896286e-003	-7.305832e-003
5503444.375	3.677722e-003	-7.769664e-003	9.965249e-001	-9.595478e-002	9.964581e-001	-9.548049e-002	3.076005e-003	-7.466197e-003
5565983.458	3.306648e-003	-7.742788e-003	9.964573e-001	-9.692849e-002	9.963117e-001	-9.652950e-002	2.986823e-003	-7.401640e-003
5628522.542	3.554955e-003	-7.892396e-003	9.964036e-001	-9.794385e-002	9.962330e-001	-9.780716e-002	3.024739e-003	-7.614845e-003
5691061.626	3.608732e-003	-8.177369e-003	9.962044e-001	-9.922679e-002	9.960782e-001	-9.891788e-002	2.908364e-003	-7.659237e-003
5753600.710	3.448711e-003	-8.189910e-003	9.960566e-001	-1.002040e-001	9.959869e-001	-9.990745e-002	2.952898e-003	-7.879703e-003
5816139.794	3.526611e-003	-8.077665e-003	9.960412e-001	-1.013500e-001	9.956976e-001	-1.012179e-001	2.799935e-003	-7.929442e-003
5878678.877	3.427452e-003	-8.399161e-003	9.959097e-001	-1.024313e-001	9.957650e-001	-1.021654e-001	2.895166e-003	-8.155973e-003
5941217.961	3.414881e-003	-8.560876e-003	9.957226e-001	-1.036271e-001	9.955943e-001	-1.031057e-001	2.692162e-003	-8.152740e-003
6003757.045	3.243606e-003	-8.438867e-003	9.954600e-001	-1.045441e-001	9.954695e-001	-1.042022e-001	2.810880e-003	-8.259880e-003
6066296.129	3.369534e-003	-8.723502e-003	9.956209e-001	-1.056080e-001	9.954101e-001	-1.052513e-001	2.766270e-003	-8.392742e-003
6128835.213	3.440221e-003	-8.780271e-003	9.954761e-001	-1.063969e-001	9.954612e-001	-1.064381e-001	2.843561e-003	-8.487758e-003
6191374.296	3.365752e-003	-8.894755e-003	9.952990e-001	-1.078064e-001	9.951030e-001	-1.077201e-001	2.679428e-003	-8.479108e-003
6253913.380	3.263727e-003	-8.873806e-003	9.952266e-001	-1.089381e-001	9.950629e-001	-1.086025e-001	2.551469e-003	-8.471769e-003
6316452.464	3.239099e-003	-8.895282e-003	9.951450e-001	-1.098983e-001	9.948543e-001	-1.098864e-001	2.587959e-003	-8.787018e-003
6378991.548	3.172614e-003	-9.139271e-003	9.950007e-001	-1.113439e-001	9.949302e-001	-1.108406e-001	2.630050e-003	-9.001314e-003
6441530.632	3.101153e-003	-9.321716e-003	9.948024e-001	-1.121077e-001	9.947338e-001	-1.120570e-001	2.648010e-003	-8.991539e-003
6504069.715	3.087710e-003	-9.433794e-003	9.946588e-001	-1.134625e-001	9.947827e-001	-1.130611e-001	2.648410e-003	-9.081723e-003
6566608.799	3.212030e-003	-9.584049e-003	9.946755e-001	-1.145746e-001	9.945073e-001	-1.142025e-001	2.533807e-003	-8.994870e-003
6629147.883	3.138804e-003	-9.547756e-003	9.944739e-001	-1.153267e-001	9.943493e-001	-1.152678e-001	2.613255e-003	-9.223490e-003
6691686.967	3.005964e-003	-9.638863e-003	9.942954e-001	-1.165394e-001	9.942215e-001	-1.163361e-001	2.612666e-003	-9.236313e-003
6754226.051	2.928504e-003	-9.748235e-003	9.941391e-001	-1.177193e-001	9.939542e-001	-1.176084e-001	2.404238e-003	-9.551899e-003
6816765.134	3.019812e-003	-9.845153e-003	9.940846e-001	-1.187433e-001	9.939653e-001	-1.185472e-001	2.438644e-003	-9.445940e-003
6879304.218	2.894203e-003	-1.010962e-002	9.938777e-001	-1.198547e-001	9.938825e-001	-1.195525e-001	2.410549e-003	-9.599620e-003
6941843.302	2.943147e-003	-1.003944e-002	9.937584e-001	-1.209827e-001	9.937247e-001	-1.206673e-001	2.382637e-003	-9.617617e-003
7004382.386	2.735606e-003	-1.006784e-002	9.936968e-001	-1.219576e-001	9.935285e-001	-1.217450e-001	2.277407e-003	-9.664403e-003
7066921.470	2.807683e-003	-1.022067e-002	9.934581e-001	-1.231945e-001	9.934840e-001	-1.226980e-001	2.420240e-003	-9.927613e-003
7129460.553	2.683828e-003	-1.042094e-002	9.933903e-001	-1.240643e-001	9.933155e-001	-1.238785e-001	2.410927e-003	-9.957600e-003
7191999.637	2.659033e-003	-1.027917e-002	9.930642e-001	-1.252850e-001	9.930350e-001	-1.249323e-001	2.246925e-003	-1.005478e-002
7254538.721	2.696000e-003	-1.048626e-002	9.932619e-001	-1.264111e-001	9.930617e-001	-1.261103e-001	2.270663e-003	-1.013639e-002
7317077.805	2.847777e-003	-1.060818e-002	9.930239e-001	-1.273576e-001	9.929365e-001	-1.271342e-001	2.237159e-003	-1.033431e-002
7379616.889	2.691809e-003	-1.069899e-002	9.930462e-001	-1.286741e-001	9.927356e-001	-1.282337e-001	2.163924e-003	-1.039810e-002
7442155.972	2.517251e-003	-1.079688e-002	9.927162e-001	-1.295440e-001	9.926452e-001	-1.292755e-001	2.221999e-003	-1.027566e-002
7504695.056	2.536392e-003	-1.098014e-002	9.924598e-001	-1.305752e-001	9.923698e-001	-1.304989e-001	2.233469e-003	-1.030096e-002
7567234.140	2.693366e-003	-1.115003e-002	9.924788e-001	-1.316295e-001	9.922482e-001	-1.315200e-001	2.145725e-003	-1.051404e-002
7629773.224	2.567954e-003	-1.093080e-002	9.923578e-001	-1.328909e-001	9.922470e-001	-1.325506e-001	2.041995e-003	-1.065038e-002
7692312.308	2.408447e-003	-1.109463e-002	9.922216e-001	-1.339952e-001	9.919957e-001	-1.337276e-001	2.079087e-003	-1.082669e-002
7754851.391	2.369786e-003	-1.133575e-002	9.920305e-001	-1.350767e-001	9.917370e-001	-1.346233e-001	1.995181e-003	-1.079219e-002
7817390.475	2.425709e-003	-1.122630e-002	9.919171e-001	-1.362937e-001	9.916413e-001	-1.359421e-001	1.897875e-003	-1.076719e-002
7879929.559	2.312983e-003	-1.150798e-002	9.916655e-001	-1.373854e-001	9.914748e-001	-1.371837e-001	1.997898e-003	-1.086220e-002
7942468.643	2.242459e-003	-1.165396e-002	9.916242e-001	-1.383335e-001	9.914761e-001	-1.382230e-001	1.947118e-003	-1.113807e-002
8005007.727	2.320846e-003	-1.171367e-002	9.913722e-001	-1.394864e-001	9.912995e-001	-1.392606e-001	1.835941e-003	-1.100331e-002
8067546.811	2.137856e-003	-1.176517e-002	9.912547e-001	-1.405314e-001	9.910178e-001	-1.402797e-001	1.712594e-003	-1.129811e-002
8130085.894	2.191468e-003	-1.192241e-002	9.910693e-001	-1.415936e-001	9.909296e-001	-1.413819e-001	1.913224e-003	-1.143640e-002
8192624.978	1.994113e-003	-1.206827e-002	9.907645e-001	-1.427646e-001	9.907370e-001	-1.424504e-001	1.940289e-003	-1.153320e-002
8255164.062	2.086365e-003	-1.214097e-002	9.907192e-001	-1.438274e-001	9.905770e-001	-1.435175e-001	1.869017e-003	-1.167156e-002
8317703.146	1.940107e-003	-1.211695e-002	9.905911e-001	-1.448831e-001	9.904894e-001	-1.446396e-001	1.662415e-003	-1.170356e-002
8380242.230	2.027991e-003	-1.243735e-002	9.902959e-001	-1.461054e-001	9.902426e-001	-1.456346e-001	1.598084e-003	-1.185807e-002
8442781.313	1.985400e-003	-1.250280e-002	9.903594e-001	-1.470570e-001	9.901315e-001	-1.467052e-001	1.552613e-003	-1.203554e-002
8505320.397	1.926020e-003	-1.245972e-002	9.901372e-001	-1.482238e-001	9.899531e-001	-1.478292e-001	1.472286e-003	-1.207229e-002
8567859.481	1.845286e-003	-1.239254e-002	9.898893e-001	-1.490902e-001	9.898563e-001	-1.489048e-001	1.473853e-003	-1.198565e-002
8630398.565	1.897196e-003	-1.253564e-002	9.896062e-001	-1.501722e-001	9.896923e-001	-1.499329e-001	1.326005e-003	-1.234899e-002
8692937.649	1.809917e-003	-1.283296e-002	9.895045e-001	-1.512515e-001	9.893518e-001	-1.510663e-001	1.229823e-003	-1.232541e-002
8755476.732	1.792918e-003	-1.285723e-002	9.894483e-001	-1.524618e-001	9.892332e-001	-1.520402e-001	1.257474e-003	-1.240584e-002
8818015.816	1.645019e-003	-1.297734e-002	9.891519e-001	-1.534679e-001	9.888839e-001	-1.531850e-001	1.337920e-003	-1.258101e-002
8880554.900	1.822180e-003	-1.303081e-002	9.891294e-001	-1.546342e-001	9.890222e-001	-1.540936e-001	1.170410e-003	-1.283681e-002
8943093.984	1.621301e-003	-1.302542e-002	9.889128e-001	-1.556413e-001	9.888398e-001	-1.552227e-001	1.148230e-003	-1.286457e-002
9005633.068	1.639484e-003	-1.321086e-002	9.886280e-001	-1.567366e-001	9.887130e-001	-1.564313e-001	1.019026e-003	-1.308836e-002
9068172.151	1.454115e-003	-1.329979e-002	9.886141e-001	-1.578320e-001	9.883859e-001	-1.574164e-001	1.035189e-003	-1.313674e-002
9130711.235	1.643816e-003	-1.345903e-002	9.883481e-001	-1.589239e-001	9.882738e-001	-1.584272e-001	1.046016e-003	-1.342412e-002
9193250.319	1.592690e-003	-1.357576e-002	9.882958e-001	-1.598349e-001	9.880671e-001	-1.596286e-001	9.387867e-004	-1.343233e-002
9255789.403	1.438630e-003	-1.383458e-002	9.881460e-001	-1.608319e-001	9.878785e-001	-1.606226e-001	7.543792e-004	-1.346974e-002
9318328.487	1.365330e-003	-1.382254e-002	9.878974e-001	-1.621844e-001	9.878575e-001	-1.616698e-001	8.375965e-004	-1.355723e-002
9380867.570	1.334606e-003	-1.378502e-002	9.877832e-001	-1.632276e-001	9.875244e-001	-1.629007e-001	7.973171e-004	-1.366433e-002
9443406.654	1.346413e-003	-1.389026e-002	9.876336e-001	-1.642219e-001	9.874781e-001	-1.640357e-001	7.835704e-004	-1.384459e-002
9505945.738	1.280660e-003	-1.395468e-002	9.872200e-001	-1.654590e-001	9.873355e-001	-1.650869e-001	7.037031e-004	-1.393722e-002
9568484.822	1.290808e-003	-1.408538e-002	9.872270e-001	-1.664713e-001	9.869107e-001	-1.661394e-001	4.670973e-004	-1.379081e-002
