!Agilent Technologies,E5061B,MY49102235,A.02.00
!Date: Tue Jul 11 14:51:12 2023
!Data & Calibration Information:
!Freq	S11:SOLT2(ON)	S21:SOLT2(ON)	S12:SOLT2(ON)	S22:SOLT2(ON)
# Hz S RI R 50
5.000	-5.239122e-003	-5.646284e-003	1.001736e+000	8.003111e-003	1.000260e+000	1.021149e-002	-1.512960e-003	-7.535240e-003
62544.084	5.814868e-003	-1.035958e-004	1.001364e+000	1.282127e-004	1.000860e+000	8.095313e-004	7.721509e-003	-2.481989e-003
125083.168	5.702213e-003	2.892081e-004	1.000976e+000	-1.609984e-003	1.000696e+000	-1.627034e-003	7.518444e-003	-1.502728e-003
187622.251	5.497074e-003	8.464930e-004	1.000461e+000	-3.322931e-003	1.000938e+000	-2.209499e-003	7.407568e-003	-1.209250e-003
250161.335	5.349994e-003	1.376579e-003	1.000504e+000	-4.712187e-003	1.000607e+000	-4.832997e-003	7.308463e-003	-4.838463e-004
312700.419	5.500775e-003	2.480606e-003	1.000818e+000	-5.721291e-003	1.000641e+000	-5.476419e-003	7.827212e-003	-4.245963e-004
375239.503	5.381542e-003	1.339864e-003	1.001119e+000	-7.521316e-003	1.000352e+000	-7.356284e-003	7.338017e-003	-1.955710e-004
437778.587	5.233471e-003	2.111791e-003	1.001358e+000	-8.091590e-003	1.000891e+000	-8.784342e-003	6.718362e-003	4.547690e-004
500317.670	4.732543e-003	2.625875e-003	1.001100e+000	-1.084011e-002	1.001505e+000	-1.082903e-002	4.940254e-003	1.039012e-003
562856.754	6.052033e-003	2.668867e-003	1.001253e+000	-1.269581e-002	1.001079e+000	-1.255280e-002	6.158017e-003	1.869148e-003
625395.838	5.256998e-003	3.203320e-003	1.002113e+000	-1.433880e-002	1.001848e+000	-1.385979e-002	6.304689e-003	2.809501e-003
687934.922	5.355929e-003	3.270114e-003	1.001082e+000	-1.577460e-002	1.000972e+000	-1.574586e-002	5.966716e-003	2.720852e-003
750474.006	4.625429e-003	3.968612e-003	1.000700e+000	-1.563922e-002	1.000632e+000	-1.545911e-002	5.800913e-003	3.287023e-003
813013.089	4.828405e-003	4.375968e-003	1.001007e+000	-1.773167e-002	1.000332e+000	-1.741132e-002	5.174561e-003	3.855874e-003
875552.173	4.591315e-003	4.906092e-003	1.000887e+000	-1.900356e-002	1.000785e+000	-1.899922e-002	5.988434e-003	3.822299e-003
938091.257	4.702422e-003	5.342442e-003	1.000970e+000	-2.093819e-002	1.000835e+000	-2.046912e-002	6.255569e-003	4.762096e-003
1000630.341	4.177251e-003	5.376593e-003	1.000469e+000	-2.260779e-002	1.000675e+000	-2.225706e-002	5.523023e-003	4.433797e-003
1063169.425	4.563631e-003	5.590165e-003	1.000900e+000	-2.437286e-002	1.000369e+000	-2.352474e-002	4.732120e-003	4.491661e-003
1125708.508	4.479839e-003	6.023329e-003	1.000481e+000	-2.581843e-002	1.000265e+000	-2.523495e-002	4.281244e-003	5.171560e-003
1188247.592	5.059952e-003	5.940106e-003	1.000719e+000	-2.740471e-002	1.000665e+000	-2.683192e-002	3.213474e-003	4.991031e-003
1250786.676	4.927899e-003	5.587385e-003	1.000336e+000	-2.767134e-002	1.000307e+000	-2.791394e-002	2.480232e-003	3.725841e-003
1313325.760	5.073219e-003	5.865116e-003	1.000587e+000	-2.970914e-002	1.000537e+000	-2.971714e-002	3.262916e-003	4.313778e-003
1375864.844	4.834550e-003	6.057108e-003	1.000213e+000	-3.188478e-002	9.999444e-001	-3.201309e-002	3.160091e-003	4.969392e-003
1438403.927	4.778378e-003	6.279940e-003	1.000103e+000	-3.299851e-002	1.000342e+000	-3.234989e-002	3.306927e-003	5.625608e-003
1500943.011	5.046894e-003	6.734991e-003	1.000725e+000	-3.429991e-002	1.000760e+000	-3.418537e-002	3.671392e-003	5.594392e-003
1563482.095	5.070843e-003	6.759780e-003	1.000363e+000	-3.599731e-002	9.999814e-001	-3.522959e-002	3.873371e-003	6.200584e-003
1626021.179	4.932925e-003	7.279240e-003	9.999902e-001	-3.763740e-002	1.000266e+000	-3.819571e-002	4.186013e-003	6.537348e-003
1688560.263	4.683869e-003	7.745429e-003	9.996237e-001	-3.986614e-002	1.000610e+000	-3.988067e-002	4.411283e-003	6.918149e-003
1751099.346	4.879326e-003	8.244009e-003	1.000226e+000	-4.139490e-002	9.998770e-001	-4.081553e-002	4.298157e-003	8.159058e-003
1813638.430	4.583907e-003	8.614146e-003	1.000439e+000	-4.337257e-002	1.000049e+000	-4.298282e-002	4.519520e-003	8.180102e-003
1876177.514	4.679069e-003	9.323766e-003	1.000813e+000	-4.459852e-002	1.000356e+000	-4.505328e-002	4.259618e-003	9.262075e-003
1938716.598	4.211600e-003	9.811131e-003	1.000855e+000	-4.598385e-002	1.000402e+000	-4.539250e-002	4.505675e-003	1.006844e-002
2001255.682	4.169431e-003	9.772510e-003	1.000777e+000	-4.781403e-002	1.000220e+000	-4.749315e-002	4.320694e-003	1.003999e-002
2063794.765	4.353424e-003	1.057222e-002	1.000169e+000	-4.922274e-002	9.995376e-001	-4.951842e-002	4.781348e-003	1.036730e-002
2126333.849	3.963237e-003	1.049185e-002	9.995340e-001	-5.095973e-002	9.989596e-001	-5.031381e-002	5.123615e-003	1.102751e-002
2188872.933	4.522040e-003	1.092182e-002	9.992854e-001	-5.236484e-002	9.987953e-001	-5.174203e-002	5.083307e-003	1.142187e-002
2251412.017	4.717559e-003	1.098762e-002	9.989627e-001	-5.441204e-002	9.988681e-001	-5.338456e-002	5.172936e-003	1.174810e-002
2313951.101	5.168495e-003	1.183332e-002	9.984746e-001	-5.590177e-002	9.986960e-001	-5.460811e-002	5.580385e-003	1.211910e-002
2376490.184	5.019821e-003	1.225358e-002	9.981014e-001	-5.668813e-002	9.986089e-001	-5.695159e-002	5.666090e-003	1.256498e-002
2439029.268	5.602501e-003	1.265783e-002	9.978973e-001	-5.894147e-002	9.974651e-001	-5.848369e-002	5.466489e-003	1.312271e-002
2501568.352	5.727481e-003	1.309610e-002	9.975506e-001	-5.958081e-002	9.982745e-001	-5.962917e-002	5.918383e-003	1.352924e-002
2564107.436	5.788099e-003	1.338009e-002	9.976853e-001	-6.176199e-002	9.978896e-001	-6.155367e-002	5.352764e-003	1.361293e-002
2626646.520	6.423953e-003	1.363214e-002	9.973465e-001	-6.331927e-002	9.965707e-001	-6.305275e-002	5.765375e-003	1.396929e-002
2689185.604	6.570385e-003	1.423238e-002	9.976855e-001	-6.457804e-002	9.972101e-001	-6.439683e-002	6.077226e-003	1.446677e-002
2751724.687	6.859992e-003	1.454830e-002	9.973528e-001	-6.576791e-002	9.968713e-001	-6.560340e-002	5.865720e-003	1.486525e-002
2814263.771	6.988246e-003	1.490449e-002	9.961789e-001	-6.796551e-002	9.963902e-001	-6.724958e-002	6.025749e-003	1.515061e-002
2876802.855	7.140125e-003	1.512347e-002	9.960172e-001	-6.981592e-002	9.961387e-001	-6.890186e-002	6.324599e-003	1.568980e-002
2939341.939	7.460693e-003	1.560543e-002	9.964164e-001	-7.069308e-002	9.959568e-001	-7.080693e-002	6.417348e-003	1.600077e-002
3001881.023	7.596493e-003	1.600497e-002	9.959081e-001	-7.230461e-002	9.956631e-001	-7.212533e-002	6.713571e-003	1.626386e-002
3064420.106	7.854115e-003	1.636144e-002	9.962638e-001	-7.372491e-002	9.951961e-001	-7.359887e-002	6.742723e-003	1.653436e-002
3126959.190	8.271808e-003	1.664396e-002	9.955713e-001	-7.538733e-002	9.953387e-001	-7.525753e-002	7.147256e-003	1.685694e-002
3189498.274	8.479354e-003	1.706537e-002	9.952304e-001	-7.677838e-002	9.949601e-001	-7.675970e-002	7.363855e-003	1.719220e-002
3252037.358	8.594976e-003	1.709182e-002	9.951302e-001	-7.835816e-002	9.948101e-001	-7.817640e-002	7.539068e-003	1.763274e-002
3314576.442	8.859371e-003	1.764310e-002	9.947432e-001	-7.976854e-002	9.944466e-001	-7.976453e-002	7.831992e-003	1.790145e-002
3377115.525	9.062991e-003	1.802312e-002	9.942732e-001	-8.121074e-002	9.939651e-001	-8.139113e-002	7.916611e-003	1.815146e-002
3439654.609	9.319821e-003	1.833169e-002	9.938300e-001	-8.274745e-002	9.939584e-001	-8.279568e-002	8.186838e-003	1.872746e-002
3502193.693	9.521541e-003	1.840620e-002	9.935987e-001	-8.443103e-002	9.933895e-001	-8.415854e-002	8.600187e-003	1.904828e-002
3564732.777	9.842244e-003	1.890987e-002	9.933426e-001	-8.581905e-002	9.930857e-001	-8.575010e-002	8.976441e-003	1.942490e-002
3627271.861	9.959388e-003	1.915505e-002	9.931335e-001	-8.742685e-002	9.928783e-001	-8.715365e-002	9.003696e-003	1.960251e-002
3689810.944	1.014770e-002	1.938239e-002	9.926564e-001	-8.891041e-002	9.925080e-001	-8.860965e-002	9.454443e-003	1.995638e-002
3752350.028	1.055167e-002	1.975710e-002	9.922849e-001	-9.012230e-002	9.920017e-001	-9.008364e-002	9.676523e-003	2.025057e-002
3814889.112	1.097500e-002	2.021912e-002	9.917798e-001	-9.170136e-002	9.918692e-001	-9.185492e-002	9.876485e-003	2.046974e-002
3877428.196	1.121878e-002	2.056978e-002	9.916281e-001	-9.323064e-002	9.914415e-001	-9.307475e-002	1.051586e-002	2.079626e-002
3939967.280	1.149028e-002	2.059608e-002	9.911879e-001	-9.478506e-002	9.910979e-001	-9.456952e-002	1.081997e-002	2.122094e-002
4002506.363	1.188902e-002	2.105546e-002	9.908538e-001	-9.619900e-002	9.906734e-001	-9.592579e-002	1.108706e-002	2.145137e-002
4065045.447	1.205781e-002	2.128410e-002	9.902495e-001	-9.773845e-002	9.901022e-001	-9.752569e-002	1.150821e-002	2.165721e-002
4127584.531	1.236424e-002	2.155846e-002	9.897964e-001	-9.914048e-002	9.897276e-001	-9.884743e-002	1.187572e-002	2.206115e-002
4190123.615	1.276215e-002	2.187557e-002	9.894204e-001	-1.007568e-001	9.891939e-001	-1.004625e-001	1.213162e-002	2.212671e-002
4252662.699	1.308564e-002	2.205674e-002	9.891204e-001	-1.022032e-001	9.886715e-001	-1.020078e-001	1.258997e-002	2.241130e-002
4315201.782	1.356283e-002	2.227298e-002	9.886342e-001	-1.033652e-001	9.885400e-001	-1.034487e-001	1.276624e-002	2.248555e-002
4377740.866	1.383838e-002	2.250195e-002	9.882475e-001	-1.049667e-001	9.878453e-001	-1.048059e-001	1.332876e-002	2.300966e-002
4440279.950	1.412235e-002	2.259629e-002	9.877589e-001	-1.062136e-001	9.873068e-001	-1.060887e-001	1.358806e-002	2.310363e-002
4502819.034	1.449454e-002	2.295081e-002	9.870418e-001	-1.076805e-001	9.869632e-001	-1.074874e-001	1.405577e-002	2.345461e-002
4565358.118	1.478475e-002	2.311029e-002	9.866253e-001	-1.090071e-001	9.863644e-001	-1.086732e-001	1.444576e-002	2.355393e-002
4627897.201	1.534580e-002	2.342174e-002	9.863335e-001	-1.103805e-001	9.859391e-001	-1.100305e-001	1.491935e-002	2.383868e-002
4690436.285	1.556092e-002	2.350289e-002	9.858231e-001	-1.117972e-001	9.855240e-001	-1.117898e-001	1.530184e-002	2.384148e-002
4752975.369	1.594472e-002	2.365837e-002	9.851467e-001	-1.132346e-001	9.851310e-001	-1.129878e-001	1.548992e-002	2.396548e-002
4815514.453	1.643769e-002	2.381370e-002	9.849065e-001	-1.144590e-001	9.846227e-001	-1.144028e-001	1.609741e-002	2.420932e-002
4878053.537	1.691940e-002	2.387223e-002	9.844813e-001	-1.157059e-001	9.840980e-001	-1.155340e-001	1.645001e-002	2.428068e-002
4940592.620	1.704061e-002	2.405582e-002	9.838402e-001	-1.170988e-001	9.836877e-001	-1.169979e-001	1.660386e-002	2.440124e-002
5003131.704	1.746829e-002	2.405002e-002	9.833170e-001	-1.183927e-001	9.832920e-001	-1.180452e-001	1.709234e-002	2.446897e-002
5065670.788	1.778178e-002	2.436955e-002	9.828520e-001	-1.197080e-001	9.826918e-001	-1.194076e-001	1.744166e-002	2.462682e-002
5128209.872	1.827087e-002	2.433054e-002	9.825690e-001	-1.209613e-001	9.822213e-001	-1.207118e-001	1.776506e-002	2.453635e-002
5190748.956	1.854845e-002	2.442243e-002	9.819469e-001	-1.222832e-001	9.818439e-001	-1.221251e-001	1.811758e-002	2.475622e-002
5253288.039	1.897134e-002	2.448198e-002	9.816047e-001	-1.235359e-001	9.813211e-001	-1.233610e-001	1.843070e-002	2.493555e-002
5315827.123	1.927839e-002	2.451370e-002	9.809458e-001	-1.247983e-001	9.808512e-001	-1.246167e-001	1.876903e-002	2.492969e-002
5378366.207	1.973940e-002	2.462915e-002	9.806601e-001	-1.260613e-001	9.804340e-001	-1.260457e-001	1.910475e-002	2.491374e-002
5440905.291	1.991301e-002	2.479829e-002	9.802188e-001	-1.273376e-001	9.799681e-001	-1.272124e-001	1.936004e-002	2.503514e-002
5503444.375	2.045749e-002	2.469727e-002	9.797315e-001	-1.286412e-001	9.795745e-001	-1.282584e-001	1.990174e-002	2.501611e-002
5565983.458	2.046857e-002	2.489559e-002	9.792599e-001	-1.297800e-001	9.791025e-001	-1.294950e-001	2.020248e-002	2.523066e-002
5628522.542	2.105186e-002	2.485866e-002	9.788437e-001	-1.309297e-001	9.786269e-001	-1.308771e-001	2.057046e-002	2.516332e-002
5691061.626	2.145735e-002	2.473568e-002	9.783392e-001	-1.323381e-001	9.781293e-001	-1.321303e-001	2.081433e-002	2.527384e-002
5753600.710	2.165850e-002	2.487017e-002	9.777942e-001	-1.334757e-001	9.776866e-001	-1.332734e-001	2.120193e-002	2.517279e-002
5816139.794	2.209532e-002	2.508274e-002	9.773970e-001	-1.346941e-001	9.770798e-001	-1.346774e-001	2.140816e-002	2.527474e-002
5878678.877	2.233058e-002	2.490125e-002	9.769364e-001	-1.359577e-001	9.767307e-001	-1.358059e-001	2.185308e-002	2.516552e-002
5941217.961	2.264796e-002	2.484644e-002	9.764072e-001	-1.372570e-001	9.762770e-001	-1.368759e-001	2.199988e-002	2.529906e-002
6003757.045	2.283455e-002	2.511011e-002	9.758508e-001	-1.383094e-001	9.757985e-001	-1.380648e-001	2.244619e-002	2.529449e-002
6066296.129	2.326505e-002	2.493920e-002	9.756196e-001	-1.395235e-001	9.753995e-001	-1.392357e-001	2.275088e-002	2.528552e-002
6128835.213	2.369137e-002	2.497139e-002	9.751663e-001	-1.404222e-001	9.750823e-001	-1.405674e-001	2.316334e-002	2.529430e-002
6191374.296	2.394649e-002	2.496842e-002	9.746409e-001	-1.419080e-001	9.744128e-001	-1.419030e-001	2.331954e-002	2.541459e-002
6253913.380	2.418706e-002	2.509739e-002	9.742417e-001	-1.431691e-001	9.739959e-001	-1.429129e-001	2.354626e-002	2.553286e-002
6316452.464	2.447701e-002	2.517597e-002	9.738278e-001	-1.442511e-001	9.734490e-001	-1.443050e-001	2.388438e-002	2.532376e-002
6378991.548	2.474620e-002	2.503620e-002	9.733043e-001	-1.457660e-001	9.732437e-001	-1.453746e-001	2.424495e-002	2.520037e-002
6441530.632	2.498884e-002	2.496441e-002	9.728482e-001	-1.466437e-001	9.727014e-001	-1.466642e-001	2.461020e-002	2.530632e-002
6504069.715	2.529035e-002	2.494173e-002	9.723890e-001	-1.480599e-001	9.724317e-001	-1.477679e-001	2.491602e-002	2.529980e-002
6566608.799	2.571284e-002	2.486470e-002	9.720547e-001	-1.492767e-001	9.718217e-001	-1.489775e-001	2.513618e-002	2.548312e-002
6629147.883	2.598260e-002	2.498965e-002	9.715539e-001	-1.501162e-001	9.713417e-001	-1.501707e-001	2.550387e-002	2.532719e-002
6691686.967	2.615980e-002	2.499796e-002	9.710284e-001	-1.513941e-001	9.708711e-001	-1.513114e-001	2.583647e-002	2.540742e-002
6754226.051	2.640474e-002	2.496912e-002	9.705682e-001	-1.527052e-001	9.703297e-001	-1.526323e-001	2.593112e-002	2.518945e-002
6816765.134	2.678684e-002	2.493723e-002	9.702195e-001	-1.537718e-001	9.700498e-001	-1.536640e-001	2.628771e-002	2.535529e-002
6879304.218	2.696324e-002	2.476661e-002	9.697139e-001	-1.549791e-001	9.696290e-001	-1.548060e-001	2.654921e-002	2.527423e-002
6941843.302	2.733217e-002	2.489551e-002	9.692680e-001	-1.561909e-001	9.691614e-001	-1.559490e-001	2.684531e-002	2.532557e-002
7004382.386	2.745111e-002	2.495476e-002	9.689061e-001	-1.572367e-001	9.686639e-001	-1.570943e-001	2.704843e-002	2.535614e-002
7066921.470	2.781951e-002	2.487354e-002	9.683586e-001	-1.585441e-001	9.683058e-001	-1.580746e-001	2.748014e-002	2.515719e-002
7129460.553	2.797324e-002	2.473470e-002	9.680198e-001	-1.594586e-001	9.678572e-001	-1.593834e-001	2.775965e-002	2.517650e-002
7191999.637	2.826994e-002	2.494287e-002	9.673657e-001	-1.607134e-001	9.672963e-001	-1.605168e-001	2.789724e-002	2.516190e-002
7254538.721	2.857912e-002	2.477737e-002	9.672436e-001	-1.619315e-001	9.670085e-001	-1.617247e-001	2.821140e-002	2.515086e-002
7317077.805	2.901176e-002	2.471648e-002	9.667484e-001	-1.629419e-001	9.665910e-001	-1.627938e-001	2.847933e-002	2.500054e-002
7379616.889	2.914363e-002	2.470304e-002	9.664602e-001	-1.643117e-001	9.660979e-001	-1.639931e-001	2.868296e-002	2.500270e-002
7442155.972	2.926677e-002	2.467238e-002	9.658577e-001	-1.652502e-001	9.656888e-001	-1.650520e-001	2.905289e-002	2.517514e-002
7504695.056	2.956856e-002	2.454084e-002	9.653582e-001	-1.663288e-001	9.651192e-001	-1.663294e-001	2.935571e-002	2.517728e-002
7567234.140	2.999204e-002	2.441752e-002	9.650519e-001	-1.674618e-001	9.647300e-001	-1.674150e-001	2.953794e-002	2.505226e-002
7629773.224	3.018325e-002	2.465816e-002	9.646745e-001	-1.687843e-001	9.644498e-001	-1.685161e-001	2.971578e-002	2.497127e-002
7692312.308	3.030298e-002	2.457812e-002	9.642090e-001	-1.698857e-001	9.639068e-001	-1.697436e-001	3.002692e-002	2.482873e-002
7754851.391	3.053739e-002	2.438674e-002	9.637468e-001	-1.710611e-001	9.634101e-001	-1.706861e-001	3.024166e-002	2.491947e-002
7817390.475	3.088087e-002	2.452667e-002	9.633410e-001	-1.723043e-001	9.629994e-001	-1.719995e-001	3.043099e-002	2.498575e-002
7879929.559	3.103233e-002	2.431414e-002	9.628100e-001	-1.733958e-001	9.625709e-001	-1.733205e-001	3.079969e-002	2.491634e-002
7942468.643	3.122272e-002	2.422286e-002	9.624776e-001	-1.744566e-001	9.622298e-001	-1.743671e-001	3.101244e-002	2.471720e-002
8005007.727	3.157468e-002	2.419540e-002	9.619618e-001	-1.756470e-001	9.618066e-001	-1.754743e-001	3.119636e-002	2.488016e-002
8067546.811	3.167733e-002	2.418161e-002	9.616037e-001	-1.767348e-001	9.612569e-001	-1.765531e-001	3.134112e-002	2.463909e-002
8130085.894	3.198344e-002	2.406278e-002	9.611285e-001	-1.777614e-001	9.609032e-001	-1.776993e-001	3.179021e-002	2.452000e-002
8192624.978	3.206477e-002	2.396334e-002	9.605174e-001	-1.790378e-001	9.604891e-001	-1.787592e-001	3.207408e-002	2.446184e-002
8255164.062	3.241474e-002	2.393511e-002	9.602591e-001	-1.801201e-001	9.600297e-001	-1.799418e-001	3.227545e-002	2.436365e-002
8317703.146	3.254580e-002	2.398248e-002	9.598573e-001	-1.812394e-001	9.597006e-001	-1.810220e-001	3.236078e-002	2.437940e-002
8380242.230	3.286842e-002	2.369484e-002	9.592898e-001	-1.824555e-001	9.591482e-001	-1.820962e-001	3.253853e-002	2.425829e-002
8442781.313	3.307955e-002	2.367720e-002	9.591089e-001	-1.834846e-001	9.588091e-001	-1.831955e-001	3.275266e-002	2.413577e-002
8505320.397	3.331781e-002	2.374208e-002	9.586244e-001	-1.846285e-001	9.583125e-001	-1.843256e-001	3.294459e-002	2.412220e-002
8567859.481	3.351679e-002	2.383904e-002	9.581385e-001	-1.855550e-001	9.580257e-001	-1.854408e-001	3.321200e-002	2.420973e-002
8630398.565	3.380208e-002	2.371108e-002	9.575800e-001	-1.866325e-001	9.575582e-001	-1.865274e-001	3.331150e-002	2.391453e-002
8692937.649	3.396893e-002	2.345391e-002	9.572326e-001	-1.877734e-001	9.569860e-001	-1.876512e-001	3.348520e-002	2.395116e-002
8755476.732	3.421354e-002	2.345264e-002	9.568333e-001	-1.889968e-001	9.565697e-001	-1.886768e-001	3.378857e-002	2.389403e-002
8818015.816	3.432133e-002	2.335544e-002	9.563546e-001	-1.900658e-001	9.560125e-001	-1.898336e-001	3.409217e-002	2.373936e-002
8880554.900	3.475088e-002	2.331531e-002	9.560658e-001	-1.912131e-001	9.558818e-001	-1.908059e-001	3.418552e-002	2.352912e-002
8943093.984	3.479909e-002	2.336433e-002	9.555698e-001	-1.922396e-001	9.554465e-001	-1.919238e-001	3.441629e-002	2.351386e-002
9005633.068	3.506458e-002	2.319618e-002	9.550211e-001	-1.933353e-001	9.550617e-001	-1.931667e-001	3.451140e-002	2.332875e-002
9068172.151	3.514759e-002	2.314314e-002	9.547563e-001	-1.945033e-001	9.544846e-001	-1.941670e-001	3.479114e-002	2.329774e-002
9130711.235	3.555308e-002	2.297787e-002	9.542423e-001	-1.955756e-001	9.541592e-001	-1.952187e-001	3.502757e-002	2.304100e-002
9193250.319	3.574854e-002	2.287703e-002	9.539965e-001	-1.965353e-001	9.536702e-001	-1.964426e-001	3.517132e-002	2.303789e-002
9255789.403	3.584092e-002	2.266789e-002	9.535912e-001	-1.975584e-001	9.532424e-001	-1.974465e-001	3.525743e-002	2.303766e-002
9318328.487	3.601459e-002	2.268322e-002	9.530857e-001	-1.988790e-001	9.529697e-001	-1.985375e-001	3.557544e-002	2.295055e-002
9380867.570	3.624659e-002	2.271807e-002	9.527337e-001	-1.999650e-001	9.523978e-001	-1.996811e-001	3.577837e-002	2.283940e-002
9443406.654	3.648434e-002	2.262893e-002	9.523016e-001	-2.009809e-001	9.520845e-001	-2.008797e-001	3.600891e-002	2.269577e-002
9505945.738	3.667600e-002	2.257034e-002	9.516848e-001	-2.022057e-001	9.517018e-001	-2.019295e-001	3.615750e-002	2.260752e-002
9568484.822	3.691429e-002	2.244444e-002	9.514055e-001	-2.032790e-001	9.510340e-001	-2.030155e-001	3.619046e-002	2.277450e-002
9631023.906	3.708993e-002	2.238311e-002	9.510291e-001	-2.043356e-001	9.506162e-001	-2.041365e-001	3.654790e-002	2.238213e-002
9693562.989	3.731102e-002	2.228304e-002	9.504675e-001	-2.054272e-001	9.502972e-001	-2.051298e-001	3.650880e-002	2.242195e-002
9756102.073	3.748564e-002	2.215623e-002	9.502835e-001	-2.065324e-001	9.499348e-001	-2.061833e-001	3.673672e-002	2.220099e-002
