!Agilent Technologies,E5061B,MY49102235,A.02.00
!Date: Tue Jul 11 17:09:35 2023
!Data & Calibration Information:
!Freq	S11:SOLT2(ON)	S21:SOLT2(ON)	S12:SOLT2(ON)	S22:SOLT2(ON)
# Hz S RI R 50
5.000	-5.164877e-003	-5.631784e-003	1.002447e+000	8.011103e-003	1.000751e+000	1.026401e-002	-1.402199e-003	-7.574416e-003
62544.084	5.811216e-003	-4.861657e-004	1.001403e+000	4.998892e-004	1.000774e+000	1.331187e-003	7.710942e-003	-2.887298e-003
125083.168	5.704098e-003	-4.815670e-004	1.000941e+000	-9.187444e-004	1.000679e+000	-8.345397e-004	7.502517e-003	-2.270019e-003
187622.251	5.472967e-003	-3.292492e-004	1.000628e+000	-2.152339e-003	1.000931e+000	-9.839769e-004	7.373761e-003	-2.364064e-003
250161.335	5.327525e-003	-1.820336e-004	1.000529e+000	-3.197773e-003	1.000672e+000	-3.114723e-003	7.265972e-003	-2.031665e-003
312700.419	5.434944e-003	5.462433e-004	1.000969e+000	-3.840766e-003	1.000689e+000	-3.569921e-003	7.755938e-003	-2.346886e-003
375239.503	5.336959e-003	-9.910287e-004	1.001095e+000	-5.211247e-003	1.000516e+000	-4.909213e-003	7.252368e-003	-2.503496e-003
437778.587	5.168186e-003	-6.028629e-004	1.001416e+000	-5.427335e-003	1.000903e+000	-6.093867e-003	6.628265e-003	-2.215676e-003
500317.670	4.614267e-003	-4.800471e-004	1.001313e+000	-7.821750e-003	1.001590e+000	-7.383343e-003	4.819836e-003	-2.068313e-003
562856.754	5.928322e-003	-7.901626e-004	1.001454e+000	-9.281220e-003	1.001064e+000	-9.080744e-003	6.018398e-003	-1.558249e-003
625395.838	5.113979e-003	-6.369500e-004	1.002350e+000	-1.055098e-002	1.002068e+000	-1.008667e-002	6.110836e-003	-9.812057e-004
687934.922	5.154025e-003	-9.835000e-004	1.001436e+000	-1.150509e-002	1.001299e+000	-1.147478e-002	5.740386e-003	-1.468259e-003
750474.006	4.284520e-003	-6.683098e-004	1.001229e+000	-1.093448e-002	1.000675e+000	-1.037592e-002	5.469178e-003	-1.339789e-003
813013.089	4.461560e-003	-6.555240e-004	1.001450e+000	-1.273116e-002	1.000512e+000	-1.214212e-002	4.827119e-003	-1.178474e-003
875552.173	4.196906e-003	-4.986251e-004	1.001358e+000	-1.362929e-002	1.000778e+000	-1.327231e-002	5.614574e-003	-1.575670e-003
938091.257	4.281080e-003	-4.273657e-004	1.001479e+000	-1.526124e-002	1.000957e+000	-1.438915e-002	5.846972e-003	-1.003344e-003
1000630.341	3.717230e-003	-7.976379e-004	1.001033e+000	-1.655445e-002	1.000811e+000	-1.573863e-002	5.083122e-003	-1.717193e-003
1063169.425	4.064152e-003	-9.489163e-004	1.001447e+000	-1.792927e-002	1.000603e+000	-1.662706e-002	4.268798e-003	-2.052911e-003
1125708.508	3.955713e-003	-9.121521e-004	1.001148e+000	-1.907656e-002	1.000569e+000	-1.803691e-002	3.784244e-003	-1.768159e-003
1188247.592	4.503861e-003	-1.363927e-003	1.001351e+000	-2.022903e-002	1.000817e+000	-1.917099e-002	2.681109e-003	-2.341124e-003
1250786.676	4.328346e-003	-2.116973e-003	1.000842e+000	-2.021814e-002	1.000679e+000	-1.982637e-002	1.940232e-003	-4.008372e-003
1313325.760	4.455835e-003	-2.214799e-003	1.001326e+000	-2.166271e-002	1.000863e+000	-2.143347e-002	2.677099e-003	-3.807312e-003
1375864.844	4.181265e-003	-2.413813e-003	1.000938e+000	-2.355765e-002	1.000496e+000	-2.322829e-002	2.529026e-003	-3.533479e-003
1438403.927	4.069641e-003	-2.587410e-003	1.001081e+000	-2.425820e-002	1.000841e+000	-2.308223e-002	2.618948e-003	-3.279026e-003
1500943.011	4.304548e-003	-2.534673e-003	1.001575e+000	-2.528741e-002	1.001237e+000	-2.458229e-002	2.960704e-003	-3.690475e-003
1563482.095	4.296274e-003	-2.911417e-003	1.001199e+000	-2.652226e-002	1.000500e+000	-2.524196e-002	3.097206e-003	-3.492414e-003
1626021.179	4.098017e-003	-2.790068e-003	1.001013e+000	-2.762456e-002	1.000863e+000	-2.783323e-002	3.368985e-003	-3.555649e-003
1688560.263	3.793001e-003	-2.731036e-003	1.000620e+000	-2.936380e-002	1.001305e+000	-2.914759e-002	3.543933e-003	-3.567640e-003
1751099.346	3.933819e-003	-2.644141e-003	1.001263e+000	-3.056024e-002	1.000616e+000	-2.968235e-002	3.349461e-003	-2.755845e-003
1813638.430	3.585121e-003	-2.707793e-003	1.001545e+000	-3.206254e-002	1.000920e+000	-3.144792e-002	3.540860e-003	-3.134615e-003
1876177.514	3.617295e-003	-2.410956e-003	1.001976e+000	-3.305796e-002	1.001380e+000	-3.300671e-002	3.205071e-003	-2.472998e-003
1938716.598	3.059391e-003	-2.344723e-003	1.002018e+000	-3.382446e-002	1.001302e+000	-3.285634e-002	3.373166e-003	-2.095720e-003
2001255.682	2.979064e-003	-2.850235e-003	1.002006e+000	-3.531993e-002	1.001281e+000	-3.450972e-002	3.129639e-003	-2.563618e-003
2063794.765	3.053904e-003	-2.460573e-003	1.001519e+000	-3.621426e-002	1.000842e+000	-3.620136e-002	3.510821e-003	-2.663052e-003
2126333.849	2.602317e-003	-2.990320e-003	1.000939e+000	-3.743675e-002	1.000105e+000	-3.646331e-002	3.768326e-003	-2.417105e-003
2188872.933	3.083885e-003	-3.017183e-003	1.000803e+000	-3.872902e-002	1.000176e+000	-3.753778e-002	3.649015e-003	-2.467567e-003
2251412.017	3.178099e-003	-3.379418e-003	1.000509e+000	-4.019784e-002	1.000256e+000	-3.869553e-002	3.637455e-003	-2.617944e-003
2313951.101	3.499321e-003	-2.974184e-003	9.999986e-001	-4.116427e-002	1.000224e+000	-3.965741e-002	3.945289e-003	-2.685336e-003
2376490.184	3.240878e-003	-3.011056e-003	1.000042e+000	-4.153651e-002	1.000273e+000	-4.141165e-002	3.896957e-003	-2.679739e-003
2439029.268	3.694721e-003	-3.061607e-003	9.999836e-001	-4.331059e-002	9.994124e-001	-4.245590e-002	3.563205e-003	-2.596057e-003
2501568.352	3.676239e-003	-3.065755e-003	9.996508e-001	-4.344099e-002	1.000106e+000	-4.302396e-002	3.845567e-003	-2.644073e-003
2564107.436	3.566839e-003	-3.240867e-003	9.999594e-001	-4.512383e-002	9.999676e-001	-4.460374e-002	3.149541e-003	-3.023866e-003
2626646.520	4.054967e-003	-3.429969e-003	9.998454e-001	-4.629976e-002	9.988711e-001	-4.578235e-002	3.411699e-003	-3.112135e-003
2689185.604	4.015175e-003	-3.284485e-003	1.000125e+000	-4.707998e-002	9.995844e-001	-4.644570e-002	3.524398e-003	-3.071860e-003
2751724.687	4.136191e-003	-3.400509e-003	1.000015e+000	-4.797734e-002	9.994783e-001	-4.723040e-002	3.134766e-003	-3.123532e-003
2814263.771	4.073582e-003	-3.474955e-003	9.991351e-001	-4.979098e-002	9.993757e-001	-4.859075e-002	3.108157e-003	-3.260648e-003
2876802.855	4.010388e-003	-3.703197e-003	9.990896e-001	-5.105234e-002	9.992316e-001	-4.974895e-002	3.186624e-003	-3.167085e-003
2939341.939	4.134157e-003	-3.638441e-003	9.996881e-001	-5.164145e-002	9.991763e-001	-5.108183e-002	3.074818e-003	-3.261888e-003
3001881.023	4.052028e-003	-3.638569e-003	9.994597e-001	-5.266540e-002	9.990747e-001	-5.228023e-002	3.162147e-003	-3.442024e-003
3064420.106	4.107611e-003	-3.721861e-003	1.000020e+000	-5.370965e-002	9.989999e-001	-5.320776e-002	2.997736e-003	-3.579820e-003
3126959.190	4.295275e-003	-3.830247e-003	9.995554e-001	-5.498361e-002	9.991744e-001	-5.443313e-002	3.167568e-003	-3.666416e-003
3189498.274	4.274169e-003	-3.827561e-003	9.994796e-001	-5.591883e-002	9.990733e-001	-5.553805e-002	3.163384e-003	-3.758304e-003
3252037.358	4.178478e-003	-4.218381e-003	9.995422e-001	-5.704621e-002	9.991300e-001	-5.652539e-002	3.091199e-003	-3.730422e-003
3314576.442	4.185227e-003	-4.086809e-003	9.994347e-001	-5.811978e-002	9.990096e-001	-5.769747e-002	3.157722e-003	-3.852636e-003
3377115.525	4.159575e-003	-4.102728e-003	9.992314e-001	-5.915309e-002	9.987714e-001	-5.893576e-002	2.995368e-003	-4.030124e-003
3439654.609	4.163451e-003	-4.193768e-003	9.990559e-001	-6.022054e-002	9.990004e-001	-5.991317e-002	3.010546e-003	-3.869052e-003
3502193.693	4.121831e-003	-4.530920e-003	9.990615e-001	-6.145838e-002	9.987113e-001	-6.089007e-002	3.164333e-003	-3.948708e-003
3564732.777	4.170838e-003	-4.429208e-003	9.990632e-001	-6.248962e-002	9.986697e-001	-6.208324e-002	3.256318e-003	-3.970264e-003
3627271.861	4.002849e-003	-4.616785e-003	9.990760e-001	-6.365456e-002	9.987294e-001	-6.305584e-002	3.021813e-003	-4.212378e-003
3689810.944	3.917524e-003	-4.770442e-003	9.989241e-001	-6.474037e-002	9.986607e-001	-6.411695e-002	3.178890e-003	-4.245812e-003
3752350.028	4.025270e-003	-4.793458e-003	9.988349e-001	-6.559220e-002	9.984377e-001	-6.521700e-002	3.112237e-003	-4.345099e-003
3814889.112	4.132445e-003	-4.708887e-003	9.986747e-001	-6.679636e-002	9.986236e-001	-6.656483e-002	3.016432e-003	-4.524330e-003
3877428.196	4.055377e-003	-4.743290e-003	9.987644e-001	-6.792990e-002	9.984796e-001	-6.743515e-002	3.346190e-003	-4.549949e-003
3939967.280	4.028201e-003	-5.085295e-003	9.986966e-001	-6.909799e-002	9.984669e-001	-6.852317e-002	3.307877e-003	-4.524832e-003
4002506.363	4.090204e-003	-5.010330e-003	9.986762e-001	-7.017189e-002	9.983472e-001	-6.949290e-002	3.256858e-003	-4.649988e-003
4065045.447	3.899851e-003	-5.149934e-003	9.983900e-001	-7.126461e-002	9.981487e-001	-7.073015e-002	3.331516e-003	-4.813011e-003
4127584.531	3.869987e-003	-5.229353e-003	9.983275e-001	-7.232835e-002	9.981582e-001	-7.171663e-002	3.341898e-003	-4.767893e-003
4190123.615	3.906798e-003	-5.274870e-003	9.983289e-001	-7.361795e-002	9.979939e-001	-7.295828e-002	3.249223e-003	-5.041461e-003
4252662.699	3.868296e-003	-5.408137e-003	9.984210e-001	-7.472396e-002	9.978880e-001	-7.415720e-002	3.347820e-003	-5.077455e-003
4315201.782	3.990767e-003	-5.526219e-003	9.982849e-001	-7.556290e-002	9.980542e-001	-7.528453e-002	3.165414e-003	-5.346466e-003
4377740.866	3.888886e-003	-5.614864e-003	9.982790e-001	-7.680876e-002	9.977357e-001	-7.636357e-002	3.332561e-003	-5.112555e-003
4440279.950	3.776683e-003	-5.818744e-003	9.981326e-001	-7.778152e-002	9.976090e-001	-7.730736e-002	3.214310e-003	-5.354500e-003
4502819.034	3.772541e-003	-5.754920e-003	9.978420e-001	-7.897772e-002	9.976344e-001	-7.841976e-002	3.298338e-003	-5.267270e-003
4565358.118	3.675275e-003	-5.885137e-003	9.977793e-001	-8.000796e-002	9.973833e-001	-7.930638e-002	3.284880e-003	-5.442814e-003
4627897.201	3.858571e-003	-5.810344e-003	9.978939e-001	-8.112313e-002	9.973601e-001	-8.042639e-002	3.380675e-003	-5.409933e-003
4690436.285	3.674899e-003	-5.995612e-003	9.978183e-001	-8.224915e-002	9.973717e-001	-8.190497e-002	3.376658e-003	-5.686051e-003
4752975.369	3.678874e-003	-6.087835e-003	9.974680e-001	-8.345847e-002	9.973528e-001	-8.288619e-002	3.193050e-003	-5.807800e-003
4815514.453	3.779720e-003	-6.163375e-003	9.976103e-001	-8.445003e-002	9.972484e-001	-8.407582e-002	3.410080e-003	-5.786020e-003
4878053.537	3.869055e-003	-6.337072e-003	9.975350e-001	-8.549652e-002	9.971115e-001	-8.501471e-002	3.352788e-003	-5.944292e-003
4940592.620	3.597047e-003	-6.357011e-003	9.973088e-001	-8.664667e-002	9.971069e-001	-8.616249e-002	3.110947e-003	-6.054258e-003
5003131.704	3.669300e-003	-6.575125e-003	9.972210e-001	-8.771146e-002	9.970495e-001	-8.703137e-002	3.244172e-003	-6.176216e-003
5065670.788	3.591419e-003	-6.450544e-003	9.971370e-001	-8.887980e-002	9.968581e-001	-8.822148e-002	3.198182e-003	-6.210540e-003
5128209.872	3.702742e-003	-6.667639e-003	9.972226e-001	-8.989470e-002	9.968170e-001	-8.929010e-002	3.168180e-003	-6.502443e-003
5190748.956	3.594167e-003	-6.764344e-003	9.969871e-001	-9.105909e-002	9.967624e-001	-9.053570e-002	3.127877e-003	-6.453468e-003
5253288.039	3.639100e-003	-6.886658e-003	9.969905e-001	-9.211399e-002	9.966827e-001	-9.160013e-002	3.044680e-003	-6.456159e-003
5315827.123	3.594294e-003	-7.027534e-003	9.967042e-001	-9.323682e-002	9.965573e-001	-9.276309e-002	3.018548e-003	-6.637728e-003
5378366.207	3.678352e-003	-7.057079e-003	9.967788e-001	-9.431490e-002	9.964554e-001	-9.401565e-002	2.992977e-003	-6.806770e-003
5440905.291	3.475715e-003	-7.068053e-003	9.967075e-001	-9.544626e-002	9.963986e-001	-9.494319e-002	2.886628e-003	-6.845492e-003
5503444.375	3.690439e-003	-7.299088e-003	9.965949e-001	-9.658735e-002	9.963849e-001	-9.593239e-002	3.070929e-003	-6.996438e-003
5565983.458	3.327964e-003	-7.264781e-003	9.965211e-001	-9.758235e-002	9.962644e-001	-9.695812e-002	2.979267e-003	-6.917885e-003
5628522.542	3.581613e-003	-7.426162e-003	9.964415e-001	-9.858974e-002	9.961478e-001	-9.824536e-002	3.021131e-003	-7.139586e-003
5691061.626	3.635996e-003	-7.676881e-003	9.962645e-001	-9.990117e-002	9.959852e-001	-9.934213e-002	2.926317e-003	-7.165296e-003
5753600.710	3.455321e-003	-7.686003e-003	9.960934e-001	-1.008616e-001	9.958873e-001	-1.003559e-001	2.951699e-003	-7.385943e-003
5816139.794	3.551914e-003	-7.587597e-003	9.960878e-001	-1.020156e-001	9.956402e-001	-1.016565e-001	2.809781e-003	-7.422317e-003
5878678.877	3.452036e-003	-7.902738e-003	9.959281e-001	-1.031544e-001	9.956370e-001	-1.026149e-001	2.899800e-003	-7.651934e-003
5941217.961	3.428369e-003	-8.063852e-003	9.957916e-001	-1.042918e-001	9.955240e-001	-1.035562e-001	2.693138e-003	-7.637779e-003
6003757.045	3.259449e-003	-7.927023e-003	9.955516e-001	-1.052033e-001	9.953990e-001	-1.046586e-001	2.807684e-003	-7.732867e-003
6066296.129	3.365094e-003	-8.196422e-003	9.956389e-001	-1.063854e-001	9.952725e-001	-1.057217e-001	2.783520e-003	-7.855609e-003
6128835.213	3.465437e-003	-8.258777e-003	9.955508e-001	-1.071845e-001	9.953423e-001	-1.069619e-001	2.869273e-003	-7.958040e-003
6191374.296	3.400908e-003	-8.386253e-003	9.953313e-001	-1.085015e-001	9.950305e-001	-1.081796e-001	2.688822e-003	-7.951777e-003
6253913.380	3.295089e-003	-8.349447e-003	9.952713e-001	-1.096375e-001	9.949998e-001	-1.090779e-001	2.562915e-003	-7.933181e-003
6316452.464	3.244285e-003	-8.351895e-003	9.951613e-001	-1.106039e-001	9.947612e-001	-1.103845e-001	2.607163e-003	-8.242959e-003
6378991.548	3.202482e-003	-8.594282e-003	9.950251e-001	-1.121107e-001	9.948084e-001	-1.113521e-001	2.642327e-003	-8.457226e-003
6441530.632	3.133925e-003	-8.757089e-003	9.948433e-001	-1.128376e-001	9.946301e-001	-1.125578e-001	2.661155e-003	-8.436832e-003
6504069.715	3.120045e-003	-8.881637e-003	9.946571e-001	-1.142083e-001	9.946364e-001	-1.136211e-001	2.662105e-003	-8.517367e-003
6566608.799	3.239147e-003	-9.023261e-003	9.946903e-001	-1.153499e-001	9.943848e-001	-1.147347e-001	2.554742e-003	-8.424721e-003
6629147.883	3.177783e-003	-8.985042e-003	9.945174e-001	-1.160875e-001	9.942411e-001	-1.158285e-001	2.634372e-003	-8.663377e-003
6691686.967	3.043168e-003	-9.058717e-003	9.942983e-001	-1.172656e-001	9.940586e-001	-1.169023e-001	2.635200e-003	-8.657626e-003
6754226.051	2.977025e-003	-9.172094e-003	9.941532e-001	-1.184950e-001	9.938314e-001	-1.181778e-001	2.428365e-003	-8.962674e-003
6816765.134	3.061324e-003	-9.265518e-003	9.941342e-001	-1.194862e-001	9.938587e-001	-1.191038e-001	2.464258e-003	-8.842740e-003
6879304.218	2.935279e-003	-9.516546e-003	9.939139e-001	-1.206320e-001	9.937697e-001	-1.201871e-001	2.430114e-003	-9.006412e-003
6941843.302	3.000095e-003	-9.448392e-003	9.937792e-001	-1.217893e-001	9.935825e-001	-1.212445e-001	2.408529e-003	-9.014860e-003
7004382.386	2.767334e-003	-9.470243e-003	9.937550e-001	-1.227318e-001	9.934061e-001	-1.223302e-001	2.306094e-003	-9.072707e-003
7066921.470	2.857315e-003	-9.617736e-003	9.934860e-001	-1.240126e-001	9.933630e-001	-1.232237e-001	2.456127e-003	-9.311600e-003
7129460.553	2.733728e-003	-9.818341e-003	9.934300e-001	-1.248676e-001	9.932142e-001	-1.244809e-001	2.421666e-003	-9.339954e-003
7191999.637	2.710214e-003	-9.677471e-003	9.930509e-001	-1.260815e-001	9.928835e-001	-1.255260e-001	2.275807e-003	-9.431916e-003
7254538.721	2.729110e-003	-9.867914e-003	9.932716e-001	-1.272491e-001	9.929400e-001	-1.267059e-001	2.294647e-003	-9.506087e-003
7317077.805	2.895900e-003	-9.994943e-003	9.930521e-001	-1.282006e-001	9.928032e-001	-1.277199e-001	2.278115e-003	-9.691246e-003
7379616.889	2.737659e-003	-1.007090e-002	9.930517e-001	-1.295251e-001	9.925900e-001	-1.288616e-001	2.183705e-003	-9.768622e-003
7442155.972	2.573074e-003	-1.015420e-002	9.927284e-001	-1.303864e-001	9.925134e-001	-1.298570e-001	2.270150e-003	-9.633851e-003
7504695.056	2.592165e-003	-1.033811e-002	9.925126e-001	-1.314389e-001	9.922422e-001	-1.311293e-001	2.276931e-003	-9.660746e-003
7567234.140	2.759379e-003	-1.050047e-002	9.924840e-001	-1.325318e-001	9.920802e-001	-1.321765e-001	2.174672e-003	-9.851628e-003
7629773.224	2.624038e-003	-1.028713e-002	9.923682e-001	-1.337670e-001	9.921016e-001	-1.331873e-001	2.081449e-003	-9.988844e-003
7692312.308	2.464591e-003	-1.043491e-002	9.922238e-001	-1.348148e-001	9.918416e-001	-1.344050e-001	2.115670e-003	-1.015909e-002
7754851.391	2.437559e-003	-1.068171e-002	9.920393e-001	-1.359497e-001	9.915939e-001	-1.352704e-001	2.041577e-003	-1.011834e-002
7817390.475	2.490012e-003	-1.056619e-002	9.919296e-001	-1.371676e-001	9.915394e-001	-1.366369e-001	1.947320e-003	-1.008538e-002
7879929.559	2.385838e-003	-1.082719e-002	9.916515e-001	-1.382221e-001	9.913532e-001	-1.378723e-001	2.045122e-003	-1.018333e-002
7942468.643	2.309998e-003	-1.096658e-002	9.916220e-001	-1.392363e-001	9.913110e-001	-1.388637e-001	1.992317e-003	-1.043110e-002
8005007.727	2.385403e-003	-1.103744e-002	9.913797e-001	-1.404095e-001	9.911537e-001	-1.399685e-001	1.883598e-003	-1.029850e-002
8067546.811	2.205490e-003	-1.107618e-002	9.912259e-001	-1.414634e-001	9.908439e-001	-1.409622e-001	1.782098e-003	-1.059811e-002
8130085.894	2.265113e-003	-1.122442e-002	9.910737e-001	-1.424925e-001	9.907996e-001	-1.421234e-001	1.969634e-003	-1.072503e-002
8192624.978	2.068204e-003	-1.137595e-002	9.907346e-001	-1.436888e-001	9.906411e-001	-1.431582e-001	1.990666e-003	-1.082223e-002
8255164.062	2.175583e-003	-1.143996e-002	9.906778e-001	-1.447190e-001	9.904169e-001	-1.442739e-001	1.925478e-003	-1.094509e-002
8317703.146	2.018063e-003	-1.141304e-002	9.906030e-001	-1.458505e-001	9.903477e-001	-1.453606e-001	1.721691e-003	-1.097727e-002
8380242.230	2.102682e-003	-1.172715e-002	9.902614e-001	-1.470360e-001	9.900717e-001	-1.463882e-001	1.663412e-003	-1.112523e-002
8442781.313	2.052763e-003	-1.177657e-002	9.903766e-001	-1.479950e-001	9.899630e-001	-1.474479e-001	1.616807e-003	-1.130564e-002
8505320.397	2.008867e-003	-1.172807e-002	9.901306e-001	-1.491511e-001	9.897837e-001	-1.485574e-001	1.528550e-003	-1.132786e-002
8567859.481	1.934275e-003	-1.166095e-002	9.899419e-001	-1.500777e-001	9.897262e-001	-1.496435e-001	1.533618e-003	-1.124436e-002
8630398.565	1.988724e-003	-1.180126e-002	9.895929e-001	-1.511352e-001	9.895331e-001	-1.506823e-001	1.389976e-003	-1.158321e-002
8692937.649	1.899139e-003	-1.210372e-002	9.895054e-001	-1.522212e-001	9.891975e-001	-1.518029e-001	1.294380e-003	-1.155656e-002
8755476.732	1.880699e-003	-1.211641e-002	9.893550e-001	-1.534073e-001	9.890703e-001	-1.527848e-001	1.327787e-003	-1.164081e-002
8818015.816	1.729794e-003	-1.224224e-002	9.891364e-001	-1.544649e-001	9.887453e-001	-1.539457e-001	1.409321e-003	-1.180925e-002
8880554.900	1.915885e-003	-1.229217e-002	9.890838e-001	-1.556048e-001	9.888764e-001	-1.548508e-001	1.237849e-003	-1.207264e-002
8943093.984	1.722351e-003	-1.228180e-002	9.888948e-001	-1.566085e-001	9.886744e-001	-1.559992e-001	1.227667e-003	-1.209297e-002
9005633.068	1.744497e-003	-1.245407e-002	9.886325e-001	-1.577281e-001	9.885504e-001	-1.572118e-001	1.099092e-003	-1.230587e-002
9068172.151	1.554148e-003	-1.253349e-002	9.885722e-001	-1.588388e-001	9.882025e-001	-1.581440e-001	1.111071e-003	-1.234338e-002
9130711.235	1.729924e-003	-1.269098e-002	9.883368e-001	-1.599220e-001	9.880937e-001	-1.592588e-001	1.122350e-003	-1.262048e-002
9193250.319	1.690430e-003	-1.280226e-002	9.882416e-001	-1.608627e-001	9.878452e-001	-1.604186e-001	1.011778e-003	-1.262470e-002
9255789.403	1.546676e-003	-1.303786e-002	9.881004e-001	-1.618681e-001	9.877216e-001	-1.614284e-001	8.439984e-004	-1.265878e-002
9318328.487	1.479956e-003	-1.303296e-002	9.878566e-001	-1.631903e-001	9.876827e-001	-1.624932e-001	9.135813e-004	-1.274269e-002
9380867.570	1.431911e-003	-1.300584e-002	9.877502e-001	-1.642706e-001	9.873547e-001	-1.637042e-001	8.791674e-004	-1.285609e-002
9443406.654	1.457959e-003	-1.308926e-002	9.875629e-001	-1.652461e-001	9.873027e-001	-1.648802e-001	8.717424e-004	-1.301233e-002
9505945.738	1.404480e-003	-1.315022e-002	9.872232e-001	-1.665232e-001	9.871584e-001	-1.659202e-001	7.940855e-004	-1.310877e-002
9568484.822	1.401684e-003	-1.327201e-002	9.871500e-001	-1.675591e-001	9.867437e-001	-1.669660e-001	5.507718e-004	-1.294527e-002
