!Agilent Technologies,E5061B,MY49102235,A.02.00
!Date: Tue Jul 11 17:12:17 2023
!Data & Calibration Information:
!Freq	S11:SOLT2(ON)	S21:SOLT2(ON)	S12:SOLT2(ON)	S22:SOLT2(ON)
# Hz S RI R 50
5.000	-5.097927e-003	-5.638060e-003	1.002269e+000	7.950329e-003	1.000697e+000	1.030613e-002	-1.335473e-003	-7.550760e-003
62544.084	5.818895e-003	-4.979635e-004	1.001390e+000	4.156881e-004	1.000825e+000	1.283465e-003	7.708465e-003	-2.883000e-003
125083.168	5.709291e-003	-5.031839e-004	1.001023e+000	-8.062549e-004	1.000578e+000	-7.543567e-004	7.506525e-003	-2.279298e-003
187622.251	5.494608e-003	-3.234779e-004	1.000487e+000	-2.143084e-003	1.000977e+000	-8.663270e-004	7.376804e-003	-2.395562e-003
250161.335	5.298151e-003	-2.138529e-004	1.000777e+000	-3.173679e-003	1.000551e+000	-3.048378e-003	7.265021e-003	-2.048120e-003
312700.419	5.432445e-003	5.037398e-004	1.000967e+000	-3.880815e-003	1.000614e+000	-3.500990e-003	7.763031e-003	-2.371062e-003
375239.503	5.324043e-003	-1.020574e-003	1.001152e+000	-5.266183e-003	1.000369e+000	-4.796596e-003	7.271158e-003	-2.532819e-003
437778.587	5.154369e-003	-6.438315e-004	1.001539e+000	-5.395658e-003	1.000810e+000	-5.920825e-003	6.650757e-003	-2.251232e-003
500317.670	4.605826e-003	-5.192959e-004	1.001393e+000	-7.846107e-003	1.001596e+000	-7.410224e-003	4.812874e-003	-2.093450e-003
562856.754	5.919295e-003	-8.446360e-004	1.001607e+000	-9.329394e-003	1.000960e+000	-8.982157e-003	6.043221e-003	-1.603456e-003
625395.838	5.121504e-003	-6.971510e-004	1.002344e+000	-1.050552e-002	1.002036e+000	-9.915302e-003	6.116245e-003	-1.037477e-003
687934.922	5.167313e-003	-1.036589e-003	1.001348e+000	-1.143512e-002	1.001223e+000	-1.148517e-002	5.755194e-003	-1.517117e-003
750474.006	4.281889e-003	-7.375185e-004	1.001172e+000	-1.101965e-002	1.000538e+000	-1.029042e-002	5.457369e-003	-1.411382e-003
813013.089	4.456048e-003	-7.190993e-004	1.001463e+000	-1.280203e-002	1.000417e+000	-1.196521e-002	4.814189e-003	-1.251733e-003
875552.173	4.191095e-003	-5.757785e-004	1.001419e+000	-1.363091e-002	1.000828e+000	-1.332589e-002	5.613488e-003	-1.644789e-003
938091.257	4.261700e-003	-5.073819e-004	1.001603e+000	-1.500868e-002	1.000883e+000	-1.426989e-002	5.829810e-003	-1.088797e-003
1000630.341	3.701654e-003	-8.802947e-004	1.001080e+000	-1.654882e-002	1.000695e+000	-1.569709e-002	5.074648e-003	-1.804412e-003
1063169.425	4.061952e-003	-1.033806e-003	1.001499e+000	-1.782073e-002	1.000595e+000	-1.652962e-002	4.257845e-003	-2.139822e-003
1125708.508	3.943687e-003	-1.004308e-003	1.001218e+000	-1.908262e-002	1.000650e+000	-1.796644e-002	3.770064e-003	-1.854868e-003
1188247.592	4.483705e-003	-1.470771e-003	1.001382e+000	-2.017443e-002	1.000888e+000	-1.902615e-002	2.668781e-003	-2.432166e-003
1250786.676	4.322845e-003	-2.212149e-003	1.000943e+000	-1.997319e-002	1.000575e+000	-1.964715e-002	1.923078e-003	-4.112002e-003
1313325.760	4.431405e-003	-2.325126e-003	1.001274e+000	-2.163200e-002	1.000881e+000	-2.126014e-002	2.667982e-003	-3.909914e-003
1375864.844	4.176200e-003	-2.539284e-003	1.001052e+000	-2.362753e-002	1.000435e+000	-2.289532e-002	2.516258e-003	-3.630266e-003
1438403.927	4.061745e-003	-2.695564e-003	1.000961e+000	-2.412313e-002	1.000798e+000	-2.291993e-002	2.593869e-003	-3.395411e-003
1500943.011	4.287281e-003	-2.641415e-003	1.001707e+000	-2.513738e-002	1.001327e+000	-2.447239e-002	2.965338e-003	-3.800034e-003
1563482.095	4.282044e-003	-3.045813e-003	1.001053e+000	-2.644357e-002	1.000555e+000	-2.510708e-002	3.088935e-003	-3.624439e-003
1626021.179	4.076270e-003	-2.927098e-003	1.001044e+000	-2.766884e-002	1.000986e+000	-2.755709e-002	3.351663e-003	-3.682447e-003
1688560.263	3.786791e-003	-2.871220e-003	1.000669e+000	-2.930378e-002	1.001143e+000	-2.891715e-002	3.537086e-003	-3.720383e-003
1751099.346	3.921564e-003	-2.779266e-003	1.001302e+000	-3.048904e-002	1.000559e+000	-2.942033e-002	3.333260e-003	-2.895065e-003
1813638.430	3.560265e-003	-2.847024e-003	1.001572e+000	-3.205208e-002	1.000984e+000	-3.118176e-002	3.519816e-003	-3.278306e-003
1876177.514	3.611989e-003	-2.557271e-003	1.001893e+000	-3.284421e-002	1.001239e+000	-3.292496e-002	3.192222e-003	-2.632273e-003
1938716.598	3.056463e-003	-2.501000e-003	1.002077e+000	-3.380161e-002	1.001285e+000	-3.277550e-002	3.351448e-003	-2.255281e-003
2001255.682	2.959224e-003	-2.990167e-003	1.002090e+000	-3.519576e-002	1.001299e+000	-3.436074e-002	3.108957e-003	-2.722682e-003
2063794.765	3.047348e-003	-2.617786e-003	1.001625e+000	-3.616086e-002	1.000650e+000	-3.588501e-002	3.495382e-003	-2.824722e-003
2126333.849	2.606551e-003	-3.173185e-003	1.001137e+000	-3.752556e-002	1.000095e+000	-3.636049e-002	3.747159e-003	-2.578474e-003
2188872.933	3.072575e-003	-3.184927e-003	1.000766e+000	-3.837174e-002	1.000026e+000	-3.729219e-002	3.629105e-003	-2.648157e-003
2251412.017	3.182988e-003	-3.550604e-003	1.000721e+000	-4.011300e-002	1.000141e+000	-3.834404e-002	3.601323e-003	-2.779708e-003
2313951.101	3.486987e-003	-3.144661e-003	1.000106e+000	-4.105040e-002	1.000195e+000	-3.933298e-002	3.917309e-003	-2.872826e-003
2376490.184	3.232813e-003	-3.188455e-003	9.999858e-001	-4.134102e-002	1.000113e+000	-4.112908e-002	3.881364e-003	-2.878331e-003
2439029.268	3.678708e-003	-3.241908e-003	1.000103e+000	-4.304119e-002	9.993897e-001	-4.222849e-002	3.528055e-003	-2.785123e-003
2501568.352	3.639948e-003	-3.272875e-003	9.996711e-001	-4.329923e-002	1.000200e+000	-4.284228e-002	3.831749e-003	-2.844511e-003
2564107.436	3.569983e-003	-3.442906e-003	1.000045e+000	-4.507140e-002	9.998737e-001	-4.441291e-002	3.132893e-003	-3.240467e-003
2626646.520	4.054826e-003	-3.630358e-003	9.999335e-001	-4.613995e-002	9.987636e-001	-4.553391e-002	3.387663e-003	-3.308691e-003
2689185.604	3.994889e-003	-3.487649e-003	1.000094e+000	-4.696797e-002	9.994876e-001	-4.617165e-002	3.506187e-003	-3.277455e-003
2751724.687	4.110775e-003	-3.602615e-003	1.000059e+000	-4.763523e-002	9.994491e-001	-4.709132e-002	3.112176e-003	-3.345037e-003
2814263.771	4.051886e-003	-3.686194e-003	9.992343e-001	-4.961486e-002	9.992701e-001	-4.848694e-002	3.096064e-003	-3.497827e-003
2876802.855	3.994087e-003	-3.917233e-003	9.991722e-001	-5.088715e-002	9.991308e-001	-4.946961e-002	3.163187e-003	-3.392922e-003
2939341.939	4.125256e-003	-3.872147e-003	9.998042e-001	-5.146516e-002	9.992348e-001	-5.093360e-002	3.070003e-003	-3.510156e-003
3001881.023	4.042911e-003	-3.882878e-003	9.995595e-001	-5.265782e-002	9.989389e-001	-5.187685e-002	3.139979e-003	-3.668866e-003
3064420.106	4.082222e-003	-3.951976e-003	1.000045e+000	-5.352929e-002	9.989880e-001	-5.290156e-002	2.972111e-003	-3.819044e-003
3126959.190	4.277028e-003	-4.075658e-003	9.996346e-001	-5.476366e-002	9.991859e-001	-5.414592e-002	3.148361e-003	-3.909466e-003
3189498.274	4.256907e-003	-4.066620e-003	9.995103e-001	-5.570975e-002	9.990720e-001	-5.525173e-002	3.124161e-003	-4.012642e-003
3252037.358	4.165878e-003	-4.472444e-003	9.996082e-001	-5.685049e-002	9.990994e-001	-5.623831e-002	3.067167e-003	-3.973727e-003
3314576.442	4.173289e-003	-4.334911e-003	9.994889e-001	-5.786801e-002	9.989891e-001	-5.735848e-002	3.130553e-003	-4.123652e-003
3377115.525	4.140481e-003	-4.368696e-003	9.993048e-001	-5.889254e-002	9.987648e-001	-5.861959e-002	2.972939e-003	-4.296615e-003
3439654.609	4.139183e-003	-4.472027e-003	9.991253e-001	-5.998886e-002	9.990488e-001	-5.962810e-002	2.966098e-003	-4.142120e-003
3502193.693	4.097142e-003	-4.818391e-003	9.990801e-001	-6.124427e-002	9.987009e-001	-6.054903e-002	3.143886e-003	-4.228736e-003
3564732.777	4.132102e-003	-4.723897e-003	9.991497e-001	-6.225660e-002	9.986987e-001	-6.178233e-002	3.227209e-003	-4.244388e-003
3627271.861	3.977876e-003	-4.897059e-003	9.991169e-001	-6.342292e-002	9.987536e-001	-6.272494e-002	3.007764e-003	-4.503331e-003
3689810.944	3.887858e-003	-5.072671e-003	9.989755e-001	-6.450287e-002	9.986370e-001	-6.378953e-002	3.159679e-003	-4.530840e-003
3752350.028	4.001030e-003	-5.079563e-003	9.988481e-001	-6.536774e-002	9.984336e-001	-6.482185e-002	3.077932e-003	-4.633292e-003
3814889.112	4.111829e-003	-5.007182e-003	9.986934e-001	-6.653310e-002	9.986435e-001	-6.618222e-002	2.996708e-003	-4.818157e-003
3877428.196	4.036626e-003	-5.046819e-003	9.988526e-001	-6.771020e-002	9.984773e-001	-6.711479e-002	3.305552e-003	-4.859359e-003
3939967.280	4.005518e-003	-5.406786e-003	9.987502e-001	-6.882423e-002	9.984732e-001	-6.815758e-002	3.279479e-003	-4.823800e-003
4002506.363	4.064818e-003	-5.311076e-003	9.987321e-001	-6.990617e-002	9.983972e-001	-6.913938e-002	3.218339e-003	-4.957298e-003
4065045.447	3.889591e-003	-5.483885e-003	9.983876e-001	-7.102101e-002	9.981469e-001	-7.034329e-002	3.296210e-003	-5.129271e-003
4127584.531	3.843648e-003	-5.556060e-003	9.983695e-001	-7.211968e-002	9.981665e-001	-7.131819e-002	3.309104e-003	-5.082893e-003
4190123.615	3.880829e-003	-5.603344e-003	9.984225e-001	-7.335404e-002	9.979582e-001	-7.263187e-002	3.219606e-003	-5.381240e-003
4252662.699	3.834300e-003	-5.754919e-003	9.984359e-001	-7.441784e-002	9.978354e-001	-7.381913e-002	3.307115e-003	-5.421308e-003
4315201.782	3.964815e-003	-5.856184e-003	9.982899e-001	-7.532800e-002	9.980722e-001	-7.483680e-002	3.120331e-003	-5.675140e-003
4377740.866	3.862937e-003	-5.958446e-003	9.983424e-001	-7.656062e-002	9.977283e-001	-7.594762e-002	3.300122e-003	-5.462530e-003
4440279.950	3.760853e-003	-6.169784e-003	9.982155e-001	-7.747396e-002	9.975816e-001	-7.690023e-002	3.171147e-003	-5.689464e-003
4502819.034	3.737630e-003	-6.108994e-003	9.978756e-001	-7.867369e-002	9.976644e-001	-7.800113e-002	3.249241e-003	-5.617577e-003
4565358.118	3.658906e-003	-6.235259e-003	9.978590e-001	-7.972324e-002	9.974048e-001	-7.891849e-002	3.238249e-003	-5.814598e-003
4627897.201	3.815957e-003	-6.179717e-003	9.979504e-001	-8.079101e-002	9.973949e-001	-7.999385e-002	3.328608e-003	-5.773986e-003
4690436.285	3.638584e-003	-6.368529e-003	9.978946e-001	-8.193396e-002	9.973541e-001	-8.147044e-002	3.330564e-003	-6.038760e-003
4752975.369	3.627850e-003	-6.469530e-003	9.975411e-001	-8.313817e-002	9.973551e-001	-8.247155e-002	3.147051e-003	-6.184060e-003
4815514.453	3.760301e-003	-6.526849e-003	9.976739e-001	-8.409864e-002	9.972702e-001	-8.363126e-002	3.346480e-003	-6.145674e-003
4878053.537	3.845380e-003	-6.717105e-003	9.976214e-001	-8.513203e-002	9.971258e-001	-8.457666e-002	3.315067e-003	-6.322310e-003
4940592.620	3.565329e-003	-6.753943e-003	9.973888e-001	-8.630404e-002	9.970875e-001	-8.575501e-002	3.064116e-003	-6.440658e-003
5003131.704	3.627972e-003	-6.970737e-003	9.972669e-001	-8.738012e-002	9.970737e-001	-8.662625e-002	3.192499e-003	-6.568232e-003
5065670.788	3.545987e-003	-6.850105e-003	9.971736e-001	-8.851877e-002	9.968771e-001	-8.778323e-002	3.158504e-003	-6.600470e-003
5128209.872	3.665614e-003	-7.071742e-003	9.972346e-001	-8.961378e-002	9.967825e-001	-8.884683e-002	3.115847e-003	-6.897283e-003
5190748.956	3.560706e-003	-7.160782e-003	9.970205e-001	-9.069435e-002	9.968101e-001	-9.006238e-002	3.080019e-003	-6.846564e-003
5253288.039	3.601177e-003	-7.298889e-003	9.970446e-001	-9.178035e-002	9.967446e-001	-9.114048e-002	2.995605e-003	-6.854932e-003
5315827.123	3.553722e-003	-7.440009e-003	9.967779e-001	-9.284801e-002	9.965631e-001	-9.227580e-002	2.970080e-003	-7.041358e-003
5378366.207	3.638520e-003	-7.483465e-003	9.968549e-001	-9.394099e-002	9.965113e-001	-9.354069e-002	2.950009e-003	-7.212222e-003
5440905.291	3.437995e-003	-7.485951e-003	9.967804e-001	-9.505004e-002	9.964239e-001	-9.451575e-002	2.828937e-003	-7.262868e-003
5503444.375	3.641430e-003	-7.727687e-003	9.966494e-001	-9.620060e-002	9.963991e-001	-9.542291e-002	3.016799e-003	-7.422071e-003
5565983.458	3.279685e-003	-7.694788e-003	9.965686e-001	-9.718831e-002	9.962680e-001	-9.650247e-002	2.933899e-003	-7.347010e-003
5628522.542	3.520384e-003	-7.865226e-003	9.964775e-001	-9.819936e-002	9.961992e-001	-9.777383e-002	2.962662e-003	-7.566053e-003
5691061.626	3.594447e-003	-8.124011e-003	9.963109e-001	-9.950310e-002	9.959936e-001	-9.886931e-002	2.852573e-003	-7.600605e-003
5753600.710	3.422787e-003	-8.133292e-003	9.961553e-001	-1.004606e-001	9.959476e-001	-9.986987e-002	2.907767e-003	-7.839260e-003
5816139.794	3.516356e-003	-8.037849e-003	9.961845e-001	-1.016385e-001	9.956572e-001	-1.011690e-001	2.745937e-003	-7.885209e-003
5878678.877	3.400707e-003	-8.355718e-003	9.960054e-001	-1.027128e-001	9.956452e-001	-1.021582e-001	2.837625e-003	-8.093219e-003
5941217.961	3.369946e-003	-8.524100e-003	9.958542e-001	-1.038648e-001	9.955601e-001	-1.030041e-001	2.638795e-003	-8.100963e-003
6003757.045	3.200294e-003	-8.391059e-003	9.956154e-001	-1.048141e-001	9.954083e-001	-1.040864e-001	2.769826e-003	-8.214644e-003
6066296.129	3.337117e-003	-8.673170e-003	9.957204e-001	-1.059598e-001	9.954219e-001	-1.052236e-001	2.708357e-003	-8.331335e-003
6128835.213	3.417861e-003	-8.735589e-003	9.955860e-001	-1.067145e-001	9.954783e-001	-1.064201e-001	2.790032e-003	-8.420349e-003
6191374.296	3.328159e-003	-8.858522e-003	9.954349e-001	-1.080659e-001	9.950073e-001	-1.076233e-001	2.636089e-003	-8.437911e-003
6253913.380	3.236746e-003	-8.831256e-003	9.953545e-001	-1.092212e-001	9.950197e-001	-1.085776e-001	2.487093e-003	-8.409626e-003
6316452.464	3.193501e-003	-8.845612e-003	9.953027e-001	-1.101590e-001	9.947718e-001	-1.098865e-001	2.516104e-003	-8.734103e-003
6378991.548	3.142883e-003	-9.094673e-003	9.951007e-001	-1.115924e-001	9.948716e-001	-1.108444e-001	2.581338e-003	-8.940282e-003
6441530.632	3.067582e-003	-9.263341e-003	9.949083e-001	-1.123866e-001	9.946741e-001	-1.120584e-001	2.591168e-003	-8.928916e-003
6504069.715	3.051700e-003	-9.393447e-003	9.947832e-001	-1.137455e-001	9.946904e-001	-1.129878e-001	2.604067e-003	-9.026316e-003
6566608.799	3.177768e-003	-9.540256e-003	9.947719e-001	-1.148548e-001	9.944529e-001	-1.142019e-001	2.486833e-003	-8.924497e-003
6629147.883	3.116303e-003	-9.498122e-003	9.945748e-001	-1.156002e-001	9.942936e-001	-1.152777e-001	2.548182e-003	-9.177167e-003
6691686.967	2.981822e-003	-9.577574e-003	9.943978e-001	-1.168273e-001	9.941585e-001	-1.163184e-001	2.568691e-003	-9.173598e-003
6754226.051	2.902134e-003	-9.689577e-003	9.942509e-001	-1.179970e-001	9.938859e-001	-1.175447e-001	2.342907e-003	-9.479548e-003
6816765.134	2.994323e-003	-9.804877e-003	9.942120e-001	-1.190316e-001	9.939080e-001	-1.185284e-001	2.391600e-003	-9.384064e-003
6879304.218	2.865754e-003	-1.005205e-002	9.940146e-001	-1.201464e-001	9.938203e-001	-1.195744e-001	2.359483e-003	-9.536960e-003
6941843.302	2.928738e-003	-9.988948e-003	9.938702e-001	-1.212545e-001	9.936414e-001	-1.206488e-001	2.327404e-003	-9.551736e-003
7004382.386	2.698571e-003	-1.002068e-002	9.938130e-001	-1.222402e-001	9.934643e-001	-1.217320e-001	2.217694e-003	-9.611570e-003
7066921.470	2.777315e-003	-1.017055e-002	9.935608e-001	-1.235204e-001	9.933847e-001	-1.226151e-001	2.366307e-003	-9.851723e-003
7129460.553	2.675647e-003	-1.037188e-002	9.935009e-001	-1.243689e-001	9.933060e-001	-1.238656e-001	2.359458e-003	-9.890986e-003
7191999.637	2.640518e-003	-1.022729e-002	9.931618e-001	-1.255633e-001	9.929540e-001	-1.249093e-001	2.195255e-003	-9.980571e-003
7254538.721	2.676341e-003	-1.044143e-002	9.933650e-001	-1.267193e-001	9.930390e-001	-1.260520e-001	2.207778e-003	-1.006377e-002
7317077.805	2.831643e-003	-1.056020e-002	9.931398e-001	-1.277003e-001	9.929035e-001	-1.271183e-001	2.192637e-003	-1.026457e-002
7379616.889	2.675604e-003	-1.065324e-002	9.931686e-001	-1.289819e-001	9.926683e-001	-1.282221e-001	2.110105e-003	-1.033403e-002
7442155.972	2.496551e-003	-1.073883e-002	9.928057e-001	-1.298599e-001	9.925715e-001	-1.292360e-001	2.175327e-003	-1.019624e-002
7504695.056	2.523737e-003	-1.092087e-002	9.925682e-001	-1.308838e-001	9.922973e-001	-1.304966e-001	2.187974e-003	-1.023570e-002
7567234.140	2.671445e-003	-1.109206e-002	9.925879e-001	-1.319712e-001	9.922125e-001	-1.315243e-001	2.082330e-003	-1.043116e-002
7629773.224	2.548098e-003	-1.087570e-002	9.924723e-001	-1.331930e-001	9.921552e-001	-1.325655e-001	1.992261e-003	-1.057364e-002
7692312.308	2.395172e-003	-1.104802e-002	9.923069e-001	-1.343349e-001	9.919293e-001	-1.337432e-001	2.027889e-003	-1.074298e-002
7754851.391	2.354356e-003	-1.129516e-002	9.921143e-001	-1.353962e-001	9.916581e-001	-1.346151e-001	1.945498e-003	-1.069658e-002
7817390.475	2.412603e-003	-1.117726e-002	9.920076e-001	-1.365611e-001	9.915882e-001	-1.359821e-001	1.841072e-003	-1.068462e-002
7879929.559	2.310259e-003	-1.145111e-002	9.917656e-001	-1.376703e-001	9.914090e-001	-1.372126e-001	1.942230e-003	-1.078887e-002
7942468.643	2.222632e-003	-1.159212e-002	9.917063e-001	-1.386393e-001	9.913938e-001	-1.381995e-001	1.891859e-003	-1.104516e-002
8005007.727	2.305937e-003	-1.165133e-002	9.914248e-001	-1.398204e-001	9.912608e-001	-1.393069e-001	1.789732e-003	-1.091603e-002
8067546.811	2.134692e-003	-1.169598e-002	9.913280e-001	-1.408452e-001	9.909213e-001	-1.402623e-001	1.668830e-003	-1.121857e-002
8130085.894	2.181699e-003	-1.186007e-002	9.911469e-001	-1.418910e-001	9.908703e-001	-1.413986e-001	1.856297e-003	-1.134225e-002
8192624.978	1.987929e-003	-1.201355e-002	9.908458e-001	-1.430998e-001	9.906895e-001	-1.424855e-001	1.896936e-003	-1.145117e-002
8255164.062	2.075411e-003	-1.208631e-002	9.907927e-001	-1.441410e-001	9.905049e-001	-1.435726e-001	1.825278e-003	-1.157968e-002
8317703.146	1.927083e-003	-1.205000e-002	9.907214e-001	-1.452115e-001	9.904445e-001	-1.446544e-001	1.622591e-003	-1.161548e-002
8380242.230	2.023062e-003	-1.237944e-002	9.904052e-001	-1.464281e-001	9.901845e-001	-1.456658e-001	1.558002e-003	-1.175411e-002
8442781.313	1.959988e-003	-1.242994e-002	9.904877e-001	-1.473492e-001	9.900905e-001	-1.467499e-001	1.505046e-003	-1.194836e-002
8505320.397	1.912767e-003	-1.239648e-002	9.902646e-001	-1.484997e-001	9.898576e-001	-1.478676e-001	1.413940e-003	-1.197371e-002
8567859.481	1.842137e-003	-1.232541e-002	9.900283e-001	-1.494288e-001	9.898222e-001	-1.489462e-001	1.436650e-003	-1.189942e-002
8630398.565	1.883802e-003	-1.247433e-002	9.896745e-001	-1.505209e-001	9.896215e-001	-1.499510e-001	1.273361e-003	-1.224372e-002
8692937.649	1.804374e-003	-1.277239e-002	9.896267e-001	-1.515842e-001	9.892974e-001	-1.510774e-001	1.188959e-003	-1.223579e-002
8755476.732	1.790100e-003	-1.279779e-002	9.894795e-001	-1.527967e-001	9.891389e-001	-1.520459e-001	1.219983e-003	-1.230731e-002
8818015.816	1.633229e-003	-1.291993e-002	9.892336e-001	-1.538113e-001	9.888318e-001	-1.531916e-001	1.299288e-003	-1.247957e-002
8880554.900	1.817086e-003	-1.298025e-002	9.892164e-001	-1.550013e-001	9.889689e-001	-1.541211e-001	1.118765e-003	-1.273866e-002
8943093.984	1.610120e-003	-1.295988e-002	9.890010e-001	-1.559354e-001	9.887636e-001	-1.552418e-001	1.115518e-003	-1.276824e-002
9005633.068	1.636937e-003	-1.314348e-002	9.887355e-001	-1.570672e-001	9.886686e-001	-1.564501e-001	9.826823e-004	-1.299086e-002
9068172.151	1.444135e-003	-1.323409e-002	9.886945e-001	-1.581691e-001	9.883095e-001	-1.574291e-001	1.006086e-003	-1.303399e-002
9130711.235	1.627381e-003	-1.340114e-002	9.884304e-001	-1.592746e-001	9.881994e-001	-1.584816e-001	9.995903e-004	-1.332096e-002
9193250.319	1.572030e-003	-1.351440e-002	9.883969e-001	-1.601621e-001	9.879978e-001	-1.596365e-001	8.876442e-004	-1.333180e-002
9255789.403	1.438569e-003	-1.375404e-002	9.882537e-001	-1.611814e-001	9.878277e-001	-1.606636e-001	7.165697e-004	-1.337123e-002
9318328.487	1.358918e-003	-1.375036e-002	9.879802e-001	-1.625108e-001	9.877768e-001	-1.617193e-001	7.948441e-004	-1.345340e-002
9380867.570	1.335064e-003	-1.371934e-002	9.879063e-001	-1.635921e-001	9.874499e-001	-1.629404e-001	7.619089e-004	-1.356995e-002
9443406.654	1.339261e-003	-1.381683e-002	9.877047e-001	-1.645721e-001	9.873858e-001	-1.640386e-001	7.475736e-004	-1.373313e-002
9505945.738	1.283982e-003	-1.389148e-002	9.873460e-001	-1.658510e-001	9.872905e-001	-1.651157e-001	6.684234e-004	-1.382437e-002
9568484.822	1.290091e-003	-1.400623e-002	9.873222e-001	-1.668417e-001	9.868500e-001	-1.661987e-001	4.237256e-004	-1.367923e-002
