!Agilent Technologies,E5061B,MY49102235,A.02.00
!Date: Tue Jul 11 15:38:15 2023
!Data & Calibration Information:
!Freq	S11:SOLT2(ON)	S21:SOLT2(ON)	S12:SOLT2(ON)	S22:SOLT2(ON)
# Hz S RI R 50
5.000	-5.232639e-003	-5.643155e-003	1.001980e+000	8.046631e-003	1.000442e+000	1.025755e-002	-1.569207e-003	-7.553639e-003
62544.084	5.827453e-003	-1.041083e-004	1.001412e+000	1.904581e-004	1.000811e+000	7.774569e-004	7.713229e-003	-2.493758e-003
125083.168	5.719149e-003	2.765877e-004	1.000881e+000	-1.567951e-003	1.000777e+000	-1.643874e-003	7.506754e-003	-1.513132e-003
187622.251	5.488463e-003	8.333620e-004	1.000479e+000	-3.321245e-003	1.000860e+000	-2.168622e-003	7.407478e-003	-1.214784e-003
250161.335	5.340747e-003	1.346633e-003	1.000487e+000	-4.741132e-003	1.000638e+000	-4.765871e-003	7.309187e-003	-5.017018e-004
312700.419	5.489782e-003	2.448143e-003	1.000853e+000	-5.799187e-003	1.000485e+000	-5.409472e-003	7.846757e-003	-4.534558e-004
375239.503	5.388606e-003	1.298739e-003	1.000997e+000	-7.537626e-003	1.000448e+000	-7.221456e-003	7.322755e-003	-2.454811e-004
437778.587	5.258063e-003	2.050635e-003	1.001259e+000	-7.915797e-003	1.000849e+000	-8.800932e-003	6.724622e-003	4.232879e-004
500317.670	4.713213e-003	2.543365e-003	1.001241e+000	-1.072413e-002	1.001465e+000	-1.060678e-002	4.928433e-003	9.613427e-004
562856.754	6.030185e-003	2.603138e-003	1.001448e+000	-1.264641e-002	1.001013e+000	-1.252822e-002	6.145529e-003	1.830013e-003
625395.838	5.258215e-003	3.138877e-003	1.002156e+000	-1.431899e-002	1.001865e+000	-1.388430e-002	6.275668e-003	2.770953e-003
687934.922	5.332384e-003	3.156717e-003	1.001188e+000	-1.557179e-002	1.001031e+000	-1.559573e-002	5.928227e-003	2.635262e-003
750474.006	4.572305e-003	3.863885e-003	1.000768e+000	-1.552384e-002	1.000702e+000	-1.510947e-002	5.741416e-003	3.190383e-003
813013.089	4.767905e-003	4.246631e-003	1.001033e+000	-1.759828e-002	1.000361e+000	-1.729280e-002	5.131889e-003	3.717963e-003
875552.173	4.519497e-003	4.781732e-003	1.001070e+000	-1.882109e-002	1.000738e+000	-1.888086e-002	5.928701e-003	3.687316e-003
938091.257	4.641751e-003	5.211616e-003	1.001091e+000	-2.070581e-002	1.000796e+000	-2.037426e-002	6.201558e-003	4.609133e-003
1000630.341	4.108978e-003	5.230998e-003	1.000618e+000	-2.239383e-002	1.000567e+000	-2.199877e-002	5.468016e-003	4.293252e-003
1063169.425	4.496814e-003	5.424130e-003	1.000860e+000	-2.432092e-002	1.000335e+000	-2.327921e-002	4.664813e-003	4.340596e-003
1125708.508	4.403334e-003	5.845925e-003	1.000656e+000	-2.570003e-002	1.000369e+000	-2.516538e-002	4.212779e-003	4.995058e-003
1188247.592	4.969198e-003	5.758227e-003	1.000891e+000	-2.721864e-002	1.000641e+000	-2.652833e-002	3.136382e-003	4.808941e-003
1250786.676	4.830967e-003	5.382883e-003	1.000391e+000	-2.745834e-002	1.000230e+000	-2.759040e-002	2.405640e-003	3.526178e-003
1313325.760	4.991890e-003	5.639794e-003	1.000715e+000	-2.945307e-002	1.000597e+000	-2.940535e-002	3.184234e-003	4.082924e-003
1375864.844	4.758532e-003	5.816900e-003	1.000307e+000	-3.165700e-002	9.999884e-001	-3.171611e-002	3.076942e-003	4.728113e-003
1438403.927	4.687375e-003	6.039785e-003	1.000408e+000	-3.271770e-002	1.000346e+000	-3.196109e-002	3.197887e-003	5.367287e-003
1500943.011	4.944668e-003	6.439988e-003	1.000849e+000	-3.403923e-002	1.000823e+000	-3.385401e-002	3.587523e-003	5.315600e-003
1563482.095	4.965816e-003	6.441553e-003	1.000494e+000	-3.565232e-002	1.000056e+000	-3.478422e-002	3.749985e-003	5.878330e-003
1626021.179	4.812042e-003	6.958241e-003	1.000214e+000	-3.728788e-002	1.000446e+000	-3.774680e-002	4.077867e-003	6.201699e-003
1688560.263	4.569161e-003	7.371535e-003	9.998974e-001	-3.954418e-002	1.000678e+000	-3.948234e-002	4.284538e-003	6.555850e-003
1751099.346	4.722571e-003	7.856472e-003	1.000392e+000	-4.095855e-002	1.000044e+000	-4.042276e-002	4.156428e-003	7.752065e-003
1813638.430	4.428440e-003	8.183278e-003	1.000706e+000	-4.294015e-002	1.000273e+000	-4.252974e-002	4.375787e-003	7.757313e-003
1876177.514	4.510763e-003	8.843646e-003	1.000871e+000	-4.409707e-002	1.000445e+000	-4.445740e-002	4.107947e-003	8.801489e-003
1938716.598	4.023061e-003	9.311039e-003	1.001006e+000	-4.537081e-002	1.000587e+000	-4.485477e-002	4.327931e-003	9.552973e-003
2001255.682	3.964340e-003	9.226091e-003	1.000966e+000	-4.703382e-002	1.000216e+000	-4.679716e-002	4.106755e-003	9.480180e-003
2063794.765	4.138114e-003	9.960716e-003	1.000455e+000	-4.868364e-002	9.997557e-001	-4.884209e-002	4.557905e-003	9.767042e-003
2126333.849	3.704793e-003	9.836682e-003	9.998912e-001	-5.019016e-002	9.990092e-001	-4.955930e-002	4.869893e-003	1.037652e-002
2188872.933	4.247346e-003	1.018780e-002	9.995729e-001	-5.177362e-002	9.989704e-001	-5.093584e-002	4.803567e-003	1.072477e-002
2251412.017	4.399008e-003	1.022234e-002	9.993267e-001	-5.364369e-002	9.990966e-001	-5.245840e-002	4.855004e-003	1.098813e-002
2313951.101	4.791232e-003	1.101593e-002	9.987346e-001	-5.508041e-002	9.990115e-001	-5.370797e-002	5.228581e-003	1.129626e-002
2376490.184	4.602752e-003	1.137273e-002	9.985394e-001	-5.574200e-002	9.988765e-001	-5.597276e-002	5.255481e-003	1.167984e-002
2439029.268	5.136065e-003	1.171986e-002	9.984323e-001	-5.792817e-002	9.980252e-001	-5.742090e-002	4.988389e-003	1.218217e-002
2501568.352	5.174585e-003	1.209519e-002	9.981153e-001	-5.855404e-002	9.987429e-001	-5.842477e-002	5.368810e-003	1.252563e-002
2564107.436	5.168728e-003	1.234133e-002	9.983069e-001	-6.061253e-002	9.982931e-001	-6.044670e-002	4.728529e-003	1.254457e-002
2626646.520	5.725353e-003	1.253037e-002	9.981394e-001	-6.221947e-002	9.972606e-001	-6.197088e-002	5.082910e-003	1.285668e-002
2689185.604	5.759432e-003	1.306985e-002	9.983099e-001	-6.328162e-002	9.978816e-001	-6.310638e-002	5.282701e-003	1.330211e-002
2751724.687	5.974995e-003	1.336394e-002	9.982073e-001	-6.460295e-002	9.977258e-001	-6.432189e-002	4.980818e-003	1.367259e-002
2814263.771	6.006370e-003	1.366559e-002	9.970817e-001	-6.683760e-002	9.974718e-001	-6.601164e-002	5.055477e-003	1.391601e-002
2876802.855	6.048300e-003	1.385190e-002	9.971279e-001	-6.847971e-002	9.973204e-001	-6.744836e-002	5.228817e-003	1.441784e-002
2939341.939	6.268579e-003	1.430815e-002	9.976507e-001	-6.936412e-002	9.970869e-001	-6.928288e-002	5.227699e-003	1.470282e-002
3001881.023	6.300273e-003	1.469856e-002	9.971982e-001	-7.099941e-002	9.968022e-001	-7.074968e-002	5.409336e-003	1.494007e-002
3064420.106	6.438006e-003	1.502510e-002	9.976442e-001	-7.242344e-002	9.966675e-001	-7.216530e-002	5.335336e-003	1.519918e-002
3126959.190	6.748275e-003	1.528474e-002	9.971144e-001	-7.402422e-002	9.968035e-001	-7.379306e-002	5.625071e-003	1.550042e-002
3189498.274	6.839861e-003	1.569544e-002	9.969059e-001	-7.541805e-002	9.966124e-001	-7.531155e-002	5.724306e-003	1.582616e-002
3252037.358	6.843626e-003	1.571703e-002	9.968558e-001	-7.695500e-002	9.965712e-001	-7.669234e-002	5.774031e-003	1.623923e-002
3314576.442	6.978508e-003	1.625592e-002	9.966149e-001	-7.835486e-002	9.963263e-001	-7.825727e-002	5.940598e-003	1.650684e-002
3377115.525	7.052918e-003	1.662629e-002	9.963422e-001	-7.977021e-002	9.959314e-001	-7.988323e-002	5.899276e-003	1.675802e-002
3439654.609	7.182850e-003	1.694198e-002	9.960030e-001	-8.134770e-002	9.961160e-001	-8.131459e-002	6.052086e-003	1.732143e-002
3502193.693	7.247035e-003	1.702428e-002	9.958667e-001	-8.298237e-002	9.956528e-001	-8.273823e-002	6.325999e-003	1.764749e-002
3564732.777	7.445428e-003	1.751642e-002	9.957654e-001	-8.439352e-002	9.955169e-001	-8.430274e-002	6.556526e-003	1.803543e-002
3627271.861	7.408566e-003	1.776809e-002	9.956791e-001	-8.598423e-002	9.953999e-001	-8.566089e-002	6.447862e-003	1.820951e-002
3689810.944	7.446691e-003	1.801714e-002	9.953531e-001	-8.752176e-002	9.951879e-001	-8.714591e-002	6.743013e-003	1.858051e-002
3752350.028	7.684743e-003	1.841573e-002	9.951598e-001	-8.875092e-002	9.948058e-001	-8.863319e-002	6.817389e-003	1.891398e-002
3814889.112	7.957584e-003	1.890370e-002	9.948251e-001	-9.034633e-002	9.948416e-001	-9.042948e-002	6.864847e-003	1.914363e-002
3877428.196	8.065604e-003	1.929388e-002	9.948179e-001	-9.193054e-002	9.945910e-001	-9.170664e-002	7.346639e-003	1.952159e-002
3939967.280	8.173700e-003	1.936979e-002	9.945474e-001	-9.351801e-002	9.944184e-001	-9.324801e-002	7.491354e-003	1.995900e-002
4002506.363	8.399649e-003	1.986845e-002	9.943582e-001	-9.494977e-002	9.941456e-001	-9.465311e-002	7.592265e-003	2.025613e-002
4065045.447	8.392295e-003	2.013637e-002	9.939322e-001	-9.650892e-002	9.937308e-001	-9.626879e-002	7.841124e-003	2.050147e-002
4127584.531	8.538381e-003	2.048257e-002	9.936461e-001	-9.799533e-002	9.935459e-001	-9.766289e-002	8.037974e-003	2.098331e-002
4190123.615	8.778630e-003	2.085000e-002	9.934660e-001	-9.970200e-002	9.931551e-001	-9.936364e-002	8.132809e-003	2.110630e-002
4252662.699	8.913807e-003	2.113310e-002	9.932895e-001	-1.011994e-001	9.928850e-001	-1.009860e-001	8.429575e-003	2.148944e-002
4315201.782	9.255555e-003	2.142027e-002	9.929777e-001	-1.025166e-001	9.928639e-001	-1.024720e-001	8.442740e-003	2.164765e-002
4377740.866	9.354941e-003	2.176383e-002	9.927764e-001	-1.041638e-001	9.923282e-001	-1.039686e-001	8.835237e-003	2.227159e-002
4440279.950	9.459076e-003	2.194954e-002	9.924645e-001	-1.055332e-001	9.919617e-001	-1.053679e-001	8.939269e-003	2.245752e-002
4502819.034	9.687925e-003	2.240658e-002	9.919031e-001	-1.071244e-001	9.918114e-001	-1.068478e-001	9.233704e-003	2.291974e-002
4565358.118	9.815823e-003	2.269674e-002	9.916152e-001	-1.085872e-001	9.913238e-001	-1.081707e-001	9.456587e-003	2.313899e-002
4627897.201	1.022115e-002	2.312769e-002	9.914945e-001	-1.100074e-001	9.910891e-001	-1.096363e-001	9.793516e-003	2.354905e-002
4690436.285	1.028499e-002	2.334499e-002	9.911758e-001	-1.116370e-001	9.908397e-001	-1.114950e-001	1.002109e-002	2.368287e-002
4752975.369	1.052431e-002	2.362638e-002	9.905976e-001	-1.131848e-001	9.906098e-001	-1.128737e-001	1.007194e-002	2.394467e-002
4815514.453	1.087128e-002	2.394041e-002	9.905043e-001	-1.145105e-001	9.902080e-001	-1.143865e-001	1.052266e-002	2.433133e-002
4878053.537	1.120921e-002	2.414014e-002	9.902080e-001	-1.159068e-001	9.898770e-001	-1.157649e-001	1.072651e-002	2.455123e-002
4940592.620	1.119096e-002	2.449043e-002	9.897156e-001	-1.174689e-001	9.895418e-001	-1.173164e-001	1.074320e-002	2.482777e-002
5003131.704	1.149735e-002	2.462116e-002	9.893321e-001	-1.189017e-001	9.893117e-001	-1.185445e-001	1.110546e-002	2.505919e-002
5065670.788	1.167729e-002	2.511796e-002	9.890305e-001	-1.204089e-001	9.888011e-001	-1.200642e-001	1.132595e-002	2.538569e-002
5128209.872	1.204829e-002	2.524605e-002	9.888366e-001	-1.218316e-001	9.884583e-001	-1.215683e-001	1.152819e-002	2.546017e-002
5190748.956	1.220450e-002	2.553051e-002	9.883734e-001	-1.233425e-001	9.881826e-001	-1.230877e-001	1.177053e-002	2.585507e-002
5253288.039	1.250128e-002	2.575487e-002	9.881183e-001	-1.247633e-001	9.878189e-001	-1.245319e-001	1.195115e-002	2.621528e-002
5315827.123	1.272752e-002	2.597227e-002	9.875655e-001	-1.262101e-001	9.874618e-001	-1.259969e-001	1.218000e-002	2.640136e-002
5378366.207	1.306403e-002	2.628535e-002	9.873312e-001	-1.276682e-001	9.871102e-001	-1.275985e-001	1.242189e-002	2.657355e-002
5440905.291	1.314833e-002	2.663145e-002	9.870628e-001	-1.290956e-001	9.867676e-001	-1.289620e-001	1.257985e-002	2.689314e-002
5503444.375	1.360260e-002	2.673308e-002	9.866150e-001	-1.306192e-001	9.864719e-001	-1.302331e-001	1.301977e-002	2.706810e-002
5565983.458	1.352699e-002	2.713125e-002	9.862775e-001	-1.319645e-001	9.860745e-001	-1.316837e-001	1.323234e-002	2.747462e-002
5628522.542	1.403983e-002	2.729933e-002	9.859430e-001	-1.333162e-001	9.856964e-001	-1.332288e-001	1.352545e-002	2.760596e-002
5691061.626	1.436237e-002	2.737497e-002	9.854749e-001	-1.349691e-001	9.852479e-001	-1.346911e-001	1.369076e-002	2.791288e-002
5753600.710	1.448942e-002	2.772410e-002	9.850044e-001	-1.362579e-001	9.849226e-001	-1.360788e-001	1.401767e-002	2.805337e-002
5816139.794	1.487716e-002	2.814873e-002	9.846918e-001	-1.377298e-001	9.843508e-001	-1.376790e-001	1.415289e-002	2.835547e-002
5878678.877	1.503842e-002	2.817201e-002	9.843283e-001	-1.391755e-001	9.841001e-001	-1.389956e-001	1.453084e-002	2.846828e-002
5941217.961	1.529151e-002	2.833925e-002	9.838424e-001	-1.407421e-001	9.835956e-001	-1.402584e-001	1.462405e-002	2.880890e-002
6003757.045	1.544184e-002	2.881952e-002	9.833219e-001	-1.419921e-001	9.832061e-001	-1.417128e-001	1.503202e-002	2.903361e-002
6066296.129	1.584871e-002	2.886310e-002	9.831181e-001	-1.434114e-001	9.828770e-001	-1.430847e-001	1.529414e-002	2.923813e-002
6128835.213	1.623670e-002	2.911976e-002	9.826743e-001	-1.445415e-001	9.826201e-001	-1.446299e-001	1.567121e-002	2.946340e-002
6191374.296	1.645648e-002	2.933507e-002	9.822141e-001	-1.462271e-001	9.819103e-001	-1.462161e-001	1.581460e-002	2.981617e-002
6253913.380	1.669451e-002	2.968599e-002	9.818043e-001	-1.477101e-001	9.815586e-001	-1.474484e-001	1.600792e-002	3.016284e-002
6316452.464	1.696070e-002	2.998765e-002	9.814236e-001	-1.489758e-001	9.810273e-001	-1.490774e-001	1.633139e-002	3.016032e-002
6378991.548	1.721475e-002	3.008641e-002	9.809139e-001	-1.507895e-001	9.807909e-001	-1.503133e-001	1.668533e-002	3.027878e-002
6441530.632	1.744932e-002	3.021573e-002	9.804348e-001	-1.518567e-001	9.802654e-001	-1.518785e-001	1.703289e-002	3.060150e-002
6504069.715	1.776109e-002	3.041896e-002	9.799340e-001	-1.535188e-001	9.800003e-001	-1.531810e-001	1.736086e-002	3.080585e-002
6566608.799	1.820210e-002	3.058011e-002	9.796505e-001	-1.549378e-001	9.793791e-001	-1.546165e-001	1.760001e-002	3.121631e-002
6629147.883	1.848358e-002	3.091425e-002	9.791769e-001	-1.560238e-001	9.788815e-001	-1.560390e-001	1.798208e-002	3.128551e-002
6691686.967	1.869038e-002	3.113771e-002	9.785933e-001	-1.575093e-001	9.783987e-001	-1.574145e-001	1.833469e-002	3.158239e-002
6754226.051	1.896268e-002	3.133638e-002	9.780704e-001	-1.590463e-001	9.778644e-001	-1.589148e-001	1.845228e-002	3.159976e-002
6816765.134	1.937730e-002	3.153095e-002	9.777114e-001	-1.603167e-001	9.775221e-001	-1.601695e-001	1.885299e-002	3.197858e-002
6879304.218	1.959212e-002	3.155818e-002	9.771471e-001	-1.617540e-001	9.770294e-001	-1.615271e-001	1.915331e-002	3.210847e-002
6941843.302	1.999782e-002	3.190994e-002	9.766840e-001	-1.631805e-001	9.765477e-001	-1.629023e-001	1.949119e-002	3.238267e-002
7004382.386	2.015907e-002	3.217532e-002	9.762694e-001	-1.644152e-001	9.760102e-001	-1.642870e-001	1.974494e-002	3.260329e-002
7066921.470	2.059206e-002	3.228863e-002	9.756244e-001	-1.659596e-001	9.756132e-001	-1.654832e-001	2.022743e-002	3.261340e-002
7129460.553	2.079762e-002	3.236849e-002	9.752696e-001	-1.670918e-001	9.750682e-001	-1.669350e-001	2.057457e-002	3.287278e-002
7191999.637	2.117029e-002	3.277680e-002	9.745396e-001	-1.685935e-001	9.744235e-001	-1.682819e-001	2.077286e-002	3.304637e-002
7254538.721	2.154495e-002	3.283377e-002	9.743645e-001	-1.699623e-001	9.741017e-001	-1.697324e-001	2.116417e-002	3.322939e-002
7317077.805	2.206189e-002	3.294803e-002	9.737880e-001	-1.711566e-001	9.736126e-001	-1.709968e-001	2.148655e-002	3.328196e-002
7379616.889	2.226919e-002	3.313212e-002	9.734098e-001	-1.727608e-001	9.730504e-001	-1.723515e-001	2.178224e-002	3.348216e-002
7442155.972	2.245757e-002	3.330542e-002	9.727273e-001	-1.738821e-001	9.725594e-001	-1.736232e-001	2.223349e-002	3.384039e-002
7504695.056	2.284273e-002	3.333524e-002	9.721291e-001	-1.751437e-001	9.718760e-001	-1.751125e-001	2.260585e-002	3.405127e-002
7567234.140	2.335298e-002	3.340205e-002	9.717575e-001	-1.764372e-001	9.713896e-001	-1.763681e-001	2.288140e-002	3.409782e-002
7629773.224	2.363756e-002	3.384759e-002	9.712390e-001	-1.779333e-001	9.710454e-001	-1.776274e-001	2.314951e-002	3.420234e-002
7692312.308	2.385060e-002	3.393432e-002	9.707497e-001	-1.792261e-001	9.704031e-001	-1.790561e-001	2.356200e-002	3.423930e-002
7754851.391	2.416413e-002	3.391470e-002	9.701620e-001	-1.806154e-001	9.698021e-001	-1.801608e-001	2.386851e-002	3.451536e-002
7817390.475	2.462989e-002	3.422761e-002	9.696368e-001	-1.819896e-001	9.693041e-001	-1.816903e-001	2.415635e-002	3.474348e-002
7879929.559	2.487000e-002	3.419185e-002	9.690287e-001	-1.832759e-001	9.687455e-001	-1.831521e-001	2.462819e-002	3.484953e-002
7942468.643	2.517345e-002	3.425430e-002	9.686187e-001	-1.845098e-001	9.683435e-001	-1.843893e-001	2.494888e-002	3.481860e-002
8005007.727	2.562382e-002	3.439242e-002	9.679796e-001	-1.858533e-001	9.678091e-001	-1.856243e-001	2.522279e-002	3.516103e-002
8067546.811	2.582969e-002	3.455429e-002	9.674667e-001	-1.870910e-001	9.671215e-001	-1.868584e-001	2.548778e-002	3.506765e-002
8130085.894	2.625223e-002	3.459177e-002	9.669156e-001	-1.882844e-001	9.666710e-001	-1.881642e-001	2.603599e-002	3.510959e-002
8192624.978	2.644128e-002	3.465093e-002	9.662431e-001	-1.897359e-001	9.661379e-001	-1.894130e-001	2.643948e-002	3.519102e-002
8255164.062	2.690950e-002	3.475541e-002	9.658275e-001	-1.909584e-001	9.655974e-001	-1.907219e-001	2.676740e-002	3.525875e-002
8317703.146	2.716010e-002	3.495881e-002	9.653021e-001	-1.922449e-001	9.651094e-001	-1.919889e-001	2.694627e-002	3.542063e-002
8380242.230	2.760378e-002	3.481141e-002	9.646077e-001	-1.935795e-001	9.644777e-001	-1.932235e-001	2.726428e-002	3.545766e-002
8442781.313	2.792474e-002	3.494082e-002	9.643216e-001	-1.947114e-001	9.639977e-001	-1.944481e-001	2.759730e-002	3.545708e-002
8505320.397	2.827855e-002	3.515012e-002	9.637004e-001	-1.960583e-001	9.634283e-001	-1.957482e-001	2.789906e-002	3.559027e-002
8567859.481	2.860436e-002	3.536899e-002	9.630847e-001	-1.970885e-001	9.629299e-001	-1.969697e-001	2.829924e-002	3.581621e-002
8630398.565	2.902970e-002	3.538588e-002	9.623785e-001	-1.983404e-001	9.623682e-001	-1.981469e-001	2.851396e-002	3.566321e-002
8692937.649	2.929902e-002	3.524453e-002	9.619311e-001	-1.995533e-001	9.616448e-001	-1.994332e-001	2.881003e-002	3.583074e-002
8755476.732	2.966290e-002	3.538208e-002	9.614249e-001	-2.008957e-001	9.610995e-001	-2.005822e-001	2.923242e-002	3.590847e-002
8818015.816	2.990789e-002	3.541678e-002	9.608228e-001	-2.021354e-001	9.604709e-001	-2.018458e-001	2.967733e-002	3.586918e-002
8880554.900	3.046100e-002	3.549167e-002	9.603940e-001	-2.034089e-001	9.601523e-001	-2.029694e-001	2.987452e-002	3.579173e-002
8943093.984	3.064239e-002	3.566746e-002	9.597810e-001	-2.045508e-001	9.596022e-001	-2.042035e-001	3.024010e-002	3.588264e-002
9005633.068	3.104309e-002	3.560189e-002	9.591363e-001	-2.057719e-001	9.591394e-001	-2.055653e-001	3.047861e-002	3.582056e-002
9068172.151	3.124637e-002	3.565369e-002	9.586967e-001	-2.070151e-001	9.584357e-001	-2.066321e-001	3.088337e-002	3.589645e-002
9130711.235	3.178926e-002	3.559897e-002	9.580581e-001	-2.082180e-001	9.579441e-001	-2.078555e-001	3.124929e-002	3.576169e-002
9193250.319	3.211632e-002	3.561150e-002	9.576269e-001	-2.093081e-001	9.572883e-001	-2.091445e-001	3.153765e-002	3.586938e-002
9255789.403	3.233765e-002	3.551369e-002	9.571239e-001	-2.104099e-001	9.567634e-001	-2.102515e-001	3.175293e-002	3.595887e-002
9318328.487	3.265102e-002	3.562929e-002	9.565268e-001	-2.118340e-001	9.563665e-001	-2.114455e-001	3.219839e-002	3.597550e-002
9380867.570	3.300674e-002	3.577149e-002	9.559788e-001	-2.130299e-001	9.556551e-001	-2.127338e-001	3.253333e-002	3.598381e-002
9443406.654	3.340573e-002	3.577293e-002	9.554133e-001	-2.141241e-001	9.552222e-001	-2.139978e-001	3.290937e-002	3.593562e-002
9505945.738	3.371099e-002	3.581165e-002	9.546843e-001	-2.154435e-001	9.546925e-001	-2.151348e-001	3.318912e-002	3.593581e-002
9568484.822	3.408183e-002	3.577428e-002	9.542576e-001	-2.165787e-001	9.538441e-001	-2.163155e-001	3.335422e-002	3.619110e-002
9631023.906	3.440001e-002	3.579586e-002	9.537324e-001	-2.177510e-001	9.533406e-001	-2.175343e-001	3.385021e-002	3.588897e-002
9693562.989	3.474981e-002	3.576963e-002	9.530493e-001	-2.189414e-001	9.528955e-001	-2.186138e-001	3.394979e-002	3.602112e-002
9756102.073	3.505081e-002	3.573164e-002	9.527235e-001	-2.200842e-001	9.523582e-001	-2.197350e-001	3.431560e-002	3.588687e-002
