!Agilent Technologies,E5061B,MY49102235,A.02.00
!Date: Tue Jul 11 17:01:35 2023
!Data & Calibration Information:
!Freq	S11:SOLT2(ON)	S21:SOLT2(ON)	S12:SOLT2(ON)	S22:SOLT2(ON)
# Hz S RI R 50
5.000	-5.215141e-003	-5.633206e-003	1.002068e+000	8.019667e-003	1.000563e+000	1.020402e-002	-1.462648e-003	-7.567136e-003
62544.084	5.838160e-003	-9.929084e-005	1.001417e+000	2.316260e-004	1.000848e+000	8.374629e-004	7.714647e-003	-2.490922e-003
125083.168	5.711179e-003	2.912208e-004	1.001034e+000	-1.576843e-003	1.000738e+000	-1.630424e-003	7.517664e-003	-1.500858e-003
187622.251	5.522897e-003	8.570228e-004	1.000351e+000	-3.300361e-003	1.000954e+000	-2.264136e-003	7.413739e-003	-1.199994e-003
250161.335	5.369402e-003	1.323826e-003	1.000617e+000	-4.500658e-003	1.000501e+000	-4.808669e-003	7.313572e-003	-4.869781e-004
312700.419	5.518523e-003	2.455601e-003	1.000833e+000	-5.690666e-003	1.000602e+000	-5.418571e-003	7.843443e-003	-4.449295e-004
375239.503	5.404867e-003	1.308064e-003	1.001039e+000	-7.470255e-003	1.000402e+000	-7.268132e-003	7.350456e-003	-2.186507e-004
437778.587	5.280665e-003	2.094109e-003	1.001223e+000	-8.061181e-003	1.000907e+000	-8.775751e-003	6.730057e-003	4.422490e-004
500317.670	4.755241e-003	2.572766e-003	1.001130e+000	-1.076112e-002	1.001675e+000	-1.070151e-002	4.922591e-003	1.013964e-003
562856.754	6.075075e-003	2.645174e-003	1.001239e+000	-1.271344e-002	1.000987e+000	-1.266979e-002	6.175889e-003	1.870308e-003
625395.838	5.294527e-003	3.178562e-003	1.002075e+000	-1.426639e-002	1.001946e+000	-1.401354e-002	6.288387e-003	2.817080e-003
687934.922	5.381429e-003	3.208337e-003	1.001137e+000	-1.568589e-002	1.001008e+000	-1.570198e-002	5.968289e-003	2.700095e-003
750474.006	4.549862e-003	3.901404e-003	1.000850e+000	-1.549000e-002	1.000468e+000	-1.501502e-002	5.722191e-003	3.219839e-003
813013.089	4.754035e-003	4.291056e-003	1.001082e+000	-1.759521e-002	1.000274e+000	-1.707862e-002	5.102095e-003	3.766236e-003
875552.173	4.516982e-003	4.822222e-003	1.000964e+000	-1.899383e-002	1.000629e+000	-1.886343e-002	5.930037e-003	3.723793e-003
938091.257	4.629080e-003	5.248726e-003	1.000955e+000	-2.080514e-002	1.000832e+000	-2.031203e-002	6.200457e-003	4.667197e-003
1000630.341	4.099293e-003	5.273503e-003	1.000492e+000	-2.257306e-002	1.000564e+000	-2.199232e-002	5.459869e-003	4.350579e-003
1063169.425	4.497699e-003	5.480528e-003	1.000862e+000	-2.420537e-002	1.000254e+000	-2.322387e-002	4.669693e-003	4.401906e-003
1125708.508	4.408388e-003	5.906159e-003	1.000750e+000	-2.582426e-002	1.000200e+000	-2.504238e-002	4.223515e-003	5.065689e-003
1188247.592	4.973716e-003	5.837658e-003	1.000742e+000	-2.732435e-002	1.000492e+000	-2.653056e-002	3.151633e-003	4.882853e-003
1250786.676	4.852930e-003	5.475666e-003	1.000326e+000	-2.755675e-002	1.000320e+000	-2.757937e-002	2.437080e-003	3.627538e-003
1313325.760	5.005576e-003	5.754578e-003	1.000656e+000	-2.954459e-002	1.000446e+000	-2.967445e-002	3.211886e-003	4.193760e-003
1375864.844	4.769610e-003	5.933056e-003	1.000274e+000	-3.191813e-002	9.998936e-001	-3.183048e-002	3.098831e-003	4.857254e-003
1438403.927	4.698755e-003	6.155583e-003	1.000137e+000	-3.290200e-002	1.000319e+000	-3.199979e-002	3.244703e-003	5.501894e-003
1500943.011	4.978020e-003	6.610084e-003	1.000745e+000	-3.413906e-002	1.000708e+000	-3.402751e-002	3.631222e-003	5.470019e-003
1563482.095	5.010801e-003	6.615095e-003	1.000313e+000	-3.594564e-002	9.999788e-001	-3.498867e-002	3.812582e-003	6.061724e-003
1626021.179	4.868576e-003	7.153688e-003	1.000297e+000	-3.751831e-002	1.000234e+000	-3.793442e-002	4.119499e-003	6.408345e-003
1688560.263	4.626345e-003	7.615574e-003	9.999267e-001	-3.970417e-002	1.000469e+000	-3.972272e-002	4.351798e-003	6.770770e-003
1751099.346	4.819519e-003	8.113870e-003	1.000369e+000	-4.122428e-002	9.997744e-001	-4.058144e-002	4.231929e-003	8.017367e-003
1813638.430	4.519874e-003	8.473779e-003	1.000584e+000	-4.326684e-002	1.000147e+000	-4.271747e-002	4.467671e-003	8.040454e-003
1876177.514	4.614979e-003	9.181049e-003	1.000762e+000	-4.442608e-002	1.000323e+000	-4.492923e-002	4.222822e-003	9.115498e-003
1938716.598	4.141676e-003	9.660726e-003	1.000850e+000	-4.567980e-002	1.000367e+000	-4.518998e-002	4.463116e-003	9.913652e-003
2001255.682	4.112794e-003	9.605403e-003	1.000669e+000	-4.768726e-002	1.000091e+000	-4.726938e-002	4.268727e-003	9.876388e-003
2063794.765	4.283761e-003	1.039986e-002	1.000232e+000	-4.900829e-002	9.996671e-001	-4.929442e-002	4.734847e-003	1.020606e-002
2126333.849	3.910741e-003	1.031893e-002	9.997055e-001	-5.088559e-002	9.987523e-001	-5.012912e-002	5.089409e-003	1.086862e-002
2188872.933	4.480903e-003	1.073986e-002	9.993230e-001	-5.227613e-002	9.987489e-001	-5.148736e-002	5.049529e-003	1.125660e-002
2251412.017	4.668513e-003	1.082208e-002	9.990609e-001	-5.428802e-002	9.987455e-001	-5.312568e-002	5.133046e-003	1.157922e-002
2313951.101	5.119757e-003	1.166876e-002	9.983774e-001	-5.571341e-002	9.986950e-001	-5.435815e-002	5.568249e-003	1.194037e-002
2376490.184	4.983143e-003	1.206965e-002	9.981927e-001	-5.651505e-002	9.984662e-001	-5.664134e-002	5.647006e-003	1.237865e-002
2439029.268	5.583760e-003	1.248207e-002	9.979521e-001	-5.868443e-002	9.975109e-001	-5.819544e-002	5.462994e-003	1.293386e-002
2501568.352	5.723812e-003	1.289553e-002	9.974621e-001	-5.949110e-002	9.982210e-001	-5.935291e-002	5.918390e-003	1.331846e-002
2564107.436	5.780010e-003	1.317671e-002	9.976877e-001	-6.159659e-002	9.977778e-001	-6.128267e-002	5.364521e-003	1.340307e-002
2626646.520	6.429769e-003	1.340069e-002	9.973888e-001	-6.305108e-002	9.965037e-001	-6.277392e-002	5.795241e-003	1.374218e-002
2689185.604	6.568002e-003	1.398371e-002	9.975522e-001	-6.421697e-002	9.970746e-001	-6.402888e-002	6.095779e-003	1.420012e-002
2751724.687	6.868806e-003	1.429700e-002	9.971937e-001	-6.553394e-002	9.967057e-001	-6.525674e-002	5.900343e-003	1.460306e-002
2814263.771	7.023833e-003	1.461797e-002	9.960718e-001	-6.777096e-002	9.962948e-001	-6.694829e-002	6.060609e-003	1.486421e-002
2876802.855	7.164649e-003	1.482305e-002	9.960282e-001	-6.950051e-002	9.961406e-001	-6.850763e-002	6.367797e-003	1.538944e-002
2939341.939	7.485862e-003	1.528149e-002	9.963252e-001	-7.035644e-002	9.957668e-001	-7.033607e-002	6.461801e-003	1.566635e-002
3001881.023	7.625969e-003	1.567191e-002	9.958305e-001	-7.203729e-002	9.954877e-001	-7.181253e-002	6.751782e-003	1.590902e-002
3064420.106	7.891076e-003	1.601115e-002	9.962127e-001	-7.343142e-002	9.953398e-001	-7.325476e-002	6.791679e-003	1.617378e-002
3126959.190	8.298672e-003	1.627284e-002	9.955024e-001	-7.503421e-002	9.952182e-001	-7.480251e-002	7.182805e-003	1.648519e-002
3189498.274	8.496233e-003	1.666809e-002	9.951693e-001	-7.636154e-002	9.948965e-001	-7.631445e-002	7.400694e-003	1.678542e-002
3252037.358	8.622385e-003	1.667935e-002	9.950606e-001	-7.798753e-002	9.947113e-001	-7.768674e-002	7.560511e-003	1.721187e-002
3314576.442	8.875210e-003	1.720796e-002	9.946782e-001	-7.942706e-002	9.943862e-001	-7.925367e-002	7.851903e-003	1.746223e-002
3377115.525	9.068617e-003	1.756546e-002	9.942685e-001	-8.079458e-002	9.939173e-001	-8.089553e-002	7.927350e-003	1.770341e-002
3439654.609	9.312637e-003	1.787906e-002	9.938399e-001	-8.230065e-002	9.938975e-001	-8.226821e-002	8.192578e-003	1.825008e-002
3502193.693	9.522860e-003	1.792941e-002	9.935732e-001	-8.393667e-002	9.933182e-001	-8.365165e-002	8.608058e-003	1.855787e-002
3564732.777	9.826846e-003	1.840057e-002	9.933407e-001	-8.534030e-002	9.930614e-001	-8.520758e-002	8.969460e-003	1.891964e-002
3627271.861	9.951090e-003	1.863823e-002	9.930850e-001	-8.691810e-002	9.928326e-001	-8.657974e-002	8.997550e-003	1.906666e-002
3689810.944	1.012116e-002	1.884928e-002	9.926620e-001	-8.843111e-002	9.924602e-001	-8.805508e-002	9.432820e-003	1.941185e-002
3752350.028	1.051129e-002	1.921039e-002	9.922707e-001	-8.965162e-002	9.919731e-001	-8.948800e-002	9.637673e-003	1.970169e-002
3814889.112	1.092202e-002	1.966327e-002	9.917904e-001	-9.116815e-002	9.918088e-001	-9.120794e-002	9.847863e-003	1.988762e-002
3877428.196	1.116999e-002	1.999703e-002	9.916572e-001	-9.272268e-002	9.914229e-001	-9.246523e-002	1.046694e-002	2.020989e-002
3939967.280	1.142951e-002	2.001238e-002	9.912112e-001	-9.421343e-002	9.910948e-001	-9.395818e-002	1.075329e-002	2.060392e-002
4002506.363	1.180967e-002	2.042989e-002	9.908987e-001	-9.561806e-002	9.906708e-001	-9.525178e-002	1.101139e-002	2.082614e-002
4065045.447	1.195574e-002	2.064849e-002	9.903064e-001	-9.710194e-002	9.901414e-001	-9.681484e-002	1.142703e-002	2.100997e-002
4127584.531	1.227482e-002	2.090953e-002	9.898932e-001	-9.853108e-002	9.897695e-001	-9.817462e-002	1.178072e-002	2.139201e-002
4190123.615	1.265340e-002	2.119056e-002	9.895300e-001	-1.001316e-001	9.892383e-001	-9.972719e-002	1.201499e-002	2.143895e-002
4252662.699	1.294513e-002	2.136931e-002	9.891932e-001	-1.015553e-001	9.887930e-001	-1.012757e-001	1.246724e-002	2.170847e-002
4315201.782	1.342785e-002	2.155755e-002	9.887408e-001	-1.027125e-001	9.886290e-001	-1.026793e-001	1.260456e-002	2.176921e-002
4377740.866	1.368295e-002	2.177040e-002	9.883971e-001	-1.042842e-001	9.879533e-001	-1.040295e-001	1.316259e-002	2.227298e-002
4440279.950	1.393664e-002	2.184629e-002	9.879137e-001	-1.055002e-001	9.874447e-001	-1.053063e-001	1.341078e-002	2.234187e-002
4502819.034	1.429410e-002	2.217416e-002	9.872134e-001	-1.069245e-001	9.871055e-001	-1.066736e-001	1.385445e-002	2.268719e-002
4565358.118	1.456487e-002	2.232402e-002	9.868267e-001	-1.082731e-001	9.865235e-001	-1.078541e-001	1.421639e-002	2.276190e-002
4627897.201	1.510341e-002	2.262287e-002	9.865755e-001	-1.096047e-001	9.861593e-001	-1.091915e-001	1.468310e-002	2.304517e-002
4690436.285	1.529431e-002	2.269501e-002	9.861032e-001	-1.110592e-001	9.857533e-001	-1.109361e-001	1.503600e-002	2.302510e-002
4752975.369	1.565101e-002	2.282318e-002	9.854025e-001	-1.124887e-001	9.853886e-001	-1.121424e-001	1.519804e-002	2.312764e-002
4815514.453	1.611719e-002	2.298767e-002	9.851439e-001	-1.136525e-001	9.848973e-001	-1.135433e-001	1.577693e-002	2.336595e-002
4878053.537	1.656068e-002	2.302849e-002	9.847945e-001	-1.149082e-001	9.844203e-001	-1.146679e-001	1.610187e-002	2.342184e-002
4940592.620	1.666790e-002	2.319799e-002	9.841979e-001	-1.163088e-001	9.839775e-001	-1.161086e-001	1.622966e-002	2.353447e-002
5003131.704	1.706897e-002	2.318869e-002	9.837310e-001	-1.175390e-001	9.836238e-001	-1.171798e-001	1.668542e-002	2.359923e-002
5065670.788	1.735400e-002	2.348893e-002	9.832689e-001	-1.188871e-001	9.830872e-001	-1.185479e-001	1.701759e-002	2.375096e-002
5128209.872	1.780454e-002	2.345702e-002	9.829956e-001	-1.201357e-001	9.826478e-001	-1.198254e-001	1.731589e-002	2.365732e-002
5190748.956	1.805727e-002	2.355008e-002	9.824172e-001	-1.214283e-001	9.822559e-001	-1.212266e-001	1.763502e-002	2.387614e-002
5253288.039	1.844669e-002	2.359641e-002	9.820589e-001	-1.227301e-001	9.818514e-001	-1.224410e-001	1.792225e-002	2.404142e-002
5315827.123	1.874053e-002	2.361902e-002	9.814738e-001	-1.239896e-001	9.813641e-001	-1.237014e-001	1.822644e-002	2.403567e-002
5378366.207	1.916188e-002	2.375007e-002	9.811625e-001	-1.252461e-001	9.809331e-001	-1.251879e-001	1.853169e-002	2.402418e-002
5440905.291	1.930969e-002	2.391046e-002	9.807565e-001	-1.264770e-001	9.805435e-001	-1.263048e-001	1.876624e-002	2.415657e-002
5503444.375	1.982716e-002	2.381166e-002	9.803022e-001	-1.277962e-001	9.801773e-001	-1.273687e-001	1.926639e-002	2.412117e-002
5565983.458	1.981647e-002	2.402148e-002	9.798922e-001	-1.289470e-001	9.797316e-001	-1.286309e-001	1.953071e-002	2.435883e-002
5628522.542	2.037796e-002	2.399434e-002	9.795455e-001	-1.300903e-001	9.792899e-001	-1.300170e-001	1.988081e-002	2.428558e-002
5691061.626	2.074024e-002	2.387112e-002	9.790107e-001	-1.315659e-001	9.788206e-001	-1.312695e-001	2.009894e-002	2.439100e-002
5753600.710	2.091601e-002	2.401504e-002	9.785191e-001	-1.326703e-001	9.784081e-001	-1.324595e-001	2.045063e-002	2.432128e-002
5816139.794	2.132924e-002	2.424411e-002	9.782014e-001	-1.339117e-001	9.777516e-001	-1.338456e-001	2.062532e-002	2.442416e-002
5878678.877	2.153607e-002	2.405549e-002	9.777127e-001	-1.351742e-001	9.774840e-001	-1.349580e-001	2.105430e-002	2.432320e-002
5941217.961	2.181914e-002	2.402520e-002	9.772265e-001	-1.364474e-001	9.770221e-001	-1.360506e-001	2.116990e-002	2.446875e-002
6003757.045	2.200216e-002	2.428828e-002	9.766968e-001	-1.375354e-001	9.766032e-001	-1.372242e-001	2.158934e-002	2.448536e-002
6066296.129	2.240436e-002	2.413149e-002	9.764668e-001	-1.387994e-001	9.762173e-001	-1.384318e-001	2.186753e-002	2.448568e-002
6128835.213	2.279993e-002	2.417315e-002	9.760399e-001	-1.397268e-001	9.759657e-001	-1.397548e-001	2.225592e-002	2.450224e-002
6191374.296	2.302838e-002	2.419039e-002	9.755561e-001	-1.411487e-001	9.752896e-001	-1.411181e-001	2.239725e-002	2.463813e-002
6253913.380	2.325923e-002	2.432948e-002	9.751450e-001	-1.424273e-001	9.749085e-001	-1.421722e-001	2.259077e-002	2.477076e-002
6316452.464	2.351703e-002	2.443982e-002	9.748053e-001	-1.434999e-001	9.744286e-001	-1.435328e-001	2.291485e-002	2.457845e-002
6378991.548	2.375964e-002	2.430420e-002	9.742819e-001	-1.450436e-001	9.741686e-001	-1.446496e-001	2.324777e-002	2.446779e-002
6441530.632	2.398265e-002	2.425386e-002	9.738348e-001	-1.459578e-001	9.737250e-001	-1.459749e-001	2.357327e-002	2.459267e-002
6504069.715	2.426544e-002	2.425031e-002	9.733744e-001	-1.474267e-001	9.733560e-001	-1.470981e-001	2.388462e-002	2.460189e-002
6566608.799	2.468425e-002	2.419187e-002	9.730801e-001	-1.486500e-001	9.728100e-001	-1.483274e-001	2.408662e-002	2.480696e-002
6629147.883	2.494086e-002	2.434223e-002	9.726030e-001	-1.494734e-001	9.723785e-001	-1.495069e-001	2.443971e-002	2.467044e-002
6691686.967	2.509823e-002	2.435839e-002	9.720788e-001	-1.507948e-001	9.719406e-001	-1.506784e-001	2.475513e-002	2.475556e-002
6754226.051	2.531957e-002	2.434970e-002	9.716479e-001	-1.521205e-001	9.713907e-001	-1.520037e-001	2.482622e-002	2.457019e-002
6816765.134	2.567949e-002	2.432550e-002	9.712969e-001	-1.532318e-001	9.710985e-001	-1.530634e-001	2.517002e-002	2.475894e-002
6879304.218	2.584993e-002	2.419478e-002	9.708124e-001	-1.544203e-001	9.706770e-001	-1.542195e-001	2.542934e-002	2.469619e-002
6941843.302	2.619824e-002	2.435679e-002	9.703769e-001	-1.556759e-001	9.702763e-001	-1.553800e-001	2.570004e-002	2.477897e-002
7004382.386	2.628876e-002	2.441788e-002	9.700551e-001	-1.567313e-001	9.697882e-001	-1.565376e-001	2.590119e-002	2.480643e-002
7066921.470	2.665775e-002	2.434731e-002	9.694986e-001	-1.580725e-001	9.694566e-001	-1.575658e-001	2.631352e-002	2.464324e-002
7129460.553	2.681284e-002	2.422553e-002	9.691436e-001	-1.590284e-001	9.690136e-001	-1.588974e-001	2.657695e-002	2.470067e-002
7191999.637	2.708673e-002	2.446181e-002	9.685190e-001	-1.603237e-001	9.684089e-001	-1.600323e-001	2.670563e-002	2.468053e-002
7254538.721	2.738162e-002	2.433610e-002	9.684073e-001	-1.615249e-001	9.681761e-001	-1.612819e-001	2.701413e-002	2.469709e-002
7317077.805	2.782172e-002	2.428303e-002	9.679572e-001	-1.625619e-001	9.677757e-001	-1.623538e-001	2.726248e-002	2.456719e-002
7379616.889	2.794666e-002	2.428217e-002	9.676419e-001	-1.639473e-001	9.672870e-001	-1.635595e-001	2.747843e-002	2.458719e-002
7442155.972	2.805781e-002	2.427203e-002	9.670207e-001	-1.649038e-001	9.668524e-001	-1.646696e-001	2.783557e-002	2.477241e-002
7504695.056	2.834479e-002	2.416515e-002	9.665316e-001	-1.660034e-001	9.663349e-001	-1.659903e-001	2.812919e-002	2.480189e-002
7567234.140	2.876203e-002	2.406349e-002	9.662913e-001	-1.671521e-001	9.659055e-001	-1.670803e-001	2.830088e-002	2.469895e-002
7629773.224	2.894895e-002	2.432590e-002	9.658404e-001	-1.684856e-001	9.656432e-001	-1.681791e-001	2.848052e-002	2.463495e-002
7692312.308	2.906988e-002	2.425319e-002	9.654362e-001	-1.696362e-001	9.651182e-001	-1.694547e-001	2.878655e-002	2.451636e-002
7754851.391	2.930026e-002	2.408513e-002	9.649581e-001	-1.708098e-001	9.645706e-001	-1.703599e-001	2.899278e-002	2.462701e-002
7817390.475	2.963935e-002	2.425265e-002	9.645639e-001	-1.720901e-001	9.641982e-001	-1.717493e-001	2.917791e-002	2.469661e-002
7879929.559	2.979273e-002	2.404559e-002	9.640429e-001	-1.732255e-001	9.637588e-001	-1.730574e-001	2.953252e-002	2.466303e-002
7942468.643	2.998631e-002	2.397659e-002	9.637478e-001	-1.742825e-001	9.634541e-001	-1.741209e-001	2.975840e-002	2.447865e-002
8005007.727	3.032044e-002	2.396050e-002	9.632313e-001	-1.754759e-001	9.630575e-001	-1.752544e-001	2.993687e-002	2.466067e-002
8067546.811	3.042745e-002	2.397585e-002	9.628212e-001	-1.765868e-001	9.625037e-001	-1.763317e-001	3.007097e-002	2.444444e-002
8130085.894	3.073324e-002	2.387773e-002	9.623372e-001	-1.776581e-001	9.620928e-001	-1.775224e-001	3.051589e-002	2.434132e-002
8192624.978	3.081186e-002	2.379408e-002	9.618037e-001	-1.789112e-001	9.617179e-001	-1.786165e-001	3.080840e-002	2.430000e-002
8255164.062	3.116717e-002	2.376571e-002	9.615117e-001	-1.800115e-001	9.612506e-001	-1.798032e-001	3.101109e-002	2.421458e-002
8317703.146	3.129568e-002	2.385398e-002	9.610977e-001	-1.811631e-001	9.609300e-001	-1.808992e-001	3.108091e-002	2.424636e-002
8380242.230	3.164263e-002	2.358008e-002	9.605159e-001	-1.823919e-001	9.603685e-001	-1.819611e-001	3.127878e-002	2.415094e-002
8442781.313	3.183416e-002	2.357423e-002	9.603519e-001	-1.833939e-001	9.600238e-001	-1.831363e-001	3.150643e-002	2.403361e-002
8505320.397	3.206764e-002	2.365534e-002	9.598456e-001	-1.846377e-001	9.595579e-001	-1.842839e-001	3.168022e-002	2.403020e-002
8567859.481	3.226897e-002	2.375329e-002	9.593508e-001	-1.855418e-001	9.592081e-001	-1.853968e-001	3.195747e-002	2.413987e-002
8630398.565	3.256760e-002	2.365452e-002	9.587710e-001	-1.866476e-001	9.587852e-001	-1.864979e-001	3.204867e-002	2.386218e-002
8692937.649	3.272823e-002	2.340451e-002	9.584753e-001	-1.878126e-001	9.581886e-001	-1.876479e-001	3.223316e-002	2.391404e-002
8755476.732	3.297908e-002	2.341588e-002	9.580533e-001	-1.890262e-001	9.577785e-001	-1.886602e-001	3.252885e-002	2.388390e-002
8818015.816	3.307566e-002	2.333846e-002	9.575632e-001	-1.901076e-001	9.571989e-001	-1.898237e-001	3.283201e-002	2.372961e-002
8880554.900	3.350168e-002	2.331385e-002	9.572893e-001	-1.912756e-001	9.570858e-001	-1.908213e-001	3.292025e-002	2.354079e-002
8943093.984	3.357143e-002	2.337071e-002	9.567834e-001	-1.923074e-001	9.566359e-001	-1.920085e-001	3.315404e-002	2.352728e-002
9005633.068	3.383497e-002	2.321856e-002	9.562591e-001	-1.934583e-001	9.562628e-001	-1.932300e-001	3.326543e-002	2.335989e-002
9068172.151	3.392043e-002	2.316915e-002	9.559849e-001	-1.946189e-001	9.557351e-001	-1.942171e-001	3.353116e-002	2.334303e-002
9130711.235	3.433182e-002	2.302559e-002	9.554767e-001	-1.956863e-001	9.553212e-001	-1.953140e-001	3.378562e-002	2.310732e-002
9193250.319	3.453259e-002	2.294030e-002	9.551646e-001	-1.966632e-001	9.548574e-001	-1.965005e-001	3.392850e-002	2.311807e-002
9255789.403	3.461915e-002	2.274991e-002	9.547882e-001	-1.976913e-001	9.544261e-001	-1.975363e-001	3.402627e-002	2.312952e-002
9318328.487	3.478750e-002	2.277775e-002	9.542596e-001	-1.990290e-001	9.541637e-001	-1.986167e-001	3.433571e-002	2.304795e-002
9380867.570	3.502050e-002	2.282810e-002	9.539012e-001	-2.001374e-001	9.535648e-001	-1.998429e-001	3.452931e-002	2.295464e-002
9443406.654	3.529164e-002	2.274335e-002	9.535147e-001	-2.011151e-001	9.532636e-001	-2.009979e-001	3.476808e-002	2.282014e-002
9505945.738	3.547673e-002	2.269635e-002	9.528787e-001	-2.024394e-001	9.528845e-001	-2.020800e-001	3.493171e-002	2.275081e-002
9568484.822	3.571343e-002	2.258774e-002	9.526399e-001	-2.034772e-001	9.522288e-001	-2.031951e-001	3.496546e-002	2.291571e-002
9631023.906	3.588560e-002	2.253073e-002	9.521728e-001	-2.045354e-001	9.518032e-001	-2.042977e-001	3.532422e-002	2.253218e-002
9693562.989	3.611100e-002	2.243398e-002	9.516561e-001	-2.056350e-001	9.514592e-001	-2.053223e-001	3.528141e-002	2.258369e-002
9756102.073	3.630054e-002	2.232625e-002	9.514648e-001	-2.067550e-001	9.510992e-001	-2.063475e-001	3.552140e-002	2.238818e-002
