!Agilent Technologies,E5061B,MY49102235,A.02.00
!Date: Tue Jul 11 14:52:58 2023
!Data & Calibration Information:
!Freq	S11:SOLT2(ON)	S21:SOLT2(ON)	S12:SOLT2(ON)	S22:SOLT2(ON)
# Hz S RI R 50
5.000	-5.147680e-003	-5.623396e-003	1.001613e+000	7.934879e-003	1.000268e+000	1.025426e-002	-1.532982e-003	-7.539236e-003
62544.084	5.803437e-003	-5.052703e-004	1.001410e+000	4.467577e-004	1.000839e+000	1.274089e-003	7.700106e-003	-2.880851e-003
125083.168	5.671174e-003	-4.949633e-004	1.001003e+000	-9.696012e-004	1.000692e+000	-7.178065e-004	7.509584e-003	-2.268732e-003
187622.251	5.460610e-003	-3.209722e-004	1.000417e+000	-2.081477e-003	1.000952e+000	-9.425555e-004	7.380512e-003	-2.374835e-003
250161.335	5.263133e-003	-1.840652e-004	1.000626e+000	-3.200742e-003	1.000769e+000	-3.114812e-003	7.244366e-003	-2.038610e-003
312700.419	5.423524e-003	5.508340e-004	1.000807e+000	-3.804384e-003	1.000499e+000	-3.562251e-003	7.789513e-003	-2.334284e-003
375239.503	5.281670e-003	-9.599176e-004	1.001168e+000	-5.321311e-003	1.000537e+000	-4.930225e-003	7.264887e-003	-2.502419e-003
437778.587	5.139890e-003	-5.706089e-004	1.001309e+000	-5.365425e-003	1.000992e+000	-6.073309e-003	6.622725e-003	-2.215979e-003
500317.670	4.592256e-003	-4.611004e-004	1.001262e+000	-7.745801e-003	1.001498e+000	-7.568897e-003	4.818205e-003	-2.031539e-003
562856.754	5.876873e-003	-7.372584e-004	1.001475e+000	-9.383593e-003	1.001110e+000	-9.228950e-003	5.994486e-003	-1.520924e-003
625395.838	5.053655e-003	-5.886586e-004	1.002283e+000	-1.056958e-002	1.002166e+000	-1.001921e-002	6.099984e-003	-9.820408e-004
687934.922	5.104498e-003	-9.231374e-004	1.001411e+000	-1.160422e-002	1.001170e+000	-1.156917e-002	5.752288e-003	-1.441041e-003
750474.006	4.357143e-003	-5.851027e-004	1.000981e+000	-1.088858e-002	1.000803e+000	-1.078668e-002	5.532865e-003	-1.253128e-003
813013.089	4.519857e-003	-5.657138e-004	1.001210e+000	-1.267104e-002	1.000678e+000	-1.235766e-002	4.884295e-003	-1.081828e-003
875552.173	4.273291e-003	-4.066311e-004	1.001259e+000	-1.358428e-002	1.000940e+000	-1.362196e-002	5.666729e-003	-1.481540e-003
938091.257	4.334326e-003	-3.411052e-004	1.001342e+000	-1.516518e-002	1.001213e+000	-1.478344e-002	5.897418e-003	-9.102544e-004
1000630.341	3.771557e-003	-6.887293e-004	1.000814e+000	-1.656103e-002	1.001100e+000	-1.613008e-002	5.153363e-003	-1.615197e-003
1063169.425	4.125134e-003	-8.538783e-004	1.001114e+000	-1.787417e-002	1.000687e+000	-1.703307e-002	4.317874e-003	-1.953324e-003
1125708.508	4.028973e-003	-8.071576e-004	1.001001e+000	-1.900271e-002	1.000759e+000	-1.836941e-002	3.824109e-003	-1.654607e-003
1188247.592	4.565744e-003	-1.266350e-003	1.001067e+000	-2.030293e-002	1.001013e+000	-1.954168e-002	2.736745e-003	-2.223046e-003
1250786.676	4.409009e-003	-2.002992e-003	1.000738e+000	-2.025636e-002	1.000745e+000	-2.027950e-002	1.995217e-003	-3.891221e-003
1313325.760	4.515814e-003	-2.107534e-003	1.001064e+000	-2.168470e-002	1.001163e+000	-2.185533e-002	2.738828e-003	-3.682725e-003
1375864.844	4.250765e-003	-2.295109e-003	1.000872e+000	-2.359736e-002	1.000588e+000	-2.369265e-002	2.578828e-003	-3.405242e-003
1438403.927	4.129758e-003	-2.462096e-003	1.000715e+000	-2.417317e-002	1.001027e+000	-2.348106e-002	2.669525e-003	-3.156285e-003
1500943.011	4.363896e-003	-2.390850e-003	1.001460e+000	-2.516691e-002	1.001311e+000	-2.510419e-002	3.011457e-003	-3.562607e-003
1563482.095	4.363546e-003	-2.778069e-003	1.001023e+000	-2.655437e-002	1.000666e+000	-2.562532e-002	3.141160e-003	-3.352804e-003
1626021.179	4.166408e-003	-2.651947e-003	1.000765e+000	-2.769566e-002	1.001019e+000	-2.822965e-002	3.413330e-003	-3.402307e-003
1688560.263	3.858422e-003	-2.575368e-003	1.000550e+000	-2.944075e-002	1.001413e+000	-2.966079e-002	3.588664e-003	-3.435239e-003
1751099.346	3.996410e-003	-2.495459e-003	1.001015e+000	-3.064858e-002	1.000735e+000	-2.993115e-002	3.399616e-003	-2.575510e-003
1813638.430	3.640533e-003	-2.542826e-003	1.001407e+000	-3.217972e-002	1.001014e+000	-3.191340e-002	3.584075e-003	-2.975431e-003
1876177.514	3.670676e-003	-2.256383e-003	1.001691e+000	-3.308095e-002	1.001364e+000	-3.346288e-002	3.243671e-003	-2.297118e-003
1938716.598	3.126581e-003	-2.176733e-003	1.001934e+000	-3.377496e-002	1.001420e+000	-3.333848e-002	3.398791e-003	-1.913237e-003
2001255.682	3.042445e-003	-2.665215e-003	1.001732e+000	-3.531347e-002	1.001338e+000	-3.500922e-002	3.176529e-003	-2.378274e-003
2063794.765	3.119175e-003	-2.282864e-003	1.001439e+000	-3.639442e-002	1.000866e+000	-3.667924e-002	3.561585e-003	-2.477102e-003
2126333.849	2.661929e-003	-2.814375e-003	1.000941e+000	-3.763188e-002	1.000226e+000	-3.697590e-002	3.809241e-003	-2.224313e-003
2188872.933	3.154868e-003	-2.806890e-003	1.000749e+000	-3.858498e-002	1.000182e+000	-3.798717e-002	3.688357e-003	-2.277191e-003
2251412.017	3.249461e-003	-3.184221e-003	1.000491e+000	-4.024642e-002	1.000305e+000	-3.912675e-002	3.684132e-003	-2.393252e-003
2313951.101	3.575682e-003	-2.766204e-003	9.999167e-001	-4.126982e-002	1.000282e+000	-3.989057e-002	3.972879e-003	-2.459263e-003
2376490.184	3.311031e-003	-2.799244e-003	9.997983e-001	-4.158177e-002	1.000276e+000	-4.179738e-002	3.955708e-003	-2.463293e-003
2439029.268	3.763687e-003	-2.828981e-003	9.998133e-001	-4.336751e-002	9.994527e-001	-4.289264e-002	3.598563e-003	-2.363007e-003
2501568.352	3.729931e-003	-2.842528e-003	9.994795e-001	-4.358172e-002	1.000220e+000	-4.354054e-002	3.898120e-003	-2.413736e-003
2564107.436	3.661404e-003	-3.006243e-003	9.997464e-001	-4.530950e-002	9.999887e-001	-4.511061e-002	3.201482e-003	-2.791277e-003
2626646.520	4.134145e-003	-3.186680e-003	9.996537e-001	-4.640749e-002	9.989154e-001	-4.614347e-002	3.455852e-003	-2.852671e-003
2689185.604	4.079953e-003	-3.036414e-003	1.000044e+000	-4.717566e-002	9.996159e-001	-4.687400e-002	3.573959e-003	-2.819781e-003
2751724.687	4.196680e-003	-3.144922e-003	1.000012e+000	-4.798054e-002	9.996011e-001	-4.777917e-002	3.180863e-003	-2.867317e-003
2814263.771	4.149486e-003	-3.218878e-003	9.990384e-001	-4.974773e-002	9.992321e-001	-4.905877e-002	3.148251e-003	-3.007148e-003
2876802.855	4.098843e-003	-3.446465e-003	9.991287e-001	-5.121458e-002	9.993088e-001	-5.016853e-002	3.232822e-003	-2.877302e-003
2939341.939	4.201531e-003	-3.372427e-003	9.996095e-001	-5.175548e-002	9.991451e-001	-5.169539e-002	3.116104e-003	-3.006143e-003
3001881.023	4.123679e-003	-3.384957e-003	9.993699e-001	-5.287583e-002	9.992216e-001	-5.262499e-002	3.213027e-003	-3.143347e-003
3064420.106	4.166235e-003	-3.446726e-003	9.999436e-001	-5.387247e-002	9.990034e-001	-5.364413e-002	3.046772e-003	-3.292759e-003
3126959.190	4.359278e-003	-3.559712e-003	9.994730e-001	-5.509170e-002	9.991836e-001	-5.489536e-002	3.220369e-003	-3.372481e-003
3189498.274	4.340964e-003	-3.544124e-003	9.993056e-001	-5.610926e-002	9.991080e-001	-5.600469e-002	3.218327e-003	-3.444933e-003
3252037.358	4.267226e-003	-3.937677e-003	9.994168e-001	-5.726479e-002	9.992155e-001	-5.701176e-002	3.158552e-003	-3.411189e-003
3314576.442	4.264063e-003	-3.791435e-003	9.992849e-001	-5.828273e-002	9.990299e-001	-5.820210e-002	3.211846e-003	-3.547062e-003
3377115.525	4.232794e-003	-3.811683e-003	9.991046e-001	-5.933504e-002	9.987424e-001	-5.941666e-002	3.048030e-003	-3.708807e-003
3439654.609	4.234930e-003	-3.901051e-003	9.988905e-001	-6.041043e-002	9.990655e-001	-6.039662e-002	3.071348e-003	-3.544900e-003
3502193.693	4.201770e-003	-4.232577e-003	9.989080e-001	-6.167629e-002	9.986884e-001	-6.136233e-002	3.220522e-003	-3.620289e-003
3564732.777	4.245444e-003	-4.130660e-003	9.989337e-001	-6.270214e-002	9.987197e-001	-6.259303e-002	3.315626e-003	-3.623429e-003
3627271.861	4.089372e-003	-4.281626e-003	9.989908e-001	-6.390676e-002	9.987641e-001	-6.357960e-002	3.086826e-003	-3.867818e-003
3689810.944	3.985250e-003	-4.446985e-003	9.987826e-001	-6.499723e-002	9.986936e-001	-6.462615e-002	3.238009e-003	-3.888571e-003
3752350.028	4.094193e-003	-4.465565e-003	9.986726e-001	-6.583201e-002	9.984700e-001	-6.571842e-002	3.160143e-003	-3.984431e-003
3814889.112	4.209754e-003	-4.367760e-003	9.985390e-001	-6.703956e-002	9.986382e-001	-6.711741e-002	3.080918e-003	-4.159959e-003
3877428.196	4.139499e-003	-4.397852e-003	9.986683e-001	-6.814233e-002	9.985258e-001	-6.795696e-002	3.401611e-003	-4.183335e-003
3939967.280	4.102257e-003	-4.738433e-003	9.985442e-001	-6.932700e-002	9.985290e-001	-6.908417e-002	3.372455e-003	-4.145034e-003
4002506.363	4.159260e-003	-4.657315e-003	9.985271e-001	-7.037075e-002	9.984141e-001	-7.002319e-002	3.312050e-003	-4.271499e-003
4065045.447	3.982659e-003	-4.805212e-003	9.982461e-001	-7.151041e-002	9.981898e-001	-7.126556e-002	3.387515e-003	-4.432160e-003
4127584.531	3.959945e-003	-4.863966e-003	9.981711e-001	-7.259392e-002	9.982054e-001	-7.228196e-002	3.404337e-003	-4.374375e-003
4190123.615	3.976527e-003	-4.906214e-003	9.982235e-001	-7.385334e-002	9.979860e-001	-7.351977e-002	3.310781e-003	-4.669206e-003
4252662.699	3.945357e-003	-5.031715e-003	9.982230e-001	-7.497378e-002	9.978452e-001	-7.471691e-002	3.408107e-003	-4.693762e-003
4315201.782	4.077586e-003	-5.154609e-003	9.981288e-001	-7.587066e-002	9.980858e-001	-7.580482e-002	3.220599e-003	-4.939767e-003
4377740.866	3.969443e-003	-5.233745e-003	9.981413e-001	-7.709933e-002	9.977486e-001	-7.693416e-002	3.381734e-003	-4.701244e-003
4440279.950	3.872646e-003	-5.434494e-003	9.979765e-001	-7.807541e-002	9.976057e-001	-7.786988e-002	3.269378e-003	-4.942847e-003
4502819.034	3.853602e-003	-5.358446e-003	9.976855e-001	-7.922649e-002	9.976863e-001	-7.903361e-002	3.348635e-003	-4.841452e-003
4565358.118	3.765102e-003	-5.474351e-003	9.976365e-001	-8.032001e-002	9.974171e-001	-7.989545e-002	3.359788e-003	-5.016650e-003
4627897.201	3.944344e-003	-5.402873e-003	9.977293e-001	-8.138416e-002	9.974075e-001	-8.100882e-002	3.443461e-003	-4.976525e-003
4690436.285	3.759455e-003	-5.590142e-003	9.976704e-001	-8.258078e-002	9.974012e-001	-8.247803e-002	3.430142e-003	-5.237787e-003
4752975.369	3.752444e-003	-5.669898e-003	9.973470e-001	-8.379476e-002	9.973456e-001	-8.348121e-002	3.260181e-003	-5.367316e-003
4815514.453	3.874803e-003	-5.730141e-003	9.974413e-001	-8.474452e-002	9.972737e-001	-8.467426e-002	3.461417e-003	-5.330950e-003
4878053.537	3.961678e-003	-5.901086e-003	9.973995e-001	-8.582384e-002	9.971086e-001	-8.557463e-002	3.430486e-003	-5.485453e-003
4940592.620	3.700527e-003	-5.931212e-003	9.971909e-001	-8.699183e-002	9.970904e-001	-8.680688e-002	3.189146e-003	-5.582934e-003
5003131.704	3.762268e-003	-6.126512e-003	9.970779e-001	-8.801335e-002	9.970579e-001	-8.767805e-002	3.311959e-003	-5.721242e-003
5065670.788	3.663049e-003	-6.010172e-003	9.969721e-001	-8.919725e-002	9.968958e-001	-8.887300e-002	3.273772e-003	-5.742589e-003
5128209.872	3.794889e-003	-6.220974e-003	9.971030e-001	-9.024062e-002	9.967916e-001	-8.997537e-002	3.231833e-003	-6.014573e-003
5190748.956	3.697420e-003	-6.311229e-003	9.968812e-001	-9.138882e-002	9.968244e-001	-9.116237e-002	3.192876e-003	-5.954081e-003
5253288.039	3.734900e-003	-6.418335e-003	9.969074e-001	-9.251376e-002	9.966904e-001	-9.220939e-002	3.116450e-003	-5.961669e-003
5315827.123	3.696208e-003	-6.556333e-003	9.965645e-001	-9.360305e-002	9.965567e-001	-9.335216e-002	3.091007e-003	-6.131103e-003
5378366.207	3.767052e-003	-6.574498e-003	9.966679e-001	-9.469545e-002	9.965180e-001	-9.464632e-002	3.081232e-003	-6.300843e-003
5440905.291	3.590921e-003	-6.577239e-003	9.966092e-001	-9.576402e-002	9.964006e-001	-9.559542e-002	2.963259e-003	-6.329184e-003
5503444.375	3.792024e-003	-6.811392e-003	9.964534e-001	-9.698635e-002	9.963828e-001	-9.656279e-002	3.144384e-003	-6.480880e-003
5565983.458	3.424932e-003	-6.770220e-003	9.964125e-001	-9.794104e-002	9.962065e-001	-9.764326e-002	3.053707e-003	-6.397112e-003
5628522.542	3.674675e-003	-6.923636e-003	9.962781e-001	-9.898280e-002	9.961337e-001	-9.887819e-002	3.090590e-003	-6.609264e-003
5691061.626	3.734423e-003	-7.174440e-003	9.961107e-001	-1.003220e-001	9.959320e-001	-1.000131e-001	2.976989e-003	-6.636153e-003
5753600.710	3.567622e-003	-7.167719e-003	9.959275e-001	-1.012593e-001	9.959216e-001	-1.010645e-001	3.039326e-003	-6.852134e-003
5816139.794	3.654691e-003	-7.071472e-003	9.959433e-001	-1.024229e-001	9.956144e-001	-1.023926e-001	2.879779e-003	-6.879171e-003
5878678.877	3.560877e-003	-7.376853e-003	9.958075e-001	-1.035430e-001	9.956293e-001	-1.033069e-001	2.971726e-003	-7.098420e-003
5941217.961	3.533803e-003	-7.534283e-003	9.956048e-001	-1.047161e-001	9.955116e-001	-1.042545e-001	2.774736e-003	-7.084944e-003
6003757.045	3.363310e-003	-7.394850e-003	9.953903e-001	-1.056228e-001	9.953938e-001	-1.053735e-001	2.893825e-003	-7.186100e-003
6066296.129	3.487012e-003	-7.669325e-003	9.955267e-001	-1.068110e-001	9.953170e-001	-1.064170e-001	2.862501e-003	-7.302906e-003
6128835.213	3.571191e-003	-7.710934e-003	9.953493e-001	-1.076038e-001	9.953595e-001	-1.076408e-001	2.938128e-003	-7.390424e-003
6191374.296	3.509040e-003	-7.821066e-003	9.951899e-001	-1.089497e-001	9.949992e-001	-1.088784e-001	2.772329e-003	-7.362331e-003
6253913.380	3.397762e-003	-7.790334e-003	9.951259e-001	-1.100841e-001	9.949563e-001	-1.098027e-001	2.636741e-003	-7.340638e-003
6316452.464	3.354027e-003	-7.788275e-003	9.950426e-001	-1.110600e-001	9.947559e-001	-1.111195e-001	2.669799e-003	-7.660950e-003
6378991.548	3.310138e-003	-8.025453e-003	9.948548e-001	-1.125117e-001	9.948354e-001	-1.120891e-001	2.722094e-003	-7.861955e-003
6441530.632	3.249902e-003	-8.195019e-003	9.946881e-001	-1.133221e-001	9.946470e-001	-1.133129e-001	2.745917e-003	-7.837482e-003
6504069.715	3.232777e-003	-8.301931e-003	9.945468e-001	-1.146434e-001	9.946440e-001	-1.143226e-001	2.747824e-003	-7.911481e-003
6566608.799	3.361705e-003	-8.446270e-003	9.945633e-001	-1.157816e-001	9.943574e-001	-1.154786e-001	2.636747e-003	-7.810133e-003
6629147.883	3.295353e-003	-8.399408e-003	9.943653e-001	-1.165729e-001	9.942109e-001	-1.165713e-001	2.696225e-003	-8.039535e-003
6691686.967	3.159950e-003	-8.462473e-003	9.941505e-001	-1.178105e-001	9.940757e-001	-1.176208e-001	2.719654e-003	-8.045948e-003
6754226.051	3.094537e-003	-8.580177e-003	9.939897e-001	-1.189589e-001	9.938184e-001	-1.188881e-001	2.510671e-003	-8.337576e-003
6816765.134	3.178842e-003	-8.658297e-003	9.939787e-001	-1.200084e-001	9.938746e-001	-1.198558e-001	2.542346e-003	-8.218084e-003
6879304.218	3.052744e-003	-8.915671e-003	9.937821e-001	-1.211086e-001	9.937124e-001	-1.209171e-001	2.524607e-003	-8.363772e-003
6941843.302	3.111335e-003	-8.834740e-003	9.936118e-001	-1.222881e-001	9.935644e-001	-1.220173e-001	2.493089e-003	-8.371890e-003
7004382.386	2.894176e-003	-8.847633e-003	9.935633e-001	-1.233021e-001	9.933740e-001	-1.231292e-001	2.394130e-003	-8.417469e-003
7066921.470	2.980002e-003	-8.988504e-003	9.933136e-001	-1.245329e-001	9.933179e-001	-1.240494e-001	2.538056e-003	-8.664705e-003
7129460.553	2.867330e-003	-9.189014e-003	9.932456e-001	-1.254101e-001	9.931771e-001	-1.252671e-001	2.521812e-003	-8.682840e-003
7191999.637	2.832691e-003	-9.032247e-003	9.929109e-001	-1.266261e-001	9.928834e-001	-1.263534e-001	2.364832e-003	-8.772975e-003
7254538.721	2.872028e-003	-9.220942e-003	9.931077e-001	-1.277337e-001	9.929365e-001	-1.275055e-001	2.395600e-003	-8.835250e-003
7317077.805	3.024149e-003	-9.328321e-003	9.928547e-001	-1.287494e-001	9.927876e-001	-1.285332e-001	2.362505e-003	-9.025320e-003
7379616.889	2.864084e-003	-9.411196e-003	9.928772e-001	-1.300385e-001	9.925704e-001	-1.296794e-001	2.285953e-003	-9.075887e-003
7442155.972	2.699903e-003	-9.505341e-003	9.925545e-001	-1.309213e-001	9.924765e-001	-1.307004e-001	2.350921e-003	-8.951617e-003
7504695.056	2.717760e-003	-9.665776e-003	9.923480e-001	-1.319642e-001	9.922022e-001	-1.319469e-001	2.375479e-003	-8.951662e-003
7567234.140	2.877125e-003	-9.837225e-003	9.923199e-001	-1.330349e-001	9.920619e-001	-1.329666e-001	2.279821e-003	-9.147760e-003
7629773.224	2.761092e-003	-9.613763e-003	9.922436e-001	-1.343491e-001	9.920806e-001	-1.340090e-001	2.178927e-003	-9.287647e-003
7692312.308	2.606864e-003	-9.768877e-003	9.920336e-001	-1.354148e-001	9.917873e-001	-1.352052e-001	2.212632e-003	-9.445006e-003
7754851.391	2.574498e-003	-1.000557e-002	9.918542e-001	-1.365332e-001	9.915465e-001	-1.361021e-001	2.140311e-003	-9.406706e-003
7817390.475	2.622469e-003	-9.868347e-003	9.917230e-001	-1.377402e-001	9.914653e-001	-1.374432e-001	2.031212e-003	-9.354138e-003
7879929.559	2.519512e-003	-1.013710e-002	9.914578e-001	-1.388845e-001	9.912718e-001	-1.386839e-001	2.140875e-003	-9.447980e-003
7942468.643	2.452293e-003	-1.027547e-002	9.914614e-001	-1.398096e-001	9.912455e-001	-1.397314e-001	2.100860e-003	-9.710551e-003
8005007.727	2.530549e-003	-1.031714e-002	9.912081e-001	-1.410223e-001	9.911050e-001	-1.408059e-001	1.983019e-003	-9.555654e-003
8067546.811	2.357160e-003	-1.036085e-002	9.910846e-001	-1.420646e-001	9.907957e-001	-1.417945e-001	1.878405e-003	-9.852140e-003
8130085.894	2.391859e-003	-1.050121e-002	9.908933e-001	-1.430661e-001	9.907208e-001	-1.429466e-001	2.074163e-003	-9.972415e-003
8192624.978	2.218207e-003	-1.065616e-002	9.905397e-001	-1.443110e-001	9.905591e-001	-1.440105e-001	2.092135e-003	-1.005796e-002
8255164.062	2.318996e-003	-1.070392e-002	9.905193e-001	-1.453514e-001	9.903767e-001	-1.451350e-001	2.028327e-003	-1.018799e-002
8317703.146	2.160672e-003	-1.066864e-002	9.904153e-001	-1.464818e-001	9.903060e-001	-1.462301e-001	1.831889e-003	-1.021956e-002
8380242.230	2.257763e-003	-1.099234e-002	9.901055e-001	-1.476523e-001	9.900433e-001	-1.472413e-001	1.777289e-003	-1.035601e-002
8442781.313	2.217241e-003	-1.103649e-002	9.901917e-001	-1.486308e-001	9.899143e-001	-1.483225e-001	1.710695e-003	-1.052081e-002
8505320.397	2.168749e-003	-1.098503e-002	9.899483e-001	-1.497699e-001	9.897549e-001	-1.494390e-001	1.634067e-003	-1.054693e-002
8567859.481	2.089205e-003	-1.091025e-002	9.897556e-001	-1.507029e-001	9.896310e-001	-1.505677e-001	1.645597e-003	-1.045928e-002
8630398.565	2.139136e-003	-1.104012e-002	9.893760e-001	-1.517490e-001	9.894681e-001	-1.515854e-001	1.503297e-003	-1.078337e-002
8692937.649	2.060226e-003	-1.133260e-002	9.893027e-001	-1.528978e-001	9.891579e-001	-1.527289e-001	1.407838e-003	-1.076015e-002
8755476.732	2.041325e-003	-1.134590e-002	9.892174e-001	-1.541062e-001	9.889678e-001	-1.537066e-001	1.443043e-003	-1.082996e-002
8818015.816	1.890803e-003	-1.145804e-002	9.889630e-001	-1.551260e-001	9.886578e-001	-1.548806e-001	1.526416e-003	-1.099045e-002
8880554.900	2.080354e-003	-1.150437e-002	9.889601e-001	-1.562982e-001	9.887651e-001	-1.558156e-001	1.363376e-003	-1.124842e-002
8943093.984	1.878671e-003	-1.147344e-002	9.887161e-001	-1.573086e-001	9.886143e-001	-1.569847e-001	1.350935e-003	-1.125163e-002
9005633.068	1.905658e-003	-1.164951e-002	9.884539e-001	-1.584530e-001	9.884694e-001	-1.581629e-001	1.214510e-003	-1.148398e-002
9068172.151	1.708628e-003	-1.173007e-002	9.883863e-001	-1.595440e-001	9.881229e-001	-1.591040e-001	1.228629e-003	-1.150755e-002
9130711.235	1.902443e-003	-1.188778e-002	9.880854e-001	-1.606313e-001	9.880027e-001	-1.602051e-001	1.244322e-003	-1.178468e-002
9193250.319	1.852279e-003	-1.198164e-002	9.880650e-001	-1.615410e-001	9.878255e-001	-1.613753e-001	1.134044e-003	-1.177545e-002
9255789.403	1.713892e-003	-1.221443e-002	9.878987e-001	-1.625740e-001	9.876445e-001	-1.624056e-001	9.641970e-004	-1.180129e-002
9318328.487	1.637720e-003	-1.220738e-002	9.876441e-001	-1.638978e-001	9.875956e-001	-1.634752e-001	1.045643e-003	-1.188882e-002
9380867.570	1.615257e-003	-1.216371e-002	9.875551e-001	-1.650140e-001	9.872542e-001	-1.646950e-001	1.002509e-003	-1.198656e-002
9443406.654	1.627117e-003	-1.225944e-002	9.873456e-001	-1.659964e-001	9.871858e-001	-1.658392e-001	9.931176e-004	-1.214671e-002
9505945.738	1.576489e-003	-1.230854e-002	9.870167e-001	-1.672542e-001	9.870994e-001	-1.669027e-001	9.250316e-004	-1.223554e-002
9568484.822	1.586126e-003	-1.242814e-002	9.869458e-001	-1.682995e-001	9.866623e-001	-1.679675e-001	6.849430e-004	-1.207195e-002
