!Agilent Technologies,E5061B,MY49102235,A.02.00
!Date: Tue Jul 11 17:07:47 2023
!Data & Calibration Information:
!Freq	S11:SOLT2(ON)	S21:SOLT2(ON)	S12:SOLT2(ON)	S22:SOLT2(ON)
# Hz S RI R 50
5.000	-5.201640e-003	-5.638592e-003	1.002232e+000	7.968313e-003	1.000650e+000	1.028764e-002	-1.383928e-003	-7.549858e-003
62544.084	5.811399e-003	-4.852569e-004	1.001402e+000	4.186129e-004	1.000826e+000	1.281080e-003	7.706283e-003	-2.873289e-003
125083.168	5.708150e-003	-4.789233e-004	1.001008e+000	-8.277157e-004	1.000667e+000	-7.690645e-004	7.496105e-003	-2.255547e-003
187622.251	5.481177e-003	-3.072203e-004	1.000546e+000	-2.219046e-003	1.000840e+000	-9.008576e-004	7.383751e-003	-2.339899e-003
250161.335	5.302748e-003	-1.491051e-004	1.000655e+000	-3.250520e-003	1.000629e+000	-3.170533e-003	7.262657e-003	-1.980830e-003
312700.419	5.435420e-003	5.894466e-004	1.000933e+000	-3.993614e-003	1.000544e+000	-3.584319e-003	7.781592e-003	-2.283334e-003
375239.503	5.330423e-003	-9.253875e-004	1.001136e+000	-5.307380e-003	1.000453e+000	-4.962673e-003	7.261072e-003	-2.442035e-003
437778.587	5.153805e-003	-5.332171e-004	1.001510e+000	-5.389126e-003	1.000963e+000	-6.184484e-003	6.622857e-003	-2.142960e-003
500317.670	4.625545e-003	-4.024686e-004	1.001250e+000	-7.799780e-003	1.001595e+000	-7.637665e-003	4.815058e-003	-1.965363e-003
562856.754	5.923408e-003	-6.865016e-004	1.001473e+000	-9.463083e-003	1.001067e+000	-9.137369e-003	6.027744e-003	-1.467949e-003
625395.838	5.122780e-003	-5.527375e-004	1.002253e+000	-1.056010e-002	1.002125e+000	-1.007575e-002	6.104863e-003	-9.045302e-004
687934.922	5.164033e-003	-8.548519e-004	1.001366e+000	-1.162930e-002	1.001177e+000	-1.164423e-002	5.763616e-003	-1.346425e-003
750474.006	4.294341e-003	-5.537802e-004	1.001068e+000	-1.116079e-002	1.000540e+000	-1.052386e-002	5.462047e-003	-1.223726e-003
813013.089	4.464323e-003	-5.311691e-004	1.001423e+000	-1.291950e-002	1.000332e+000	-1.219569e-002	4.823115e-003	-1.051458e-003
875552.173	4.202511e-003	-3.515887e-004	1.001438e+000	-1.379693e-002	1.000842e+000	-1.354368e-002	5.607323e-003	-1.432296e-003
938091.257	4.266140e-003	-2.785262e-004	1.001523e+000	-1.525531e-002	1.000975e+000	-1.461692e-002	5.847355e-003	-8.601511e-004
1000630.341	3.722817e-003	-6.334527e-004	1.001084e+000	-1.672705e-002	1.000890e+000	-1.601114e-002	5.098618e-003	-1.559320e-003
1063169.425	4.071398e-003	-7.842005e-004	1.001349e+000	-1.810365e-002	1.000558e+000	-1.687374e-002	4.276731e-003	-1.881979e-003
1125708.508	3.954193e-003	-7.453875e-004	1.001120e+000	-1.923384e-002	1.000637e+000	-1.827020e-002	3.778095e-003	-1.592769e-003
1188247.592	4.511079e-003	-1.178644e-003	1.001418e+000	-2.038472e-002	1.000879e+000	-1.940551e-002	2.680957e-003	-2.158679e-003
1250786.676	4.337146e-003	-1.915198e-003	1.000851e+000	-2.030408e-002	1.000542e+000	-1.994376e-002	1.948949e-003	-3.809690e-003
1313325.760	4.460508e-003	-2.016225e-003	1.001193e+000	-2.183703e-002	1.000851e+000	-2.156653e-002	2.678683e-003	-3.596638e-003
1375864.844	4.178867e-003	-2.208245e-003	1.000925e+000	-2.375915e-002	1.000340e+000	-2.346116e-002	2.530450e-003	-3.322697e-003
1438403.927	4.084658e-003	-2.364352e-003	1.000951e+000	-2.444143e-002	1.000797e+000	-2.343822e-002	2.626923e-003	-3.061083e-003
1500943.011	4.297396e-003	-2.287699e-003	1.001541e+000	-2.530158e-002	1.001346e+000	-2.488038e-002	2.971805e-003	-3.465729e-003
1563482.095	4.301284e-003	-2.663896e-003	1.001134e+000	-2.675784e-002	1.000520e+000	-2.551594e-002	3.101438e-003	-3.253056e-003
1626021.179	4.115629e-003	-2.534475e-003	1.000964e+000	-2.800299e-002	1.000825e+000	-2.806002e-002	3.383154e-003	-3.304851e-003
1688560.263	3.809166e-003	-2.469941e-003	1.000684e+000	-2.966323e-002	1.001276e+000	-2.937856e-002	3.550872e-003	-3.328792e-003
1751099.346	3.929839e-003	-2.370454e-003	1.001298e+000	-3.087325e-002	1.000642e+000	-2.992976e-002	3.367073e-003	-2.475250e-003
1813638.430	3.597043e-003	-2.409752e-003	1.001637e+000	-3.239556e-002	1.000960e+000	-3.176260e-002	3.537543e-003	-2.851810e-003
1876177.514	3.620311e-003	-2.118454e-003	1.001815e+000	-3.321573e-002	1.001291e+000	-3.344382e-002	3.211148e-003	-2.176063e-003
1938716.598	3.080095e-003	-2.040323e-003	1.002113e+000	-3.406603e-002	1.001250e+000	-3.337316e-002	3.370885e-003	-1.792697e-003
2001255.682	2.984991e-003	-2.524527e-003	1.001947e+000	-3.556664e-002	1.001195e+000	-3.492199e-002	3.133587e-003	-2.251582e-003
2063794.765	3.082160e-003	-2.144626e-003	1.001559e+000	-3.661666e-002	1.000719e+000	-3.650774e-002	3.522105e-003	-2.339901e-003
2126333.849	2.616676e-003	-2.660089e-003	1.000999e+000	-3.768650e-002	1.000092e+000	-3.685437e-002	3.775415e-003	-2.089056e-003
2188872.933	3.106902e-003	-2.671378e-003	1.000701e+000	-3.895726e-002	9.999864e-001	-3.796708e-002	3.662369e-003	-2.133943e-003
2251412.017	3.203531e-003	-3.021239e-003	1.000646e+000	-4.055926e-002	1.000225e+000	-3.902604e-002	3.648560e-003	-2.262201e-003
2313951.101	3.528920e-003	-2.608770e-003	1.000055e+000	-4.156389e-002	1.000236e+000	-3.988605e-002	3.959643e-003	-2.317069e-003
2376490.184	3.266797e-003	-2.634663e-003	9.999385e-001	-4.184938e-002	1.000050e+000	-4.179489e-002	3.912620e-003	-2.326617e-003
2439029.268	3.718217e-003	-2.675948e-003	9.999041e-001	-4.367214e-002	9.993158e-001	-4.282094e-002	3.581689e-003	-2.214193e-003
2501568.352	3.684978e-003	-2.675616e-003	9.995829e-001	-4.386800e-002	1.000085e+000	-4.343991e-002	3.868998e-003	-2.250583e-003
2564107.436	3.605376e-003	-2.835216e-003	9.999418e-001	-4.560410e-002	9.999318e-001	-4.513415e-002	3.181300e-003	-2.631230e-003
2626646.520	4.080518e-003	-3.014618e-003	9.997922e-001	-4.669379e-002	9.988234e-001	-4.608177e-002	3.434135e-003	-2.695855e-003
2689185.604	4.038846e-003	-2.857001e-003	1.000096e+000	-4.746763e-002	9.995530e-001	-4.699664e-002	3.548180e-003	-2.652190e-003
2751724.687	4.150139e-003	-2.954435e-003	9.999233e-001	-4.819292e-002	9.995456e-001	-4.775561e-002	3.163300e-003	-2.690636e-003
2814263.771	4.100067e-003	-3.028387e-003	9.990595e-001	-5.020779e-002	9.992563e-001	-4.906283e-002	3.137390e-003	-2.815626e-003
2876802.855	4.056903e-003	-3.262327e-003	9.990829e-001	-5.155271e-002	9.990773e-001	-5.022449e-002	3.207555e-003	-2.718641e-003
2939341.939	4.166993e-003	-3.172375e-003	9.997994e-001	-5.200220e-002	9.990388e-001	-5.166117e-002	3.104472e-003	-2.823479e-003
3001881.023	4.080846e-003	-3.175725e-003	9.994196e-001	-5.309100e-002	9.991096e-001	-5.274841e-002	3.190016e-003	-2.965760e-003
3064420.106	4.135696e-003	-3.228600e-003	1.000044e+000	-5.422663e-002	9.989248e-001	-5.376524e-002	3.027060e-003	-3.107835e-003
3126959.190	4.325000e-003	-3.341702e-003	9.995382e-001	-5.543468e-002	9.991414e-001	-5.497243e-002	3.202911e-003	-3.177837e-003
3189498.274	4.295116e-003	-3.330036e-003	9.994350e-001	-5.637029e-002	9.990433e-001	-5.609604e-002	3.194118e-003	-3.251911e-003
3252037.358	4.215642e-003	-3.705171e-003	9.995153e-001	-5.755802e-002	9.990890e-001	-5.705637e-002	3.134418e-003	-3.216863e-003
3314576.442	4.228452e-003	-3.565806e-003	9.993611e-001	-5.859557e-002	9.989538e-001	-5.822799e-002	3.188862e-003	-3.340511e-003
3377115.525	4.189962e-003	-3.585471e-003	9.991732e-001	-5.961131e-002	9.987366e-001	-5.948594e-002	3.028649e-003	-3.501581e-003
3439654.609	4.192468e-003	-3.669484e-003	9.989896e-001	-6.078656e-002	9.989763e-001	-6.049475e-002	3.043832e-003	-3.332946e-003
3502193.693	4.164255e-003	-3.995159e-003	9.989851e-001	-6.202273e-002	9.986406e-001	-6.143817e-002	3.220163e-003	-3.395944e-003
3564732.777	4.207673e-003	-3.889377e-003	9.990241e-001	-6.302967e-002	9.986591e-001	-6.267028e-002	3.299583e-003	-3.411542e-003
3627271.861	4.048346e-003	-4.050461e-003	9.990621e-001	-6.421841e-002	9.986779e-001	-6.364288e-002	3.062575e-003	-3.660579e-003
3689810.944	3.955792e-003	-4.194154e-003	9.988938e-001	-6.533862e-002	9.985674e-001	-6.473215e-002	3.229147e-003	-3.668718e-003
3752350.028	4.058764e-003	-4.206302e-003	9.987809e-001	-6.620892e-002	9.983532e-001	-6.580243e-002	3.155911e-003	-3.755481e-003
3814889.112	4.170981e-003	-4.129129e-003	9.986002e-001	-6.735908e-002	9.985535e-001	-6.716789e-002	3.069569e-003	-3.931029e-003
3877428.196	4.099573e-003	-4.143244e-003	9.987714e-001	-6.852863e-002	9.984345e-001	-6.804952e-002	3.393406e-003	-3.955434e-003
3939967.280	4.071305e-003	-4.469062e-003	9.986437e-001	-6.971139e-002	9.984372e-001	-6.920327e-002	3.369211e-003	-3.904764e-003
4002506.363	4.134724e-003	-4.377210e-003	9.986389e-001	-7.077049e-002	9.983040e-001	-7.013389e-002	3.308673e-003	-4.036835e-003
4065045.447	3.954679e-003	-4.519982e-003	9.983390e-001	-7.189408e-002	9.980915e-001	-7.139437e-002	3.385947e-003	-4.187639e-003
4127584.531	3.914192e-003	-4.586332e-003	9.982470e-001	-7.297950e-002	9.980954e-001	-7.235593e-002	3.403050e-003	-4.127038e-003
4190123.615	3.957951e-003	-4.617734e-003	9.982993e-001	-7.423570e-002	9.979047e-001	-7.366444e-002	3.300909e-003	-4.397007e-003
4252662.699	3.913396e-003	-4.743914e-003	9.983293e-001	-7.538127e-002	9.977766e-001	-7.488151e-002	3.405403e-003	-4.429151e-003
4315201.782	4.041087e-003	-4.850530e-003	9.982109e-001	-7.624859e-002	9.979827e-001	-7.599056e-002	3.226473e-003	-4.681111e-003
4377740.866	3.935051e-003	-4.924883e-003	9.982103e-001	-7.751581e-002	9.976868e-001	-7.707418e-002	3.401356e-003	-4.440439e-003
4440279.950	3.838538e-003	-5.125143e-003	9.980663e-001	-7.843524e-002	9.975204e-001	-7.804297e-002	3.273852e-003	-4.663802e-003
4502819.034	3.830244e-003	-5.048085e-003	9.977393e-001	-7.967289e-002	9.975806e-001	-7.917910e-002	3.351777e-003	-4.579115e-003
4565358.118	3.742354e-003	-5.156089e-003	9.977013e-001	-8.073825e-002	9.972966e-001	-8.005865e-002	3.354726e-003	-4.741837e-003
4627897.201	3.915211e-003	-5.094369e-003	9.978326e-001	-8.183952e-002	9.972935e-001	-8.118125e-002	3.453000e-003	-4.696635e-003
4690436.285	3.723330e-003	-5.276513e-003	9.977304e-001	-8.299127e-002	9.972714e-001	-8.266294e-002	3.444562e-003	-4.959267e-003
4752975.369	3.735749e-003	-5.353151e-003	9.973705e-001	-8.420091e-002	9.972707e-001	-8.365894e-002	3.267752e-003	-5.072860e-003
4815514.453	3.846452e-003	-5.405169e-003	9.975376e-001	-8.518130e-002	9.971665e-001	-8.483614e-002	3.481119e-003	-5.032808e-003
4878053.537	3.935025e-003	-5.574887e-003	9.974698e-001	-8.621569e-002	9.970372e-001	-8.576650e-002	3.436848e-003	-5.186533e-003
4940592.620	3.669817e-003	-5.603384e-003	9.972333e-001	-8.741485e-002	9.970279e-001	-8.694074e-002	3.189755e-003	-5.288534e-003
5003131.704	3.731249e-003	-5.798530e-003	9.971271e-001	-8.848846e-002	9.970053e-001	-8.784154e-002	3.317356e-003	-5.397046e-003
5065670.788	3.652038e-003	-5.669558e-003	9.970029e-001	-8.964116e-002	9.968051e-001	-8.902742e-002	3.285839e-003	-5.429643e-003
5128209.872	3.776823e-003	-5.874918e-003	9.971413e-001	-9.073825e-002	9.966987e-001	-9.013104e-002	3.249434e-003	-5.703914e-003
5190748.956	3.681317e-003	-5.949761e-003	9.969304e-001	-9.185901e-002	9.966842e-001	-9.135829e-002	3.208282e-003	-5.645601e-003
5253288.039	3.713638e-003	-6.058790e-003	9.968810e-001	-9.295989e-002	9.965964e-001	-9.246089e-002	3.130219e-003	-5.641735e-003
5315827.123	3.674859e-003	-6.204825e-003	9.965885e-001	-9.403868e-002	9.964251e-001	-9.358496e-002	3.114456e-003	-5.805071e-003
5378366.207	3.757907e-003	-6.221214e-003	9.966923e-001	-9.514263e-002	9.964060e-001	-9.484765e-002	3.096978e-003	-5.979081e-003
5440905.291	3.563837e-003	-6.211052e-003	9.966340e-001	-9.627612e-002	9.963020e-001	-9.580062e-002	2.978237e-003	-6.002353e-003
5503444.375	3.775164e-003	-6.440075e-003	9.964895e-001	-9.745254e-002	9.962662e-001	-9.679686e-002	3.170228e-003	-6.153740e-003
5565983.458	3.413798e-003	-6.399509e-003	9.964178e-001	-9.845032e-002	9.961618e-001	-9.787888e-002	3.082300e-003	-6.075078e-003
5628522.542	3.663178e-003	-6.554557e-003	9.963240e-001	-9.949449e-002	9.960383e-001	-9.914880e-002	3.124388e-003	-6.262586e-003
5691061.626	3.726601e-003	-6.797090e-003	9.961620e-001	-1.007842e-001	9.958600e-001	-1.002597e-001	3.010697e-003	-6.301671e-003
5753600.710	3.559239e-003	-6.784575e-003	9.959815e-001	-1.017573e-001	9.957991e-001	-1.012892e-001	3.064031e-003	-6.497181e-003
5816139.794	3.638388e-003	-6.680869e-003	9.959607e-001	-1.028658e-001	9.955264e-001	-1.025850e-001	2.914038e-003	-6.535340e-003
5878678.877	3.535828e-003	-6.987359e-003	9.958405e-001	-1.040106e-001	9.955116e-001	-1.035544e-001	3.014631e-003	-6.742034e-003
5941217.961	3.521775e-003	-7.131216e-003	9.956824e-001	-1.052696e-001	9.954374e-001	-1.044960e-001	2.809932e-003	-6.722237e-003
6003757.045	3.348187e-003	-6.993990e-003	9.954453e-001	-1.061723e-001	9.952868e-001	-1.056191e-001	2.926431e-003	-6.826567e-003
6066296.129	3.475463e-003	-7.253707e-003	9.955404e-001	-1.072949e-001	9.951843e-001	-1.067013e-001	2.901865e-003	-6.926291e-003
6128835.213	3.562834e-003	-7.317082e-003	9.953527e-001	-1.080956e-001	9.952076e-001	-1.079175e-001	2.982737e-003	-7.004187e-003
6191374.296	3.490634e-003	-7.413867e-003	9.952445e-001	-1.094555e-001	9.949360e-001	-1.091384e-001	2.803380e-003	-7.007756e-003
6253913.380	3.405047e-003	-7.367790e-003	9.951401e-001	-1.106188e-001	9.948206e-001	-1.100678e-001	2.685340e-003	-6.966838e-003
6316452.464	3.354101e-003	-7.371577e-003	9.950501e-001	-1.116193e-001	9.945813e-001	-1.113956e-001	2.720535e-003	-7.268067e-003
6378991.548	3.311770e-003	-7.608459e-003	9.949063e-001	-1.130270e-001	9.946922e-001	-1.123829e-001	2.768950e-003	-7.481796e-003
6441530.632	3.246782e-003	-7.761499e-003	9.946925e-001	-1.138168e-001	9.945363e-001	-1.136200e-001	2.794744e-003	-7.444798e-003
6504069.715	3.217046e-003	-7.872622e-003	9.945572e-001	-1.152134e-001	9.945187e-001	-1.146206e-001	2.805202e-003	-7.524165e-003
6566608.799	3.358069e-003	-8.011368e-003	9.945847e-001	-1.163478e-001	9.942731e-001	-1.157706e-001	2.682786e-003	-7.419674e-003
6629147.883	3.292433e-003	-7.961762e-003	9.943628e-001	-1.171110e-001	9.940895e-001	-1.168923e-001	2.757439e-003	-7.638995e-003
6691686.967	3.165509e-003	-8.023095e-003	9.941435e-001	-1.183351e-001	9.939344e-001	-1.179255e-001	2.773988e-003	-7.631811e-003
6754226.051	3.088116e-003	-8.121565e-003	9.940368e-001	-1.195387e-001	9.937172e-001	-1.192332e-001	2.569311e-003	-7.934281e-003
6816765.134	3.177008e-003	-8.210149e-003	9.939776e-001	-1.205428e-001	9.937330e-001	-1.201838e-001	2.597632e-003	-7.809838e-003
6879304.218	3.054442e-003	-8.455005e-003	9.937869e-001	-1.216752e-001	9.936274e-001	-1.212309e-001	2.573639e-003	-7.962703e-003
6941843.302	3.120584e-003	-8.366448e-003	9.936182e-001	-1.228282e-001	9.934467e-001	-1.223596e-001	2.553945e-003	-7.952325e-003
7004382.386	2.907927e-003	-8.381329e-003	9.935614e-001	-1.237933e-001	9.932630e-001	-1.234244e-001	2.444636e-003	-7.999642e-003
7066921.470	2.983500e-003	-8.513212e-003	9.933195e-001	-1.250957e-001	9.932332e-001	-1.243549e-001	2.606751e-003	-8.230324e-003
7129460.553	2.862490e-003	-8.710891e-003	9.932721e-001	-1.260153e-001	9.930259e-001	-1.256018e-001	2.590038e-003	-8.259565e-003
7191999.637	2.835603e-003	-8.556699e-003	9.929335e-001	-1.272357e-001	9.927488e-001	-1.266664e-001	2.440876e-003	-8.333022e-003
7254538.721	2.881287e-003	-8.744741e-003	9.931078e-001	-1.283496e-001	9.927938e-001	-1.278584e-001	2.457150e-003	-8.405337e-003
7317077.805	3.035637e-003	-8.856024e-003	9.928841e-001	-1.293013e-001	9.926131e-001	-1.288807e-001	2.438299e-003	-8.586095e-003
7379616.889	2.877188e-003	-8.920014e-003	9.928902e-001	-1.306475e-001	9.924589e-001	-1.300018e-001	2.365593e-003	-8.637988e-003
7442155.972	2.717914e-003	-9.008605e-003	9.925460e-001	-1.315228e-001	9.923355e-001	-1.310687e-001	2.431860e-003	-8.499904e-003
7504695.056	2.737108e-003	-9.182387e-003	9.923286e-001	-1.325692e-001	9.920521e-001	-1.323038e-001	2.441010e-003	-8.510969e-003
7567234.140	2.897293e-003	-9.337334e-003	9.922912e-001	-1.336757e-001	9.919501e-001	-1.333358e-001	2.356406e-003	-8.702387e-003
7629773.224	2.787073e-003	-9.110984e-003	9.922202e-001	-1.349530e-001	9.919313e-001	-1.343624e-001	2.256864e-003	-8.827730e-003
7692312.308	2.629348e-003	-9.244401e-003	9.920603e-001	-1.360581e-001	9.916864e-001	-1.355836e-001	2.298958e-003	-8.991804e-003
7754851.391	2.590980e-003	-9.489979e-003	9.918177e-001	-1.371504e-001	9.914006e-001	-1.364882e-001	2.223091e-003	-8.926882e-003
7817390.475	2.658423e-003	-9.345942e-003	9.917232e-001	-1.383446e-001	9.913510e-001	-1.378481e-001	2.130562e-003	-8.897686e-003
7879929.559	2.546829e-003	-9.620170e-003	9.914695e-001	-1.394422e-001	9.911294e-001	-1.390886e-001	2.227204e-003	-8.982452e-003
7942468.643	2.475153e-003	-9.748490e-003	9.914100e-001	-1.404858e-001	9.911075e-001	-1.401061e-001	2.189054e-003	-9.240739e-003
8005007.727	2.558577e-003	-9.798174e-003	9.911177e-001	-1.416112e-001	9.909624e-001	-1.411963e-001	2.072777e-003	-9.083612e-003
8067546.811	2.383544e-003	-9.826646e-003	9.910506e-001	-1.426825e-001	9.906721e-001	-1.422122e-001	1.964826e-003	-9.371357e-003
8130085.894	2.433358e-003	-9.966463e-003	9.908646e-001	-1.437063e-001	9.905955e-001	-1.433762e-001	2.156607e-003	-9.492236e-003
8192624.978	2.246668e-003	-1.010493e-002	9.905449e-001	-1.449481e-001	9.904008e-001	-1.444239e-001	2.192715e-003	-9.582051e-003
8255164.062	2.342250e-003	-1.015946e-002	9.905169e-001	-1.460109e-001	9.901799e-001	-1.455563e-001	2.131217e-003	-9.698192e-003
8317703.146	2.192958e-003	-1.013122e-002	9.904314e-001	-1.470974e-001	9.901472e-001	-1.466243e-001	1.929463e-003	-9.720168e-003
8380242.230	2.294093e-003	-1.043611e-002	9.900805e-001	-1.483426e-001	9.898897e-001	-1.477165e-001	1.872683e-003	-9.857514e-003
8442781.313	2.238450e-003	-1.047326e-002	9.901596e-001	-1.492834e-001	9.897734e-001	-1.487646e-001	1.820199e-003	-1.001704e-002
8505320.397	2.193565e-003	-1.041378e-002	9.898990e-001	-1.504561e-001	9.895769e-001	-1.498855e-001	1.739445e-003	-1.003876e-002
8567859.481	2.120160e-003	-1.034495e-002	9.896932e-001	-1.514001e-001	9.895209e-001	-1.509930e-001	1.752798e-003	-9.953688e-003
8630398.565	2.181273e-003	-1.047062e-002	9.893922e-001	-1.524579e-001	9.893257e-001	-1.520112e-001	1.612047e-003	-1.028187e-002
8692937.649	2.100367e-003	-1.075459e-002	9.892836e-001	-1.535782e-001	9.889936e-001	-1.531683e-001	1.517911e-003	-1.025397e-002
8755476.732	2.068404e-003	-1.076442e-002	9.891118e-001	-1.547635e-001	9.888246e-001	-1.541666e-001	1.554105e-003	-1.031509e-002
8818015.816	1.938263e-003	-1.087998e-002	9.888925e-001	-1.558289e-001	9.885146e-001	-1.553130e-001	1.626625e-003	-1.048581e-002
8880554.900	2.119759e-003	-1.091291e-002	9.888711e-001	-1.569763e-001	9.886240e-001	-1.562523e-001	1.467310e-003	-1.071419e-002
8943093.984	1.907787e-003	-1.088970e-002	9.886336e-001	-1.579736e-001	9.884160e-001	-1.574079e-001	1.456107e-003	-1.074119e-002
9005633.068	1.939990e-003	-1.105313e-002	9.883777e-001	-1.591059e-001	9.882823e-001	-1.586204e-001	1.324756e-003	-1.094331e-002
9068172.151	1.767571e-003	-1.113748e-002	9.883393e-001	-1.602346e-001	9.879573e-001	-1.595954e-001	1.349833e-003	-1.097383e-002
9130711.235	1.955219e-003	-1.126985e-002	9.880509e-001	-1.613435e-001	9.878686e-001	-1.606773e-001	1.359996e-003	-1.124305e-002
9193250.319	1.906719e-003	-1.138280e-002	9.879877e-001	-1.622453e-001	9.876324e-001	-1.619003e-001	1.262779e-003	-1.123829e-002
9255789.403	1.765233e-003	-1.161207e-002	9.878362e-001	-1.632568e-001	9.874423e-001	-1.628725e-001	1.089361e-003	-1.126843e-002
9318328.487	1.684866e-003	-1.159550e-002	9.875875e-001	-1.646178e-001	9.874258e-001	-1.639339e-001	1.166664e-003	-1.133202e-002
9380867.570	1.672234e-003	-1.154368e-002	9.875001e-001	-1.657158e-001	9.870725e-001	-1.652077e-001	1.139355e-003	-1.143460e-002
9443406.654	1.678481e-003	-1.163439e-002	9.873258e-001	-1.667003e-001	9.870404e-001	-1.663254e-001	1.130126e-003	-1.159439e-002
9505945.738	1.631477e-003	-1.169084e-002	9.869344e-001	-1.679718e-001	9.869197e-001	-1.673910e-001	1.045735e-003	-1.167157e-002
9568484.822	1.642752e-003	-1.180889e-002	9.868930e-001	-1.690205e-001	9.864731e-001	-1.684679e-001	8.154985e-004	-1.151494e-002
