!Agilent Technologies,E5061B,MY49102235,A.02.00
!Date: Tue Jul 11 17:03:19 2023
!Data & Calibration Information:
!Freq	S11:SOLT2(ON)	S21:SOLT2(ON)	S12:SOLT2(ON)	S22:SOLT2(ON)
# Hz S RI R 50
5.000	-5.229838e-003	-5.649440e-003	1.002218e+000	8.024820e-003	1.000600e+000	1.022296e-002	-1.409708e-003	-7.539781e-003
62544.084	5.813971e-003	-1.072996e-004	1.001326e+000	1.162178e-004	1.000755e+000	7.288102e-004	7.708020e-003	-2.501337e-003
125083.168	5.712110e-003	2.636644e-004	1.000941e+000	-1.513548e-003	1.000696e+000	-1.606927e-003	7.509891e-003	-1.547018e-003
187622.251	5.524926e-003	7.805041e-004	1.000362e+000	-3.208777e-003	1.000879e+000	-2.028986e-003	7.422330e-003	-1.270694e-003
250161.335	5.332349e-003	1.284718e-003	1.000595e+000	-4.644573e-003	1.000632e+000	-4.569654e-003	7.318098e-003	-5.666163e-004
312700.419	5.507062e-003	2.365202e-003	1.000851e+000	-5.659946e-003	1.000584e+000	-5.365988e-003	7.830971e-003	-5.253559e-004
375239.503	5.427727e-003	1.201929e-003	1.000976e+000	-7.345899e-003	1.000342e+000	-7.150793e-003	7.344608e-003	-3.279218e-004
437778.587	5.266540e-003	1.970046e-003	1.001284e+000	-7.899442e-003	1.000996e+000	-8.762234e-003	6.688027e-003	3.332395e-004
500317.670	4.726681e-003	2.439088e-003	1.001216e+000	-1.062246e-002	1.001531e+000	-1.046880e-002	4.928001e-003	8.596021e-004
562856.754	6.047028e-003	2.476971e-003	1.001336e+000	-1.251015e-002	1.001024e+000	-1.233054e-002	6.149753e-003	1.696093e-003
625395.838	5.254688e-003	2.993692e-003	1.002194e+000	-1.411973e-002	1.001940e+000	-1.374094e-002	6.275983e-003	2.623740e-003
687934.922	5.341337e-003	3.004612e-003	1.001186e+000	-1.543340e-002	1.001103e+000	-1.559721e-002	5.932332e-003	2.511355e-003
750474.006	4.519423e-003	3.684983e-003	1.000818e+000	-1.525931e-002	1.000474e+000	-1.484442e-002	5.705209e-003	3.003429e-003
813013.089	4.719534e-003	4.048577e-003	1.001123e+000	-1.751001e-002	1.000335e+000	-1.690699e-002	5.080062e-003	3.538655e-003
875552.173	4.478296e-003	4.580560e-003	1.001023e+000	-1.865835e-002	1.000638e+000	-1.852270e-002	5.885044e-003	3.469592e-003
938091.257	4.577155e-003	4.977854e-003	1.001145e+000	-2.054119e-002	1.000705e+000	-1.994546e-002	6.157190e-003	4.385803e-003
1000630.341	4.057607e-003	4.985520e-003	1.000751e+000	-2.228160e-002	1.000620e+000	-2.171441e-002	5.431753e-003	4.058997e-003
1063169.425	4.449995e-003	5.178067e-003	1.001052e+000	-2.403658e-002	1.000422e+000	-2.295752e-002	4.633167e-003	4.089116e-003
1125708.508	4.345567e-003	5.562227e-003	1.000570e+000	-2.543795e-002	1.000346e+000	-2.472425e-002	4.178920e-003	4.727228e-003
1188247.592	4.930015e-003	5.469003e-003	1.000943e+000	-2.704362e-002	1.000579e+000	-2.617084e-002	3.093449e-003	4.519944e-003
1250786.676	4.783759e-003	5.062538e-003	1.000290e+000	-2.725764e-002	1.000177e+000	-2.716424e-002	2.374438e-003	3.221772e-003
1313325.760	4.938944e-003	5.334108e-003	1.000801e+000	-2.902368e-002	1.000511e+000	-2.913585e-002	3.136766e-003	3.765052e-003
1375864.844	4.692966e-003	5.499427e-003	1.000521e+000	-3.129172e-002	1.000059e+000	-3.146961e-002	3.030853e-003	4.403413e-003
1438403.927	4.633896e-003	5.686147e-003	1.000412e+000	-3.246271e-002	1.000334e+000	-3.154600e-002	3.145104e-003	5.029708e-003
1500943.011	4.892233e-003	6.097094e-003	1.001006e+000	-3.375430e-002	1.000746e+000	-3.340147e-002	3.529868e-003	4.958029e-003
1563482.095	4.925353e-003	6.087008e-003	1.000489e+000	-3.541140e-002	1.000054e+000	-3.459534e-002	3.729282e-003	5.521609e-003
1626021.179	4.749801e-003	6.558033e-003	1.000278e+000	-3.692846e-002	1.000329e+000	-3.734850e-002	4.032577e-003	5.823166e-003
1688560.263	4.514688e-003	7.002277e-003	9.999643e-001	-3.911856e-002	1.000619e+000	-3.910743e-002	4.232490e-003	6.156261e-003
1751099.346	4.696370e-003	7.439504e-003	1.000513e+000	-4.062147e-002	9.999177e-001	-3.989760e-002	4.109391e-003	7.363981e-003
1813638.430	4.375116e-003	7.761021e-003	1.000692e+000	-4.248678e-002	1.000122e+000	-4.208390e-002	4.321579e-003	7.330529e-003
1876177.514	4.446495e-003	8.418658e-003	1.001033e+000	-4.375994e-002	1.000540e+000	-4.410068e-002	4.065252e-003	8.371476e-003
1938716.598	3.954077e-003	8.859240e-003	1.001057e+000	-4.491126e-002	1.000553e+000	-4.425512e-002	4.273382e-003	9.122978e-003
2001255.682	3.906459e-003	8.754786e-003	1.000930e+000	-4.669590e-002	1.000330e+000	-4.630047e-002	4.072883e-003	9.035691e-003
2063794.765	4.070521e-003	9.511588e-003	1.000563e+000	-4.814066e-002	9.997108e-001	-4.838469e-002	4.504624e-003	9.292000e-003
2126333.849	3.661016e-003	9.366502e-003	9.999127e-001	-4.984541e-002	9.990501e-001	-4.906526e-002	4.820970e-003	9.896166e-003
2188872.933	4.184320e-003	9.716736e-003	9.996558e-001	-5.127924e-002	9.991033e-001	-5.044728e-002	4.760473e-003	1.023663e-002
2251412.017	4.337163e-003	9.728811e-003	9.993801e-001	-5.316364e-002	9.990076e-001	-5.184634e-002	4.805682e-003	1.047420e-002
2313951.101	4.760639e-003	1.051332e-002	9.987248e-001	-5.463888e-002	9.988519e-001	-5.319645e-002	5.179244e-003	1.078218e-002
2376490.184	4.558297e-003	1.084065e-002	9.986054e-001	-5.541462e-002	9.988785e-001	-5.549838e-002	5.215471e-003	1.116195e-002
2439029.268	5.062110e-003	1.117305e-002	9.984054e-001	-5.752411e-002	9.978619e-001	-5.682667e-002	4.953553e-003	1.164165e-002
2501568.352	5.128053e-003	1.154926e-002	9.981307e-001	-5.798184e-002	9.986704e-001	-5.784605e-002	5.320811e-003	1.196856e-002
2564107.436	5.123637e-003	1.179055e-002	9.984651e-001	-6.019052e-002	9.984521e-001	-5.981008e-002	4.695394e-003	1.199573e-002
2626646.520	5.695827e-003	1.195221e-002	9.981457e-001	-6.164107e-002	9.971895e-001	-6.138887e-002	5.050979e-003	1.228984e-002
2689185.604	5.739025e-003	1.249829e-002	9.984444e-001	-6.276091e-002	9.978900e-001	-6.250059e-002	5.251751e-003	1.272300e-002
2751724.687	5.930680e-003	1.277070e-002	9.982042e-001	-6.393719e-002	9.976674e-001	-6.367302e-002	4.945776e-003	1.307495e-002
2814263.771	5.983986e-003	1.307173e-002	9.970925e-001	-6.621670e-002	9.973491e-001	-6.545998e-002	5.028793e-003	1.331301e-002
2876802.855	6.032689e-003	1.322586e-002	9.971367e-001	-6.801604e-002	9.971732e-001	-6.684057e-002	5.216504e-003	1.380261e-002
2939341.939	6.262869e-003	1.369215e-002	9.976191e-001	-6.882018e-002	9.970685e-001	-6.870726e-002	5.213372e-003	1.407669e-002
3001881.023	6.295202e-003	1.405568e-002	9.971742e-001	-7.032874e-002	9.968385e-001	-7.018907e-002	5.405077e-003	1.428696e-002
3064420.106	6.442812e-003	1.436488e-002	9.976392e-001	-7.178117e-002	9.967413e-001	-7.153889e-002	5.354725e-003	1.453419e-002
3126959.190	6.754432e-003	1.460915e-002	9.970946e-001	-7.342413e-002	9.967701e-001	-7.309450e-002	5.632953e-003	1.483671e-002
3189498.274	6.848786e-003	1.500399e-002	9.968626e-001	-7.473902e-002	9.965722e-001	-7.461760e-002	5.741599e-003	1.513258e-002
3252037.358	6.876321e-003	1.503331e-002	9.968604e-001	-7.634398e-002	9.964994e-001	-7.604469e-002	5.813704e-003	1.554585e-002
3314576.442	7.011413e-003	1.553936e-002	9.965744e-001	-7.777124e-002	9.962558e-001	-7.751182e-002	5.978487e-003	1.578893e-002
3377115.525	7.102082e-003	1.590684e-002	9.962652e-001	-7.909682e-002	9.958725e-001	-7.920829e-002	5.951595e-003	1.604003e-002
3439654.609	7.239721e-003	1.621013e-002	9.959442e-001	-8.065660e-002	9.960171e-001	-8.053639e-002	6.115907e-003	1.657169e-002
3502193.693	7.326909e-003	1.625663e-002	9.957911e-001	-8.230125e-002	9.955417e-001	-8.196116e-002	6.402670e-003	1.688744e-002
3564732.777	7.509824e-003	1.675747e-002	9.956891e-001	-8.367119e-002	9.953874e-001	-8.353553e-002	6.638709e-003	1.725516e-002
3627271.861	7.505229e-003	1.698765e-002	9.955888e-001	-8.529602e-002	9.952941e-001	-8.491251e-002	6.540494e-003	1.741965e-002
3689810.944	7.536860e-003	1.722210e-002	9.952155e-001	-8.678685e-002	9.950423e-001	-8.636583e-002	6.855792e-003	1.777634e-002
3752350.028	7.802416e-003	1.759970e-002	9.950035e-001	-8.799638e-002	9.946663e-001	-8.780089e-002	6.928814e-003	1.808662e-002
3814889.112	8.086212e-003	1.806709e-002	9.946671e-001	-8.959824e-002	9.947056e-001	-8.960154e-002	7.005315e-003	1.829620e-002
3877428.196	8.192663e-003	1.842539e-002	9.946445e-001	-9.113898e-002	9.943789e-001	-9.084969e-002	7.503733e-003	1.865744e-002
3939967.280	8.327945e-003	1.848006e-002	9.943482e-001	-9.270119e-002	9.942188e-001	-9.239383e-002	7.668593e-003	1.907394e-002
4002506.363	8.575535e-003	1.896372e-002	9.941538e-001	-9.413919e-002	9.939354e-001	-9.372290e-002	7.794523e-003	1.934582e-002
4065045.447	8.591152e-003	1.921464e-002	9.937063e-001	-9.562756e-002	9.935453e-001	-9.537158e-002	8.054955e-003	1.957211e-002
4127584.531	8.754512e-003	1.952101e-002	9.934332e-001	-9.713681e-002	9.933103e-001	-9.671161e-002	8.266371e-003	2.001009e-002
4190123.615	8.985955e-003	1.987320e-002	9.932633e-001	-9.881349e-002	9.929520e-001	-9.835984e-002	8.362383e-003	2.011137e-002
4252662.699	9.167931e-003	2.011384e-002	9.930679e-001	-1.002993e-001	9.925730e-001	-9.994396e-002	8.673928e-003	2.046327e-002
4315201.782	9.522489e-003	2.036886e-002	9.926993e-001	-1.014711e-001	9.925671e-001	-1.014439e-001	8.699046e-003	2.058289e-002
4377740.866	9.635368e-003	2.066531e-002	9.925128e-001	-1.031764e-001	9.920560e-001	-1.028864e-001	9.117428e-003	2.118238e-002
4440279.950	9.748624e-003	2.082373e-002	9.921151e-001	-1.044880e-001	9.916265e-001	-1.042372e-001	9.221225e-003	2.132025e-002
4502819.034	9.975678e-003	2.125712e-002	9.915860e-001	-1.060107e-001	9.914615e-001	-1.057108e-001	9.531148e-003	2.175981e-002
4565358.118	1.013286e-002	2.149919e-002	9.913336e-001	-1.074473e-001	9.909548e-001	-1.069551e-001	9.763893e-003	2.193735e-002
4627897.201	1.055435e-002	2.189427e-002	9.911505e-001	-1.088733e-001	9.907307e-001	-1.084166e-001	1.012293e-002	2.230331e-002
4690436.285	1.062433e-002	2.205925e-002	9.908332e-001	-1.104082e-001	9.904716e-001	-1.102909e-001	1.034446e-002	2.239192e-002
4752975.369	1.086139e-002	2.229975e-002	9.902271e-001	-1.119323e-001	9.902003e-001	-1.115887e-001	1.040599e-002	2.261430e-002
4815514.453	1.120863e-002	2.256437e-002	9.901278e-001	-1.132325e-001	9.898006e-001	-1.130969e-001	1.087690e-002	2.295419e-002
4878053.537	1.156850e-002	2.271533e-002	9.898168e-001	-1.146311e-001	9.894587e-001	-1.143752e-001	1.108883e-002	2.312946e-002
4940592.620	1.156073e-002	2.302187e-002	9.893710e-001	-1.160928e-001	9.891540e-001	-1.158481e-001	1.110203e-002	2.335754e-002
5003131.704	1.185407e-002	2.312357e-002	9.889513e-001	-1.174958e-001	9.888988e-001	-1.170641e-001	1.148151e-002	2.354580e-002
5065670.788	1.203832e-002	2.354845e-002	9.886130e-001	-1.189507e-001	9.884565e-001	-1.185397e-001	1.169536e-002	2.381596e-002
5128209.872	1.239730e-002	2.364024e-002	9.885071e-001	-1.203409e-001	9.880960e-001	-1.199632e-001	1.191267e-002	2.385856e-002
5190748.956	1.255739e-002	2.387336e-002	9.879440e-001	-1.217547e-001	9.878164e-001	-1.214757e-001	1.212536e-002	2.419919e-002
5253288.039	1.285713e-002	2.405926e-002	9.877085e-001	-1.231891e-001	9.874773e-001	-1.228318e-001	1.231171e-002	2.450919e-002
5315827.123	1.306718e-002	2.421827e-002	9.871949e-001	-1.245592e-001	9.870916e-001	-1.242914e-001	1.253402e-002	2.463190e-002
5378366.207	1.342243e-002	2.448128e-002	9.870031e-001	-1.259730e-001	9.867260e-001	-1.258299e-001	1.277072e-002	2.476814e-002
5440905.291	1.348767e-002	2.478581e-002	9.867015e-001	-1.273713e-001	9.863952e-001	-1.271448e-001	1.291518e-002	2.504168e-002
5503444.375	1.392705e-002	2.483568e-002	9.863186e-001	-1.287940e-001	9.861238e-001	-1.283874e-001	1.336209e-002	2.515160e-002
5565983.458	1.381939e-002	2.518804e-002	9.859603e-001	-1.301332e-001	9.857546e-001	-1.296916e-001	1.353911e-002	2.552771e-002
5628522.542	1.433594e-002	2.529491e-002	9.856164e-001	-1.314139e-001	9.853779e-001	-1.312436e-001	1.382720e-002	2.561007e-002
5691061.626	1.464036e-002	2.531777e-002	9.851739e-001	-1.330140e-001	9.849691e-001	-1.327017e-001	1.397820e-002	2.587056e-002
5753600.710	1.475155e-002	2.561226e-002	9.847154e-001	-1.343192e-001	9.846264e-001	-1.340258e-001	1.428981e-002	2.594358e-002
5816139.794	1.511318e-002	2.601015e-002	9.844784e-001	-1.357050e-001	9.840748e-001	-1.355904e-001	1.440785e-002	2.619984e-002
5878678.877	1.527339e-002	2.597663e-002	9.840509e-001	-1.370986e-001	9.838093e-001	-1.368522e-001	1.476801e-002	2.626521e-002
5941217.961	1.549518e-002	2.608741e-002	9.835807e-001	-1.385875e-001	9.834006e-001	-1.380907e-001	1.484138e-002	2.655842e-002
6003757.045	1.562306e-002	2.653388e-002	9.831107e-001	-1.397969e-001	9.830246e-001	-1.394650e-001	1.522387e-002	2.672590e-002
6066296.129	1.600526e-002	2.653207e-002	9.829899e-001	-1.412151e-001	9.826927e-001	-1.407893e-001	1.545728e-002	2.689239e-002
6128835.213	1.636584e-002	2.673044e-002	9.825427e-001	-1.422526e-001	9.824734e-001	-1.423066e-001	1.581755e-002	2.707224e-002
6191374.296	1.656607e-002	2.692332e-002	9.820462e-001	-1.439260e-001	9.818270e-001	-1.438363e-001	1.592481e-002	2.738502e-002
6253913.380	1.676351e-002	2.722353e-002	9.817435e-001	-1.453390e-001	9.814652e-001	-1.450393e-001	1.608814e-002	2.767302e-002
6316452.464	1.700074e-002	2.748586e-002	9.813417e-001	-1.465908e-001	9.809512e-001	-1.465983e-001	1.638310e-002	2.764700e-002
6378991.548	1.722086e-002	2.750426e-002	9.808896e-001	-1.482977e-001	9.807600e-001	-1.478394e-001	1.670360e-002	2.769661e-002
6441530.632	1.743527e-002	2.760671e-002	9.804165e-001	-1.493830e-001	9.802710e-001	-1.493260e-001	1.703151e-002	2.799116e-002
6504069.715	1.770998e-002	2.777795e-002	9.800544e-001	-1.509822e-001	9.800025e-001	-1.505904e-001	1.730982e-002	2.815774e-002
6566608.799	1.810777e-002	2.788381e-002	9.797448e-001	-1.523976e-001	9.794589e-001	-1.519651e-001	1.750608e-002	2.851842e-002
6629147.883	1.835563e-002	2.818418e-002	9.792325e-001	-1.534126e-001	9.789853e-001	-1.533480e-001	1.787237e-002	2.855374e-002
6691686.967	1.852356e-002	2.838423e-002	9.786978e-001	-1.548865e-001	9.785386e-001	-1.546716e-001	1.817815e-002	2.880466e-002
6754226.051	1.875231e-002	2.853960e-002	9.782799e-001	-1.563387e-001	9.780056e-001	-1.561867e-001	1.824423e-002	2.877791e-002
6816765.134	1.912875e-002	2.868211e-002	9.779657e-001	-1.576064e-001	9.776972e-001	-1.574090e-001	1.861317e-002	2.912081e-002
6879304.218	1.929922e-002	2.869510e-002	9.774315e-001	-1.589891e-001	9.773238e-001	-1.587303e-001	1.888231e-002	2.922241e-002
6941843.302	1.967502e-002	2.899823e-002	9.769974e-001	-1.603977e-001	9.768288e-001	-1.600414e-001	1.916182e-002	2.945176e-002
7004382.386	1.978069e-002	2.925026e-002	9.765991e-001	-1.615716e-001	9.763327e-001	-1.613881e-001	1.937511e-002	2.965642e-002
7066921.470	2.017060e-002	2.933052e-002	9.760592e-001	-1.630728e-001	9.759578e-001	-1.625490e-001	1.982001e-002	2.964917e-002
7129460.553	2.034062e-002	2.937807e-002	9.757055e-001	-1.642235e-001	9.755276e-001	-1.640369e-001	2.011983e-002	2.984585e-002
7191999.637	2.065213e-002	2.976500e-002	9.750067e-001	-1.656260e-001	9.748939e-001	-1.653337e-001	2.027647e-002	3.000259e-002
7254538.721	2.099596e-002	2.979934e-002	9.748725e-001	-1.669966e-001	9.746534e-001	-1.667091e-001	2.061033e-002	3.016285e-002
7317077.805	2.144894e-002	2.987817e-002	9.743619e-001	-1.681839e-001	9.741401e-001	-1.679644e-001	2.090549e-002	3.020228e-002
7379616.889	2.161694e-002	3.003338e-002	9.740313e-001	-1.697304e-001	9.736608e-001	-1.693429e-001	2.112834e-002	3.036956e-002
7442155.972	2.177023e-002	3.017977e-002	9.734075e-001	-1.708770e-001	9.732272e-001	-1.705379e-001	2.154501e-002	3.071189e-002
7504695.056	2.210256e-002	3.022020e-002	9.728177e-001	-1.721197e-001	9.726043e-001	-1.720329e-001	2.188038e-002	3.090200e-002
7567234.140	2.257371e-002	3.025328e-002	9.725127e-001	-1.733623e-001	9.721362e-001	-1.732733e-001	2.210679e-002	3.092546e-002
7629773.224	2.280196e-002	3.066467e-002	9.720761e-001	-1.749032e-001	9.718300e-001	-1.745479e-001	2.233174e-002	3.100110e-002
7692312.308	2.298028e-002	3.074207e-002	9.716167e-001	-1.761477e-001	9.712423e-001	-1.759233e-001	2.269079e-002	3.104256e-002
7754851.391	2.325331e-002	3.070389e-002	9.710697e-001	-1.774777e-001	9.706689e-001	-1.770048e-001	2.295626e-002	3.129059e-002
7817390.475	2.365746e-002	3.101073e-002	9.706010e-001	-1.789061e-001	9.702336e-001	-1.785456e-001	2.319863e-002	3.150789e-002
7879929.559	2.385436e-002	3.095931e-002	9.700069e-001	-1.801433e-001	9.697406e-001	-1.799793e-001	2.362448e-002	3.160793e-002
7942468.643	2.411771e-002	3.101677e-002	9.696242e-001	-1.813905e-001	9.693483e-001	-1.812076e-001	2.389211e-002	3.155014e-002
8005007.727	2.452565e-002	3.113998e-002	9.690635e-001	-1.826851e-001	9.688857e-001	-1.824786e-001	2.413483e-002	3.188062e-002
8067546.811	2.467836e-002	3.130280e-002	9.685827e-001	-1.839410e-001	9.682371e-001	-1.836454e-001	2.434335e-002	3.178776e-002
8130085.894	2.505536e-002	3.132936e-002	9.680737e-001	-1.851978e-001	9.678562e-001	-1.849830e-001	2.485609e-002	3.181107e-002
8192624.978	2.520390e-002	3.136004e-002	9.674211e-001	-1.865819e-001	9.673557e-001	-1.862152e-001	2.520432e-002	3.189004e-002
8255164.062	2.562270e-002	3.147469e-002	9.670381e-001	-1.877632e-001	9.668023e-001	-1.875108e-001	2.548186e-002	3.194318e-002
8317703.146	2.583977e-002	3.167508e-002	9.665863e-001	-1.890604e-001	9.664055e-001	-1.887735e-001	2.563473e-002	3.211450e-002
8380242.230	2.624890e-002	3.151369e-002	9.659516e-001	-1.904365e-001	9.657877e-001	-1.899803e-001	2.589838e-002	3.213804e-002
8442781.313	2.653336e-002	3.163820e-002	9.656755e-001	-1.915470e-001	9.653979e-001	-1.912116e-001	2.618451e-002	3.214362e-002
8505320.397	2.683072e-002	3.183562e-002	9.651427e-001	-1.928550e-001	9.648116e-001	-1.924960e-001	2.645621e-002	3.225118e-002
8567859.481	2.712143e-002	3.207108e-002	9.645479e-001	-1.939026e-001	9.644280e-001	-1.937439e-001	2.681655e-002	3.248011e-002
8630398.565	2.749471e-002	3.208315e-002	9.639083e-001	-1.951214e-001	9.638739e-001	-1.949284e-001	2.698877e-002	3.231933e-002
8692937.649	2.774174e-002	3.194933e-002	9.634978e-001	-1.963887e-001	9.631986e-001	-1.961774e-001	2.724388e-002	3.248526e-002
8755476.732	2.806326e-002	3.207016e-002	9.630051e-001	-1.977549e-001	9.627057e-001	-1.973432e-001	2.762219e-002	3.255931e-002
8818015.816	2.825397e-002	3.210427e-002	9.624212e-001	-1.989191e-001	9.620680e-001	-1.986154e-001	2.802580e-002	3.253443e-002
8880554.900	2.876247e-002	3.217361e-002	9.620546e-001	-2.002406e-001	9.618243e-001	-1.997211e-001	2.818850e-002	3.244584e-002
8943093.984	2.892884e-002	3.234597e-002	9.614546e-001	-2.013103e-001	9.612992e-001	-2.010213e-001	2.852610e-002	3.253684e-002
9005633.068	2.928941e-002	3.229144e-002	9.608765e-001	-2.025759e-001	9.608390e-001	-2.023591e-001	2.872615e-002	3.247152e-002
9068172.151	2.945572e-002	3.235486e-002	9.604846e-001	-2.038181e-001	9.601765e-001	-2.034345e-001	2.908632e-002	3.255544e-002
9130711.235	2.995739e-002	3.229202e-002	9.598832e-001	-2.050499e-001	9.597457e-001	-2.046375e-001	2.940238e-002	3.240251e-002
9193250.319	3.024319e-002	3.230869e-002	9.595185e-001	-2.060962e-001	9.591828e-001	-2.059097e-001	2.965790e-002	3.252608e-002
9255789.403	3.042544e-002	3.220493e-002	9.590057e-001	-2.072116e-001	9.586449e-001	-2.070354e-001	2.984243e-002	3.262186e-002
9318328.487	3.069728e-002	3.233412e-002	9.584299e-001	-2.086531e-001	9.582908e-001	-2.082163e-001	3.025265e-002	3.264007e-002
9380867.570	3.101825e-002	3.247199e-002	9.579700e-001	-2.098774e-001	9.575983e-001	-2.095118e-001	3.054633e-002	3.266057e-002
9443406.654	3.136493e-002	3.247772e-002	9.574420e-001	-2.109618e-001	9.572165e-001	-2.107794e-001	3.088317e-002	3.258785e-002
9505945.738	3.165327e-002	3.251897e-002	9.567216e-001	-2.123141e-001	9.567313e-001	-2.119659e-001	3.112705e-002	3.261392e-002
9568484.822	3.198568e-002	3.248796e-002	9.563430e-001	-2.134570e-001	9.559152e-001	-2.131480e-001	3.125711e-002	3.287470e-002
9631023.906	3.227486e-002	3.252187e-002	9.558211e-001	-2.145924e-001	9.554202e-001	-2.143289e-001	3.170362e-002	3.256398e-002
9693562.989	3.258899e-002	3.250828e-002	9.551931e-001	-2.157926e-001	9.549916e-001	-2.154438e-001	3.177149e-002	3.270517e-002
9756102.073	3.286988e-002	3.246647e-002	9.549141e-001	-2.170044e-001	9.545176e-001	-2.165641e-001	3.211157e-002	3.257963e-002
