!Agilent Technologies,E5061B,MY49102235,A.02.00
!Date: Tue Jul 11 14:25:56 2023
!Data & Calibration Information:
!Freq	S11:SOLT2(ON)	S21:SOLT2(ON)	S12:SOLT2(ON)	S22:SOLT2(ON)
# Hz S RI R 50
5.000	-5.276656e-003	-5.631536e-003	1.001310e+000	7.953916e-003	9.998823e-001	1.024170e-002	-1.531255e-003	-7.537347e-003
62544.084	5.791483e-003	-4.524265e-004	1.001483e+000	5.169318e-004	1.000839e+000	1.319775e-003	7.717792e-003	-2.826825e-003
125083.168	5.642717e-003	-3.690846e-004	1.001060e+000	-7.296325e-004	1.000803e+000	-6.477751e-004	7.487697e-003	-2.171741e-003
187622.251	5.403431e-003	-1.231467e-004	1.000597e+000	-2.014123e-003	1.000886e+000	-6.376787e-004	7.391037e-003	-2.180781e-003
250161.335	5.239058e-003	8.344487e-005	1.000698e+000	-2.857077e-003	1.000660e+000	-2.692780e-003	7.262497e-003	-1.792717e-003
312700.419	5.383608e-003	9.045188e-004	1.000879e+000	-3.504825e-003	1.000614e+000	-3.075443e-003	7.775568e-003	-2.032251e-003
375239.503	5.236127e-003	-5.508470e-004	1.001272e+000	-4.791972e-003	1.000622e+000	-4.368073e-003	7.254765e-003	-2.125003e-003
437778.587	5.108325e-003	-9.413356e-005	1.001375e+000	-4.783435e-003	1.000936e+000	-5.399543e-003	6.619837e-003	-1.770185e-003
500317.670	4.545161e-003	8.335515e-005	1.001289e+000	-6.999402e-003	1.001612e+000	-6.865116e-003	4.797894e-003	-1.533977e-003
562856.754	5.842698e-003	-1.239669e-004	1.001478e+000	-8.619425e-003	1.001241e+000	-8.182634e-003	5.990463e-003	-9.932351e-004
625395.838	5.041251e-003	7.349362e-005	1.002336e+000	-9.647324e-003	1.002135e+000	-9.112034e-003	6.092819e-003	-3.417946e-004
687934.922	5.111586e-003	-2.156846e-004	1.001262e+000	-1.046425e-002	1.001320e+000	-1.049337e-002	5.726303e-003	-7.563690e-004
750474.006	4.469760e-003	2.540839e-004	1.001053e+000	-9.822334e-003	1.000862e+000	-9.570832e-003	5.622466e-003	-4.262398e-004
813013.089	4.636653e-003	3.329351e-004	1.001215e+000	-1.141568e-002	1.000624e+000	-1.131353e-002	4.982887e-003	-1.906936e-004
875552.173	4.365771e-003	5.688710e-004	1.001183e+000	-1.225628e-002	1.001096e+000	-1.242318e-002	5.785431e-003	-5.166502e-004
938091.257	4.446124e-003	7.014308e-004	1.001351e+000	-1.365921e-002	1.001117e+000	-1.329225e-002	6.004107e-003	1.264280e-004
1000630.341	3.898875e-003	4.111138e-004	1.000880e+000	-1.485544e-002	1.001114e+000	-1.462598e-002	5.247434e-003	-5.181587e-004
1063169.425	4.252594e-003	3.194471e-004	1.001338e+000	-1.618639e-002	1.000768e+000	-1.538895e-002	4.427231e-003	-7.739034e-004
1125708.508	4.140204e-003	4.092507e-004	1.001104e+000	-1.729998e-002	1.000828e+000	-1.653791e-002	3.928447e-003	-4.204949e-004
1188247.592	4.676598e-003	5.538888e-005	1.001291e+000	-1.827090e-002	1.001188e+000	-1.771108e-002	2.843947e-003	-9.312694e-004
1250786.676	4.524408e-003	-6.274686e-004	1.000788e+000	-1.810905e-002	1.000747e+000	-1.827875e-002	2.107765e-003	-2.537599e-003
1313325.760	4.642360e-003	-6.488549e-004	1.001279e+000	-1.943992e-002	1.001044e+000	-1.969125e-002	2.832484e-003	-2.255244e-003
1375864.844	4.374841e-003	-7.913309e-004	1.000869e+000	-2.129853e-002	1.000715e+000	-2.136152e-002	2.698966e-003	-1.916036e-003
1438403.927	4.273274e-003	-8.885009e-004	1.000770e+000	-2.185463e-002	1.001054e+000	-2.130556e-002	2.781237e-003	-1.587043e-003
1500943.011	4.497520e-003	-7.567500e-004	1.001507e+000	-2.268180e-002	1.001475e+000	-2.269300e-002	3.131243e-003	-1.927886e-003
1563482.095	4.508616e-003	-1.071426e-003	1.001092e+000	-2.396043e-002	1.000660e+000	-2.310455e-002	3.266090e-003	-1.651616e-003
1626021.179	4.311706e-003	-8.543550e-004	1.001028e+000	-2.508730e-002	1.001268e+000	-2.559089e-002	3.544802e-003	-1.618896e-003
1688560.263	4.004319e-003	-7.202747e-004	1.000711e+000	-2.652070e-002	1.001444e+000	-2.690641e-002	3.712154e-003	-1.586874e-003
1751099.346	4.139479e-003	-5.702353e-004	1.001221e+000	-2.758595e-002	1.000889e+000	-2.721526e-002	3.530231e-003	-6.755947e-004
1813638.430	3.789841e-003	-5.481816e-004	1.001491e+000	-2.910722e-002	1.001166e+000	-2.908496e-002	3.707571e-003	-9.869902e-004
1876177.514	3.828195e-003	-1.928748e-004	1.001882e+000	-2.992852e-002	1.001447e+000	-3.047978e-002	3.377469e-003	-2.561300e-004
1938716.598	3.273214e-003	-6.060759e-005	1.002082e+000	-3.067276e-002	1.001657e+000	-3.019802e-002	3.531942e-003	2.077966e-004
2001255.682	3.184101e-003	-4.641161e-004	1.001884e+000	-3.200015e-002	1.001568e+000	-3.175875e-002	3.305578e-003	-1.935584e-004
2063794.765	3.293224e-003	-2.686114e-005	1.001699e+000	-3.290087e-002	1.000974e+000	-3.330416e-002	3.698937e-003	-2.175825e-004
2126333.849	2.841052e-003	-5.014063e-004	1.001051e+000	-3.407913e-002	1.000289e+000	-3.341316e-002	3.956492e-003	9.852138e-005
2188872.933	3.324794e-003	-4.134948e-004	1.000857e+000	-3.511959e-002	1.000306e+000	-3.445853e-002	3.829188e-003	1.232476e-004
2251412.017	3.443371e-003	-7.253209e-004	1.000887e+000	-3.651936e-002	1.000324e+000	-3.546721e-002	3.827757e-003	6.384836e-005
2313951.101	3.740159e-003	-2.217302e-004	1.000118e+000	-3.739113e-002	1.000450e+000	-3.630543e-002	4.152568e-003	7.662379e-005
2376490.184	3.504630e-003	-2.062126e-004	1.000070e+000	-3.772506e-002	1.000331e+000	-3.806392e-002	4.107970e-003	1.290173e-004
2439029.268	3.947009e-003	-1.628924e-004	1.000039e+000	-3.936051e-002	9.996702e-001	-3.901931e-002	3.771006e-003	2.913748e-004
2501568.352	3.940647e-003	-1.043508e-004	9.998047e-001	-3.940416e-002	1.000307e+000	-3.947895e-002	4.070466e-003	3.267318e-004
2564107.436	3.838769e-003	-2.065481e-004	9.999497e-001	-4.112490e-002	1.000205e+000	-4.080646e-002	3.382521e-003	1.551411e-005
2626646.520	4.352170e-003	-3.224159e-004	9.999331e-001	-4.208335e-002	9.990610e-001	-4.192341e-002	3.652895e-003	1.553049e-005
2689185.604	4.296593e-003	-9.749483e-005	1.000319e+000	-4.271167e-002	9.997515e-001	-4.257085e-002	3.753624e-003	1.332857e-004
2751724.687	4.412603e-003	-1.369312e-004	1.000125e+000	-4.350485e-002	9.998185e-001	-4.326174e-002	3.384691e-003	1.495867e-004
2814263.771	4.364780e-003	-1.365835e-004	9.993823e-001	-4.524533e-002	9.995792e-001	-4.454140e-002	3.372451e-003	7.880272e-005
2876802.855	4.316877e-003	-2.959814e-004	9.994328e-001	-4.641080e-002	9.995029e-001	-4.546148e-002	3.453396e-003	2.594224e-004
2939341.939	4.449223e-003	-1.434099e-004	9.998957e-001	-4.682912e-002	9.993724e-001	-4.701179e-002	3.356165e-003	2.069952e-004
3001881.023	4.379528e-003	-9.019114e-005	9.996979e-001	-4.786611e-002	9.992592e-001	-4.784330e-002	3.435004e-003	1.288870e-004
3064420.106	4.433948e-003	-7.822721e-005	1.000185e+000	-4.878521e-002	9.993100e-001	-4.871194e-002	3.292829e-003	4.936802e-005
3126959.190	4.619812e-003	-1.285673e-004	9.997804e-001	-4.994922e-002	9.994822e-001	-4.978882e-002	3.463171e-003	4.769037e-005
3189498.274	4.612636e-003	-4.117022e-005	9.997204e-001	-5.081754e-002	9.993823e-001	-5.081204e-002	3.468745e-003	2.614265e-005
3252037.358	4.534817e-003	-3.699566e-004	9.997614e-001	-5.187689e-002	9.994584e-001	-5.169624e-002	3.413268e-003	1.387809e-004
3314576.442	4.541771e-003	-1.521128e-004	9.996661e-001	-5.279240e-002	9.993554e-001	-5.275372e-002	3.485530e-003	8.356805e-005
3377115.525	4.515335e-003	-9.182793e-005	9.994938e-001	-5.371565e-002	9.991281e-001	-5.387149e-002	3.326706e-003	-2.051866e-005
3439654.609	4.529391e-003	-1.227853e-004	9.992988e-001	-5.475112e-002	9.993837e-001	-5.477734e-002	3.343495e-003	2.116375e-004
3502193.693	4.502167e-003	-3.815794e-004	9.993283e-001	-5.585303e-002	9.990970e-001	-5.564467e-002	3.516285e-003	2.096471e-004
3564732.777	4.548979e-003	-2.135985e-004	9.993410e-001	-5.680316e-002	9.990616e-001	-5.674018e-002	3.624461e-003	2.690366e-004
3627271.861	4.410056e-003	-3.156735e-004	9.994208e-001	-5.791736e-002	9.991291e-001	-5.761745e-002	3.404092e-003	8.571017e-005
3689810.944	4.331436e-003	-4.113143e-004	9.992199e-001	-5.889267e-002	9.990408e-001	-5.859221e-002	3.556737e-003	1.389548e-004
3752350.028	4.448056e-003	-3.417073e-004	9.991510e-001	-5.961931e-002	9.988753e-001	-5.958871e-002	3.504074e-003	1.090664e-004
3814889.112	4.553805e-003	-1.953952e-004	9.990279e-001	-6.072237e-002	9.990546e-001	-6.084907e-002	3.429211e-003	-5.584776e-006
3877428.196	4.498271e-003	-1.462427e-004	9.991985e-001	-6.173504e-002	9.989428e-001	-6.158963e-002	3.755013e-003	5.130116e-005
3939967.280	4.483385e-003	-4.239977e-004	9.990367e-001	-6.284372e-002	9.989626e-001	-6.263837e-002	3.749449e-003	1.587006e-004
4002506.363	4.552486e-003	-2.606319e-004	9.990508e-001	-6.377983e-002	9.988227e-001	-6.345985e-002	3.685414e-003	8.650864e-005
4065045.447	4.375163e-003	-3.458374e-004	9.988286e-001	-6.485463e-002	9.986542e-001	-6.458342e-002	3.776258e-003	5.111088e-006
4127584.531	4.359898e-003	-3.464218e-004	9.987379e-001	-6.578153e-002	9.986799e-001	-6.549178e-002	3.794745e-003	1.435406e-004
4190123.615	4.404839e-003	-2.980288e-004	9.987827e-001	-6.696358e-002	9.984808e-001	-6.661998e-002	3.712137e-003	-8.534930e-005
4252662.699	4.356508e-003	-3.785690e-004	9.988038e-001	-6.798554e-002	9.983464e-001	-6.774366e-002	3.826739e-003	-4.110468e-005
4315201.782	4.505050e-003	-4.008813e-004	9.987169e-001	-6.869562e-002	9.986016e-001	-6.871673e-002	3.653464e-003	-2.269381e-004
4377740.866	4.419207e-003	-4.342006e-004	9.987412e-001	-6.990337e-002	9.982867e-001	-6.971119e-002	3.824170e-003	7.050146e-005
4440279.950	4.330821e-003	-5.524572e-004	9.986214e-001	-7.072637e-002	9.981467e-001	-7.059727e-002	3.729743e-003	-8.968841e-005
4502819.034	4.323969e-003	-4.349337e-004	9.983087e-001	-7.183325e-002	9.982279e-001	-7.162449e-002	3.815311e-003	6.406742e-005
4565358.118	4.240718e-003	-4.686583e-004	9.983064e-001	-7.278460e-002	9.979585e-001	-7.242956e-002	3.816221e-003	-3.736976e-005
4627897.201	4.414030e-003	-3.407598e-004	9.984230e-001	-7.375362e-002	9.980288e-001	-7.339635e-002	3.934497e-003	6.971739e-005
4690436.285	4.250089e-003	-4.508117e-004	9.983641e-001	-7.483225e-002	9.979876e-001	-7.478419e-002	3.927488e-003	-1.225310e-004
4752975.369	4.260960e-003	-4.700084e-004	9.980652e-001	-7.594683e-002	9.980101e-001	-7.568793e-002	3.767560e-003	-1.862810e-004
4815514.453	4.383292e-003	-4.705212e-004	9.982046e-001	-7.678851e-002	9.979105e-001	-7.676853e-002	3.981540e-003	-8.360625e-005
4878053.537	4.488370e-003	-5.495787e-004	9.981440e-001	-7.772451e-002	9.977860e-001	-7.755715e-002	3.947885e-003	-1.568947e-004
4940592.620	4.240569e-003	-5.253047e-004	9.979343e-001	-7.883882e-002	9.978030e-001	-7.869579e-002	3.722402e-003	-2.083637e-004
5003131.704	4.316179e-003	-6.656708e-004	9.978720e-001	-7.978552e-002	9.977257e-001	-7.943401e-002	3.861077e-003	-2.623221e-004
5065670.788	4.234362e-003	-4.791185e-004	9.977977e-001	-8.082397e-002	9.976182e-001	-8.052705e-002	3.843096e-003	-2.285714e-004
5128209.872	4.371317e-003	-6.129674e-004	9.978549e-001	-8.177995e-002	9.975164e-001	-8.150924e-002	3.810001e-003	-4.336307e-004
5190748.956	4.281750e-003	-6.265696e-004	9.976855e-001	-8.282708e-002	9.975303e-001	-8.264042e-002	3.800528e-003	-3.228167e-004
5253288.039	4.336120e-003	-6.738915e-004	9.976825e-001	-8.380673e-002	9.974515e-001	-8.356163e-002	3.721320e-003	-2.404153e-004
5315827.123	4.314693e-003	-7.470634e-004	9.974340e-001	-8.483074e-002	9.973124e-001	-8.462339e-002	3.709807e-003	-3.600700e-004
5378366.207	4.401874e-003	-7.113249e-004	9.975413e-001	-8.582860e-002	9.972669e-001	-8.579582e-002	3.709509e-003	-4.645906e-004
5440905.291	4.221777e-003	-6.296910e-004	9.974533e-001	-8.680845e-002	9.972199e-001	-8.662373e-002	3.607458e-003	-4.165524e-004
5503444.375	4.441528e-003	-7.959380e-004	9.973690e-001	-8.788432e-002	9.972008e-001	-8.750621e-002	3.813422e-003	-4.938644e-004
5565983.458	4.095731e-003	-6.852226e-004	9.973301e-001	-8.874709e-002	9.971081e-001	-8.843080e-002	3.733062e-003	-3.514268e-004
5628522.542	4.341372e-003	-7.729078e-004	9.972600e-001	-8.967417e-002	9.970452e-001	-8.962400e-002	3.780642e-003	-4.935900e-004
5691061.626	4.433022e-003	-9.611646e-004	9.970785e-001	-9.090803e-002	9.968623e-001	-9.062473e-002	3.681882e-003	-4.532199e-004
5753600.710	4.280083e-003	-8.839770e-004	9.969436e-001	-9.181079e-002	9.968243e-001	-9.154334e-002	3.742167e-003	-5.983496e-004
5816139.794	4.368914e-003	-7.187090e-004	9.969214e-001	-9.282208e-002	9.965803e-001	-9.274034e-002	3.610560e-003	-5.811359e-004
5878678.877	4.299423e-003	-9.683680e-004	9.968440e-001	-9.383658e-002	9.966102e-001	-9.365338e-002	3.730991e-003	-7.249244e-004
5941217.961	4.289725e-003	-1.052087e-003	9.967268e-001	-9.491575e-002	9.965354e-001	-9.448628e-002	3.538531e-003	-6.437064e-004
6003757.045	4.137536e-003	-8.391522e-004	9.965095e-001	-9.572730e-002	9.964162e-001	-9.544022e-002	3.677701e-003	-6.642372e-004
6066296.129	4.271347e-003	-1.051697e-003	9.966263e-001	-9.677076e-002	9.963511e-001	-9.645985e-002	3.642648e-003	-7.206105e-004
6128835.213	4.373671e-003	-1.033866e-003	9.964831e-001	-9.747699e-002	9.964275e-001	-9.757907e-002	3.741725e-003	-7.248325e-004
6191374.296	4.311861e-003	-1.074767e-003	9.963445e-001	-9.870374e-002	9.961231e-001	-9.865184e-002	3.586874e-003	-6.618051e-004
6253913.380	4.225720e-003	-9.745510e-004	9.963345e-001	-9.978945e-002	9.960450e-001	-9.948099e-002	3.467409e-003	-5.758729e-004
6316452.464	4.183860e-003	-9.000656e-004	9.962310e-001	-1.005982e-001	9.958356e-001	-1.007116e-001	3.523852e-003	-8.146897e-004
6378991.548	4.175743e-003	-1.084748e-003	9.961212e-001	-1.019874e-001	9.959802e-001	-1.015948e-001	3.597100e-003	-9.464442e-004
6441530.632	4.120947e-003	-1.191320e-003	9.959283e-001	-1.026843e-001	9.958038e-001	-1.026989e-001	3.636650e-003	-8.563564e-004
6504069.715	4.121781e-003	-1.220568e-003	9.957985e-001	-1.039390e-001	9.958473e-001	-1.036292e-001	3.646510e-003	-8.818117e-004
6566608.799	4.262793e-003	-1.290783e-003	9.958681e-001	-1.050007e-001	9.955901e-001	-1.046559e-001	3.542150e-003	-7.028481e-004
6629147.883	4.222917e-003	-1.186512e-003	9.956918e-001	-1.056583e-001	9.954493e-001	-1.056443e-001	3.643041e-003	-8.596365e-004
6691686.967	4.103192e-003	-1.191783e-003	9.955074e-001	-1.067513e-001	9.953198e-001	-1.066348e-001	3.673720e-003	-7.924653e-004
6754226.051	4.050001e-003	-1.231683e-003	9.953892e-001	-1.078670e-001	9.951460e-001	-1.078023e-001	3.481486e-003	-1.032180e-003
6816765.134	4.149218e-003	-1.240853e-003	9.953130e-001	-1.087793e-001	9.951511e-001	-1.086160e-001	3.520208e-003	-8.530528e-004
6879304.218	4.051038e-003	-1.429570e-003	9.952063e-001	-1.098126e-001	9.951106e-001	-1.096065e-001	3.512314e-003	-9.424418e-004
6941843.302	4.124382e-003	-1.284031e-003	9.950691e-001	-1.108652e-001	9.949610e-001	-1.105477e-001	3.501331e-003	-8.707060e-004
7004382.386	3.923688e-003	-1.234870e-003	9.950032e-001	-1.117009e-001	9.947719e-001	-1.116232e-001	3.423998e-003	-8.532471e-004
7066921.470	4.011216e-003	-1.311961e-003	9.948184e-001	-1.128714e-001	9.947323e-001	-1.123991e-001	3.592850e-003	-1.024812e-003
7129460.553	3.922469e-003	-1.444179e-003	9.947993e-001	-1.137103e-001	9.946093e-001	-1.135613e-001	3.586842e-003	-9.841917e-004
7191999.637	3.899607e-003	-1.220645e-003	9.944919e-001	-1.147701e-001	9.943497e-001	-1.145439e-001	3.451593e-003	-1.002337e-003
7254538.721	3.955584e-003	-1.350197e-003	9.946614e-001	-1.158139e-001	9.944286e-001	-1.155960e-001	3.489980e-003	-1.002549e-003
7317077.805	4.138597e-003	-1.396231e-003	9.944888e-001	-1.166607e-001	9.942797e-001	-1.165080e-001	3.478827e-003	-1.111722e-003
7379616.889	3.989564e-003	-1.404267e-003	9.945126e-001	-1.178943e-001	9.940970e-001	-1.175080e-001	3.434721e-003	-1.127778e-003
7442155.972	3.831862e-003	-1.427372e-003	9.942140e-001	-1.187225e-001	9.940131e-001	-1.184581e-001	3.499323e-003	-9.125220e-004
7504695.056	3.879417e-003	-1.546133e-003	9.940040e-001	-1.196248e-001	9.937774e-001	-1.195927e-001	3.524152e-003	-8.626476e-004
7567234.140	4.062374e-003	-1.629919e-003	9.940286e-001	-1.206267e-001	9.936830e-001	-1.205614e-001	3.456175e-003	-9.909801e-004
7629773.224	3.959197e-003	-1.345526e-003	9.939581e-001	-1.218159e-001	9.937235e-001	-1.214828e-001	3.378773e-003	-1.051961e-003
7692312.308	3.814486e-003	-1.427209e-003	9.937941e-001	-1.227432e-001	9.934970e-001	-1.226334e-001	3.450819e-003	-1.162941e-003
7754851.391	3.807629e-003	-1.599320e-003	9.936273e-001	-1.237827e-001	9.932549e-001	-1.233997e-001	3.374605e-003	-1.039709e-003
7817390.475	3.871417e-003	-1.411841e-003	9.935529e-001	-1.248868e-001	9.932271e-001	-1.246169e-001	3.289017e-003	-9.443890e-004
7879929.559	3.790827e-003	-1.607112e-003	9.933238e-001	-1.258654e-001	9.930430e-001	-1.257532e-001	3.408814e-003	-9.607467e-004
7942468.643	3.732066e-003	-1.676754e-003	9.933266e-001	-1.267589e-001	9.930372e-001	-1.266734e-001	3.390801e-003	-1.162581e-003
8005007.727	3.841654e-003	-1.667060e-003	9.930811e-001	-1.278555e-001	9.929097e-001	-1.276380e-001	3.291639e-003	-9.526704e-004
8067546.811	3.678151e-003	-1.643566e-003	9.929908e-001	-1.287915e-001	9.926458e-001	-1.285427e-001	3.207655e-003	-1.173905e-003
8130085.894	3.752631e-003	-1.711181e-003	9.928188e-001	-1.297273e-001	9.926015e-001	-1.296188e-001	3.425484e-003	-1.229760e-003
8192624.978	3.589276e-003	-1.798378e-003	9.925656e-001	-1.308192e-001	9.924455e-001	-1.305543e-001	3.460258e-003	-1.251639e-003
8255164.062	3.710742e-003	-1.782108e-003	9.925379e-001	-1.317750e-001	9.922884e-001	-1.315696e-001	3.422211e-003	-1.303043e-003
8317703.146	3.562480e-003	-1.693949e-003	9.924799e-001	-1.328286e-001	9.922419e-001	-1.325593e-001	3.247338e-003	-1.279123e-003
8380242.230	3.696904e-003	-1.924862e-003	9.922020e-001	-1.338875e-001	9.920399e-001	-1.334901e-001	3.204841e-003	-1.353807e-003
8442781.313	3.655813e-003	-1.919010e-003	9.923116e-001	-1.347802e-001	9.919615e-001	-1.344744e-001	3.183891e-003	-1.452054e-003
8505320.397	3.629891e-003	-1.803469e-003	9.920820e-001	-1.358214e-001	9.917661e-001	-1.354942e-001	3.113693e-003	-1.409666e-003
8567859.481	3.574088e-003	-1.660622e-003	9.919028e-001	-1.366332e-001	9.917453e-001	-1.364498e-001	3.144089e-003	-1.254829e-003
8630398.565	3.637702e-003	-1.724743e-003	9.916105e-001	-1.376437e-001	9.915781e-001	-1.374380e-001	3.033307e-003	-1.540789e-003
8692937.649	3.593875e-003	-1.948669e-003	9.915722e-001	-1.386133e-001	9.913071e-001	-1.384817e-001	2.949468e-003	-1.457419e-003
8755476.732	3.595844e-003	-1.893485e-003	9.914418e-001	-1.397474e-001	9.911827e-001	-1.393695e-001	3.002823e-003	-1.445076e-003
8818015.816	3.473948e-003	-1.948179e-003	9.912217e-001	-1.406786e-001	9.908873e-001	-1.404299e-001	3.107228e-003	-1.556657e-003
8880554.900	3.667039e-003	-1.924353e-003	9.912169e-001	-1.417251e-001	9.910335e-001	-1.412600e-001	2.971635e-003	-1.718880e-003
8943093.984	3.486962e-003	-1.845209e-003	9.910479e-001	-1.426371e-001	9.908542e-001	-1.423125e-001	2.972794e-003	-1.677330e-003
9005633.068	3.534248e-003	-1.942659e-003	9.907848e-001	-1.436326e-001	9.907967e-001	-1.433654e-001	2.870215e-003	-1.836680e-003
9068172.151	3.378359e-003	-1.968957e-003	9.907899e-001	-1.446729e-001	9.904852e-001	-1.442438e-001	2.908865e-003	-1.806610e-003
9130711.235	3.583677e-003	-2.052314e-003	9.905566e-001	-1.456500e-001	9.904111e-001	-1.452616e-001	2.949493e-003	-1.999693e-003
9193250.319	3.562628e-003	-2.080204e-003	9.905502e-001	-1.465018e-001	9.902242e-001	-1.463225e-001	2.867478e-003	-1.950432e-003
9255789.403	3.446858e-003	-2.265842e-003	9.904147e-001	-1.473810e-001	9.900695e-001	-1.472507e-001	2.711340e-003	-1.919332e-003
9318328.487	3.391573e-003	-2.178598e-003	9.902205e-001	-1.486459e-001	9.900960e-001	-1.481931e-001	2.795682e-003	-1.920316e-003
9380867.570	3.373552e-003	-2.082004e-003	9.901302e-001	-1.496205e-001	9.897589e-001	-1.493338e-001	2.796178e-003	-1.964028e-003
9443406.654	3.422297e-003	-2.096104e-003	9.900027e-001	-1.505106e-001	9.897768e-001	-1.503561e-001	2.818423e-003	-2.055714e-003
9505945.738	3.376842e-003	-2.096856e-003	9.896257e-001	-1.516905e-001	9.896792e-001	-1.513502e-001	2.743372e-003	-2.073725e-003
9568484.822	3.415728e-003	-2.143480e-003	9.896312e-001	-1.526275e-001	9.892526e-001	-1.522919e-001	2.525816e-003	-1.859700e-003
9631023.906	3.380183e-003	-2.143794e-003	9.895103e-001	-1.535809e-001	9.890844e-001	-1.533249e-001	2.709735e-003	-2.183715e-003
