!Agilent Technologies,E5061B,MY49102235,A.02.00
!Date: Tue Jul 11 14:27:52 2023
!Data & Calibration Information:
!Freq	S11:SOLT2(ON)	S21:SOLT2(ON)	S12:SOLT2(ON)	S22:SOLT2(ON)
# Hz S RI R 50
5.000	-5.207566e-003	-5.634357e-003	1.001178e+000	7.793846e-003	9.998322e-001	1.031354e-002	-1.537212e-003	-7.532023e-003
62544.084	5.790159e-003	-4.363197e-004	1.001433e+000	4.664425e-004	1.000879e+000	1.343205e-003	7.713051e-003	-2.831606e-003
125083.168	5.664039e-003	-3.708440e-004	1.000989e+000	-7.690219e-004	1.000704e+000	-4.941963e-004	7.510934e-003	-2.164448e-003
187622.251	5.438074e-003	-1.265527e-004	1.000470e+000	-1.949845e-003	1.001088e+000	-5.477128e-004	7.377443e-003	-2.199963e-003
250161.335	5.226993e-003	9.592596e-005	1.000704e+000	-3.050481e-003	1.000740e+000	-2.768371e-003	7.242739e-003	-1.760900e-003
312700.419	5.381880e-003	8.892752e-004	1.000935e+000	-3.484316e-003	1.000762e+000	-3.072915e-003	7.745230e-003	-2.024881e-003
375239.503	5.273112e-003	-5.655596e-004	1.001188e+000	-4.787279e-003	1.000609e+000	-4.288860e-003	7.245134e-003	-2.131125e-003
437778.587	5.100169e-003	-1.083656e-004	1.001433e+000	-4.870787e-003	1.001014e+000	-5.409579e-003	6.605495e-003	-1.760662e-003
500317.670	4.557885e-003	1.162323e-004	1.001278e+000	-7.282361e-003	1.001657e+000	-6.754090e-003	4.801990e-003	-1.534104e-003
562856.754	5.860645e-003	-1.352451e-004	1.001335e+000	-8.636760e-003	1.001112e+000	-8.275667e-003	6.006660e-003	-9.589617e-004
625395.838	5.041652e-003	6.791106e-005	1.002307e+000	-9.705185e-003	1.002199e+000	-8.999650e-003	6.090706e-003	-3.467673e-004
687934.922	5.090177e-003	-1.952385e-004	1.001461e+000	-1.062521e-002	1.001296e+000	-1.036129e-002	5.724394e-003	-7.570571e-004
750474.006	4.474018e-003	2.540981e-004	1.001007e+000	-9.968175e-003	1.000987e+000	-9.556001e-003	5.646357e-003	-4.151799e-004
813013.089	4.635738e-003	3.412791e-004	1.001305e+000	-1.145355e-002	1.000670e+000	-1.123326e-002	4.990412e-003	-1.968018e-004
875552.173	4.380391e-003	5.662155e-004	1.001258e+000	-1.231869e-002	1.001151e+000	-1.224612e-002	5.775311e-003	-5.093146e-004
938091.257	4.439578e-003	6.873881e-004	1.001211e+000	-1.377128e-002	1.001194e+000	-1.331452e-002	6.006684e-003	1.182428e-004
1000630.341	3.893135e-003	4.056511e-004	1.000874e+000	-1.503998e-002	1.001097e+000	-1.462179e-002	5.249523e-003	-5.255175e-004
1063169.425	4.249888e-003	3.250325e-004	1.001347e+000	-1.620797e-002	1.000869e+000	-1.539486e-002	4.434671e-003	-7.885800e-004
1125708.508	4.133402e-003	4.239319e-004	1.001056e+000	-1.722700e-002	1.000864e+000	-1.670885e-002	3.944636e-003	-4.339631e-004
1188247.592	4.684831e-003	4.032941e-005	1.001253e+000	-1.836319e-002	1.001132e+000	-1.746940e-002	2.831268e-003	-9.375680e-004
1250786.676	4.515128e-003	-6.213766e-004	1.000808e+000	-1.811317e-002	1.000766e+000	-1.816811e-002	2.111194e-003	-2.533303e-003
1313325.760	4.647387e-003	-6.605387e-004	1.001156e+000	-1.963167e-002	1.001129e+000	-1.972789e-002	2.843916e-003	-2.264701e-003
1375864.844	4.373222e-003	-7.960108e-004	1.000815e+000	-2.144238e-002	1.000630e+000	-2.126421e-002	2.695288e-003	-1.915369e-003
1438403.927	4.264852e-003	-8.817944e-004	1.000891e+000	-2.188366e-002	1.001044e+000	-2.122940e-002	2.775137e-003	-1.588933e-003
1500943.011	4.494341e-003	-7.567432e-004	1.001498e+000	-2.278163e-002	1.001589e+000	-2.259181e-002	3.150435e-003	-1.915098e-003
1563482.095	4.491849e-003	-1.052575e-003	1.001149e+000	-2.398438e-002	1.000830e+000	-2.309421e-002	3.262621e-003	-1.652880e-003
1626021.179	4.310104e-003	-8.592951e-004	1.000988e+000	-2.515665e-002	1.001173e+000	-2.561148e-002	3.549686e-003	-1.643065e-003
1688560.263	4.002437e-003	-7.436185e-004	1.000585e+000	-2.679367e-002	1.001509e+000	-2.667432e-002	3.721393e-003	-1.582125e-003
1751099.346	4.135455e-003	-5.722429e-004	1.001187e+000	-2.777753e-002	1.000920e+000	-2.727628e-002	3.535557e-003	-6.810790e-004
1813638.430	3.788691e-003	-5.588706e-004	1.001497e+000	-2.932119e-002	1.001194e+000	-2.894540e-002	3.716851e-003	-9.943169e-004
1876177.514	3.824754e-003	-2.030551e-004	1.001794e+000	-3.003625e-002	1.001591e+000	-3.045593e-002	3.378571e-003	-2.580672e-004
1938716.598	3.279298e-003	-5.794190e-005	1.001965e+000	-3.081697e-002	1.001574e+000	-3.008259e-002	3.542142e-003	2.090352e-004
2001255.682	3.198618e-003	-4.840645e-004	1.002046e+000	-3.214749e-002	1.001494e+000	-3.152776e-002	3.305228e-003	-1.851664e-004
2063794.765	3.283759e-003	-3.728673e-005	1.001604e+000	-3.296846e-002	1.000927e+000	-3.318739e-002	3.699168e-003	-2.210468e-004
2126333.849	2.842332e-003	-4.875472e-004	1.001029e+000	-3.414944e-002	1.000319e+000	-3.343469e-002	3.957536e-003	9.380463e-005
2188872.933	3.318804e-003	-4.234086e-004	1.000827e+000	-3.515549e-002	1.000363e+000	-3.437306e-002	3.834849e-003	1.110315e-004
2251412.017	3.427415e-003	-7.293840e-004	1.000698e+000	-3.666126e-002	1.000503e+000	-3.527064e-002	3.830055e-003	8.129148e-005
2313951.101	3.756289e-003	-2.286786e-004	1.000149e+000	-3.753469e-002	1.000376e+000	-3.613067e-002	4.136888e-003	5.977767e-005
2376490.184	3.494936e-003	-2.050251e-004	9.999819e-001	-3.773512e-002	1.000480e+000	-3.790893e-002	4.111720e-003	1.336305e-004
2439029.268	3.943982e-003	-1.729827e-004	9.999864e-001	-3.947057e-002	9.996561e-001	-3.885335e-002	3.775080e-003	2.939804e-004
2501568.352	3.931615e-003	-1.224546e-004	9.996125e-001	-3.963875e-002	1.000423e+000	-3.942478e-002	4.070955e-003	3.174698e-004
2564107.436	3.845372e-003	-2.199725e-004	1.000073e+000	-4.126843e-002	1.000171e+000	-4.079304e-002	3.389918e-003	6.492137e-006
2626646.520	4.340254e-003	-3.179924e-004	9.998968e-001	-4.216423e-002	9.990992e-001	-4.192308e-002	3.645364e-003	2.892209e-006
2689185.604	4.301224e-003	-1.073034e-004	1.000349e+000	-4.291741e-002	9.996661e-001	-4.256804e-002	3.771959e-003	1.232567e-004
2751724.687	4.413053e-003	-1.230140e-004	1.000253e+000	-4.351874e-002	9.998474e-001	-4.323489e-002	3.378585e-003	1.462321e-004
2814263.771	4.377290e-003	-1.459220e-004	9.991925e-001	-4.533464e-002	9.995470e-001	-4.444781e-002	3.369090e-003	7.339822e-005
2876802.855	4.315957e-003	-2.986912e-004	9.993359e-001	-4.652189e-002	9.994144e-001	-4.543888e-002	3.443386e-003	2.473306e-004
2939341.939	4.439893e-003	-1.559576e-004	9.999405e-001	-4.688899e-002	9.993431e-001	-4.672543e-002	3.360786e-003	2.031263e-004
3001881.023	4.373447e-003	-9.894919e-005	9.995237e-001	-4.804101e-002	9.992267e-001	-4.773665e-002	3.438804e-003	1.237821e-004
3064420.106	4.420356e-003	-9.702592e-005	1.000291e+000	-4.898388e-002	9.993132e-001	-4.866940e-002	3.292967e-003	5.333504e-005
3126959.190	4.627571e-003	-1.357509e-004	9.997523e-001	-5.005986e-002	9.994671e-001	-4.974600e-002	3.463615e-003	3.379854e-005
3189498.274	4.600197e-003	-5.033684e-005	9.996402e-001	-5.089193e-002	9.994000e-001	-5.070602e-002	3.455197e-003	3.594815e-005
3252037.358	4.523668e-003	-3.637646e-004	9.997831e-001	-5.198357e-002	9.994948e-001	-5.164106e-002	3.419007e-003	1.266777e-004
3314576.442	4.548396e-003	-1.619295e-004	9.996749e-001	-5.289536e-002	9.993710e-001	-5.265940e-002	3.486721e-003	6.158811e-005
3377115.525	4.522541e-003	-1.072320e-004	9.994776e-001	-5.376871e-002	9.991210e-001	-5.382600e-002	3.325164e-003	-3.788934e-005
3439654.609	4.527748e-003	-1.274271e-004	9.993134e-001	-5.484324e-002	9.994063e-001	-5.470554e-002	3.355827e-003	2.016812e-004
3502193.693	4.493469e-003	-3.974519e-004	9.992678e-001	-5.598911e-002	9.990929e-001	-5.559944e-002	3.524595e-003	2.091698e-004
3564732.777	4.557275e-003	-2.216110e-004	9.993599e-001	-5.689201e-002	9.991206e-001	-5.668701e-002	3.621289e-003	2.658263e-004
3627271.861	4.410744e-003	-3.252132e-004	9.993840e-001	-5.799223e-002	9.991322e-001	-5.757026e-002	3.399572e-003	7.886486e-005
3689810.944	4.320053e-003	-4.147315e-004	9.992439e-001	-5.900242e-002	9.990892e-001	-5.854133e-002	3.567496e-003	1.271842e-004
3752350.028	4.445817e-003	-3.565868e-004	9.991439e-001	-5.975030e-002	9.988514e-001	-5.951197e-002	3.503302e-003	1.138161e-004
3814889.112	4.568455e-003	-1.981844e-004	9.990226e-001	-6.078556e-002	9.990307e-001	-6.074866e-002	3.418688e-003	-6.147481e-006
3877428.196	4.499188e-003	-1.593551e-004	9.991473e-001	-6.184247e-002	9.989398e-001	-6.152937e-002	3.753537e-003	3.928266e-005
3939967.280	4.484170e-003	-4.315066e-004	9.990629e-001	-6.294670e-002	9.989653e-001	-6.255625e-002	3.744433e-003	1.459472e-004
4002506.363	4.546399e-003	-2.718986e-004	9.990499e-001	-6.386304e-002	9.988422e-001	-6.340978e-002	3.692759e-003	7.514844e-005
4065045.447	4.368934e-003	-3.482020e-004	9.987790e-001	-6.492354e-002	9.986712e-001	-6.451085e-002	3.771237e-003	-7.325174e-006
4127584.531	4.345852e-003	-3.496470e-004	9.987384e-001	-6.585858e-002	9.986596e-001	-6.541931e-002	3.799128e-003	1.228943e-004
4190123.615	4.393728e-003	-3.178846e-004	9.987522e-001	-6.704644e-002	9.984829e-001	-6.656675e-002	3.721056e-003	-8.991100e-005
4252662.699	4.367874e-003	-3.987661e-004	9.987873e-001	-6.805921e-002	9.983877e-001	-6.768034e-002	3.828616e-003	-5.762812e-005
4315201.782	4.496508e-003	-4.195040e-004	9.986855e-001	-6.880022e-002	9.985875e-001	-6.865061e-002	3.657789e-003	-2.448270e-004
4377740.866	4.410905e-003	-4.351482e-004	9.987206e-001	-6.995329e-002	9.983100e-001	-6.965002e-002	3.831181e-003	6.226047e-005
4440279.950	4.318682e-003	-5.754021e-004	9.986249e-001	-7.083680e-002	9.981813e-001	-7.053348e-002	3.723635e-003	-1.021891e-004
4502819.034	4.312740e-003	-4.391540e-004	9.983151e-001	-7.194501e-002	9.982275e-001	-7.156393e-002	3.807998e-003	4.773760e-005
4565358.118	4.237442e-003	-4.756319e-004	9.982906e-001	-7.287839e-002	9.980141e-001	-7.234652e-002	3.818966e-003	-4.985245e-005
4627897.201	4.417277e-003	-3.396435e-004	9.984059e-001	-7.386900e-002	9.980075e-001	-7.333891e-002	3.930920e-003	5.960462e-005
4690436.285	4.248707e-003	-4.667144e-004	9.983335e-001	-7.492631e-002	9.980164e-001	-7.473496e-002	3.940934e-003	-1.399077e-004
4752975.369	4.256902e-003	-4.743218e-004	9.980229e-001	-7.604288e-002	9.980337e-001	-7.556491e-002	3.760680e-003	-2.029974e-004
4815514.453	4.381137e-003	-4.782362e-004	9.981588e-001	-7.690094e-002	9.978932e-001	-7.667445e-002	3.983693e-003	-9.652479e-005
4878053.537	4.493562e-003	-5.587196e-004	9.981533e-001	-7.783913e-002	9.977742e-001	-7.750530e-002	3.960342e-003	-1.761845e-004
4940592.620	4.233108e-003	-5.396030e-004	9.979618e-001	-7.889093e-002	9.977867e-001	-7.858013e-002	3.737707e-003	-2.130287e-004
5003131.704	4.309825e-003	-6.755324e-004	9.978299e-001	-7.986044e-002	9.977698e-001	-7.938685e-002	3.871554e-003	-2.667699e-004
5065670.788	4.233713e-003	-4.804099e-004	9.977334e-001	-8.094530e-002	9.976004e-001	-8.044497e-002	3.836553e-003	-2.358035e-004
5128209.872	4.369885e-003	-6.150577e-004	9.978585e-001	-8.189425e-002	9.975742e-001	-8.145452e-002	3.811197e-003	-4.518136e-004
5190748.956	4.275364e-003	-6.341452e-004	9.976824e-001	-8.291765e-002	9.975485e-001	-8.254913e-002	3.794677e-003	-3.371558e-004
5253288.039	4.330069e-003	-6.948320e-004	9.976482e-001	-8.392151e-002	9.974867e-001	-8.350917e-002	3.714939e-003	-2.680632e-004
5315827.123	4.299922e-003	-7.508744e-004	9.974192e-001	-8.491128e-002	9.973378e-001	-8.454965e-002	3.723478e-003	-3.728942e-004
5378366.207	4.398744e-003	-7.120336e-004	9.975026e-001	-8.589608e-002	9.973129e-001	-8.571987e-002	3.705371e-003	-4.652329e-004
5440905.291	4.218805e-003	-6.449833e-004	9.974947e-001	-8.691128e-002	9.972233e-001	-8.658641e-002	3.609328e-003	-4.376013e-004
5503444.375	4.441254e-003	-8.150256e-004	9.973530e-001	-8.797957e-002	9.972378e-001	-8.742677e-002	3.821563e-003	-5.135424e-004
5565983.458	4.085675e-003	-6.940655e-004	9.973376e-001	-8.886870e-002	9.971401e-001	-8.837950e-002	3.734926e-003	-3.734196e-004
5628522.542	4.345198e-003	-7.822156e-004	9.972665e-001	-8.975530e-002	9.970361e-001	-8.956540e-002	3.790818e-003	-5.101975e-004
5691061.626	4.431403e-003	-9.723310e-004	9.971179e-001	-9.098897e-002	9.968684e-001	-9.058379e-002	3.689799e-003	-4.717816e-004
5753600.710	4.279803e-003	-9.078266e-004	9.969185e-001	-9.187496e-002	9.968511e-001	-9.152436e-002	3.749692e-003	-6.233160e-004
5816139.794	4.366027e-003	-7.292201e-004	9.969544e-001	-9.285873e-002	9.965893e-001	-9.271113e-002	3.613529e-003	-5.924462e-004
5878678.877	4.286967e-003	-9.664709e-004	9.968206e-001	-9.396106e-002	9.966203e-001	-9.354838e-002	3.735201e-003	-7.407388e-004
5941217.961	4.279407e-003	-1.065401e-003	9.966683e-001	-9.499800e-002	9.965381e-001	-9.443138e-002	3.544484e-003	-6.578299e-004
6003757.045	4.124041e-003	-8.444855e-004	9.964681e-001	-9.583952e-002	9.964512e-001	-9.539973e-002	3.668375e-003	-6.811745e-004
6066296.129	4.268238e-003	-1.064055e-003	9.966071e-001	-9.686162e-002	9.963265e-001	-9.636083e-002	3.658393e-003	-7.318817e-004
6128835.213	4.363220e-003	-1.047826e-003	9.964974e-001	-9.755667e-002	9.964025e-001	-9.747034e-002	3.763598e-003	-7.462165e-004
6191374.296	4.323680e-003	-1.094434e-003	9.963177e-001	-9.884227e-002	9.961390e-001	-9.863920e-002	3.580168e-003	-6.789848e-004
6253913.380	4.221895e-003	-9.889573e-004	9.962940e-001	-9.987183e-002	9.960964e-001	-9.945557e-002	3.472430e-003	-5.763966e-004
6316452.464	4.196534e-003	-9.310905e-004	9.962131e-001	-1.007309e-001	9.958618e-001	-1.006514e-001	3.534399e-003	-8.305351e-004
6378991.548	4.171520e-003	-1.097064e-003	9.960849e-001	-1.020842e-001	9.959597e-001	-1.015162e-001	3.593195e-003	-9.648572e-004
6441530.632	4.119594e-003	-1.196217e-003	9.959287e-001	-1.027787e-001	9.958099e-001	-1.026687e-001	3.629205e-003	-8.760242e-004
6504069.715	4.106064e-003	-1.242956e-003	9.958146e-001	-1.040286e-001	9.958339e-001	-1.035605e-001	3.647109e-003	-8.972340e-004
6566608.799	4.258248e-003	-1.308448e-003	9.958541e-001	-1.050761e-001	9.955761e-001	-1.045941e-001	3.543121e-003	-7.329721e-004
6629147.883	4.213934e-003	-1.204392e-003	9.956422e-001	-1.057249e-001	9.954796e-001	-1.055962e-001	3.646138e-003	-8.852191e-004
6691686.967	4.099199e-003	-1.206895e-003	9.954568e-001	-1.068497e-001	9.953501e-001	-1.065654e-001	3.670444e-003	-8.107761e-004
6754226.051	4.035606e-003	-1.246592e-003	9.953703e-001	-1.079512e-001	9.951305e-001	-1.077237e-001	3.475621e-003	-1.054629e-003
6816765.134	4.130868e-003	-1.274299e-003	9.953269e-001	-1.088525e-001	9.951439e-001	-1.085546e-001	3.527221e-003	-8.618119e-004
6879304.218	4.038932e-003	-1.446552e-003	9.951736e-001	-1.098760e-001	9.950894e-001	-1.095411e-001	3.518006e-003	-9.501382e-004
6941843.302	4.111578e-003	-1.296516e-003	9.950372e-001	-1.109221e-001	9.949586e-001	-1.104967e-001	3.506615e-003	-8.806010e-004
7004382.386	3.918316e-003	-1.251418e-003	9.950246e-001	-1.118687e-001	9.947724e-001	-1.115201e-001	3.420714e-003	-8.783171e-004
7066921.470	4.005913e-003	-1.323879e-003	9.948102e-001	-1.129977e-001	9.947513e-001	-1.123413e-001	3.593783e-003	-1.032268e-003
7129460.553	3.916437e-003	-1.457926e-003	9.947581e-001	-1.137837e-001	9.946453e-001	-1.134707e-001	3.589517e-003	-9.949171e-004
7191999.637	3.888897e-003	-1.238177e-003	9.944234e-001	-1.148754e-001	9.943520e-001	-1.144631e-001	3.450314e-003	-1.022912e-003
7254538.721	3.951944e-003	-1.364783e-003	9.946817e-001	-1.159017e-001	9.944356e-001	-1.154993e-001	3.490419e-003	-1.020495e-003
7317077.805	4.123111e-003	-1.410223e-003	9.944441e-001	-1.167842e-001	9.943445e-001	-1.164265e-001	3.485709e-003	-1.139313e-003
7379616.889	3.985843e-003	-1.425859e-003	9.945020e-001	-1.179943e-001	9.941345e-001	-1.174855e-001	3.431016e-003	-1.140899e-003
7442155.972	3.828455e-003	-1.443250e-003	9.942115e-001	-1.187918e-001	9.940532e-001	-1.184087e-001	3.509250e-003	-9.383506e-004
7504695.056	3.874083e-003	-1.547151e-003	9.939870e-001	-1.196992e-001	9.938042e-001	-1.195611e-001	3.531245e-003	-8.797218e-004
7567234.140	4.054798e-003	-1.631381e-003	9.939848e-001	-1.207117e-001	9.937021e-001	-1.204737e-001	3.457658e-003	-1.008953e-003
7629773.224	3.942720e-003	-1.351421e-003	9.939508e-001	-1.218889e-001	9.937434e-001	-1.214154e-001	3.387713e-003	-1.072552e-003
7692312.308	3.811310e-003	-1.432875e-003	9.937754e-001	-1.228535e-001	9.935162e-001	-1.225237e-001	3.455657e-003	-1.174360e-003
7754851.391	3.802664e-003	-1.618453e-003	9.936187e-001	-1.238872e-001	9.932911e-001	-1.232905e-001	3.384067e-003	-1.068940e-003
7817390.475	3.871279e-003	-1.420888e-003	9.935383e-001	-1.249769e-001	9.932165e-001	-1.245484e-001	3.297010e-003	-9.728310e-004
7879929.559	3.781425e-003	-1.619039e-003	9.932843e-001	-1.259653e-001	9.930591e-001	-1.256931e-001	3.424234e-003	-9.870464e-004
7942468.643	3.730461e-003	-1.692647e-003	9.932954e-001	-1.268492e-001	9.930482e-001	-1.266205e-001	3.403155e-003	-1.179953e-003
8005007.727	3.830102e-003	-1.679352e-003	9.930630e-001	-1.279331e-001	9.929475e-001	-1.275859e-001	3.298020e-003	-9.651759e-004
8067546.811	3.675522e-003	-1.638296e-003	9.929494e-001	-1.288938e-001	9.926628e-001	-1.285284e-001	3.221141e-003	-1.198938e-003
8130085.894	3.750612e-003	-1.739057e-003	9.928002e-001	-1.298050e-001	9.926350e-001	-1.295545e-001	3.431999e-003	-1.245332e-003
8192624.978	3.579963e-003	-1.811878e-003	9.925284e-001	-1.309435e-001	9.924984e-001	-1.304992e-001	3.478106e-003	-1.266455e-003
8255164.062	3.697889e-003	-1.806755e-003	9.925042e-001	-1.318569e-001	9.922986e-001	-1.315131e-001	3.424634e-003	-1.327266e-003
8317703.146	3.559027e-003	-1.708793e-003	9.924511e-001	-1.328870e-001	9.922960e-001	-1.325004e-001	3.245396e-003	-1.293156e-003
8380242.230	3.680526e-003	-1.948334e-003	9.921442e-001	-1.339910e-001	9.920333e-001	-1.334472e-001	3.206078e-003	-1.375274e-003
8442781.313	3.651165e-003	-1.929447e-003	9.922623e-001	-1.348489e-001	9.919662e-001	-1.344060e-001	3.177401e-003	-1.474101e-003
8505320.397	3.623243e-003	-1.811410e-003	9.920752e-001	-1.359356e-001	9.917991e-001	-1.354585e-001	3.116320e-003	-1.440477e-003
8567859.481	3.553690e-003	-1.679730e-003	9.918762e-001	-1.367235e-001	9.917455e-001	-1.364240e-001	3.142423e-003	-1.265023e-003
8630398.565	3.633957e-003	-1.731900e-003	9.915731e-001	-1.377050e-001	9.915987e-001	-1.373413e-001	3.030535e-003	-1.553281e-003
8692937.649	3.576980e-003	-1.960132e-003	9.915283e-001	-1.387233e-001	9.912937e-001	-1.384194e-001	2.963019e-003	-1.468354e-003
8755476.732	3.583359e-003	-1.914037e-003	9.914300e-001	-1.398303e-001	9.912073e-001	-1.393117e-001	3.013363e-003	-1.469049e-003
8818015.816	3.456647e-003	-1.972607e-003	9.912139e-001	-1.407687e-001	9.908846e-001	-1.403314e-001	3.111181e-003	-1.568475e-003
8880554.900	3.665570e-003	-1.939326e-003	9.912149e-001	-1.418180e-001	9.910579e-001	-1.412000e-001	2.966811e-003	-1.745140e-003
8943093.984	3.478252e-003	-1.852868e-003	9.910293e-001	-1.427119e-001	9.909025e-001	-1.422332e-001	2.979733e-003	-1.702059e-003
9005633.068	3.522181e-003	-1.957749e-003	9.907969e-001	-1.437558e-001	9.908090e-001	-1.433159e-001	2.871757e-003	-1.850232e-003
9068172.151	3.366768e-003	-1.985528e-003	9.907709e-001	-1.448024e-001	9.905105e-001	-1.442126e-001	2.911725e-003	-1.825439e-003
9130711.235	3.578579e-003	-2.064061e-003	9.905476e-001	-1.457369e-001	9.904106e-001	-1.451754e-001	2.946527e-003	-2.030205e-003
9193250.319	3.554878e-003	-2.105276e-003	9.905248e-001	-1.465739e-001	9.902447e-001	-1.462662e-001	2.871675e-003	-1.968604e-003
9255789.403	3.432765e-003	-2.279714e-003	9.903861e-001	-1.474942e-001	9.901038e-001	-1.471938e-001	2.704922e-003	-1.922114e-003
9318328.487	3.384280e-003	-2.197767e-003	9.901910e-001	-1.487210e-001	9.900934e-001	-1.481232e-001	2.807196e-003	-1.940345e-003
9380867.570	3.365620e-003	-2.092506e-003	9.901106e-001	-1.497043e-001	9.897499e-001	-1.492556e-001	2.799287e-003	-1.976336e-003
9443406.654	3.404794e-003	-2.109808e-003	9.899759e-001	-1.505792e-001	9.897814e-001	-1.503055e-001	2.823594e-003	-2.074466e-003
9505945.738	3.361349e-003	-2.107024e-003	9.896236e-001	-1.517966e-001	9.896942e-001	-1.512711e-001	2.757900e-003	-2.102788e-003
9568484.822	3.405219e-003	-2.163491e-003	9.896173e-001	-1.527153e-001	9.893002e-001	-1.522571e-001	2.532281e-003	-1.890452e-003
9631023.906	3.365432e-003	-2.164300e-003	9.894771e-001	-1.536671e-001	9.891301e-001	-1.532759e-001	2.727287e-003	-2.198068e-003
