# Hz S DB R 50
! CMT, C1209, , 23.2.3/2
! Date: 7/3/2023 2:47:30 PM
! Data: Format (Calibration Info)
! Freq	S11:dB/Ang(Dmb)	S21:dB/Ang(Dmb)	S12:dB/Ang(Dmb)	S22:dB/Ang(Dmb)
4.00000000000E+07	-2.26864200000E+01	-3.62539300000E+01	-6.52836500000E-01	-4.41703200000E+01	-6.54633300000E-01	-4.41567500000E+01	-2.30706200000E+01	-3.98934800000E+01
4.00312695435E+07	-2.26794200000E+01	-3.63480500007E+01	-6.52792300051E-01	-4.41988300005E+01	-6.55423200009E-01	-4.41810800005E+01	-2.30669599999E+01	-3.99193300012E+01
4.00625390869E+07	-2.26797500000E+01	-3.63979199999E+01	-6.56246999992E-01	-4.42318099999E+01	-6.56006499999E-01	-4.42161999999E+01	-2.30582100000E+01	-4.00004799998E+01
4.00938086304E+07	-2.26790500000E+01	-3.64424100006E+01	-6.54939900009E-01	-4.42670400004E+01	-6.55175600020E-01	-4.42577500004E+01	-2.30597600000E+01	-4.00499199997E+01
4.01250781739E+07	-2.26794100000E+01	-3.64865499998E+01	-6.55688499997E-01	-4.42957699999E+01	-6.56774999993E-01	-4.42897899999E+01	-2.30560400000E+01	-4.00230300001E+01
4.01563477173E+07	-2.26673699999E+01	-3.65484200010E+01	-6.54275200015E-01	-4.43301900003E+01	-6.55776199995E-01	-4.43296600003E+01	-2.30552899999E+01	-4.01747400012E+01
4.01876172608E+07	-2.26624000000E+01	-3.66409899994E+01	-6.55720699990E-01	-4.43550099998E+01	-6.55322900003E-01	-4.43558199998E+01	-2.30425200001E+01	-4.02908599992E+01
4.02188868043E+07	-2.26600100000E+01	-3.66393700005E+01	-6.55182500008E-01	-4.43975900002E+01	-6.57608099990E-01	-4.43848900003E+01	-2.30380400000E+01	-4.02944800010E+01
4.02501563477E+07	-2.26592200000E+01	-3.66985699995E+01	-6.56175099991E-01	-4.44211599998E+01	-6.56365000011E-01	-4.44193699997E+01	-2.30431700000E+01	-4.04166099989E+01
4.02814258912E+07	-2.26564400000E+01	-3.67833500002E+01	-6.56094699997E-01	-4.44593100002E+01	-6.57296200002E-01	-4.44508500002E+01	-2.30400599999E+01	-4.04205700003E+01
4.03126954346E+07	-2.26495200001E+01	-3.68177499996E+01	-6.55622600005E-01	-4.45011999995E+01	-6.57701599995E-01	-4.44816499997E+01	-2.30312000001E+01	-4.04723899994E+01
4.03439649781E+07	-2.26490900000E+01	-3.68363100002E+01	-6.57536400001E-01	-4.45185300002E+01	-6.58312500001E-01	-4.45149600001E+01	-2.30364400000E+01	-4.05143300003E+01
4.03752345216E+07	-2.26439000001E+01	-3.68806299994E+01	-6.57803899996E-01	-4.45629199994E+01	-6.58490299998E-01	-4.45432299996E+01	-2.30343800000E+01	-4.06102099987E+01
4.04065040650E+07	-2.26503800000E+01	-3.69371300002E+01	-6.59480599997E-01	-4.45900200000E+01	-6.57952500001E-01	-4.45863700000E+01	-2.30182600000E+01	-4.06747900001E+01
4.04377736085E+07	-2.26428900001E+01	-3.70769899978E+01	-6.57227500036E-01	-4.46121199997E+01	-6.58516199991E-01	-4.46068499997E+01	-2.30176500000E+01	-4.07679899985E+01
4.04690431520E+07	-2.26323500000E+01	-3.70828200000E+01	-6.58304199999E-01	-4.46512300000E+01	-6.58685300000E-01	-4.46404200000E+01	-2.30213500000E+01	-4.07799100000E+01
4.05003126954E+07	-2.26295400000E+01	-3.72080599997E+01	-6.59249100024E-01	-4.46939700002E+01	-6.58869099997E-01	-4.46727800007E+01	-2.30225100000E+01	-4.08371900008E+01
4.05315822389E+07	-2.26293400000E+01	-3.71877300001E+01	-6.60946299995E-01	-4.47116599999E+01	-6.58646500001E-01	-4.47243199998E+01	-2.30220300000E+01	-4.08945699998E+01
4.05628517824E+07	-2.26295799999E+01	-3.72234900009E+01	-6.60681299972E-01	-4.47536400003E+01	-6.60460100003E-01	-4.47469300003E+01	-2.29991700001E+01	-4.10108499998E+01
4.05941213258E+07	-2.26199000001E+01	-3.73034899996E+01	-6.58299200013E-01	-4.47830899998E+01	-6.60732999999E-01	-4.47719999999E+01	-2.30072800000E+01	-4.09894800001E+01
4.06253908693E+07	-2.26200100000E+01	-3.73136800008E+01	-6.59505900006E-01	-4.48115300003E+01	-6.58497700015E-01	-4.48049400002E+01	-2.30038700000E+01	-4.11367000000E+01
4.06566604128E+07	-2.26168700000E+01	-3.73940199994E+01	-6.60097999995E-01	-4.48483299997E+01	-6.60054799988E-01	-4.48307599998E+01	-2.30025700000E+01	-4.11349500000E+01
4.06879299562E+07	-2.26111000000E+01	-3.74151000003E+01	-6.57755100029E-01	-4.48779600002E+01	-6.60111800001E-01	-4.48630000004E+01	-2.29979999999E+01	-4.12199800003E+01
4.07191994997E+07	-2.26147400000E+01	-3.74570799996E+01	-6.61898899959E-01	-4.49123099997E+01	-6.60263899998E-01	-4.49129499995E+01	-2.29864000001E+01	-4.12551099996E+01
4.07504690432E+07	-2.26100999999E+01	-3.75448800004E+01	-6.62906599989E-01	-4.49419800002E+01	-6.61072300000E-01	-4.49405200002E+01	-2.30010300000E+01	-4.13611400003E+01
4.07817385866E+07	-2.25929500002E+01	-3.76227699990E+01	-6.60696100027E-01	-4.49803899995E+01	-6.61052600000E-01	-4.49749199996E+01	-2.29990400000E+01	-4.14277799992E+01
4.08130081301E+07	-2.25996800000E+01	-3.76833800000E+01	-6.60931700003E-01	-4.49999800001E+01	-6.62157000001E-01	-4.50106800001E+01	-2.29904600000E+01	-4.14606600002E+01
4.08442776735E+07	-2.25980600000E+01	-3.76760500001E+01	-6.62251199981E-01	-4.50418299994E+01	-6.62396799997E-01	-4.50391899996E+01	-2.29926800000E+01	-4.15413899988E+01
4.08755472170E+07	-2.25906700000E+01	-3.77619100000E+01	-6.62092500000E-01	-4.50831800000E+01	-6.62314400000E-01	-4.50599100000E+01	-2.29835300000E+01	-4.15894500000E+01
4.09068167605E+07	-2.25912600000E+01	-3.77843400019E+01	-6.61315500028E-01	-4.51045400007E+01	-6.63102999980E-01	-4.50977600005E+01	-2.29685300002E+01	-4.16215200017E+01
4.09380863039E+07	-2.25913900000E+01	-3.79126099998E+01	-6.63142499996E-01	-4.51496399999E+01	-6.61813900002E-01	-4.51309499999E+01	-2.29799700000E+01	-4.17359799998E+01
4.09693558474E+07	-2.25900400000E+01	-3.79268900003E+01	-6.64389100013E-01	-4.51776300004E+01	-6.63043700024E-01	-4.51668000004E+01	-2.29795999999E+01	-4.17680900005E+01
4.10006253909E+07	-2.25875100000E+01	-3.79498799999E+01	-6.65400399996E-01	-4.52101599999E+01	-6.64927199992E-01	-4.52005299999E+01	-2.29735300000E+01	-4.18043999998E+01
4.10318949343E+07	-2.25703900001E+01	-3.79184400014E+01	-6.63525500000E-01	-4.52283000004E+01	-6.63493399996E-01	-4.52373400003E+01	-2.29736299999E+01	-4.18834100007E+01
4.10631644778E+07	-2.25781699999E+01	-3.80494899992E+01	-6.63490800000E-01	-4.52676899997E+01	-6.63127400002E-01	-4.52625599998E+01	-2.29628100001E+01	-4.19523299996E+01
4.10944340213E+07	-2.25737099999E+01	-3.81421900003E+01	-6.64674199996E-01	-4.52997700003E+01	-6.65059799997E-01	-4.52943700002E+01	-2.29645200000E+01	-4.20203000004E+01
4.11257035647E+07	-2.25677700001E+01	-3.81759399997E+01	-6.64191200004E-01	-4.53333099997E+01	-6.64749000003E-01	-4.53203299998E+01	-2.29651100000E+01	-4.20663199996E+01
4.11569731082E+07	-2.25569600001E+01	-3.82247300001E+01	-6.65217799991E-01	-4.53548000003E+01	-6.65542699998E-01	-4.53672700002E+01	-2.29602699999E+01	-4.21498500002E+01
4.11882426517E+07	-2.25660299999E+01	-3.82355799999E+01	-6.63785200016E-01	-4.54058099994E+01	-6.65292600003E-01	-4.53928499997E+01	-2.29449700002E+01	-4.21827099996E+01
4.12195121951E+07	-2.25507500000E+01	-3.83489800002E+01	-6.64934300002E-01	-4.54366200002E+01	-6.66230000000E-01	-4.54281900001E+01	-2.29470900000E+01	-4.22946900000E+01
4.12507817386E+07	-2.25561299999E+01	-3.84005799993E+01	-6.65396599994E-01	-4.54831699994E+01	-6.66215500000E-01	-4.54619499996E+01	-2.29474100000E+01	-4.22932100000E+01
4.12820512821E+07	-2.25463700000E+01	-3.84689600000E+01	-6.65780100003E-01	-4.55006800001E+01	-6.66269500001E-01	-4.54940400000E+01	-2.29473400000E+01	-4.24254200001E+01
4.13133208255E+07	-2.25541199999E+01	-3.84717200000E+01	-6.67518799973E-01	-4.55321299995E+01	-6.66952499989E-01	-4.55223599996E+01	-2.29392600001E+01	-4.24605599995E+01
4.13445903690E+07	-2.25480500000E+01	-3.85954499999E+01	-6.68968599999E-01	-4.55599600000E+01	-6.65890700001E-01	-4.55590800000E+01	-2.29382100000E+01	-4.24586200000E+01
4.13758599124E+07	-2.25537999998E+01	-3.86343200005E+01	-6.66861300007E-01	-4.55967800003E+01	-6.69070500002E-01	-4.55972400003E+01	-2.29329100002E+01	-4.25409200009E+01
4.14071294559E+07	-2.25420500000E+01	-3.86698799999E+01	-6.67358699999E-01	-4.56191199999E+01	-6.69204400000E-01	-4.56190299999E+01	-2.29440400000E+01	-4.26063899998E+01
4.14383989994E+07	-2.25316100002E+01	-3.87596599996E+01	-6.65983800020E-01	-4.56590400005E+01	-6.67491100003E-01	-4.56496200005E+01	-2.29382599999E+01	-4.26753000008E+01
4.14696685428E+07	-2.25448199999E+01	-3.87235900002E+01	-6.67647899991E-01	-4.56995899998E+01	-6.67752499999E-01	-4.56945699998E+01	-2.29285200001E+01	-4.27380399997E+01
4.15009380863E+07	-2.25307200000E+01	-3.88397500004E+01	-6.68090900003E-01	-4.57225900003E+01	-6.68065300005E-01	-4.57133800003E+01	-2.29230000000E+01	-4.28384700003E+01
4.15322076298E+07	-2.25256600000E+01	-3.88777099997E+01	-6.68383299998E-01	-4.57572499997E+01	-6.68550899996E-01	-4.57489799997E+01	-2.29209100000E+01	-4.28708299998E+01
4.15634771732E+07	-2.25169400000E+01	-3.89462600001E+01	-6.68425300007E-01	-4.57958700002E+01	-6.69586499996E-01	-4.57796000003E+01	-2.29113300001E+01	-4.29215600002E+01
4.15947467167E+07	-2.25129000000E+01	-3.89615899999E+01	-6.69388099991E-01	-4.58257699997E+01	-6.69101900005E-01	-4.58173899996E+01	-2.29198599999E+01	-4.29540299997E+01
4.16260162602E+07	-2.25243899999E+01	-3.91187500000E+01	-6.69070199999E-01	-4.58570700002E+01	-6.69626800004E-01	-4.58478800002E+01	-2.29163400000E+01	-4.30420500002E+01
4.16572858036E+07	-2.25091900002E+01	-3.91129900001E+01	-6.68898800002E-01	-4.58896899996E+01	-6.70307199992E-01	-4.58782399996E+01	-2.29078200001E+01	-4.30753399996E+01
4.16885553471E+07	-2.25063600000E+01	-3.91242000000E+01	-6.69904799999E-01	-4.59205600001E+01	-6.69790300003E-01	-4.59167600001E+01	-2.29071200000E+01	-4.31505700001E+01
4.17198248906E+07	-2.25068500000E+01	-3.91407699998E+01	-6.69442300007E-01	-4.59555499995E+01	-6.70860699985E-01	-4.59425299996E+01	-2.29088000000E+01	-4.31922999994E+01
4.17510944340E+07	-2.25165900000E+01	-3.91789600001E+01	-6.70638400000E-01	-4.59807300000E+01	-6.70012200001E-01	-4.59904000000E+01	-2.28938000000E+01	-4.33033400001E+01
4.17823639775E+07	-2.24938600001E+01	-3.92836700013E+01	-6.69908200034E-01	-4.60160100005E+01	-6.70844300004E-01	-4.60062800005E+01	-2.29092999998E+01	-4.34026399992E+01
4.18136335210E+07	-2.24982700000E+01	-3.93644299999E+01	-6.72117499997E-01	-4.60504999999E+01	-6.71085200000E-01	-4.60374900000E+01	-2.28952600000E+01	-4.33480100001E+01
4.18449030644E+07	-2.24975699999E+01	-3.94046100008E+01	-6.71209400018E-01	-4.60723200007E+01	-6.71328499989E-01	-4.60805400003E+01	-2.28972300001E+01	-4.34713200008E+01
4.18761726079E+07	-2.24905600000E+01	-3.94670799998E+01	-6.72560699995E-01	-4.61219999998E+01	-6.70511100003E-01	-4.61055299999E+01	-2.29029600000E+01	-4.35332999998E+01
4.19074421513E+07	-2.24955699998E+01	-3.95001000003E+01	-6.72209600005E-01	-4.61452400004E+01	-6.70746800017E-01	-4.61414700003E+01	-2.28956699998E+01	-4.36005400002E+01
4.19387116948E+07	-2.24798300001E+01	-3.95296399998E+01	-6.72642099997E-01	-4.61828699998E+01	-6.72277299991E-01	-4.61665199998E+01	-2.28783900001E+01	-4.36214299999E+01
4.19699812383E+07	-2.24763000000E+01	-3.96497099998E+01	-6.72537500000E-01	-4.62123000003E+01	-6.71974400016E-01	-4.62154000001E+01	-2.28800400000E+01	-4.36697200006E+01
4.20012507817E+07	-2.24786900000E+01	-3.96220900002E+01	-6.72485000000E-01	-4.62459699997E+01	-6.73799799985E-01	-4.62304899999E+01	-2.28788600000E+01	-4.37425199994E+01
4.20325203252E+07	-2.24764300000E+01	-3.96613500007E+01	-6.73091199999E-01	-4.62807900002E+01	-6.72747100004E-01	-4.62568900003E+01	-2.28823800000E+01	-4.38265200006E+01
4.20637898687E+07	-2.24755000000E+01	-3.97728099988E+01	-6.72997800001E-01	-4.63067799997E+01	-6.73327899994E-01	-4.63106099994E+01	-2.28816200000E+01	-4.39197299990E+01
4.20950594121E+07	-2.24672600000E+01	-3.98149100003E+01	-6.73368400006E-01	-4.63426000001E+01	-6.72504900009E-01	-4.63348900001E+01	-2.28794200000E+01	-4.39114900005E+01
4.21263289556E+07	-2.24693100000E+01	-3.98863099991E+01	-6.74681399983E-01	-4.63706899996E+01	-6.74598499973E-01	-4.63692999996E+01	-2.28752400001E+01	-4.40288399985E+01
4.21575984991E+07	-2.24557900000E+01	-3.99267700001E+01	-6.74222500000E-01	-4.64079900000E+01	-6.73755100000E-01	-4.64078700001E+01	-2.28692900000E+01	-4.40480900001E+01
4.21888680425E+07	-2.24549600000E+01	-3.99914499990E+01	-6.74456699996E-01	-4.64287699997E+01	-6.73929599997E-01	-4.64339899996E+01	-2.28709900000E+01	-4.41147799990E+01
4.22201375860E+07	-2.24487400000E+01	-3.99958900000E+01	-6.74502900000E-01	-4.64766200000E+01	-6.75221100000E-01	-4.64617900000E+01	-2.28652900000E+01	-4.41929700000E+01
4.22514071295E+07	-2.24487999999E+01	-4.01039500005E+01	-6.73801200024E-01	-4.65056100005E+01	-6.74880400017E-01	-4.65028900005E+01	-2.28699899998E+01	-4.42293200008E+01
4.22826766729E+07	-2.24439500000E+01	-4.01351899999E+01	-6.75460099996E-01	-4.65393099999E+01	-6.76046599997E-01	-4.65341199999E+01	-2.28596200000E+01	-4.42873299999E+01
4.23139462164E+07	-2.24471100000E+01	-4.01717700016E+01	-6.74426200016E-01	-4.65708100004E+01	-6.74688100010E-01	-4.65647900005E+01	-2.28575400001E+01	-4.43557400010E+01
4.23452157598E+07	-2.24451300000E+01	-4.03053199994E+01	-6.75732899994E-01	-4.66054999998E+01	-6.75533799996E-01	-4.66036599998E+01	-2.28658500000E+01	-4.44370199996E+01
4.23764853033E+07	-2.24392500000E+01	-4.03405900001E+01	-6.76069700009E-01	-4.66402700003E+01	-6.76817699999E-01	-4.66309900003E+01	-2.28568200000E+01	-4.44418600006E+01
4.24077548468E+07	-2.24364200000E+01	-4.03481899999E+01	-6.76983199994E-01	-4.66704099998E+01	-6.76697500001E-01	-4.66635399998E+01	-2.28521200000E+01	-4.45042299996E+01
4.24390243902E+07	-2.24326899999E+01	-4.04507000002E+01	-6.76482700000E-01	-4.67019600002E+01	-6.77625299992E-01	-4.66896800003E+01	-2.28467300000E+01	-4.46336100002E+01
4.24702939337E+07	-2.24231000001E+01	-4.04789699997E+01	-6.76430100000E-01	-4.67335599997E+01	-6.76558400010E-01	-4.67240699997E+01	-2.28423700000E+01	-4.46589599998E+01
4.25015634772E+07	-2.24313299999E+01	-4.04908100002E+01	-6.77206000001E-01	-4.67578100002E+01	-6.76010099998E-01	-4.67605500002E+01	-2.28363500000E+01	-4.46972300007E+01
4.25328330206E+07	-2.24190300001E+01	-4.05351999995E+01	-6.77455499997E-01	-4.67929099996E+01	-6.75703700004E-01	-4.67943499996E+01	-2.28419999999E+01	-4.48149899986E+01
4.25641025641E+07	-2.24204900000E+01	-4.06209000001E+01	-6.77118800003E-01	-4.68352200001E+01	-6.77304299999E-01	-4.68286500001E+01	-2.28354100000E+01	-4.48770200003E+01
4.25953721076E+07	-2.24142500001E+01	-4.06418899997E+01	-6.77959999988E-01	-4.68722099995E+01	-6.76888000006E-01	-4.68631099995E+01	-2.28393399999E+01	-4.49561199989E+01
4.26266416510E+07	-2.24048600000E+01	-4.07982900000E+01	-6.78220100000E-01	-4.68899200000E+01	-6.78301099999E-01	-4.68855500000E+01	-2.28369800000E+01	-4.49873900000E+01
4.26579111945E+07	-2.24088000001E+01	-4.07925600007E+01	-6.78406200001E-01	-4.69312000004E+01	-6.77777800011E-01	-4.69234900005E+01	-2.28303900000E+01	-4.50259600016E+01
4.26891807380E+07	-2.24135400000E+01	-4.08338399999E+01	-6.78483700000E-01	-4.69572000000E+01	-6.78451299999E-01	-4.69567600000E+01	-2.28306200000E+01	-4.51282099999E+01
4.27204502814E+07	-2.24047599998E+01	-4.09399200010E+01	-6.81312399976E-01	-4.69919200005E+01	-6.79640599988E-01	-4.69885400002E+01	-2.28224599999E+01	-4.51314400010E+01
4.27517198249E+07	-2.23936700000E+01	-4.10162599997E+01	-6.79515400006E-01	-4.70250099999E+01	-6.78763500003E-01	-4.70067399999E+01	-2.28145600000E+01	-4.52045899997E+01
4.27829893684E+07	-2.24050299998E+01	-4.10590799999E+01	-6.78523100003E-01	-4.70659800002E+01	-6.78931000001E-01	-4.70538700003E+01	-2.28239299998E+01	-4.52655000015E+01
4.28142589118E+07	-2.23914100001E+01	-4.10541100000E+01	-6.78789499998E-01	-4.70835999999E+01	-6.79029999999E-01	-4.70835599998E+01	-2.28069100001E+01	-4.53964399992E+01
4.28455284553E+07	-2.23965499999E+01	-4.11104700005E+01	-6.79659300007E-01	-4.71276100002E+01	-6.79375100005E-01	-4.71153100003E+01	-2.28123800000E+01	-4.53716900012E+01
4.28767979987E+07	-2.23828300001E+01	-4.11641699996E+01	-6.80400999994E-01	-4.71474099998E+01	-6.79878899996E-01	-4.71519899997E+01	-2.28069900000E+01	-4.55002699990E+01
4.29080675422E+07	-2.23885999999E+01	-4.12510500000E+01	-6.81715599998E-01	-4.71792800003E+01	-6.80228000011E-01	-4.71715800003E+01	-2.28028299999E+01	-4.55879100001E+01
4.29393370857E+07	-2.23795900001E+01	-4.12459200001E+01	-6.81456400003E-01	-4.72160899996E+01	-6.81858699983E-01	-4.72199399995E+01	-2.27952900001E+01	-4.56083299998E+01
4.29706066291E+07	-2.23770800000E+01	-4.13708600002E+01	-6.81521699999E-01	-4.72528000002E+01	-6.81469599997E-01	-4.72505200001E+01	-2.27964800000E+01	-4.57408899998E+01
4.30018761726E+07	-2.23749700000E+01	-4.14162599994E+01	-6.81273200003E-01	-4.72865499996E+01	-6.80714300009E-01	-4.72810499996E+01	-2.28043599999E+01	-4.56989900005E+01
4.30331457161E+07	-2.23666500000E+01	-4.13897700002E+01	-6.82416000002E-01	-4.73238200001E+01	-6.81406999999E-01	-4.73180300001E+01	-2.28014200000E+01	-4.57810000002E+01
4.30644152595E+07	-2.23599200001E+01	-4.14933299985E+01	-6.83076499990E-01	-4.73518599996E+01	-6.81049700005E-01	-4.73413899997E+01	-2.27924300001E+01	-4.58703699987E+01
4.30956848030E+07	-2.23670000000E+01	-4.15514900000E+01	-6.82747700000E-01	-4.73870000000E+01	-6.82169800000E-01	-4.73785800000E+01	-2.27927300000E+01	-4.59373400000E+01
4.31269543465E+07	-2.23572300000E+01	-4.15597500013E+01	-6.82416100020E-01	-4.74152700004E+01	-6.82286600013E-01	-4.74119800005E+01	-2.27962600000E+01	-4.59570900012E+01
4.31582238899E+07	-2.23552000000E+01	-4.16485999998E+01	-6.83735499997E-01	-4.74400499999E+01	-6.83159599998E-01	-4.74447599999E+01	-2.27937500000E+01	-4.60346799998E+01
4.31894934334E+07	-2.23493800000E+01	-4.17436399999E+01	-6.81587100014E-01	-4.74783300004E+01	-6.83407099999E-01	-4.74893600002E+01	-2.27933299999E+01	-4.60717200014E+01
4.32207629769E+07	-2.23506000000E+01	-4.17393200000E+01	-6.82713299995E-01	-4.75135899998E+01	-6.83360900000E-01	-4.75023799999E+01	-2.27825000000E+01	-4.61850499995E+01
4.32520325203E+07	-2.23451500000E+01	-4.18702399998E+01	-6.83720600007E-01	-4.75471800003E+01	-6.83370100017E-01	-4.75473500003E+01	-2.27725400000E+01	-4.62202800001E+01
4.32833020638E+07	-2.23497000000E+01	-4.18469100002E+01	-6.84422299995E-01	-4.75758299998E+01	-6.84993499989E-01	-4.75741399998E+01	-2.27752600000E+01	-4.62332699999E+01
4.33145716073E+07	-2.23425999999E+01	-4.19830899999E+01	-6.83683600010E-01	-4.76088400003E+01	-6.82629200012E-01	-4.75969800003E+01	-2.27832600000E+01	-4.62743600007E+01
4.33458411507E+07	-2.23358500001E+01	-4.19724000001E+01	-6.84934299989E-01	-4.76426199997E+01	-6.84126999987E-01	-4.76359399997E+01	-2.27771600001E+01	-4.63580999992E+01
4.33771106942E+07	-2.23376099999E+01	-4.20785100002E+01	-6.85085799992E-01	-4.76719800002E+01	-6.84820000005E-01	-4.76759200002E+01	-2.27743599999E+01	-4.64564700002E+01
4.34083802376E+07	-2.23227300002E+01	-4.21199799995E+01	-6.83742500015E-01	-4.77094899996E+01	-6.85723399990E-01	-4.77018799997E+01	-2.27642800001E+01	-4.64915399996E+01
4.34396497811E+07	-2.23227100000E+01	-4.21652900003E+01	-6.85575200000E-01	-4.77432600001E+01	-6.85871699993E-01	-4.77435400001E+01	-2.27585400000E+01	-4.65365100000E+01
4.34709193246E+07	-2.23261500000E+01	-4.22403099990E+01	-6.85563700000E-01	-4.77826199995E+01	-6.83960500026E-01	-4.77676999997E+01	-2.27636399999E+01	-4.65429499999E+01
4.35021888680E+07	-2.23183000000E+01	-4.23137200000E+01	-6.85217600002E-01	-4.78094000000E+01	-6.86228900000E-01	-4.78067200000E+01	-2.27613000000E+01	-4.66431900001E+01
4.35334584115E+07	-2.23162000000E+01	-4.22820200005E+01	-6.86724099976E-01	-4.78352299996E+01	-6.86553799995E-01	-4.78351099996E+01	-2.27487200002E+01	-4.67157399989E+01
4.35647279550E+07	-2.23193400000E+01	-4.23894899999E+01	-6.86901200000E-01	-4.78640000000E+01	-6.85036900001E-01	-4.78762200000E+01	-2.27506500000E+01	-4.68237199999E+01
4.35959974984E+07	-2.23077399999E+01	-4.24685100007E+01	-6.87530699987E-01	-4.78990800004E+01	-6.87748599981E-01	-4.79032000005E+01	-2.27521200000E+01	-4.68629300005E+01
