!Agilent Technologies,E5061B,MY49102235,A.02.00
!Date: Thu Jun 29 15:22:06 2023
!Data & Calibration Information:
!Freq	S11:SOLT2(ON)	S21:SOLT2(ON)	S12:SOLT2(ON)	S22:SOLT2(ON)
# Hz S dB R 50
40000000.000	-3.256575e+001	-1.261478e+002	-1.966565e-003	-3.867702e+001	-4.330751e-003	-3.866078e+001	-3.291854e+001	-1.411142e+002
40031269.543	-3.253945e+001	-1.261102e+002	-1.297055e-003	-3.870299e+001	-4.913054e-003	-3.868397e+001	-3.292075e+001	-1.411569e+002
40062539.087	-3.253071e+001	-1.261672e+002	-4.670080e-003	-3.873296e+001	-5.257486e-003	-3.871666e+001	-3.292027e+001	-1.410683e+002
40093808.630	-3.253051e+001	-1.262510e+002	-3.376945e-003	-3.876476e+001	-3.972115e-003	-3.875539e+001	-3.291367e+001	-1.412279e+002
40125078.174	-3.252530e+001	-1.263860e+002	-3.609636e-003	-3.879209e+001	-5.108030e-003	-3.878458e+001	-3.293992e+001	-1.413322e+002
40156347.717	-3.253061e+001	-1.262329e+002	-1.976295e-003	-3.882433e+001	-4.152227e-003	-3.882021e+001	-3.289692e+001	-1.413279e+002
40187617.261	-3.250054e+001	-1.262176e+002	-2.859653e-003	-3.884673e+001	-3.348398e-003	-3.884366e+001	-3.286867e+001	-1.410975e+002
40218886.804	-3.251962e+001	-1.262646e+002	-2.242609e-003	-3.888636e+001	-5.135617e-003	-3.887276e+001	-3.288978e+001	-1.411814e+002
40250156.348	-3.250824e+001	-1.263439e+002	-2.754317e-003	-3.890801e+001	-3.850921e-003	-3.890435e+001	-3.285373e+001	-1.412833e+002
40281425.891	-3.249348e+001	-1.263789e+002	-2.376344e-003	-3.894284e+001	-4.225329e-003	-3.893464e+001	-3.286534e+001	-1.413802e+002
40312695.435	-3.250139e+001	-1.263430e+002	-1.830417e-003	-3.898314e+001	-4.547743e-003	-3.896192e+001	-3.287057e+001	-1.413552e+002
40343964.978	-3.251029e+001	-1.264612e+002	-3.338310e-003	-3.900008e+001	-4.513133e-003	-3.899451e+001	-3.286351e+001	-1.415519e+002
40375234.522	-3.251414e+001	-1.264435e+002	-3.348899e-003	-3.903989e+001	-4.724718e-003	-3.901854e+001	-3.285138e+001	-1.415673e+002
40406504.065	-3.249710e+001	-1.266313e+002	-4.700492e-003	-3.906552e+001	-4.211812e-003	-3.905984e+001	-3.284383e+001	-1.413475e+002
40437773.609	-3.245195e+001	-1.265849e+002	-2.296068e-003	-3.908576e+001	-4.226177e-003	-3.907984e+001	-3.283695e+001	-1.413952e+002
40469043.152	-3.247431e+001	-1.264257e+002	-3.136246e-003	-3.912258e+001	-4.067941e-003	-3.910961e+001	-3.283136e+001	-1.416779e+002
40500312.695	-3.243782e+001	-1.264651e+002	-3.720177e-003	-3.916343e+001	-4.038356e-003	-3.914169e+001	-3.282114e+001	-1.417607e+002
40531582.239	-3.246399e+001	-1.265766e+002	-5.158141e-003	-3.917844e+001	-3.642932e-003	-3.918782e+001	-3.281547e+001	-1.418464e+002
40562851.782	-3.246649e+001	-1.266946e+002	-4.757467e-003	-3.921704e+001	-5.015701e-003	-3.920865e+001	-3.280739e+001	-1.414326e+002
40594121.326	-3.245396e+001	-1.266020e+002	-2.005577e-003	-3.924466e+001	-4.877273e-003	-3.923217e+001	-3.282424e+001	-1.418034e+002
40625390.869	-3.246527e+001	-1.267039e+002	-2.909351e-003	-3.927205e+001	-2.475616e-003	-3.926217e+001	-3.278107e+001	-1.417059e+002
40656660.413	-3.244773e+001	-1.266992e+002	-3.158396e-003	-3.930489e+001	-3.958102e-003	-3.928596e+001	-3.279912e+001	-1.418111e+002
40687929.956	-3.245304e+001	-1.267144e+002	-2.961044e-004	-3.933277e+001	-3.818762e-003	-3.931656e+001	-3.278379e+001	-1.418021e+002
40719199.500	-3.245729e+001	-1.268725e+002	-4.212055e-003	-3.936503e+001	-3.255551e-003	-3.936537e+001	-3.279575e+001	-1.417295e+002
40750469.043	-3.243842e+001	-1.268713e+002	-5.183786e-003	-3.939257e+001	-3.955426e-003	-3.938825e+001	-3.275331e+001	-1.420516e+002
40781738.587	-3.242380e+001	-1.265835e+002	-2.654136e-003	-3.942708e+001	-3.723434e-003	-3.942035e+001	-3.274173e+001	-1.421173e+002
40813008.130	-3.241348e+001	-1.268112e+002	-2.407734e-003	-3.944530e+001	-4.233865e-003	-3.945485e+001	-3.275243e+001	-1.420584e+002
40844277.674	-3.243260e+001	-1.268983e+002	-3.229647e-003	-3.948605e+001	-4.321701e-003	-3.947984e+001	-3.272367e+001	-1.422150e+002
40875547.217	-3.241279e+001	-1.268162e+002	-3.064796e-003	-3.952445e+001	-4.132605e-003	-3.949935e+001	-3.273652e+001	-1.421379e+002
40906816.760	-3.242408e+001	-1.269753e+002	-2.109881e-003	-3.954355e+001	-4.383667e-003	-3.953619e+001	-3.275281e+001	-1.419688e+002
40938086.304	-3.238236e+001	-1.269890e+002	-3.657173e-003	-3.958587e+001	-2.808621e-003	-3.956525e+001	-3.271348e+001	-1.422272e+002
40969355.847	-3.239135e+001	-1.271192e+002	-4.723197e-003	-3.961058e+001	-3.939345e-003	-3.960019e+001	-3.271474e+001	-1.423345e+002
41000625.391	-3.239872e+001	-1.271569e+002	-5.091161e-003	-3.964063e+001	-5.189143e-003	-3.963213e+001	-3.272565e+001	-1.422917e+002
41031894.934	-3.244548e+001	-1.269754e+002	-2.913994e-003	-3.965793e+001	-3.622216e-003	-3.966516e+001	-3.269946e+001	-1.424007e+002
41063164.478	-3.239853e+001	-1.271329e+002	-2.965403e-003	-3.969432e+001	-3.040390e-003	-3.968882e+001	-3.270196e+001	-1.422882e+002
41094434.021	-3.237511e+001	-1.271241e+002	-3.482053e-003	-3.972530e+001	-4.768835e-003	-3.971749e+001	-3.268683e+001	-1.424288e+002
41125703.565	-3.238453e+001	-1.270946e+002	-2.797512e-003	-3.975408e+001	-4.141177e-003	-3.973948e+001	-3.268115e+001	-1.425136e+002
41156973.108	-3.237970e+001	-1.270161e+002	-3.773049e-003	-3.977723e+001	-4.898094e-003	-3.978668e+001	-3.267278e+001	-1.425044e+002
41188242.652	-3.239125e+001	-1.272636e+002	-2.060072e-003	-3.982452e+001	-4.139387e-003	-3.980810e+001	-3.268271e+001	-1.423447e+002
41219512.195	-3.236504e+001	-1.270426e+002	-2.826212e-003	-3.985039e+001	-4.892956e-003	-3.984214e+001	-3.264948e+001	-1.424217e+002
41250781.739	-3.235414e+001	-1.272494e+002	-3.386257e-003	-3.989515e+001	-4.459158e-003	-3.987452e+001	-3.266972e+001	-1.425626e+002
41282051.282	-3.234867e+001	-1.271103e+002	-3.031757e-003	-3.991133e+001	-4.296964e-003	-3.990402e+001	-3.263191e+001	-1.426107e+002
41313320.826	-3.235917e+001	-1.274077e+002	-4.497141e-003	-3.994106e+001	-4.609904e-003	-3.993025e+001	-3.263572e+001	-1.426081e+002
41344590.369	-3.232276e+001	-1.273280e+002	-5.538372e-003	-3.996754e+001	-3.288083e-003	-3.996352e+001	-3.266060e+001	-1.427374e+002
41375859.912	-3.231888e+001	-1.275528e+002	-3.224550e-003	-3.999841e+001	-5.930758e-003	-4.000016e+001	-3.264069e+001	-1.426665e+002
41407129.456	-3.233064e+001	-1.273972e+002	-3.666450e-003	-4.002077e+001	-5.727567e-003	-4.001849e+001	-3.262032e+001	-1.429699e+002
41438398.999	-3.230944e+001	-1.273137e+002	-1.835603e-003	-4.005796e+001	-3.732910e-003	-4.005019e+001	-3.261060e+001	-1.429444e+002
41469668.543	-3.234113e+001	-1.277113e+002	-3.234983e-003	-4.009505e+001	-4.149098e-003	-4.008841e+001	-3.261763e+001	-1.428520e+002
41500938.086	-3.231066e+001	-1.275149e+002	-3.444022e-003	-4.011664e+001	-4.040269e-003	-4.010803e+001	-3.258989e+001	-1.427610e+002
41532207.630	-3.231233e+001	-1.274663e+002	-3.379393e-003	-4.014997e+001	-4.186102e-003	-4.014124e+001	-3.260184e+001	-1.429051e+002
41563477.173	-3.230388e+001	-1.274032e+002	-3.370013e-003	-4.018541e+001	-4.902315e-003	-4.017030e+001	-3.260051e+001	-1.427732e+002
41594746.717	-3.231483e+001	-1.273690e+002	-3.748875e-003	-4.021563e+001	-4.358131e-003	-4.020368e+001	-3.259726e+001	-1.430697e+002
41626016.260	-3.225787e+001	-1.276547e+002	-3.640794e-003	-4.024246e+001	-4.649682e-003	-4.023225e+001	-3.257728e+001	-1.430861e+002
41657285.804	-3.228767e+001	-1.274913e+002	-2.811070e-003	-4.027312e+001	-4.723321e-003	-4.026036e+001	-3.258561e+001	-1.430314e+002
41688555.347	-3.229406e+001	-1.275290e+002	-3.709733e-003	-4.030147e+001	-4.160439e-003	-4.029619e+001	-3.257428e+001	-1.431231e+002
41719824.891	-3.231052e+001	-1.276477e+002	-2.537042e-003	-4.033285e+001	-4.685358e-003	-4.032047e+001	-3.256891e+001	-1.432697e+002
41751094.434	-3.230420e+001	-1.279293e+002	-3.555389e-003	-4.035710e+001	-3.708801e-003	-4.036685e+001	-3.255691e+001	-1.430323e+002
41782363.977	-3.228666e+001	-1.275561e+002	-2.825306e-003	-4.039006e+001	-4.307069e-003	-4.037943e+001	-3.251738e+001	-1.433867e+002
41813633.521	-3.226458e+001	-1.277243e+002	-4.366972e-003	-4.042325e+001	-3.934767e-003	-4.040798e+001	-3.256986e+001	-1.433385e+002
41844903.064	-3.226648e+001	-1.278391e+002	-3.349005e-003	-4.044200e+001	-4.118760e-003	-4.045022e+001	-3.252772e+001	-1.433887e+002
41876172.608	-3.226349e+001	-1.277447e+002	-4.389595e-003	-4.048911e+001	-3.109320e-003	-4.047132e+001	-3.251357e+001	-1.435578e+002
41907442.151	-3.226539e+001	-1.279752e+002	-3.977961e-003	-4.050961e+001	-3.104423e-003	-4.050514e+001	-3.250896e+001	-1.434989e+002
41938711.695	-3.227485e+001	-1.277424e+002	-4.052227e-003	-4.054595e+001	-4.282061e-003	-4.052994e+001	-3.253354e+001	-1.432786e+002
41969981.238	-3.223457e+001	-1.277254e+002	-3.523115e-003	-4.057330e+001	-3.676661e-003	-4.057549e+001	-3.253407e+001	-1.434916e+002
42001250.782	-3.226516e+001	-1.279130e+002	-3.146864e-003	-4.060636e+001	-5.151956e-003	-4.058833e+001	-3.251729e+001	-1.435471e+002
42032520.325	-3.227114e+001	-1.279362e+002	-3.496105e-003	-4.063642e+001	-3.970002e-003	-4.061078e+001	-3.249538e+001	-1.436601e+002
42063789.869	-3.223601e+001	-1.279918e+002	-3.443748e-003	-4.066244e+001	-4.046713e-003	-4.066394e+001	-3.247000e+001	-1.437396e+002
42095059.412	-3.223784e+001	-1.279580e+002	-3.463513e-003	-4.069475e+001	-3.296352e-003	-4.068516e+001	-3.249369e+001	-1.438284e+002
42126328.956	-3.222214e+001	-1.280681e+002	-4.457444e-003	-4.071927e+001	-4.992829e-003	-4.071736e+001	-3.246964e+001	-1.437685e+002
42157598.499	-3.223144e+001	-1.278985e+002	-3.942018e-003	-4.075499e+001	-3.902314e-003	-4.075439e+001	-3.247771e+001	-1.438064e+002
42188868.043	-3.222175e+001	-1.279696e+002	-3.798643e-003	-4.077520e+001	-3.660778e-003	-4.077776e+001	-3.246557e+001	-1.439236e+002
42220137.586	-3.223486e+001	-1.279393e+002	-3.376539e-003	-4.081946e+001	-4.696011e-003	-4.080311e+001	-3.245688e+001	-1.438703e+002
42251407.129	-3.220222e+001	-1.280406e+002	-2.177483e-003	-4.084487e+001	-4.265155e-003	-4.084138e+001	-3.244640e+001	-1.441086e+002
42282676.673	-3.220973e+001	-1.280428e+002	-3.728139e-003	-4.087546e+001	-5.042302e-003	-4.087011e+001	-3.245819e+001	-1.439727e+002
42313946.216	-3.220846e+001	-1.281940e+002	-2.536067e-003	-4.090678e+001	-3.418346e-003	-4.090020e+001	-3.244739e+001	-1.440152e+002
42345215.760	-3.216808e+001	-1.281895e+002	-3.550130e-003	-4.093907e+001	-3.758570e-003	-4.093433e+001	-3.241855e+001	-1.442368e+002
42376485.303	-3.217233e+001	-1.281773e+002	-3.523456e-003	-4.097079e+001	-4.955120e-003	-4.096146e+001	-3.243843e+001	-1.442558e+002
42407754.847	-3.219455e+001	-1.282251e+002	-4.396146e-003	-4.099836e+001	-4.497481e-003	-4.099131e+001	-3.243559e+001	-1.442285e+002
42439024.390	-3.216382e+001	-1.282022e+002	-3.513143e-003	-4.102751e+001	-5.233484e-003	-4.101703e+001	-3.239365e+001	-1.441633e+002
42470293.934	-3.217596e+001	-1.281161e+002	-3.331741e-003	-4.105844e+001	-3.857045e-003	-4.104864e+001	-3.240958e+001	-1.441870e+002
42501563.477	-3.218468e+001	-1.283862e+002	-3.568127e-003	-4.108029e+001	-3.044173e-003	-4.108344e+001	-3.242323e+001	-1.441933e+002
42532833.021	-3.218639e+001	-1.282391e+002	-3.396542e-003	-4.111291e+001	-2.392080e-003	-4.111153e+001	-3.238293e+001	-1.443067e+002
42564102.564	-3.216681e+001	-1.283532e+002	-2.863787e-003	-4.115241e+001	-3.926583e-003	-4.114539e+001	-3.237393e+001	-1.443216e+002
42595372.108	-3.217267e+001	-1.283442e+002	-3.431017e-003	-4.118785e+001	-3.127487e-003	-4.117686e+001	-3.235725e+001	-1.444622e+002
42626641.651	-3.212795e+001	-1.282252e+002	-3.766412e-003	-4.120318e+001	-4.285703e-003	-4.119792e+001	-3.236058e+001	-1.445009e+002
42657911.194	-3.214303e+001	-1.284043e+002	-3.334987e-003	-4.124141e+001	-3.562996e-003	-4.123325e+001	-3.236436e+001	-1.445167e+002
42689180.738	-3.214204e+001	-1.285890e+002	-3.021705e-003	-4.126600e+001	-3.836740e-003	-4.126444e+001	-3.233981e+001	-1.445672e+002
42720450.281	-3.211682e+001	-1.284650e+002	-5.587454e-003	-4.129915e+001	-4.794509e-003	-4.129528e+001	-3.236411e+001	-1.445729e+002
42751719.825	-3.210154e+001	-1.283299e+002	-3.761654e-003	-4.132975e+001	-3.563741e-003	-4.130973e+001	-3.235975e+001	-1.444962e+002
42782989.368	-3.210278e+001	-1.286750e+002	-2.567153e-003	-4.136788e+001	-3.590096e-003	-4.135526e+001	-3.234094e+001	-1.447539e+002
42814258.912	-3.212454e+001	-1.284970e+002	-2.410363e-003	-4.138424e+001	-3.455910e-003	-4.138398e+001	-3.231956e+001	-1.444503e+002
42845528.455	-3.211248e+001	-1.287039e+002	-2.805722e-003	-4.142485e+001	-3.318626e-003	-4.141231e+001	-3.233714e+001	-1.447529e+002
42876797.999	-3.211725e+001	-1.285041e+002	-3.382055e-003	-4.144308e+001	-3.480175e-003	-4.144731e+001	-3.230635e+001	-1.446443e+002
42908067.542	-3.209004e+001	-1.286637e+002	-4.516505e-003	-4.147251e+001	-3.872641e-003	-4.146412e+001	-3.229717e+001	-1.446507e+002
42939337.086	-3.212397e+001	-1.286396e+002	-3.826093e-003	-4.150754e+001	-4.962426e-003	-4.151004e+001	-3.230810e+001	-1.445916e+002
42970606.629	-3.207616e+001	-1.286593e+002	-3.769859e-003	-4.153982e+001	-4.390105e-003	-4.153777e+001	-3.226604e+001	-1.446387e+002
43001876.173	-3.208019e+001	-1.287069e+002	-3.007097e-003	-4.157405e+001	-3.154649e-003	-4.156595e+001	-3.229430e+001	-1.450499e+002
43033145.716	-3.211003e+001	-1.286458e+002	-4.071197e-003	-4.161001e+001	-3.572210e-003	-4.160014e+001	-3.227512e+001	-1.450447e+002
43064415.260	-3.208175e+001	-1.286402e+002	-4.498153e-003	-4.163288e+001	-3.107676e-003	-4.162386e+001	-3.226498e+001	-1.449221e+002
43095684.803	-3.207370e+001	-1.287809e+002	-3.735797e-003	-4.166693e+001	-3.721853e-003	-4.165699e+001	-3.225423e+001	-1.450116e+002
43126954.346	-3.209385e+001	-1.287335e+002	-3.353909e-003	-4.169233e+001	-3.894260e-003	-4.169019e+001	-3.225493e+001	-1.451858e+002
43158223.890	-3.206765e+001	-1.287730e+002	-4.461468e-003	-4.171564e+001	-4.376005e-003	-4.171963e+001	-3.224443e+001	-1.452462e+002
43189493.433	-3.205118e+001	-1.287272e+002	-1.913472e-003	-4.175201e+001	-4.123106e-003	-4.175970e+001	-3.224898e+001	-1.453344e+002
43220762.977	-3.206755e+001	-1.288871e+002	-2.723120e-003	-4.178419e+001	-4.263977e-003	-4.177254e+001	-3.222798e+001	-1.451776e+002
43252032.520	-3.203051e+001	-1.287890e+002	-3.624984e-003	-4.181552e+001	-3.771163e-003	-4.181626e+001	-3.224016e+001	-1.450887e+002
43283302.064	-3.205231e+001	-1.290120e+002	-4.050653e-003	-4.184193e+001	-5.045902e-003	-4.184054e+001	-3.225466e+001	-1.452547e+002
43314571.607	-3.201354e+001	-1.289146e+002	-3.077923e-003	-4.187248e+001	-2.500693e-003	-4.185918e+001	-3.223787e+001	-1.455521e+002
43345841.151	-3.203851e+001	-1.289208e+002	-3.931894e-003	-4.190532e+001	-3.561246e-003	-4.189754e+001	-3.222747e+001	-1.455026e+002
43377110.694	-3.200499e+001	-1.290196e+002	-3.957910e-003	-4.193269e+001	-4.001079e-003	-4.193463e+001	-3.220219e+001	-1.454718e+002
43408380.238	-3.201567e+001	-1.288213e+002	-2.074920e-003	-4.196727e+001	-4.866967e-003	-4.195887e+001	-3.221542e+001	-1.454081e+002
43439649.781	-3.200960e+001	-1.289086e+002	-3.897595e-003	-4.199831e+001	-4.803585e-003	-4.199777e+001	-3.222235e+001	-1.454251e+002
43470919.325	-3.199622e+001	-1.290651e+002	-3.704677e-003	-4.203460e+001	-2.455352e-003	-4.202072e+001	-3.222817e+001	-1.456424e+002
43502188.868	-3.198487e+001	-1.289897e+002	-2.827152e-003	-4.206022e+001	-4.457315e-003	-4.205775e+001	-3.220378e+001	-1.456630e+002
43533458.412	-3.201983e+001	-1.290646e+002	-4.220270e-003	-4.208307e+001	-4.652958e-003	-4.208259e+001	-3.220436e+001	-1.454997e+002
43564727.955	-3.198964e+001	-1.291924e+002	-3.862155e-003	-4.210919e+001	-2.845140e-003	-4.212210e+001	-3.217291e+001	-1.456053e+002
43595997.498	-3.197868e+001	-1.290554e+002	-4.144392e-003	-4.214399e+001	-5.056260e-003	-4.214757e+001	-3.217276e+001	-1.457240e+002
43627267.042	-3.196840e+001	-1.290442e+002	-3.262554e-003	-4.216937e+001	-3.655248e-003	-4.217766e+001	-3.216990e+001	-1.458813e+002
43658536.585	-3.197173e+001	-1.290029e+002	-3.936075e-003	-4.220521e+001	-4.163396e-003	-4.220621e+001	-3.216190e+001	-1.458494e+002
43689806.129	-3.197122e+001	-1.289350e+002	-4.405501e-003	-4.224023e+001	-4.146823e-003	-4.223433e+001	-3.215406e+001	-1.457402e+002
43721075.672	-3.197371e+001	-1.294368e+002	-4.572940e-003	-4.226754e+001	-3.772635e-003	-4.226695e+001	-3.214966e+001	-1.457477e+002
43752345.216	-3.195699e+001	-1.290880e+002	-2.361514e-003	-4.229226e+001	-3.735355e-003	-4.230286e+001	-3.216117e+001	-1.459009e+002
43783614.759	-3.195280e+001	-1.291169e+002	-4.177759e-003	-4.232876e+001	-3.401040e-003	-4.232456e+001	-3.213346e+001	-1.458287e+002
43814884.303	-3.193532e+001	-1.293940e+002	-3.630566e-003	-4.235361e+001	-4.075581e-003	-4.235432e+001	-3.213347e+001	-1.460674e+002
43846153.846	-3.194269e+001	-1.291780e+002	-2.987134e-003	-4.238190e+001	-2.668585e-003	-4.238188e+001	-3.212026e+001	-1.460621e+002
43877423.390	-3.192927e+001	-1.292379e+002	-3.134448e-003	-4.242695e+001	-3.886844e-003	-4.241726e+001	-3.213427e+001	-1.460100e+002
43908692.933	-3.193808e+001	-1.294989e+002	-3.629622e-003	-4.245863e+001	-3.603680e-003	-4.243788e+001	-3.212166e+001	-1.462196e+002
43939962.477	-3.193206e+001	-1.294784e+002	-2.229497e-003	-4.247985e+001	-3.308781e-003	-4.247574e+001	-3.211527e+001	-1.462030e+002
43971232.020	-3.191681e+001	-1.293519e+002	-3.741727e-003	-4.251412e+001	-3.534067e-003	-4.250954e+001	-3.211242e+001	-1.461923e+002
44002501.563	-3.190944e+001	-1.293327e+002	-4.866978e-003	-4.253882e+001	-4.264281e-003	-4.252876e+001	-3.211663e+001	-1.463680e+002
44033771.107	-3.191228e+001	-1.293407e+002	-3.197206e-003	-4.257464e+001	-4.244733e-003	-4.256039e+001	-3.210529e+001	-1.463191e+002
44065040.650	-3.193175e+001	-1.295277e+002	-3.097552e-003	-4.260068e+001	-3.509771e-003	-4.259304e+001	-3.212633e+001	-1.463790e+002
44096310.194	-3.189235e+001	-1.295472e+002	-3.168662e-003	-4.262517e+001	-4.362657e-003	-4.262603e+001	-3.209116e+001	-1.463160e+002
44127579.737	-3.188986e+001	-1.294971e+002	-3.275912e-003	-4.266105e+001	-4.422707e-003	-4.265005e+001	-3.208786e+001	-1.463409e+002
44158849.281	-3.189663e+001	-1.295105e+002	-3.887674e-003	-4.268736e+001	-3.124834e-003	-4.268285e+001	-3.208667e+001	-1.463927e+002
44190118.824	-3.188272e+001	-1.295940e+002	-3.992177e-003	-4.271889e+001	-2.823396e-003	-4.271518e+001	-3.207308e+001	-1.464783e+002
44221388.368	-3.186903e+001	-1.296681e+002	-2.528091e-003	-4.274873e+001	-4.382214e-003	-4.275081e+001	-3.204460e+001	-1.466486e+002
44252657.911	-3.187139e+001	-1.296891e+002	-3.416923e-003	-4.278076e+001	-3.590928e-003	-4.278158e+001	-3.207620e+001	-1.464506e+002
44283927.455	-3.186353e+001	-1.296742e+002	-4.148150e-003	-4.280933e+001	-3.998365e-003	-4.280605e+001	-3.201459e+001	-1.465823e+002
44315196.998	-3.185825e+001	-1.297376e+002	-2.330560e-003	-4.283891e+001	-3.622549e-003	-4.283573e+001	-3.204712e+001	-1.464670e+002
44346466.542	-3.185164e+001	-1.297312e+002	-3.462767e-003	-4.287454e+001	-3.489366e-003	-4.286997e+001	-3.202567e+001	-1.467223e+002
44377736.085	-3.185822e+001	-1.297731e+002	-4.572602e-003	-4.289525e+001	-4.921302e-003	-4.290233e+001	-3.200465e+001	-1.469048e+002
44409005.629	-3.187283e+001	-1.298290e+002	-3.714097e-003	-4.293851e+001	-5.011582e-003	-4.292989e+001	-3.202291e+001	-1.467731e+002
44440275.172	-3.183515e+001	-1.296227e+002	-4.755635e-003	-4.296322e+001	-3.431110e-003	-4.295749e+001	-3.201432e+001	-1.469153e+002
44471544.715	-3.182311e+001	-1.297463e+002	-4.285934e-003	-4.299661e+001	-3.555396e-003	-4.298564e+001	-3.202886e+001	-1.468661e+002
44502814.259	-3.183538e+001	-1.295841e+002	-5.223682e-003	-4.301471e+001	-4.925654e-003	-4.302569e+001	-3.202710e+001	-1.468607e+002
44534083.802	-3.182697e+001	-1.299385e+002	-3.960154e-003	-4.306173e+001	-4.404429e-003	-4.304981e+001	-3.200405e+001	-1.468088e+002
44565353.346	-3.182157e+001	-1.299822e+002	-3.781552e-003	-4.308665e+001	-3.821769e-003	-4.307589e+001	-3.199900e+001	-1.471816e+002
44596622.889	-3.180284e+001	-1.299138e+002	-4.170957e-003	-4.311139e+001	-4.055461e-003	-4.310732e+001	-3.199692e+001	-1.470306e+002
