# Hz S DB R 50
! CMT, C1209, , 23.2.3/2
! Date: 7/3/2023 12:32:36 PM
! Data: Format (Calibration Info)
! Freq	S11:dB/Ang(--)	S21:dB/Ang(--)	S12:dB/Ang(--)	S22:dB/Ang(--)
4.00000000000E+07	-5.17333400000E+01	-1.05136900000E+02	-5.33488100000E-04	-3.74460000000E+01	-1.32955400000E-03	-3.74383100000E+01	-4.95273100000E+01	1.64369000000E+02
4.00312695435E+07	-5.15838099989E+01	-1.04382100013E+02	1.05828195071E-03	-3.74754400003E+01	-2.11321300829E-03	-3.74579400004E+01	-4.96456400008E+01	1.63475000008E+02
4.00625390869E+07	-5.15128900002E+01	-1.05285899998E+02	-2.25947399250E-03	-3.74955800000E+01	-2.67080199874E-03	-3.74819299999E+01	-4.96999899999E+01	1.63991299999E+02
4.00938086304E+07	-5.14884700023E+01	-1.04771100014E+02	-2.11258199197E-03	-3.75282300004E+01	-1.77630701358E-03	-3.75187900004E+01	-4.96154500024E+01	1.62547999992E+02
4.01250781739E+07	-5.16743199992E+01	-1.05873499995E+02	-1.47526800288E-03	-3.75574599999E+01	-2.85435599513E-03	-3.75537099998E+01	-4.98093899991E+01	1.61907500003E+02
4.01563477173E+07	-5.16506999986E+01	-1.04351199995E+02	-7.47143111316E-04	-3.75857900002E+01	-1.45022500290E-03	-3.75806100003E+01	-4.95370200011E+01	1.63121300012E+02
4.01876172608E+07	-5.15197100009E+01	-1.03896500003E+02	-1.84151499258E-03	-3.76097999998E+01	-1.73107699810E-03	-3.76062899998E+01	-4.96457299993E+01	1.64264099992E+02
4.02188868043E+07	-5.17145199987E+01	-1.04773399997E+02	-7.41391200436E-04	-3.76468800001E+01	-2.19900299858E-03	-3.76428300001E+01	-4.97147799996E+01	1.64030900009E+02
4.02501563477E+07	-5.15538400014E+01	-1.04394400003E+02	-7.95393199511E-04	-3.76638499998E+01	-2.02328300159E-03	-3.76592899999E+01	-4.96715500004E+01	1.65111099990E+02
4.02814258912E+07	-5.17126599990E+01	-1.04956199993E+02	7.29104895804E-04	-3.77055900002E+01	-2.84146999361E-03	-3.76971300001E+01	-4.96059700009E+01	1.63481100004E+02
4.03126954346E+07	-5.15397000019E+01	-1.03711800014E+02	8.03174114904E-06	-3.77379399996E+01	-1.74407301240E-03	-3.77221599997E+01	-4.97567299983E+01	1.64140799993E+02
4.03439649781E+07	-5.18374799998E+01	-1.04143800001E+02	-1.41194399938E-03	-3.77633700001E+01	-1.63664299869E-03	-3.77489900001E+01	-4.95570199996E+01	1.62581600001E+02
4.03752345216E+07	-5.17868800007E+01	-1.04537399995E+02	-1.23639900238E-03	-3.77993699995E+01	-1.26871900499E-03	-3.77781099996E+01	-4.94383000016E+01	1.62847199996E+02
4.04065040650E+07	-5.18529399994E+01	-1.05654500001E+02	-3.47611999624E-03	-3.78210400000E+01	-1.34068799932E-03	-3.78187100000E+01	-4.97020300001E+01	1.63752600000E+02
4.04377736085E+07	-5.14358800064E+01	-1.06352699989E+02	-5.88155045679E-04	-3.78373599997E+01	-8.19443208246E-04	-3.78324599998E+01	-4.98134399982E+01	1.63783200000E+02
4.04690431520E+07	-5.14690900000E+01	-1.04167100002E+02	-2.06427999858E-03	-3.78726200000E+01	-1.35459899949E-03	-3.78622200000E+01	-4.95787500002E+01	1.62648000001E+02
4.05003126954E+07	-5.11386700066E+01	-1.03518800014E+02	-2.44900601533E-03	-3.79247300002E+01	-2.71657097020E-03	-3.78974900005E+01	-4.93845899994E+01	1.62857999993E+02
4.05315822389E+07	-5.16247499984E+01	-1.04512199997E+02	-3.55184699645E-03	-3.79396700000E+01	-5.72609006903E-04	-3.79365699999E+01	-4.93431200001E+01	1.62345400002E+02
4.05628517824E+07	-5.20060499968E+01	-1.04350200003E+02	-2.33935699015E-03	-3.79789800001E+01	-4.18952197712E-03	-3.79670000002E+01	-4.96753899981E+01	1.64336999973E+02
4.05941213258E+07	-5.17381500014E+01	-1.04619999999E+02	-1.49307900464E-03	-3.79917499999E+01	-2.22386001077E-03	-3.79815599999E+01	-4.95166200009E+01	1.61976600013E+02
4.06253908693E+07	-5.17789199999E+01	-1.04920100001E+02	-8.12258908804E-04	-3.80180800003E+01	2.87353382818E-04	-3.80177100001E+01	-4.95475600005E+01	1.63347399994E+02
4.06566604128E+07	-5.17659900001E+01	-1.05031399999E+02	-1.75095299273E-03	-3.80547699997E+01	-1.54458798582E-03	-3.80301999999E+01	-4.95989899996E+01	1.62754800005E+02
4.06879299562E+07	-5.19426799999E+01	-1.04993700001E+02	1.23728897566E-03	-3.80889000002E+01	-1.71990798666E-03	-3.80730600003E+01	-4.95533400021E+01	1.63335299994E+02
4.07191994997E+07	-5.19342100001E+01	-1.05065399999E+02	-2.18156296581E-03	-3.81153999997E+01	1.54154881260E-04	-3.81178099996E+01	-4.98471099970E+01	1.62456500009E+02
4.07504690432E+07	-5.16797000003E+01	-1.04857499994E+02	-3.38214798490E-03	-3.81370800002E+01	-2.29830599580E-03	-3.81375700001E+01	-4.93603099998E+01	1.63300500002E+02
4.07817385866E+07	-5.17312999994E+01	-1.03655300015E+02	-2.76298938070E-04	-3.81686299996E+01	-1.43502201058E-03	-3.81645399997E+01	-4.93110500006E+01	1.63681399995E+02
4.08130081301E+07	-5.16267200003E+01	-1.04123300002E+02	-2.32497405062E-04	-3.81885600001E+01	-2.13999100090E-03	-3.82013900001E+01	-4.94222399996E+01	1.62962600000E+02
4.08442776735E+07	-5.17280999985E+01	-1.04716299991E+02	-2.17956597173E-03	-3.82350699993E+01	-2.48764599495E-03	-3.82299599996E+01	-4.92744600021E+01	1.63056399999E+02
4.08755472170E+07	-5.16966700001E+01	-1.04265000000E+02	-3.23133799894E-03	-3.82645700000E+01	-1.11397899986E-03	-3.82422900000E+01	-4.93595700001E+01	1.62877100000E+02
4.09068167605E+07	-5.19292199950E+01	-1.03376600016E+02	-1.24861819709E-04	-3.82891300005E+01	-6.96255294548E-04	-3.82749800005E+01	-4.96471799939E+01	1.61815300009E+02
4.09380863039E+07	-5.16086400006E+01	-1.04426099998E+02	-1.42156099751E-03	-3.83244899999E+01	-3.37601300688E-04	-3.83052499999E+01	-4.92562500007E+01	1.62435999999E+02
4.09693558474E+07	-5.19391800020E+01	-1.05781799981E+02	-3.12113799089E-03	-3.83400300005E+01	-1.72082102731E-03	-3.83451900003E+01	-4.93454800000E+01	1.63055799985E+02
4.10006253909E+07	-5.20913999994E+01	-1.04322100006E+02	-2.41758500294E-03	-3.83770499998E+01	-3.83148699118E-03	-3.83703399999E+01	-4.93419800000E+01	1.61922600005E+02
4.10318949343E+07	-5.23386199955E+01	-1.03531100017E+02	-2.14813398346E-03	-3.83978000003E+01	-2.92343198749E-03	-3.83965800003E+01	-4.92916400009E+01	1.62309600006E+02
4.10631644778E+07	-5.19251900026E+01	-1.05097099990E+02	-5.99583709972E-04	-3.84288199998E+01	-1.75234500754E-03	-3.84211199998E+01	-4.93788099994E+01	1.62831199997E+02
4.10944340213E+07	-5.18312800011E+01	-1.04283499990E+02	-1.48313600072E-03	-3.84570100002E+01	-1.11397900427E-03	-3.84602500001E+01	-4.93433899989E+01	1.62619999997E+02
4.11257035647E+07	-5.19644699988E+01	-1.03093800010E+02	-1.56923199925E-03	-3.84862899997E+01	-1.62129199559E-03	-3.84773799999E+01	-4.92085200012E+01	1.62296500003E+02
4.11569731082E+07	-5.17961800019E+01	-1.02145300016E+02	-3.57054598213E-03	-3.85064400003E+01	-3.32313298871E-03	-3.85172600002E+01	-4.92165100014E+01	1.62258000002E+02
4.11882426517E+07	-5.21098399965E+01	-1.04760799971E+02	-6.70156631783E-04	-3.85605799994E+01	-1.49020102009E-03	-3.85525899996E+01	-4.94545799974E+01	1.62523899997E+02
4.12195121951E+07	-5.18006199995E+01	-1.01533500011E+02	-1.92417099932E-03	-3.85787200002E+01	-2.82453199763E-03	-3.85750500001E+01	-4.93708700000E+01	1.62709299998E+02
4.12507817386E+07	-5.16788700016E+01	-1.04433699962E+02	-1.74899900232E-03	-3.86259999994E+01	-2.21677300803E-03	-3.86091899995E+01	-4.93655500001E+01	1.62252800006E+02
4.12820512821E+07	-5.18391600003E+01	-1.01733900005E+02	-1.14690300259E-03	-3.86403500000E+01	-2.78790399918E-03	-3.86349400000E+01	-4.92260000000E+01	1.62558600000E+02
4.13133208255E+07	-5.20214099971E+01	-1.04924199951E+02	-2.72875297551E-03	-3.86705399995E+01	-2.28582500777E-03	-3.86566499997E+01	-4.92044700003E+01	1.62674899998E+02
4.13445903690E+07	-5.17300600002E+01	-1.04083700001E+02	-3.26158199967E-03	-3.86930900000E+01	-1.47833400050E-03	-3.86906000000E+01	-4.92676800000E+01	1.60646900001E+02
4.13758599124E+07	-5.18156300003E+01	-1.06535099963E+02	-2.24855698993E-03	-3.87219300004E+01	-3.99181498005E-03	-3.87219600003E+01	-4.94146499951E+01	1.61801499984E+02
4.14071294559E+07	-5.18393199999E+01	-1.03961400007E+02	-1.54167900204E-03	-3.87530399999E+01	-2.59115900403E-03	-3.87430699999E+01	-4.90781400010E+01	1.60686900003E+02
4.14383989994E+07	-5.16637700063E+01	-1.02788600054E+02	5.65431194217E-05	-3.87790700004E+01	-2.33986498579E-03	-3.87726200006E+01	-4.90241800033E+01	1.61354300005E+02
4.14696685428E+07	-5.22049099971E+01	-1.07256899977E+02	-8.26520495460E-04	-3.88161299998E+01	-1.15395600610E-03	-3.88237699997E+01	-4.93047799985E+01	1.61807499998E+02
4.15009380863E+07	-5.20259099978E+01	-1.04942099978E+02	-1.31227601242E-03	-3.88422500003E+01	-2.67445298966E-03	-3.88405400003E+01	-4.93835599990E+01	1.62666999993E+02
4.15322076298E+07	-5.17990800017E+01	-1.02688200017E+02	-2.58957799055E-03	-3.88738499998E+01	-1.61119500787E-03	-3.88692899998E+01	-4.92847000007E+01	1.61911900006E+02
4.15634771732E+07	-5.19166500003E+01	-1.03037199994E+02	-9.54809509010E-04	-3.89114400001E+01	-2.18647199790E-03	-3.88825600003E+01	-4.94285699982E+01	1.62538999986E+02
4.15947467167E+07	-5.19522299997E+01	-1.02176100008E+02	-2.16279698833E-03	-3.89299899998E+01	-1.90531000272E-03	-3.89239199996E+01	-4.91866900023E+01	1.60619500019E+02
4.16260162602E+07	-5.17280100005E+01	-1.05803999989E+02	-2.47717399394E-03	-3.89589300002E+01	-2.01345600270E-03	-3.89478300002E+01	-4.92325500002E+01	1.61197000003E+02
4.16572858036E+07	-5.18163199989E+01	-1.03742600025E+02	-1.31275501388E-03	-3.89939299996E+01	-2.53262799381E-03	-3.89767899997E+01	-4.92784899995E+01	1.61861299992E+02
4.16885553471E+07	-5.18385400005E+01	-1.03789999999E+02	-1.77797499648E-03	-3.90242600001E+01	-2.48203999924E-03	-3.90118700001E+01	-4.93365799994E+01	1.61002300000E+02
4.17198248906E+07	-5.20211899974E+01	-1.03448400005E+02	-5.81338716966E-04	-3.90436099997E+01	-2.22445200365E-03	-3.90398399996E+01	-4.91202300030E+01	1.60913000001E+02
4.17510944340E+07	-5.23663499998E+01	-1.05826699997E+02	-2.56676299938E-03	-3.90747700000E+01	-1.42726700023E-03	-3.90787700000E+01	-4.91392999998E+01	1.61715000000E+02
4.17823639775E+07	-5.20955099950E+01	-1.01647900029E+02	-1.65426603330E-03	-3.91112800003E+01	-1.76789401241E-03	-3.90904600006E+01	-4.88446400059E+01	1.61726199979E+02
4.18136335210E+07	-5.17804200005E+01	-1.03501699997E+02	-3.79770199661E-03	-3.91279000000E+01	-2.56630999874E-03	-3.91282099999E+01	-4.92350999994E+01	1.60343100002E+02
4.18449030644E+07	-5.20902199978E+01	-1.04428199982E+02	-1.87483499596E-03	-3.91561000006E+01	-1.88300797386E-03	-3.91582200002E+01	-4.90330299967E+01	1.61287699999E+02
4.18761726079E+07	-5.19297300006E+01	-1.03084300005E+02	-1.57036500117E-03	-3.92010199998E+01	8.48082124430E-05	-3.91744099999E+01	-4.87860500009E+01	1.61179500000E+02
4.19074421513E+07	-5.21182400008E+01	-1.05858899969E+02	-2.15453300860E-03	-3.92200300003E+01	-2.06882799418E-03	-3.92144800002E+01	-4.90799600028E+01	1.60890500008E+02
4.19387116948E+07	-5.21897299996E+01	-1.03059500017E+02	-2.93504499524E-03	-3.92480799998E+01	-1.54092000322E-03	-3.92359599999E+01	-4.93379999984E+01	1.61606599996E+02
4.19699812383E+07	-5.18143400041E+01	-1.03287500003E+02	-1.98004098964E-03	-3.92825700002E+01	-1.49405400408E-03	-3.92878200001E+01	-4.91593399999E+01	1.60364800002E+02
4.20012507817E+07	-5.22898599959E+01	-1.03626199997E+02	-7.97326709886E-04	-3.93101499998E+01	-1.95948199611E-03	-3.92958299999E+01	-4.91434400001E+01	1.60567499998E+02
4.20325203252E+07	-5.24365299970E+01	-1.02448100009E+02	-2.44672699211E-03	-3.93434600002E+01	-1.43642400127E-03	-3.93199100003E+01	-4.89551599990E+01	1.59881200009E+02
4.20637898687E+07	-5.19857600047E+01	-1.03873799985E+02	-1.23241701290E-03	-3.93696699997E+01	-1.63164799793E-03	-3.93661299995E+01	-4.87974900017E+01	1.61237899986E+02
4.20950594121E+07	-5.20623400000E+01	-1.02519900004E+02	-1.16349400703E-03	-3.93999300001E+01	-1.37708500432E-03	-3.93889700001E+01	-4.88793700003E+01	1.59655700002E+02
4.21263289556E+07	-5.20559300001E+01	-1.03358299989E+02	-2.82112797865E-03	-3.94233299997E+01	-2.39507198689E-03	-3.94221099996E+01	-4.89492199991E+01	1.60225899993E+02
4.21575984991E+07	-5.21312000000E+01	-1.01223300001E+02	-2.84386299849E-03	-3.94592900000E+01	-1.34029399901E-03	-3.94562800000E+01	-4.89601399999E+01	1.59624600000E+02
4.21888680425E+07	-5.21131400003E+01	-1.01900499990E+02	-2.08102101155E-03	-3.94772299997E+01	-8.42334807538E-04	-3.94655399999E+01	-4.89120000007E+01	1.59636400000E+02
4.22201375860E+07	-5.23659899999E+01	-1.00524400000E+02	-2.13511399999E-03	-3.95130700000E+01	-1.41156699984E-03	-3.95076000000E+01	-4.89149700000E+01	1.60674900000E+02
4.22514071295E+07	-5.19367500019E+01	-1.02986900002E+02	-4.70492200701E-05	-3.95402100005E+01	-1.93844100380E-03	-3.95372400005E+01	-4.87762800019E+01	1.59753800004E+02
4.22826766729E+07	-5.20712199997E+01	-1.03130700000E+02	-1.42362199650E-03	-3.95738599999E+01	-2.19903399934E-03	-3.95700699999E+01	-4.89089399997E+01	1.60038399999E+02
4.23139462164E+07	-5.21977899952E+01	-1.03080200010E+02	-1.93385815687E-04	-3.95987200005E+01	-1.27221501306E-03	-3.95977300005E+01	-4.88895699976E+01	1.60007099998E+02
4.23452157598E+07	-5.18138600018E+01	-1.03878999996E+02	-1.46678599389E-03	-3.96396099998E+01	-2.33220999491E-03	-3.96378199998E+01	-4.86951600009E+01	1.59815000001E+02
4.23764853033E+07	-5.19276900024E+01	-1.03027199999E+02	-2.37725599913E-03	-3.96588600004E+01	-1.44937300534E-03	-3.96658800002E+01	-4.89055799992E+01	1.58975200002E+02
4.24077548468E+07	-5.21721999982E+01	-1.02951600001E+02	-2.29056400061E-03	-3.96970199997E+01	-1.98052999625E-03	-3.96853299999E+01	-4.88226700006E+01	1.59139799999E+02
4.24390243902E+07	-5.21569699997E+01	-1.03100299987E+02	-1.60552900794E-03	-3.97219800002E+01	-3.21235898724E-03	-3.97147700002E+01	-4.87888500009E+01	1.60534599995E+02
4.24702939337E+07	-5.21220900003E+01	-1.01375700016E+02	-2.62320899051E-03	-3.97444299998E+01	-1.57669801524E-03	-3.97372499998E+01	-4.89108399989E+01	1.59842400006E+02
4.25015634772E+07	-5.23401899990E+01	-1.03961499986E+02	-7.21408096484E-04	-3.97749800002E+01	-8.01377593374E-04	-3.97729900001E+01	-4.88876999982E+01	1.59112400005E+02
4.25328330206E+07	-5.21657500020E+01	-1.01465200029E+02	-8.68088073485E-05	-3.98052199996E+01	3.94290286155E-04	-3.97993799997E+01	-4.85769200035E+01	1.60049199989E+02
4.25641025641E+07	-5.23647199996E+01	-1.01723700002E+02	-3.71801508082E-04	-3.98367400001E+01	-3.09116798622E-03	-3.98327800001E+01	-4.86270800000E+01	1.60207099999E+02
4.25953721076E+07	-5.22477300016E+01	-1.02266699992E+02	-2.83631996588E-03	-3.98680799996E+01	1.10917894188E-03	-3.98602999996E+01	-4.86365399999E+01	1.59753600006E+02
4.26266416510E+07	-5.18911400002E+01	-1.00493400001E+02	-2.48271299803E-03	-3.98943000000E+01	-9.83765699260E-04	-3.98847700000E+01	-4.86895599998E+01	1.60145499999E+02
4.26579111945E+07	-5.21275600029E+01	-1.01778500032E+02	-5.49696430682E-04	-3.99340100003E+01	-2.57467512796E-04	-3.99201200005E+01	-4.85064999998E+01	1.59033100018E+02
4.26891807380E+07	-5.23111299998E+01	-1.03775199998E+02	-2.48197999760E-03	-3.99531000000E+01	-1.06335999900E-03	-3.99496400000E+01	-4.84947500000E+01	1.60139399999E+02
4.27204502814E+07	-5.19340399973E+01	-1.03298199982E+02	-3.79804997824E-03	-3.99849100004E+01	-3.53437596348E-03	-3.99748900003E+01	-4.86461000028E+01	1.58775700001E+02
4.27517198249E+07	-5.17396100007E+01	-1.01948300005E+02	-2.20056300559E-03	-4.00160099999E+01	-8.53616109381E-04	-4.00000999999E+01	-4.88551999993E+01	1.58853500000E+02
4.27829893684E+07	-5.21504700018E+01	-1.04882899972E+02	-1.01655400133E-03	-4.00457000002E+01	-1.74982598539E-03	-4.00364600003E+01	-4.85673300035E+01	1.58973300022E+02
4.28142589118E+07	-5.23111799991E+01	-1.02411400014E+02	-1.13356099933E-03	-4.00671399999E+01	-4.64346107404E-04	-4.00650499998E+01	-4.88784599982E+01	1.60914699989E+02
4.28455284553E+07	-5.22917999987E+01	-1.02668099995E+02	-1.79845714847E-04	-4.01079800001E+01	-2.59972498310E-03	-4.00986400003E+01	-4.85899200007E+01	1.58550900019E+02
4.28767979987E+07	-5.21531000011E+01	-1.02104300005E+02	-1.81145898691E-03	-4.01169599999E+01	-7.42450714894E-04	-4.01288299998E+01	-4.86616999994E+01	1.60593599984E+02
4.29080675422E+07	-5.20377300019E+01	-1.02866499988E+02	-2.73888199397E-03	-4.01478800003E+01	-1.01043300500E-03	-4.01417300003E+01	-4.85731500017E+01	1.60313299998E+02
4.29393370857E+07	-5.23184499971E+01	-1.01086800018E+02	-1.85804100905E-03	-4.01870799996E+01	-1.74178299248E-03	-4.01895099995E+01	-4.88251999974E+01	1.60046300003E+02
4.29706066291E+07	-5.19921600002E+01	-1.02490400002E+02	-1.15849499872E-03	-4.02150400002E+01	-1.93223199167E-03	-4.02237100001E+01	-4.86059499991E+01	1.60846899992E+02
4.30018761726E+07	-5.20303299995E+01	-1.02967499994E+02	-8.78759903507E-04	-4.02498399996E+01	-1.13098422810E-04	-4.02512999997E+01	-4.84153400024E+01	1.59174000021E+02
4.30331457161E+07	-5.22850999993E+01	-1.00286200003E+02	-3.35951699780E-03	-4.02845200000E+01	-1.81285399653E-03	-4.02752500001E+01	-4.84815900002E+01	1.59267000002E+02
4.30644152595E+07	-5.19844700044E+01	-1.01389399984E+02	-2.41058901404E-03	-4.02988399998E+01	-3.17748222126E-04	-4.03022899996E+01	-4.85768399986E+01	1.60018499989E+02
4.30956848030E+07	-5.22233200000E+01	-1.01209400000E+02	-2.72199799993E-03	-4.03445900000E+01	-1.14382200005E-03	-4.03336700000E+01	-4.85291800000E+01	1.60284800000E+02
4.31269543465E+07	-5.24239699954E+01	-1.00108400023E+02	-1.52748901606E-03	-4.03697500003E+01	-2.04307197883E-03	-4.03654300003E+01	-4.83736800000E+01	1.58516000010E+02
4.31582238899E+07	-5.21180000007E+01	-1.01676999997E+02	-2.60422199763E-03	-4.03895500000E+01	-6.24038703122E-04	-4.03879200000E+01	-4.83747600000E+01	1.59196799999E+02
4.31894934334E+07	-5.18766600056E+01	-1.00807199997E+02	-1.06655200064E-03	-4.04300400003E+01	-2.37752898136E-03	-4.04349600001E+01	-4.83949300007E+01	1.58792400008E+02
4.32207629769E+07	-5.23279699979E+01	-1.00579700001E+02	-1.11696899978E-03	-4.04517699999E+01	-9.05248906567E-04	-4.04458400000E+01	-4.84526699997E+01	1.59411199997E+02
4.32520325203E+07	-5.20878800026E+01	-1.01808700004E+02	-2.48431699821E-03	-4.04877600002E+01	-1.79142199648E-03	-4.04926000001E+01	-4.86190399987E+01	1.59794999989E+02
4.32833020638E+07	-5.23381999983E+01	-1.02150099998E+02	-2.31238800115E-03	-4.05079699999E+01	-1.45338000227E-03	-4.05024699999E+01	-4.84966500008E+01	1.58718700007E+02
4.33145716073E+07	-5.18616500011E+01	-1.01624099992E+02	-5.30490112718E-04	-4.05393800003E+01	-1.41905306312E-04	-4.05288300002E+01	-4.81758100009E+01	1.57946800001E+02
4.33458411507E+07	-5.20004199987E+01	-1.00619700009E+02	-2.09300498597E-03	-4.05715199997E+01	-9.17404593035E-04	-4.05580799997E+01	-4.82820399990E+01	1.58070999999E+02
4.33771106942E+07	-5.19882100002E+01	-1.03264699982E+02	-1.94785299309E-03	-4.05979300002E+01	-8.13171005009E-04	-4.05983000001E+01	-4.82139200018E+01	1.59257499998E+02
4.34083802376E+07	-5.20295599995E+01	-1.00135700035E+02	-7.72059113216E-04	-4.06318099996E+01	-1.66491299043E-03	-4.06220999997E+01	-4.85185299965E+01	1.58972700003E+02
4.34396497811E+07	-5.20528899999E+01	-1.00958200001E+02	-1.36311900114E-03	-4.06598500002E+01	-2.71242099368E-03	-4.06553900001E+01	-4.84990999995E+01	1.57986099995E+02
4.34709193246E+07	-5.20229700004E+01	-1.01360799995E+02	-1.67805499575E-03	-4.07055699994E+01	-9.67396323556E-04	-4.06809399997E+01	-4.83579400019E+01	1.56633000018E+02
4.35021888680E+07	-5.18975400005E+01	-1.01306800000E+02	-8.06846102471E-04	-4.07195700000E+01	-1.67116500215E-03	-4.07174300000E+01	-4.83265700002E+01	1.57416600000E+02
4.35334584115E+07	-5.22735399939E+01	-1.01246700001E+02	-2.62532797134E-03	-4.07449199996E+01	-3.25569797502E-03	-4.07398999996E+01	-4.84791999976E+01	1.57706599995E+02
4.35647279550E+07	-5.20576300002E+01	-1.01628400000E+02	-2.21176200037E-03	-4.07701400000E+01	2.42520596852E-04	-4.07767900000E+01	-4.83442900001E+01	1.58448399999E+02
4.35959974984E+07	-5.21707599962E+01	-1.00445100007E+02	-2.00615499172E-03	-4.08027400003E+01	-2.20520999533E-03	-4.08143600003E+01	-4.82880199982E+01	1.58182599987E+02
4.36272670419E+07	-5.19039400008E+01	-1.00940099998E+02	-1.41289700187E-03	-4.08240299999E+01	-1.87080100106E-03	-4.08353999999E+01	-4.81602200004E+01	1.57279100003E+02
