!Agilent Technologies,E5061B,MY49102235,A.02.00
!Date: Thu Jun 29 15:03:53 2023
!Data & Calibration Information:
!Freq	S11:SOLT2(ON)	S21:SOLT2(ON)	S12:SOLT2(ON)	S22:SOLT2(ON)
# Hz S dB R 50
40000000.000	-5.173334e+001	-1.051369e+002	-5.334881e-004	-3.744600e+001	-1.329554e-003	-3.743831e+001	-4.952731e+001	1.643690e+002
40031269.543	-5.158381e+001	-1.043821e+002	1.058282e-003	-3.747544e+001	-2.113213e-003	-3.745794e+001	-4.964564e+001	1.634750e+002
40062539.087	-5.151289e+001	-1.052859e+002	-2.259474e-003	-3.749558e+001	-2.670802e-003	-3.748193e+001	-4.969999e+001	1.639913e+002
40093808.630	-5.148847e+001	-1.047711e+002	-2.112582e-003	-3.752823e+001	-1.776307e-003	-3.751879e+001	-4.961545e+001	1.625480e+002
40125078.174	-5.167432e+001	-1.058735e+002	-1.475268e-003	-3.755746e+001	-2.854356e-003	-3.755371e+001	-4.980939e+001	1.619075e+002
40156347.717	-5.165070e+001	-1.043512e+002	-7.471431e-004	-3.758579e+001	-1.450225e-003	-3.758061e+001	-4.953702e+001	1.631213e+002
40187617.261	-5.151971e+001	-1.038965e+002	-1.841515e-003	-3.760980e+001	-1.731077e-003	-3.760629e+001	-4.964573e+001	1.642641e+002
40218886.804	-5.171452e+001	-1.047734e+002	-7.413912e-004	-3.764688e+001	-2.199003e-003	-3.764283e+001	-4.971478e+001	1.640309e+002
40250156.348	-5.155384e+001	-1.043944e+002	-7.953932e-004	-3.766385e+001	-2.023283e-003	-3.765929e+001	-4.967155e+001	1.651111e+002
40281425.891	-5.171266e+001	-1.049562e+002	7.291049e-004	-3.770559e+001	-2.841470e-003	-3.769713e+001	-4.960597e+001	1.634811e+002
40312695.435	-5.153970e+001	-1.037118e+002	8.031733e-006	-3.773794e+001	-1.744073e-003	-3.772216e+001	-4.975673e+001	1.641408e+002
40343964.978	-5.183748e+001	-1.041438e+002	-1.411944e-003	-3.776337e+001	-1.636643e-003	-3.774899e+001	-4.955702e+001	1.625816e+002
40375234.522	-5.178688e+001	-1.045374e+002	-1.236399e-003	-3.779937e+001	-1.268719e-003	-3.777811e+001	-4.943830e+001	1.628472e+002
40406504.065	-5.185294e+001	-1.056545e+002	-3.476120e-003	-3.782104e+001	-1.340688e-003	-3.781871e+001	-4.970203e+001	1.637526e+002
40437773.609	-5.143588e+001	-1.063527e+002	-5.881550e-004	-3.783736e+001	-8.194432e-004	-3.783246e+001	-4.981344e+001	1.637832e+002
40469043.152	-5.146909e+001	-1.041671e+002	-2.064280e-003	-3.787262e+001	-1.354599e-003	-3.786222e+001	-4.957875e+001	1.626480e+002
40500312.695	-5.113867e+001	-1.035188e+002	-2.449006e-003	-3.792473e+001	-2.716571e-003	-3.789749e+001	-4.938459e+001	1.628580e+002
40531582.239	-5.162475e+001	-1.045122e+002	-3.551847e-003	-3.793967e+001	-5.726090e-004	-3.793657e+001	-4.934312e+001	1.623454e+002
40562851.782	-5.200605e+001	-1.043502e+002	-2.339357e-003	-3.797898e+001	-4.189522e-003	-3.796700e+001	-4.967539e+001	1.643370e+002
40594121.326	-5.173815e+001	-1.046200e+002	-1.493079e-003	-3.799175e+001	-2.223860e-003	-3.798156e+001	-4.951662e+001	1.619766e+002
40625390.869	-5.177892e+001	-1.049201e+002	-8.122589e-004	-3.801808e+001	2.873534e-004	-3.801771e+001	-4.954756e+001	1.633474e+002
40656660.413	-5.176599e+001	-1.050314e+002	-1.750953e-003	-3.805477e+001	-1.544588e-003	-3.803020e+001	-4.959899e+001	1.627548e+002
40687929.956	-5.194268e+001	-1.049937e+002	1.237289e-003	-3.808890e+001	-1.719908e-003	-3.807306e+001	-4.955334e+001	1.633353e+002
40719199.500	-5.193421e+001	-1.050654e+002	-2.181563e-003	-3.811540e+001	1.541549e-004	-3.811781e+001	-4.984711e+001	1.624565e+002
40750469.043	-5.167970e+001	-1.048575e+002	-3.382148e-003	-3.813708e+001	-2.298306e-003	-3.813757e+001	-4.936031e+001	1.633005e+002
40781738.587	-5.173130e+001	-1.036553e+002	-2.762989e-004	-3.816863e+001	-1.435022e-003	-3.816454e+001	-4.931105e+001	1.636814e+002
40813008.130	-5.162672e+001	-1.041233e+002	-2.324974e-004	-3.818856e+001	-2.139991e-003	-3.820139e+001	-4.942224e+001	1.629626e+002
40844277.674	-5.172810e+001	-1.047163e+002	-2.179566e-003	-3.823507e+001	-2.487646e-003	-3.822996e+001	-4.927446e+001	1.630564e+002
40875547.217	-5.169667e+001	-1.042650e+002	-3.231338e-003	-3.826457e+001	-1.113979e-003	-3.824229e+001	-4.935957e+001	1.628771e+002
40906816.760	-5.192922e+001	-1.033766e+002	-1.248618e-004	-3.828913e+001	-6.962553e-004	-3.827498e+001	-4.964718e+001	1.618153e+002
40938086.304	-5.160864e+001	-1.044261e+002	-1.421561e-003	-3.832449e+001	-3.376013e-004	-3.830525e+001	-4.925625e+001	1.624360e+002
40969355.847	-5.193918e+001	-1.057818e+002	-3.121138e-003	-3.834003e+001	-1.720821e-003	-3.834519e+001	-4.934548e+001	1.630558e+002
41000625.391	-5.209140e+001	-1.043221e+002	-2.417585e-003	-3.837705e+001	-3.831487e-003	-3.837034e+001	-4.934198e+001	1.619226e+002
41031894.934	-5.233862e+001	-1.035311e+002	-2.148134e-003	-3.839780e+001	-2.923432e-003	-3.839658e+001	-4.929164e+001	1.623096e+002
41063164.478	-5.192519e+001	-1.050971e+002	-5.995837e-004	-3.842882e+001	-1.752345e-003	-3.842112e+001	-4.937881e+001	1.628312e+002
41094434.021	-5.183128e+001	-1.042835e+002	-1.483136e-003	-3.845701e+001	-1.113979e-003	-3.846025e+001	-4.934339e+001	1.626200e+002
41125703.565	-5.196447e+001	-1.030938e+002	-1.569232e-003	-3.848629e+001	-1.621292e-003	-3.847738e+001	-4.920852e+001	1.622965e+002
41156973.108	-5.179618e+001	-1.021453e+002	-3.570546e-003	-3.850644e+001	-3.323133e-003	-3.851726e+001	-4.921651e+001	1.622580e+002
41188242.652	-5.210984e+001	-1.047608e+002	-6.701566e-004	-3.856058e+001	-1.490201e-003	-3.855259e+001	-4.945458e+001	1.625239e+002
41219512.195	-5.180062e+001	-1.015335e+002	-1.924171e-003	-3.857872e+001	-2.824532e-003	-3.857505e+001	-4.937087e+001	1.627093e+002
41250781.739	-5.167887e+001	-1.044337e+002	-1.748999e-003	-3.862600e+001	-2.216773e-003	-3.860919e+001	-4.936555e+001	1.622528e+002
41282051.282	-5.183916e+001	-1.017339e+002	-1.146903e-003	-3.864035e+001	-2.787904e-003	-3.863494e+001	-4.922600e+001	1.625586e+002
41313320.826	-5.202141e+001	-1.049242e+002	-2.728753e-003	-3.867054e+001	-2.285825e-003	-3.865665e+001	-4.920447e+001	1.626749e+002
41344590.369	-5.173006e+001	-1.040837e+002	-3.261582e-003	-3.869309e+001	-1.478334e-003	-3.869060e+001	-4.926768e+001	1.606469e+002
41375859.912	-5.181563e+001	-1.065351e+002	-2.248557e-003	-3.872193e+001	-3.991815e-003	-3.872196e+001	-4.941465e+001	1.618015e+002
41407129.456	-5.183932e+001	-1.039614e+002	-1.541679e-003	-3.875304e+001	-2.591159e-003	-3.874307e+001	-4.907814e+001	1.606869e+002
41438398.999	-5.166377e+001	-1.027886e+002	5.654313e-005	-3.877907e+001	-2.339865e-003	-3.877262e+001	-4.902418e+001	1.613543e+002
41469668.543	-5.220491e+001	-1.072569e+002	-8.265205e-004	-3.881613e+001	-1.153956e-003	-3.882377e+001	-4.930478e+001	1.618075e+002
41500938.086	-5.202591e+001	-1.049421e+002	-1.312276e-003	-3.884225e+001	-2.674453e-003	-3.884054e+001	-4.938356e+001	1.626670e+002
41532207.630	-5.179908e+001	-1.026882e+002	-2.589578e-003	-3.887385e+001	-1.611195e-003	-3.886929e+001	-4.928470e+001	1.619119e+002
41563477.173	-5.191665e+001	-1.030372e+002	-9.548095e-004	-3.891144e+001	-2.186472e-003	-3.888256e+001	-4.942857e+001	1.625390e+002
41594746.717	-5.195223e+001	-1.021761e+002	-2.162797e-003	-3.892999e+001	-1.905310e-003	-3.892392e+001	-4.918669e+001	1.606195e+002
41626016.260	-5.172801e+001	-1.058040e+002	-2.477174e-003	-3.895893e+001	-2.013456e-003	-3.894783e+001	-4.923255e+001	1.611970e+002
41657285.804	-5.181632e+001	-1.037426e+002	-1.312755e-003	-3.899393e+001	-2.532628e-003	-3.897679e+001	-4.927849e+001	1.618613e+002
41688555.347	-5.183854e+001	-1.037900e+002	-1.777975e-003	-3.902426e+001	-2.482040e-003	-3.901187e+001	-4.933658e+001	1.610023e+002
41719824.891	-5.202119e+001	-1.034484e+002	-5.813387e-004	-3.904361e+001	-2.224452e-003	-3.903984e+001	-4.912023e+001	1.609130e+002
41751094.434	-5.236635e+001	-1.058267e+002	-2.566763e-003	-3.907477e+001	-1.427267e-003	-3.907877e+001	-4.913930e+001	1.617150e+002
41782363.977	-5.209551e+001	-1.016479e+002	-1.654266e-003	-3.911128e+001	-1.767894e-003	-3.909046e+001	-4.884464e+001	1.617262e+002
41813633.521	-5.178042e+001	-1.035017e+002	-3.797702e-003	-3.912790e+001	-2.566310e-003	-3.912821e+001	-4.923510e+001	1.603431e+002
41844903.064	-5.209022e+001	-1.044282e+002	-1.874835e-003	-3.915610e+001	-1.883008e-003	-3.915822e+001	-4.903303e+001	1.612877e+002
41876172.608	-5.192973e+001	-1.030843e+002	-1.570365e-003	-3.920102e+001	8.480822e-005	-3.917441e+001	-4.878605e+001	1.611795e+002
41907442.151	-5.211824e+001	-1.058589e+002	-2.154533e-003	-3.922003e+001	-2.068828e-003	-3.921448e+001	-4.907996e+001	1.608905e+002
41938711.695	-5.218973e+001	-1.030595e+002	-2.935045e-003	-3.924808e+001	-1.540920e-003	-3.923596e+001	-4.933800e+001	1.616066e+002
41969981.238	-5.181434e+001	-1.032875e+002	-1.980041e-003	-3.928257e+001	-1.494054e-003	-3.928782e+001	-4.915934e+001	1.603648e+002
42001250.782	-5.228986e+001	-1.036262e+002	-7.973267e-004	-3.931015e+001	-1.959482e-003	-3.929583e+001	-4.914344e+001	1.605675e+002
42032520.325	-5.243653e+001	-1.024481e+002	-2.446727e-003	-3.934346e+001	-1.436424e-003	-3.931991e+001	-4.895516e+001	1.598812e+002
42063789.869	-5.198576e+001	-1.038738e+002	-1.232417e-003	-3.936967e+001	-1.631648e-003	-3.936613e+001	-4.879749e+001	1.612379e+002
42095059.412	-5.206234e+001	-1.025199e+002	-1.163494e-003	-3.939993e+001	-1.377085e-003	-3.938897e+001	-4.887937e+001	1.596557e+002
42126328.956	-5.205593e+001	-1.033583e+002	-2.821128e-003	-3.942333e+001	-2.395072e-003	-3.942211e+001	-4.894922e+001	1.602259e+002
42157598.499	-5.213120e+001	-1.012233e+002	-2.843863e-003	-3.945929e+001	-1.340294e-003	-3.945628e+001	-4.896014e+001	1.596246e+002
42188868.043	-5.211314e+001	-1.019005e+002	-2.081021e-003	-3.947723e+001	-8.423348e-004	-3.946554e+001	-4.891200e+001	1.596364e+002
42220137.586	-5.236599e+001	-1.005244e+002	-2.135114e-003	-3.951307e+001	-1.411567e-003	-3.950760e+001	-4.891497e+001	1.606749e+002
42251407.129	-5.193675e+001	-1.029869e+002	-4.704920e-005	-3.954021e+001	-1.938441e-003	-3.953724e+001	-4.877628e+001	1.597538e+002
42282676.673	-5.207122e+001	-1.031307e+002	-1.423622e-003	-3.957386e+001	-2.199034e-003	-3.957007e+001	-4.890894e+001	1.600384e+002
42313946.216	-5.219779e+001	-1.030802e+002	-1.933858e-004	-3.959872e+001	-1.272215e-003	-3.959773e+001	-4.888957e+001	1.600071e+002
42345215.760	-5.181386e+001	-1.038790e+002	-1.466786e-003	-3.963961e+001	-2.332210e-003	-3.963782e+001	-4.869516e+001	1.598150e+002
42376485.303	-5.192769e+001	-1.030272e+002	-2.377256e-003	-3.965886e+001	-1.449373e-003	-3.966588e+001	-4.890558e+001	1.589752e+002
42407754.847	-5.217220e+001	-1.029516e+002	-2.290564e-003	-3.969702e+001	-1.980530e-003	-3.968533e+001	-4.882267e+001	1.591398e+002
42439024.390	-5.215697e+001	-1.031003e+002	-1.605529e-003	-3.972198e+001	-3.212359e-003	-3.971477e+001	-4.878885e+001	1.605346e+002
42470293.934	-5.212209e+001	-1.013757e+002	-2.623209e-003	-3.974443e+001	-1.576698e-003	-3.973725e+001	-4.891084e+001	1.598424e+002
42501563.477	-5.234019e+001	-1.039615e+002	-7.214081e-004	-3.977498e+001	-8.013776e-004	-3.977299e+001	-4.888770e+001	1.591124e+002
42532833.021	-5.216575e+001	-1.014652e+002	-8.680880e-005	-3.980522e+001	3.942903e-004	-3.979938e+001	-4.857692e+001	1.600492e+002
42564102.564	-5.236472e+001	-1.017237e+002	-3.718015e-004	-3.983674e+001	-3.091168e-003	-3.983278e+001	-4.862708e+001	1.602071e+002
42595372.108	-5.224773e+001	-1.022667e+002	-2.836320e-003	-3.986808e+001	1.109179e-003	-3.986030e+001	-4.863654e+001	1.597536e+002
42626641.651	-5.189114e+001	-1.004934e+002	-2.482713e-003	-3.989430e+001	-9.837657e-004	-3.988477e+001	-4.868956e+001	1.601455e+002
42657911.194	-5.212756e+001	-1.017785e+002	-5.496964e-004	-3.993401e+001	-2.574675e-004	-3.992012e+001	-4.850650e+001	1.590331e+002
42689180.738	-5.231113e+001	-1.037752e+002	-2.481980e-003	-3.995310e+001	-1.063360e-003	-3.994964e+001	-4.849475e+001	1.601394e+002
42720450.281	-5.193404e+001	-1.032982e+002	-3.798050e-003	-3.998491e+001	-3.534376e-003	-3.997489e+001	-4.864610e+001	1.587757e+002
42751719.825	-5.173961e+001	-1.019483e+002	-2.200563e-003	-4.001601e+001	-8.536161e-004	-4.000010e+001	-4.885520e+001	1.588535e+002
42782989.368	-5.215047e+001	-1.048829e+002	-1.016554e-003	-4.004570e+001	-1.749826e-003	-4.003646e+001	-4.856733e+001	1.589733e+002
42814258.912	-5.231118e+001	-1.024114e+002	-1.133561e-003	-4.006714e+001	-4.643461e-004	-4.006505e+001	-4.887846e+001	1.609147e+002
42845528.455	-5.229180e+001	-1.026681e+002	-1.798457e-004	-4.010798e+001	-2.599725e-003	-4.009864e+001	-4.858992e+001	1.585509e+002
42876797.999	-5.215310e+001	-1.021043e+002	-1.811459e-003	-4.011696e+001	-7.424507e-004	-4.012883e+001	-4.866170e+001	1.605936e+002
42908067.542	-5.203773e+001	-1.028665e+002	-2.738882e-003	-4.014788e+001	-1.010433e-003	-4.014173e+001	-4.857315e+001	1.603133e+002
42939337.086	-5.231845e+001	-1.010868e+002	-1.858041e-003	-4.018708e+001	-1.741783e-003	-4.018951e+001	-4.882520e+001	1.600463e+002
42970606.629	-5.199216e+001	-1.024904e+002	-1.158495e-003	-4.021504e+001	-1.932232e-003	-4.022371e+001	-4.860595e+001	1.608469e+002
43001876.173	-5.203033e+001	-1.029675e+002	-8.787599e-004	-4.024984e+001	-1.130984e-004	-4.025130e+001	-4.841534e+001	1.591740e+002
43033145.716	-5.228510e+001	-1.002862e+002	-3.359517e-003	-4.028452e+001	-1.812854e-003	-4.027525e+001	-4.848159e+001	1.592670e+002
43064415.260	-5.198447e+001	-1.013894e+002	-2.410589e-003	-4.029884e+001	-3.177482e-004	-4.030229e+001	-4.857684e+001	1.600185e+002
43095684.803	-5.222332e+001	-1.012094e+002	-2.721998e-003	-4.034459e+001	-1.143822e-003	-4.033367e+001	-4.852918e+001	1.602848e+002
43126954.346	-5.242397e+001	-1.001084e+002	-1.527489e-003	-4.036975e+001	-2.043072e-003	-4.036543e+001	-4.837368e+001	1.585160e+002
43158223.890	-5.211800e+001	-1.016770e+002	-2.604222e-003	-4.038955e+001	-6.240387e-004	-4.038792e+001	-4.837476e+001	1.591968e+002
43189493.433	-5.187666e+001	-1.008072e+002	-1.066552e-003	-4.043004e+001	-2.377529e-003	-4.043496e+001	-4.839493e+001	1.587924e+002
43220762.977	-5.232797e+001	-1.005797e+002	-1.116969e-003	-4.045177e+001	-9.052489e-004	-4.044584e+001	-4.845267e+001	1.594112e+002
43252032.520	-5.208788e+001	-1.018087e+002	-2.484317e-003	-4.048776e+001	-1.791422e-003	-4.049260e+001	-4.861904e+001	1.597950e+002
43283302.064	-5.233820e+001	-1.021501e+002	-2.312388e-003	-4.050797e+001	-1.453380e-003	-4.050247e+001	-4.849665e+001	1.587187e+002
43314571.607	-5.186165e+001	-1.016241e+002	-5.304901e-004	-4.053938e+001	-1.419053e-004	-4.052883e+001	-4.817581e+001	1.579468e+002
43345841.151	-5.200042e+001	-1.006197e+002	-2.093005e-003	-4.057152e+001	-9.174046e-004	-4.055808e+001	-4.828204e+001	1.580710e+002
43377110.694	-5.198821e+001	-1.032647e+002	-1.947853e-003	-4.059793e+001	-8.131710e-004	-4.059830e+001	-4.821392e+001	1.592575e+002
43408380.238	-5.202956e+001	-1.001357e+002	-7.720591e-004	-4.063181e+001	-1.664913e-003	-4.062210e+001	-4.851853e+001	1.589727e+002
43439649.781	-5.205289e+001	-1.009582e+002	-1.363119e-003	-4.065985e+001	-2.712421e-003	-4.065539e+001	-4.849910e+001	1.579861e+002
43470919.325	-5.202297e+001	-1.013608e+002	-1.678055e-003	-4.070557e+001	-9.673963e-004	-4.068094e+001	-4.835794e+001	1.566330e+002
43502188.868	-5.189754e+001	-1.013068e+002	-8.068461e-004	-4.071957e+001	-1.671165e-003	-4.071743e+001	-4.832657e+001	1.574166e+002
43533458.412	-5.227354e+001	-1.012467e+002	-2.625328e-003	-4.074492e+001	-3.255698e-003	-4.073990e+001	-4.847920e+001	1.577066e+002
43564727.955	-5.205763e+001	-1.016284e+002	-2.211762e-003	-4.077014e+001	2.425206e-004	-4.077679e+001	-4.834429e+001	1.584484e+002
43595997.498	-5.217076e+001	-1.004451e+002	-2.006155e-003	-4.080274e+001	-2.205210e-003	-4.081436e+001	-4.828802e+001	1.581826e+002
43627267.042	-5.190394e+001	-1.009401e+002	-1.412897e-003	-4.082403e+001	-1.870801e-003	-4.083540e+001	-4.816022e+001	1.572791e+002
43658536.585	-5.189980e+001	-9.930642e+001	-2.102286e-003	-4.086070e+001	-9.721509e-005	-4.086915e+001	-4.813402e+001	1.574511e+002
43689806.129	-5.193075e+001	-9.897485e+001	-2.158386e-003	-4.089826e+001	-1.453642e-003	-4.088533e+001	-4.831429e+001	1.582453e+002
43721075.672	-5.230337e+001	-1.029348e+002	-3.052346e-003	-4.092521e+001	-9.788811e-004	-4.091405e+001	-4.845408e+001	1.585107e+002
43752345.216	-5.182954e+001	-9.961529e+001	-2.399962e-004	-4.094339e+001	-1.754517e-003	-4.095634e+001	-4.835611e+001	1.574766e+002
43783614.759	-5.196104e+001	-9.942976e+001	-2.395685e-003	-4.098613e+001	-5.145780e-004	-4.098356e+001	-4.834274e+001	1.588525e+002
43814884.303	-5.206208e+001	-1.031009e+002	-1.120887e-003	-4.100600e+001	-1.594442e-003	-4.100676e+001	-4.818908e+001	1.579403e+002
43846153.846	-5.188183e+001	-9.997666e+001	-1.991923e-003	-4.102846e+001	1.833453e-005	-4.102774e+001	-4.816679e+001	1.583107e+002
43877423.390	-5.178097e+001	-1.002023e+002	-1.184288e-003	-4.107142e+001	-1.806847e-003	-4.105959e+001	-4.826667e+001	1.571989e+002
43908692.933	-5.225722e+001	-1.012447e+002	-2.069609e-003	-4.110562e+001	-1.157384e-003	-4.108502e+001	-4.810753e+001	1.567063e+002
43939962.477	-5.203631e+001	-1.034541e+002	-1.159505e-005	-4.112433e+001	-1.118128e-003	-4.111561e+001	-4.830945e+001	1.576784e+002
43971232.020	-5.185423e+001	-1.000781e+002	-2.119455e-003	-4.116739e+001	-1.994932e-004	-4.115151e+001	-4.818550e+001	1.573690e+002
44002501.563	-5.191962e+001	-1.013128e+002	-3.161528e-003	-4.118344e+001	-1.598747e-003	-4.117680e+001	-4.814478e+001	1.562301e+002
44033771.107	-5.189141e+001	-1.012827e+002	-1.670888e-003	-4.120957e+001	-6.371355e-004	-4.120678e+001	-4.821000e+001	1.559418e+002
44065040.650	-5.229357e+001	-1.013343e+002	-1.410513e-003	-4.123486e+001	-2.512373e-003	-4.123799e+001	-4.828434e+001	1.557495e+002
44096310.194	-5.194885e+001	-1.010510e+002	-7.115161e-004	-4.126761e+001	-2.420212e-003	-4.127182e+001	-4.825586e+001	1.567955e+002
44127579.737	-5.183452e+001	-1.012369e+002	-1.110290e-003	-4.129584e+001	-2.278611e-003	-4.129144e+001	-4.820294e+001	1.568726e+002
44158849.281	-5.202068e+001	-1.006858e+002	-2.625302e-003	-4.132393e+001	8.056777e-004	-4.132461e+001	-4.809436e+001	1.562615e+002
44190118.824	-5.190680e+001	-1.005438e+002	-1.564793e-003	-4.136441e+001	-4.220386e-004	-4.136005e+001	-4.817928e+001	1.567028e+002
44221388.368	-5.194367e+001	-1.011528e+002	-5.160778e-004	-4.139291e+001	-1.517654e-003	-4.139423e+001	-4.802608e+001	1.566847e+002
44252657.911	-5.196423e+001	-1.011286e+002	-3.197021e-004	-4.142117e+001	-3.849106e-004	-4.141570e+001	-4.820916e+001	1.564117e+002
44283927.455	-5.218181e+001	-9.950934e+001	-1.414269e-003	-4.144273e+001	-3.528450e-004	-4.143949e+001	-4.802089e+001	1.584523e+002
44315196.998	-5.197551e+001	-1.016053e+002	-9.817556e-004	-4.148209e+001	-1.728846e-003	-4.147978e+001	-4.810935e+001	1.566564e+002
44346466.542	-5.182255e+001	-1.006558e+002	-8.624841e-004	-4.152173e+001	2.091973e-004	-4.150203e+001	-4.790447e+001	1.565610e+002
44377736.085	-5.208566e+001	-1.018415e+002	-2.818098e-003	-4.153456e+001	-2.296736e-003	-4.154249e+001	-4.794583e+001	1.570549e+002
44409005.629	-5.239886e+001	-1.009950e+002	-1.128137e-003	-4.157378e+001	-1.062089e-003	-4.155916e+001	-4.818393e+001	1.563117e+002
44440275.172	-5.176848e+001	-9.885331e+001	-3.074656e-003	-4.158897e+001	-1.496033e-003	-4.159059e+001	-4.792813e+001	1.560600e+002
44471544.715	-5.169751e+001	-1.000936e+002	-2.283835e-003	-4.162695e+001	-1.903333e-003	-4.161981e+001	-4.810964e+001	1.558759e+002
44502814.259	-5.192430e+001	-9.948266e+001	-3.993791e-003	-4.164393e+001	-1.277622e-003	-4.166331e+001	-4.814109e+001	1.555652e+002
44534083.802	-5.207473e+001	-1.011324e+002	-1.544229e-003	-4.169218e+001	-2.652240e-003	-4.167544e+001	-4.810986e+001	1.570549e+002
44565353.346	-5.182919e+001	-1.009184e+002	-1.517060e-003	-4.171014e+001	-1.641702e-003	-4.170546e+001	-4.779468e+001	1.555231e+002
44596622.889	-5.190885e+001	-1.007468e+002	-2.691712e-003	-4.173899e+001	-1.348676e-003	-4.173260e+001	-4.796929e+001	1.554331e+002
44627892.433	-5.200235e+001	-1.010557e+002	-3.419677e-003	-4.176030e+001	-2.505072e-003	-4.176577e+001	-4.781014e+001	1.573882e+002
44659161.976	-5.198421e+001	-1.009464e+002	-2.795573e-003	-4.180393e+001	-1.599738e-003	-4.178871e+001	-4.795427e+001	1.553412e+002
