!Agilent Technologies,E5061B,MY49102235,A.02.00
!Date: Mon Jul 10 16:46:21 2023
!Data & Calibration Information:
!Freq	S11:SOLT2(ON)	S21:SOLT2(ON)	S12:SOLT2(ON)	S22:SOLT2(ON)
# Hz S RI R 50
5.000	-4.512092e-004	4.345454e-004	1.001817e+000	2.317806e-003	1.000569e+000	-6.272707e-005	-1.209336e-004	-6.457526e-005
62544.084	-5.143222e-005	3.750548e-004	1.000115e+000	-1.276862e-003	1.000216e+000	-1.073422e-003	1.667361e-005	2.704381e-004
125083.168	-2.113053e-006	6.670721e-004	1.000147e+000	-3.043368e-003	1.000148e+000	-2.924758e-003	-2.820004e-005	6.493179e-004
187622.251	1.963493e-004	9.313640e-004	9.993515e-001	-3.720384e-003	1.000182e+000	-4.047663e-003	6.994302e-005	9.959541e-004
250161.335	8.227328e-005	1.364722e-003	9.997789e-001	-5.869089e-003	9.997427e-001	-5.867894e-003	6.519605e-005	1.380826e-003
312700.419	8.289295e-005	1.623187e-003	1.000246e+000	-7.218090e-003	9.991643e-001	-6.975549e-003	1.659822e-004	1.687364e-003
375239.503	1.284949e-004	1.997749e-003	9.999202e-001	-8.601650e-003	1.000007e+000	-8.590286e-003	8.863030e-005	1.945883e-003
437778.587	1.892551e-004	2.234983e-003	9.999208e-001	-9.973735e-003	9.990500e-001	-1.037681e-002	1.723974e-004	2.445045e-003
500317.670	2.203395e-004	2.581408e-003	9.997696e-001	-1.167162e-002	9.993251e-001	-1.198111e-002	1.985863e-004	2.738798e-003
562856.754	2.613619e-004	2.998907e-003	9.994825e-001	-1.315087e-002	9.995499e-001	-1.286217e-002	1.882348e-004	2.940704e-003
625395.838	2.551360e-004	3.281019e-003	9.996360e-001	-1.454768e-002	9.989463e-001	-1.431563e-002	2.773230e-004	3.319067e-003
687934.922	1.394527e-004	3.532451e-003	9.999836e-001	-1.574081e-002	1.000145e+000	-1.599306e-002	1.450449e-004	3.604565e-003
750474.006	1.259714e-004	3.843297e-003	9.995064e-001	-1.748351e-002	9.994428e-001	-1.660623e-002	1.126858e-004	3.881509e-003
813013.089	1.674147e-004	4.205376e-003	1.000158e+000	-1.893439e-002	9.988890e-001	-1.844928e-002	1.506871e-004	4.153743e-003
875552.173	1.870374e-004	4.474519e-003	9.995328e-001	-2.043062e-002	9.997666e-001	-2.029753e-002	1.924492e-004	4.488247e-003
938091.257	1.223800e-004	4.831903e-003	9.994414e-001	-2.159720e-002	9.992257e-001	-2.111324e-002	1.423843e-004	4.820604e-003
1000630.341	2.039729e-004	5.218251e-003	9.994830e-001	-2.280405e-002	9.993741e-001	-2.289784e-002	2.402888e-004	5.142075e-003
1063169.425	2.789546e-004	5.523610e-003	1.000175e+000	-2.447470e-002	1.000125e+000	-2.469313e-002	3.102647e-004	5.442662e-003
1125708.508	2.965012e-004	5.830326e-003	9.997323e-001	-2.618125e-002	9.990436e-001	-2.582654e-002	3.246947e-004	5.803824e-003
1188247.592	3.262596e-004	6.129190e-003	9.992267e-001	-2.731574e-002	9.991461e-001	-2.724696e-002	3.691239e-004	6.143964e-003
1250786.676	3.456444e-004	6.452253e-003	9.992734e-001	-2.921309e-002	9.987677e-001	-2.865458e-002	3.939074e-004	6.479522e-003
1313325.760	3.969601e-004	6.805729e-003	9.994676e-001	-2.983276e-002	9.987283e-001	-3.028268e-002	3.941634e-004	6.753946e-003
1375864.844	4.490424e-004	7.096730e-003	9.996608e-001	-3.232422e-002	9.989327e-001	-3.210341e-002	4.340873e-004	7.088029e-003
1438403.927	4.759820e-004	7.416046e-003	9.990900e-001	-3.373972e-002	9.990679e-001	-3.311995e-002	4.919035e-004	7.409264e-003
1500943.011	5.273921e-004	7.771310e-003	9.994351e-001	-3.506506e-002	9.986168e-001	-3.481784e-002	5.310072e-004	7.799967e-003
1563482.095	4.930077e-004	8.123329e-003	9.986423e-001	-3.629785e-002	9.990187e-001	-3.617365e-002	5.415657e-004	8.093192e-003
1626021.179	6.375998e-004	8.478473e-003	9.989356e-001	-3.800449e-002	9.988351e-001	-3.725492e-002	6.591421e-004	8.448627e-003
1688560.263	7.020334e-004	8.801657e-003	9.993029e-001	-3.950198e-002	9.988091e-001	-3.897097e-002	6.733727e-004	8.796571e-003
1751099.346	7.548870e-004	9.222351e-003	9.991998e-001	-4.095219e-002	9.984871e-001	-4.058722e-002	6.964071e-004	9.135781e-003
1813638.430	7.079109e-004	9.534091e-003	9.991868e-001	-4.204651e-002	9.982420e-001	-4.197860e-002	7.160937e-004	9.519678e-003
1876177.514	7.933584e-004	9.831375e-003	9.990511e-001	-4.403587e-002	9.986277e-001	-4.334173e-002	8.172322e-004	9.852763e-003
1938716.598	8.431809e-004	1.022913e-002	9.983881e-001	-4.528189e-002	9.989267e-001	-4.515187e-002	8.863714e-004	1.020797e-002
2001255.682	9.038904e-004	1.060856e-002	9.989337e-001	-4.661542e-002	9.980769e-001	-4.653731e-002	8.991270e-004	1.057166e-002
2063794.765	9.659052e-004	1.102071e-002	9.983955e-001	-4.794330e-002	9.984187e-001	-4.794509e-002	1.013446e-003	1.093654e-002
2126333.849	1.068928e-003	1.127905e-002	9.976235e-001	-4.964889e-002	9.979661e-001	-4.963625e-002	9.875802e-004	1.126676e-002
2188872.933	1.109117e-003	1.170488e-002	9.982068e-001	-5.106319e-002	9.982112e-001	-5.117803e-002	1.117649e-003	1.170440e-002
2251412.017	1.259086e-003	1.205524e-002	9.983306e-001	-5.332769e-002	9.978949e-001	-5.224453e-002	1.249427e-003	1.204712e-002
2313951.101	1.280252e-003	1.245103e-002	9.977959e-001	-5.444730e-002	9.977190e-001	-5.355791e-002	1.342775e-003	1.239167e-002
2376490.184	1.392093e-003	1.281951e-002	9.983234e-001	-5.594805e-002	9.977237e-001	-5.564672e-002	1.425940e-003	1.281976e-002
2439029.268	1.447745e-003	1.319498e-002	9.976414e-001	-5.705167e-002	9.970354e-001	-5.699071e-002	1.440016e-003	1.315130e-002
2501568.352	1.555759e-003	1.368542e-002	9.975436e-001	-5.851152e-002	9.977504e-001	-5.851442e-002	1.617232e-003	1.362186e-002
2564107.436	1.730320e-003	1.406166e-002	9.969899e-001	-6.013407e-002	9.969040e-001	-6.003354e-002	1.697612e-003	1.396161e-002
2626646.520	1.783248e-003	1.440297e-002	9.967760e-001	-6.180705e-002	9.973896e-001	-6.110353e-002	1.843850e-003	1.439671e-002
2689185.604	1.930230e-003	1.482294e-002	9.974326e-001	-6.305858e-002	9.972978e-001	-6.292435e-002	1.971955e-003	1.472527e-002
2751724.687	2.116727e-003	1.514450e-002	9.969039e-001	-6.449923e-002	9.962483e-001	-6.442358e-002	2.068098e-003	1.521670e-002
2814263.771	2.259808e-003	1.555918e-002	9.970033e-001	-6.645261e-002	9.967502e-001	-6.641101e-002	2.210785e-003	1.558129e-002
2876802.855	2.361359e-003	1.598893e-002	9.966116e-001	-6.818704e-002	9.959433e-001	-6.769460e-002	2.380716e-003	1.594943e-002
2939341.939	2.529627e-003	1.641815e-002	9.962803e-001	-6.940814e-002	9.961501e-001	-6.888143e-002	2.513829e-003	1.636169e-002
3001881.023	2.648291e-003	1.682495e-002	9.960788e-001	-7.028988e-002	9.963575e-001	-7.007009e-002	2.653409e-003	1.683288e-002
3064420.106	2.889616e-003	1.718295e-002	9.954143e-001	-7.223379e-002	9.951254e-001	-7.197194e-002	2.863682e-003	1.721042e-002
3126959.190	3.053157e-003	1.761999e-002	9.954452e-001	-7.387845e-002	9.952408e-001	-7.378819e-002	3.056084e-003	1.759502e-002
3189498.274	3.289988e-003	1.803410e-002	9.953093e-001	-7.557396e-002	9.948908e-001	-7.534293e-002	3.227861e-003	1.800436e-002
3252037.358	3.505032e-003	1.842996e-002	9.949054e-001	-7.705141e-002	9.948294e-001	-7.674707e-002	3.474631e-003	1.843048e-002
3314576.442	3.674764e-003	1.877994e-002	9.947271e-001	-7.856936e-002	9.946644e-001	-7.843792e-002	3.643451e-003	1.885531e-002
3377115.525	3.883864e-003	1.926308e-002	9.944901e-001	-8.022642e-002	9.941543e-001	-7.994144e-002	3.865038e-003	1.923566e-002
3439654.609	4.161365e-003	1.969231e-002	9.939309e-001	-8.160888e-002	9.940390e-001	-8.148984e-002	4.109038e-003	1.962238e-002
3502193.693	4.408059e-003	2.002191e-002	9.937786e-001	-8.318131e-002	9.936872e-001	-8.293736e-002	4.380566e-003	1.999563e-002
3564732.777	4.631475e-003	2.044525e-002	9.934558e-001	-8.477071e-002	9.933612e-001	-8.451328e-002	4.666351e-003	2.042305e-002
3627271.861	4.925021e-003	2.085297e-002	9.930716e-001	-8.625285e-002	9.930709e-001	-8.607277e-002	4.886937e-003	2.083371e-002
3689810.944	5.185727e-003	2.123480e-002	9.927924e-001	-8.771896e-002	9.925201e-001	-8.756377e-002	5.140020e-003	2.120931e-002
3752350.028	5.449293e-003	2.166047e-002	9.924149e-001	-8.930465e-002	9.923129e-001	-8.903088e-002	5.492188e-003	2.163574e-002
3814889.112	5.786791e-003	2.203133e-002	9.920148e-001	-9.074687e-002	9.918607e-001	-9.054767e-002	5.783159e-003	2.199713e-002
3877428.196	6.172136e-003	2.243520e-002	9.916778e-001	-9.232005e-002	9.913880e-001	-9.202670e-002	6.066558e-003	2.239818e-002
3939967.280	6.413069e-003	2.278096e-002	9.911184e-001	-9.388495e-002	9.910401e-001	-9.353811e-002	6.419699e-003	2.283004e-002
4002506.363	6.783311e-003	2.316132e-002	9.907700e-001	-9.526916e-002	9.906571e-001	-9.499557e-002	6.753453e-003	2.317509e-002
4065045.447	7.136731e-003	2.352368e-002	9.904564e-001	-9.689216e-002	9.903558e-001	-9.677248e-002	7.101919e-003	2.350427e-002
4127584.531	7.438493e-003	2.389793e-002	9.901146e-001	-9.838000e-002	9.898561e-001	-9.804971e-002	7.457573e-003	2.387603e-002
4190123.615	7.835147e-003	2.426822e-002	9.894505e-001	-9.970816e-002	9.893903e-001	-9.946417e-002	7.784025e-003	2.421613e-002
4252662.699	8.155609e-003	2.460190e-002	9.890161e-001	-1.011499e-001	9.887708e-001	-1.008725e-001	8.140671e-003	2.459326e-002
4315201.782	8.598945e-003	2.489922e-002	9.885778e-001	-1.027307e-001	9.884007e-001	-1.023117e-001	8.521983e-003	2.490186e-002
4377740.866	8.960018e-003	2.523111e-002	9.881836e-001	-1.042041e-001	9.880173e-001	-1.039261e-001	8.983863e-003	2.523733e-002
4440279.950	9.412625e-003	2.559563e-002	9.876800e-001	-1.053840e-001	9.875487e-001	-1.053297e-001	9.364915e-003	2.552379e-002
4502819.034	9.831188e-003	2.581552e-002	9.872571e-001	-1.069317e-001	9.869195e-001	-1.067601e-001	9.774088e-003	2.584337e-002
4565358.118	1.022246e-002	2.618852e-002	9.863867e-001	-1.083050e-001	9.865448e-001	-1.083337e-001	1.021536e-002	2.618365e-002
4627897.201	1.065353e-002	2.641996e-002	9.860903e-001	-1.097488e-001	9.860749e-001	-1.095381e-001	1.059157e-002	2.651076e-002
4690436.285	1.111331e-002	2.674245e-002	9.855662e-001	-1.112677e-001	9.854562e-001	-1.109620e-001	1.103412e-002	2.674166e-002
4752975.369	1.147412e-002	2.694254e-002	9.849883e-001	-1.126284e-001	9.848301e-001	-1.123457e-001	1.147661e-002	2.700128e-002
4815514.453	1.193200e-002	2.722811e-002	9.845898e-001	-1.140753e-001	9.842827e-001	-1.138210e-001	1.192039e-002	2.724799e-002
4878053.537	1.236177e-002	2.754038e-002	9.840222e-001	-1.155576e-001	9.838475e-001	-1.150532e-001	1.234896e-002	2.752094e-002
4940592.620	1.286212e-002	2.774974e-002	9.833541e-001	-1.167442e-001	9.831941e-001	-1.164594e-001	1.281607e-002	2.774169e-002
5003131.704	1.333191e-002	2.795021e-002	9.828583e-001	-1.181403e-001	9.825918e-001	-1.179220e-001	1.320099e-002	2.793515e-002
5065670.788	1.374200e-002	2.816312e-002	9.822956e-001	-1.194935e-001	9.820560e-001	-1.192116e-001	1.373287e-002	2.817997e-002
5128209.872	1.425215e-002	2.839249e-002	9.817157e-001	-1.207381e-001	9.816729e-001	-1.204619e-001	1.418860e-002	2.835800e-002
5190748.956	1.469763e-002	2.851843e-002	9.811348e-001	-1.221424e-001	9.811387e-001	-1.217766e-001	1.467215e-002	2.857333e-002
5253288.039	1.516572e-002	2.873852e-002	9.803319e-001	-1.233449e-001	9.805109e-001	-1.231040e-001	1.519623e-002	2.874304e-002
5315827.123	1.564082e-002	2.890196e-002	9.798964e-001	-1.246764e-001	9.798896e-001	-1.245278e-001	1.565376e-002	2.894027e-002
5378366.207	1.611917e-002	2.906694e-002	9.792645e-001	-1.260018e-001	9.792785e-001	-1.256720e-001	1.609218e-002	2.906393e-002
5440905.291	1.660760e-002	2.920494e-002	9.789018e-001	-1.271411e-001	9.788326e-001	-1.270653e-001	1.659453e-002	2.920338e-002
5503444.375	1.708427e-002	2.931967e-002	9.781931e-001	-1.285673e-001	9.780430e-001	-1.285268e-001	1.705835e-002	2.934815e-002
5565983.458	1.753779e-002	2.946270e-002	9.777477e-001	-1.297954e-001	9.774188e-001	-1.295935e-001	1.760798e-002	2.947145e-002
5628522.542	1.802582e-002	2.954284e-002	9.771385e-001	-1.309160e-001	9.770940e-001	-1.306861e-001	1.796777e-002	2.953622e-002
5691061.626	1.857248e-002	2.966749e-002	9.765155e-001	-1.321297e-001	9.762280e-001	-1.319934e-001	1.847983e-002	2.967096e-002
5753600.710	1.904255e-002	2.972784e-002	9.758268e-001	-1.334621e-001	9.757896e-001	-1.331471e-001	1.900616e-002	2.976699e-002
5816139.794	1.954433e-002	2.982355e-002	9.753343e-001	-1.345911e-001	9.751708e-001	-1.345320e-001	1.942585e-002	2.980950e-002
5878678.877	1.997354e-002	2.987165e-002	9.746441e-001	-1.356860e-001	9.745007e-001	-1.355835e-001	1.998330e-002	2.992294e-002
5941217.961	2.043807e-002	2.991527e-002	9.741343e-001	-1.368573e-001	9.740883e-001	-1.365746e-001	2.038965e-002	2.996488e-002
6003757.045	2.094289e-002	2.991070e-002	9.734126e-001	-1.382239e-001	9.733736e-001	-1.378367e-001	2.086959e-002	2.992417e-002
6066296.129	2.138348e-002	2.998023e-002	9.728183e-001	-1.393163e-001	9.727150e-001	-1.390543e-001	2.135656e-002	3.001545e-002
6128835.213	2.184073e-002	3.003970e-002	9.723396e-001	-1.404362e-001	9.723013e-001	-1.403528e-001	2.183074e-002	3.005387e-002
6191374.296	2.227097e-002	3.000168e-002	9.717128e-001	-1.414625e-001	9.715635e-001	-1.413253e-001	2.226456e-002	3.001590e-002
6253913.380	2.277669e-002	2.999720e-002	9.710314e-001	-1.427291e-001	9.708746e-001	-1.424295e-001	2.272051e-002	3.008150e-002
6316452.464	2.324719e-002	3.006029e-002	9.705160e-001	-1.436888e-001	9.705712e-001	-1.434587e-001	2.319984e-002	3.004965e-002
6378991.548	2.366545e-002	2.996018e-002	9.701513e-001	-1.448725e-001	9.699291e-001	-1.445434e-001	2.366978e-002	3.006421e-002
6441530.632	2.409630e-002	2.996990e-002	9.695550e-001	-1.460107e-001	9.692181e-001	-1.458512e-001	2.407629e-002	2.995344e-002
6504069.715	2.454446e-002	2.994313e-002	9.688706e-001	-1.470608e-001	9.688298e-001	-1.469499e-001	2.450936e-002	2.994867e-002
6566608.799	2.499159e-002	2.990362e-002	9.682321e-001	-1.481740e-001	9.682348e-001	-1.478835e-001	2.490247e-002	2.994279e-002
6629147.883	2.540643e-002	2.985041e-002	9.676742e-001	-1.492732e-001	9.677032e-001	-1.490032e-001	2.533670e-002	2.989485e-002
6691686.967	2.581889e-002	2.976003e-002	9.672704e-001	-1.502403e-001	9.668557e-001	-1.501599e-001	2.575478e-002	2.987369e-002
6754226.051	2.621585e-002	2.974742e-002	9.667342e-001	-1.513865e-001	9.665805e-001	-1.511323e-001	2.622752e-002	2.973273e-002
6816765.134	2.659939e-002	2.963895e-002	9.660584e-001	-1.524293e-001	9.660391e-001	-1.522356e-001	2.662745e-002	2.965913e-002
6879304.218	2.704539e-002	2.958965e-002	9.655410e-001	-1.534870e-001	9.653722e-001	-1.532585e-001	2.704443e-002	2.962684e-002
6941843.302	2.747289e-002	2.954206e-002	9.649865e-001	-1.543908e-001	9.649750e-001	-1.543141e-001	2.740717e-002	2.958241e-002
7004382.386	2.784075e-002	2.945091e-002	9.643583e-001	-1.556334e-001	9.644940e-001	-1.554521e-001	2.782475e-002	2.945333e-002
7066921.470	2.822853e-002	2.935143e-002	9.638921e-001	-1.566149e-001	9.639569e-001	-1.563071e-001	2.821678e-002	2.937249e-002
7129460.553	2.862272e-002	2.921890e-002	9.634977e-001	-1.576124e-001	9.634497e-001	-1.575527e-001	2.856688e-002	2.928759e-002
7191999.637	2.897864e-002	2.915345e-002	9.628386e-001	-1.586796e-001	9.627829e-001	-1.583634e-001	2.896061e-002	2.917663e-002
7254538.721	2.942068e-002	2.904725e-002	9.624125e-001	-1.596820e-001	9.623963e-001	-1.594541e-001	2.931331e-002	2.910880e-002
7317077.805	2.970096e-002	2.896560e-002	9.617554e-001	-1.607456e-001	9.619758e-001	-1.604757e-001	2.969919e-002	2.901600e-002
7379616.889	3.010411e-002	2.885295e-002	9.615016e-001	-1.617291e-001	9.612806e-001	-1.613766e-001	3.005888e-002	2.884829e-002
7442155.972	3.045176e-002	2.873569e-002	9.608320e-001	-1.626645e-001	9.607070e-001	-1.625362e-001	3.038386e-002	2.875546e-002
7504695.056	3.081573e-002	2.860310e-002	9.603205e-001	-1.637000e-001	9.603926e-001	-1.634206e-001	3.077582e-002	2.867283e-002
7567234.140	3.112258e-002	2.852741e-002	9.599862e-001	-1.648089e-001	9.598285e-001	-1.643786e-001	3.110428e-002	2.855379e-002
7629773.224	3.148353e-002	2.836471e-002	9.593803e-001	-1.657665e-001	9.593326e-001	-1.654642e-001	3.141946e-002	2.843715e-002
7692312.308	3.178847e-002	2.825594e-002	9.590277e-001	-1.667112e-001	9.588419e-001	-1.664686e-001	3.179534e-002	2.836539e-002
7754851.391	3.213416e-002	2.811264e-002	9.583618e-001	-1.676688e-001	9.582982e-001	-1.674356e-001	3.206686e-002	2.821759e-002
7817390.475	3.246333e-002	2.803369e-002	9.581082e-001	-1.686270e-001	9.578939e-001	-1.685359e-001	3.244049e-002	2.805338e-002
7879929.559	3.275210e-002	2.785993e-002	9.574540e-001	-1.696261e-001	9.573888e-001	-1.694314e-001	3.273945e-002	2.793646e-002
7942468.643	3.305562e-002	2.777903e-002	9.569941e-001	-1.705857e-001	9.569328e-001	-1.705503e-001	3.303023e-002	2.780247e-002
8005007.727	3.339584e-002	2.764108e-002	9.565639e-001	-1.717763e-001	9.565045e-001	-1.713715e-001	3.330948e-002	2.763498e-002
8067546.811	3.371712e-002	2.748811e-002	9.561106e-001	-1.727745e-001	9.561024e-001	-1.724916e-001	3.369811e-002	2.752529e-002
8130085.894	3.399969e-002	2.737364e-002	9.556192e-001	-1.736396e-001	9.554835e-001	-1.734896e-001	3.392945e-002	2.739564e-002
8192624.978	3.428955e-002	2.719957e-002	9.551555e-001	-1.746168e-001	9.550001e-001	-1.744232e-001	3.429057e-002	2.725300e-002
8255164.062	3.457833e-002	2.707537e-002	9.547115e-001	-1.756140e-001	9.546083e-001	-1.753393e-001	3.454729e-002	2.708326e-002
8317703.146	3.487662e-002	2.688606e-002	9.543122e-001	-1.765967e-001	9.542566e-001	-1.763461e-001	3.480448e-002	2.696721e-002
8380242.230	3.517837e-002	2.673499e-002	9.538723e-001	-1.773337e-001	9.539550e-001	-1.772906e-001	3.512944e-002	2.683594e-002
8442781.313	3.542531e-002	2.666105e-002	9.534474e-001	-1.783061e-001	9.532727e-001	-1.782126e-001	3.536123e-002	2.672809e-002
8505320.397	3.566044e-002	2.649956e-002	9.529490e-001	-1.795128e-001	9.528126e-001	-1.793974e-001	3.568062e-002	2.649730e-002
8567859.481	3.597983e-002	2.634353e-002	9.524692e-001	-1.804557e-001	9.524329e-001	-1.801023e-001	3.597295e-002	2.640006e-002
8630398.565	3.628065e-002	2.621534e-002	9.520487e-001	-1.814761e-001	9.519735e-001	-1.812011e-001	3.624527e-002	2.621988e-002
8692937.649	3.652187e-002	2.607153e-002	9.514965e-001	-1.823820e-001	9.514828e-001	-1.820208e-001	3.644573e-002	2.612924e-002
8755476.732	3.673549e-002	2.597290e-002	9.510684e-001	-1.834119e-001	9.511805e-001	-1.831340e-001	3.674569e-002	2.598721e-002
8818015.816	3.701659e-002	2.576479e-002	9.507225e-001	-1.842293e-001	9.507336e-001	-1.840115e-001	3.699401e-002	2.580803e-002
8880554.900	3.723787e-002	2.557769e-002	9.503353e-001	-1.853301e-001	9.502926e-001	-1.849341e-001	3.722416e-002	2.567231e-002
8943093.984	3.751456e-002	2.547127e-002	9.499304e-001	-1.863919e-001	9.497895e-001	-1.858851e-001	3.753078e-002	2.553670e-002
9005633.068	3.776053e-002	2.530733e-002	9.494365e-001	-1.872089e-001	9.493618e-001	-1.870300e-001	3.773643e-002	2.534590e-002
9068172.151	3.802967e-002	2.516816e-002	9.490010e-001	-1.881763e-001	9.487692e-001	-1.880142e-001	3.793905e-002	2.524570e-002
9130711.235	3.827625e-002	2.501661e-002	9.485937e-001	-1.891172e-001	9.485460e-001	-1.887220e-001	3.824670e-002	2.506021e-002
9193250.319	3.849639e-002	2.483257e-002	9.481748e-001	-1.900197e-001	9.481387e-001	-1.898734e-001	3.850584e-002	2.488388e-002
9255789.403	3.874930e-002	2.469047e-002	9.477224e-001	-1.911553e-001	9.477788e-001	-1.907544e-001	3.872037e-002	2.482053e-002
9318328.487	3.891265e-002	2.456595e-002	9.472878e-001	-1.920826e-001	9.473641e-001	-1.919164e-001	3.893376e-002	2.459015e-002
9380867.570	3.914746e-002	2.442569e-002	9.469635e-001	-1.930160e-001	9.467280e-001	-1.926585e-001	3.915634e-002	2.447800e-002
9443406.654	3.937036e-002	2.422253e-002	9.464810e-001	-1.939009e-001	9.464715e-001	-1.937786e-001	3.941247e-002	2.429999e-002
9505945.738	3.960569e-002	2.406737e-002	9.461724e-001	-1.948414e-001	9.459502e-001	-1.946081e-001	3.958619e-002	2.414675e-002
9568484.822	3.983749e-002	2.391411e-002	9.458093e-001	-1.960020e-001	9.456555e-001	-1.955117e-001	3.986451e-002	2.400363e-002
9631023.906	4.005257e-002	2.377028e-002	9.453087e-001	-1.968627e-001	9.451465e-001	-1.965627e-001	4.004315e-002	2.385213e-002
9693562.989	4.027418e-002	2.363460e-002	9.447737e-001	-1.977250e-001	9.448468e-001	-1.975683e-001	4.023232e-002	2.371664e-002
9756102.073	4.039896e-002	2.346220e-002	9.444692e-001	-1.986025e-001	9.445019e-001	-1.984140e-001	4.048072e-002	2.347898e-002
