!Agilent Technologies,E5061B,MY49102235,A.02.00
!Date: Mon Jul 10 16:49:37 2023
!Data & Calibration Information:
!Freq	S11:SOLT2(ON)	S21:SOLT2(ON)	S12:SOLT2(ON)	S22:SOLT2(ON)
# Hz S RI R 50
5.000	-3.937942e-004	4.319615e-004	1.001871e+000	2.222492e-003	1.000573e+000	-6.638901e-006	-4.078301e-005	-6.154029e-005
62544.084	-6.360618e-005	-3.329430e-005	9.999274e-001	-9.445601e-004	1.000218e+000	-4.886866e-004	3.215136e-005	-1.354031e-004
125083.168	-3.708965e-005	-1.276545e-004	1.000181e+000	-2.325211e-003	1.000132e+000	-2.072299e-003	-4.664966e-005	-1.354999e-004
187622.251	1.623670e-004	-2.800077e-004	9.995369e-001	-2.483910e-003	1.000149e+000	-2.747850e-003	3.210299e-005	-1.992705e-004
250161.335	3.519488e-005	-1.967090e-004	9.998444e-001	-4.541960e-003	9.997869e-001	-4.275287e-003	2.063337e-005	-2.195066e-004
312700.419	2.408932e-005	-3.564784e-004	1.000361e+000	-5.369871e-003	9.991711e-001	-4.907905e-003	1.187932e-004	-3.034040e-004
375239.503	4.720166e-005	-3.778897e-004	1.000029e+000	-6.362403e-003	1.000149e+000	-6.055956e-003	5.275553e-006	-4.446373e-004
437778.587	9.554885e-005	-5.278580e-004	1.000030e+000	-7.397950e-003	9.990531e-001	-7.619602e-003	9.067496e-005	-3.130868e-004
500317.670	9.613899e-005	-5.992937e-004	1.000025e+000	-8.570776e-003	9.994037e-001	-8.714639e-003	8.529993e-005	-4.247983e-004
562856.754	1.283195e-004	-5.723372e-004	9.997961e-001	-9.706604e-003	9.995653e-001	-9.152051e-003	5.810896e-005	-6.285048e-004
625395.838	8.958653e-005	-6.537457e-004	9.999238e-001	-1.078661e-002	9.991844e-001	-1.032055e-002	1.198301e-004	-6.252651e-004
687934.922	-1.158471e-005	-8.150372e-004	1.000101e+000	-1.151256e-002	1.000194e+000	-1.150971e-002	-5.311623e-006	-7.447073e-004
750474.006	-8.884431e-005	-9.012977e-004	9.997585e-001	-1.287081e-002	9.995699e-001	-1.167956e-002	-9.963041e-005	-8.694233e-004
813013.089	-6.182378e-005	-9.277329e-004	1.000512e+000	-1.407016e-002	9.991580e-001	-1.333562e-002	-7.050105e-005	-9.771584e-004
875552.173	-6.307130e-005	-1.048551e-003	9.999617e-001	-1.504739e-002	9.998012e-001	-1.471932e-002	-6.827658e-005	-1.045386e-003
938091.257	-1.566139e-004	-1.081146e-003	9.996697e-001	-1.568694e-002	9.992939e-001	-1.515841e-002	-1.307674e-004	-1.121152e-003
1000630.341	-1.031502e-004	-1.096952e-003	9.999357e-001	-1.661734e-002	9.996311e-001	-1.651363e-002	-8.245625e-005	-1.188147e-003
1063169.425	-6.769004e-005	-1.196447e-003	1.000581e+000	-1.790865e-002	1.000212e+000	-1.789326e-002	-2.891517e-005	-1.288012e-003
1125708.508	-7.910271e-005	-1.287551e-003	1.000318e+000	-1.929685e-002	9.993802e-001	-1.850954e-002	-5.059746e-005	-1.293639e-003
1188247.592	-7.058592e-005	-1.391582e-003	9.997100e-001	-2.002354e-002	9.994503e-001	-1.968980e-002	-4.089585e-005	-1.379601e-003
1250786.676	-8.498925e-005	-1.458432e-003	9.998313e-001	-2.138151e-002	9.991252e-001	-2.058198e-002	-4.837283e-005	-1.432426e-003
1313325.760	-6.672595e-005	-1.510280e-003	9.999909e-001	-2.159218e-002	9.990271e-001	-2.187219e-002	-9.150700e-005	-1.576400e-003
1375864.844	-5.550176e-005	-1.630699e-003	1.000315e+000	-2.378244e-002	9.994266e-001	-2.340966e-002	-8.037503e-005	-1.639591e-003
1438403.927	-6.965566e-005	-1.720497e-003	9.996143e-001	-2.472804e-002	9.995478e-001	-2.392881e-002	-5.929593e-005	-1.722464e-003
1500943.011	-6.031256e-005	-1.775628e-003	1.000035e+000	-2.562715e-002	9.990781e-001	-2.516947e-002	-7.405044e-005	-1.759714e-003
1563482.095	-1.434350e-004	-1.844353e-003	9.993821e-001	-2.654088e-002	9.993948e-001	-2.614296e-002	-1.042471e-004	-1.865652e-003
1626021.179	-3.811519e-005	-1.883421e-003	9.997764e-001	-2.775710e-002	9.994548e-001	-2.681848e-002	-3.744416e-005	-1.929247e-003
1688560.263	-2.533971e-005	-1.987936e-003	1.000090e+000	-2.887676e-002	9.993612e-001	-2.805130e-002	-5.126179e-005	-1.995595e-003
1751099.346	-1.383364e-005	-1.980881e-003	9.998776e-001	-2.979418e-002	9.991010e-001	-2.924575e-002	-7.676469e-005	-2.085612e-003
1813638.430	-1.178210e-004	-2.110274e-003	1.000050e+000	-3.056126e-002	9.991871e-001	-3.029385e-002	-9.671661e-005	-2.119359e-003
1876177.514	-9.680144e-005	-2.238878e-003	9.998012e-001	-3.193283e-002	9.995547e-001	-3.122394e-002	-6.143500e-005	-2.225030e-003
1938716.598	-8.998987e-005	-2.273450e-003	9.994296e-001	-3.298049e-002	9.997909e-001	-3.248238e-002	-5.953677e-005	-2.287283e-003
2001255.682	-8.556732e-005	-2.330537e-003	9.999123e-001	-3.378367e-002	9.988155e-001	-3.352816e-002	-9.800563e-005	-2.388694e-003
2063794.765	-1.027767e-004	-2.363260e-003	9.993858e-001	-3.456426e-002	9.995441e-001	-3.451465e-002	-4.468197e-005	-2.466721e-003
2126333.849	-6.486688e-005	-2.543987e-003	9.988482e-001	-3.604200e-002	9.990250e-001	-3.577566e-002	-1.573403e-004	-2.573942e-003
2188872.933	-1.023039e-004	-2.574822e-003	9.994243e-001	-3.673896e-002	9.992872e-001	-3.679704e-002	-1.125326e-004	-2.582163e-003
2251412.017	-3.603663e-005	-2.664543e-003	9.997262e-001	-3.871839e-002	9.991413e-001	-3.741287e-002	-4.405941e-005	-2.691754e-003
2313951.101	-1.055744e-004	-2.747081e-003	9.992565e-001	-3.935574e-002	9.990338e-001	-3.828320e-002	-5.456558e-005	-2.792593e-003
2376490.184	-7.928693e-005	-2.826565e-003	9.998302e-001	-4.027325e-002	9.991326e-001	-3.984124e-002	-7.501934e-005	-2.844954e-003
2439029.268	-1.254350e-004	-2.923734e-003	9.992644e-001	-4.107110e-002	9.985251e-001	-4.092764e-002	-1.461842e-004	-2.962457e-003
2501568.352	-1.111280e-004	-2.897012e-003	9.992583e-001	-4.209535e-002	9.992788e-001	-4.193398e-002	-9.192849e-005	-2.966802e-003
2564107.436	-7.984312e-005	-2.974667e-003	9.988662e-001	-4.320941e-002	9.986573e-001	-4.292006e-002	-1.343484e-004	-3.104385e-003
2626646.520	-1.512406e-004	-3.114852e-003	9.986556e-001	-4.435815e-002	9.992726e-001	-4.349581e-002	-1.088657e-004	-3.123820e-003
2689185.604	-1.489143e-004	-3.181405e-003	9.995380e-001	-4.518882e-002	9.993289e-001	-4.483589e-002	-1.050128e-004	-3.260400e-003
2751724.687	-8.112092e-005	-3.315928e-003	9.991973e-001	-4.614290e-002	9.983649e-001	-4.589660e-002	-1.561467e-004	-3.257329e-003
2814263.771	-7.999641e-005	-3.373720e-003	9.993841e-001	-4.760198e-002	9.989895e-001	-4.745635e-002	-1.553166e-004	-3.358430e-003
2876802.855	-1.454250e-004	-3.439326e-003	9.989887e-001	-4.893502e-002	9.984459e-001	-4.815227e-002	-1.467692e-004	-3.470157e-003
2939341.939	-1.458273e-004	-3.498167e-003	9.988537e-001	-4.971314e-002	9.987971e-001	-4.886590e-002	-1.745720e-004	-3.540691e-003
3001881.023	-1.996301e-004	-3.551891e-003	9.990266e-001	-5.005447e-002	9.990181e-001	-4.960455e-002	-2.190286e-004	-3.550147e-003
3064420.106	-1.530643e-004	-3.677028e-003	9.983286e-001	-5.145020e-002	9.980986e-001	-5.094715e-002	-1.958215e-004	-3.651564e-003
3126959.190	-1.698266e-004	-3.725231e-003	9.986465e-001	-5.270838e-002	9.983677e-001	-5.235260e-002	-1.776440e-004	-3.745318e-003
3189498.274	-1.355179e-004	-3.783703e-003	9.987016e-001	-5.386328e-002	9.982513e-001	-5.344267e-002	-2.168303e-004	-3.818571e-003
3252037.358	-1.281359e-004	-3.872683e-003	9.985268e-001	-5.488731e-002	9.983389e-001	-5.441699e-002	-1.895090e-004	-3.873875e-003
3314576.442	-1.584838e-004	-4.014047e-003	9.985240e-001	-5.593418e-002	9.983687e-001	-5.557308e-002	-2.366680e-004	-3.937701e-003
3377115.525	-2.076959e-004	-4.015364e-003	9.985717e-001	-5.709968e-002	9.981136e-001	-5.657507e-002	-2.391328e-004	-4.038981e-003
3439654.609	-1.767218e-004	-4.053806e-003	9.982447e-001	-5.795259e-002	9.982418e-001	-5.765735e-002	-2.436322e-004	-4.128557e-003
3502193.693	-1.786269e-004	-4.222813e-003	9.983527e-001	-5.906020e-002	9.981567e-001	-5.855815e-002	-2.275088e-004	-4.235405e-003
3564732.777	-2.081014e-004	-4.267498e-003	9.982814e-001	-6.015683e-002	9.980568e-001	-5.966882e-002	-2.276147e-004	-4.276326e-003
3627271.861	-2.081186e-004	-4.347191e-003	9.981661e-001	-6.121337e-002	9.980633e-001	-6.077278e-002	-2.642029e-004	-4.352924e-003
3689810.944	-2.377164e-004	-4.428776e-003	9.982040e-001	-6.225618e-002	9.978269e-001	-6.183608e-002	-3.059820e-004	-4.451777e-003
3752350.028	-2.797694e-004	-4.468485e-003	9.980743e-001	-6.331503e-002	9.978943e-001	-6.283944e-002	-2.435215e-004	-4.484029e-003
3814889.112	-2.372979e-004	-4.555467e-003	9.980078e-001	-6.429915e-002	9.977584e-001	-6.384022e-002	-2.798025e-004	-4.601963e-003
3877428.196	-1.929308e-004	-4.610275e-003	9.979545e-001	-6.538108e-002	9.975331e-001	-6.483661e-002	-3.091199e-004	-4.662350e-003
3939967.280	-2.728066e-004	-4.739512e-003	9.977179e-001	-6.650380e-002	9.975576e-001	-6.595900e-002	-3.001448e-004	-4.688873e-003
4002506.363	-2.406136e-004	-4.802158e-003	9.977350e-001	-6.743503e-002	9.975516e-001	-6.694152e-002	-3.145532e-004	-4.778134e-003
4065045.447	-2.448047e-004	-4.884679e-003	9.977721e-001	-6.861904e-002	9.976019e-001	-6.822599e-002	-3.142924e-004	-4.900261e-003
4127584.531	-3.236256e-004	-4.940625e-003	9.977560e-001	-6.962874e-002	9.974082e-001	-6.913973e-002	-3.200695e-004	-4.950001e-003
4190123.615	-2.916358e-004	-4.994391e-003	9.974895e-001	-7.054723e-002	9.973609e-001	-7.010332e-002	-3.827218e-004	-5.050743e-003
4252662.699	-3.553630e-004	-5.081331e-003	9.974342e-001	-7.159431e-002	9.971243e-001	-7.111156e-002	-3.919250e-004	-5.073750e-003
4315201.782	-2.934215e-004	-5.197575e-003	9.973684e-001	-7.272442e-002	9.971391e-001	-7.211333e-002	-4.065070e-004	-5.190182e-003
4377740.866	-3.222439e-004	-5.259456e-003	9.973916e-001	-7.380680e-002	9.971431e-001	-7.333347e-002	-3.486099e-004	-5.250831e-003
4440279.950	-3.222333e-004	-5.293551e-003	9.972993e-001	-7.460217e-002	9.971013e-001	-7.432718e-002	-3.895896e-004	-5.349125e-003
4502819.034	-2.981878e-004	-5.452894e-003	9.972861e-001	-7.574933e-002	9.968531e-001	-7.534891e-002	-3.946640e-004	-5.418021e-003
4565358.118	-3.386974e-004	-5.454439e-003	9.968844e-001	-7.676021e-002	9.969024e-001	-7.658557e-002	-3.857280e-004	-5.455519e-003
4627897.201	-3.439968e-004	-5.584748e-003	9.969600e-001	-7.785428e-002	9.968926e-001	-7.736615e-002	-4.521448e-004	-5.491165e-003
4690436.285	-3.363566e-004	-5.622154e-003	9.969115e-001	-7.899901e-002	9.967194e-001	-7.846348e-002	-4.298840e-004	-5.600054e-003
4752975.369	-4.156934e-004	-5.765094e-003	9.967846e-001	-8.001575e-002	9.965671e-001	-7.954745e-002	-4.353527e-004	-5.689241e-003
4815514.453	-3.942537e-004	-5.811007e-003	9.968362e-001	-8.112593e-002	9.964539e-001	-8.067815e-002	-4.481244e-004	-5.770311e-003
4878053.537	-4.306883e-004	-5.819464e-003	9.967102e-001	-8.231404e-002	9.964436e-001	-8.158528e-002	-4.889220e-004	-5.812260e-003
4940592.620	-4.181346e-004	-5.925850e-003	9.964860e-001	-8.320516e-002	9.962873e-001	-8.265435e-002	-4.883693e-004	-5.896439e-003
5003131.704	-4.200674e-004	-6.012863e-003	9.964513e-001	-8.427664e-002	9.961173e-001	-8.378176e-002	-5.736505e-004	-6.023754e-003
5065670.788	-4.887723e-004	-6.088689e-003	9.963630e-001	-8.533964e-002	9.960871e-001	-8.482162e-002	-5.210706e-004	-6.069383e-003
5128209.872	-4.378816e-004	-6.134040e-003	9.962738e-001	-8.630859e-002	9.961521e-001	-8.578591e-002	-5.369934e-004	-6.140620e-003
5190748.956	-4.584404e-004	-6.276933e-003	9.961859e-001	-8.740723e-002	9.961038e-001	-8.682948e-002	-5.588667e-004	-6.198434e-003
5253288.039	-4.957557e-004	-6.308775e-003	9.958886e-001	-8.838239e-002	9.959687e-001	-8.791565e-002	-4.984241e-004	-6.295700e-003
5315827.123	-5.002628e-004	-6.390228e-003	9.958939e-001	-8.945541e-002	9.958222e-001	-8.911624e-002	-5.343746e-004	-6.338656e-003
5378366.207	-5.262758e-004	-6.454788e-003	9.957590e-001	-9.056682e-002	9.957471e-001	-9.002059e-002	-5.839792e-004	-6.423392e-003
5440905.291	-5.218686e-004	-6.539068e-003	9.959362e-001	-9.146328e-002	9.957285e-001	-9.116405e-002	-5.835589e-004	-6.512740e-003
5503444.375	-5.493153e-004	-6.614558e-003	9.957065e-001	-9.266051e-002	9.954692e-001	-9.236405e-002	-6.132411e-004	-6.569884e-003
5565983.458	-5.906037e-004	-6.664824e-003	9.956774e-001	-9.367452e-002	9.953068e-001	-9.332442e-002	-5.547703e-004	-6.635886e-003
5628522.542	-5.955288e-004	-6.789841e-003	9.955654e-001	-9.459832e-002	9.954602e-001	-9.417702e-002	-6.849518e-004	-6.773024e-003
5691061.626	-5.501975e-004	-6.825389e-003	9.954640e-001	-9.566985e-002	9.950998e-001	-9.534085e-002	-6.821808e-004	-6.782568e-003
5753600.710	-5.817116e-004	-6.934630e-003	9.952729e-001	-9.687949e-002	9.951429e-001	-9.634682e-002	-6.295238e-004	-6.860289e-003
5816139.794	-5.528671e-004	-6.968957e-003	9.953134e-001	-9.786268e-002	9.950755e-001	-9.755171e-002	-7.242617e-004	-6.950971e-003
5878678.877	-6.195705e-004	-7.059356e-003	9.950279e-001	-9.879101e-002	9.948802e-001	-9.843221e-002	-6.692106e-004	-6.986634e-003
5941217.961	-6.613758e-004	-7.149587e-003	9.950365e-001	-9.983781e-002	9.949300e-001	-9.931504e-002	-7.602324e-004	-7.068944e-003
6003757.045	-6.235645e-004	-7.264776e-003	9.948098e-001	-1.010379e-001	9.947434e-001	-1.004878e-001	-7.400086e-004	-7.209446e-003
6066296.129	-6.695371e-004	-7.278541e-003	9.946427e-001	-1.020933e-001	9.945203e-001	-1.015913e-001	-7.437224e-004	-7.231152e-003
6128835.213	-6.829801e-004	-7.324944e-003	9.947110e-001	-1.031079e-001	9.945605e-001	-1.027442e-001	-7.346463e-004	-7.269559e-003
6191374.296	-7.329969e-004	-7.480706e-003	9.945378e-001	-1.039645e-001	9.943788e-001	-1.036471e-001	-8.061627e-004	-7.413705e-003
6253913.380	-7.092690e-004	-7.545110e-003	9.943338e-001	-1.052359e-001	9.941178e-001	-1.046409e-001	-8.098968e-004	-7.429224e-003
6316452.464	-7.140621e-004	-7.533290e-003	9.942619e-001	-1.060769e-001	9.942288e-001	-1.056303e-001	-7.773257e-004	-7.511647e-003
6378991.548	-7.616627e-004	-7.684966e-003	9.943397e-001	-1.072004e-001	9.940682e-001	-1.066433e-001	-7.930138e-004	-7.569091e-003
6441530.632	-7.780917e-004	-7.723570e-003	9.942308e-001	-1.082807e-001	9.938416e-001	-1.078999e-001	-8.309163e-004	-7.719449e-003
6504069.715	-7.840684e-004	-7.814609e-003	9.940034e-001	-1.093234e-001	9.939111e-001	-1.089819e-001	-8.483574e-004	-7.763413e-003
6566608.799	-7.695372e-004	-7.887950e-003	9.938004e-001	-1.103894e-001	9.937392e-001	-1.098681e-001	-9.190113e-004	-7.808275e-003
6629147.883	-8.236784e-004	-7.956885e-003	9.936405e-001	-1.114498e-001	9.936476e-001	-1.109196e-001	-9.172969e-004	-7.885601e-003
6691686.967	-8.324651e-004	-8.067766e-003	9.936955e-001	-1.123680e-001	9.932276e-001	-1.121009e-001	-9.475869e-004	-7.916874e-003
6754226.051	-8.781825e-004	-8.093274e-003	9.935970e-001	-1.134787e-001	9.934043e-001	-1.130469e-001	-9.176555e-004	-8.072037e-003
6816765.134	-9.153605e-004	-8.208823e-003	9.933750e-001	-1.144935e-001	9.932702e-001	-1.141337e-001	-9.269947e-004	-8.137951e-003
6879304.218	-8.779044e-004	-8.263776e-003	9.932589e-001	-1.156014e-001	9.930443e-001	-1.151433e-001	-9.396274e-004	-8.189186e-003
6941843.302	-8.759097e-004	-8.308064e-003	9.930957e-001	-1.164931e-001	9.930406e-001	-1.162539e-001	-9.754306e-004	-8.226792e-003
7004382.386	-9.323578e-004	-8.376370e-003	9.928778e-001	-1.177892e-001	9.929423e-001	-1.173515e-001	-9.961063e-004	-8.339032e-003
7066921.470	-9.392663e-004	-8.464346e-003	9.928149e-001	-1.187242e-001	9.928684e-001	-1.182074e-001	-1.003608e-003	-8.419269e-003
7129460.553	-9.262563e-004	-8.587289e-003	9.927948e-001	-1.197394e-001	9.927206e-001	-1.194457e-001	-1.034633e-003	-8.484353e-003
7191999.637	-9.707524e-004	-8.624624e-003	9.925680e-001	-1.208463e-001	9.924444e-001	-1.203229e-001	-1.045683e-003	-8.552699e-003
7254538.721	-9.235067e-004	-8.703767e-003	9.925256e-001	-1.218727e-001	9.924569e-001	-1.214282e-001	-1.081821e-003	-8.598597e-003
7317077.805	-1.027772e-003	-8.755091e-003	9.922341e-001	-1.229697e-001	9.924393e-001	-1.224754e-001	-1.086321e-003	-8.662019e-003
7379616.889	-9.925697e-004	-8.829088e-003	9.923775e-001	-1.239772e-001	9.920581e-001	-1.233875e-001	-1.090596e-003	-8.804895e-003
7442155.972	-1.023350e-003	-8.917484e-003	9.920558e-001	-1.249509e-001	9.919035e-001	-1.246387e-001	-1.123427e-003	-8.847968e-003
7504695.056	-1.018077e-003	-8.995881e-003	9.919505e-001	-1.259967e-001	9.919365e-001	-1.254960e-001	-1.105867e-003	-8.879739e-003
7567234.140	-1.070554e-003	-9.037603e-003	9.919187e-001	-1.271484e-001	9.917313e-001	-1.265255e-001	-1.150635e-003	-8.952424e-003
7629773.224	-1.069819e-003	-9.145266e-003	9.916823e-001	-1.281539e-001	9.915666e-001	-1.276455e-001	-1.187684e-003	-9.032016e-003
7692312.308	-1.111910e-003	-9.205948e-003	9.916397e-001	-1.291630e-001	9.914484e-001	-1.286858e-001	-1.166483e-003	-9.045419e-003
7754851.391	-1.112956e-003	-9.302107e-003	9.913444e-001	-1.301098e-001	9.912745e-001	-1.296847e-001	-1.241353e-003	-9.136142e-003
7817390.475	-1.129359e-003	-9.335465e-003	9.914605e-001	-1.311488e-001	9.911554e-001	-1.308524e-001	-1.197555e-003	-9.266709e-003
7879929.559	-1.180393e-003	-9.445262e-003	9.911378e-001	-1.321898e-001	9.910143e-001	-1.317944e-001	-1.233574e-003	-9.319662e-003
7942468.643	-1.209783e-003	-9.470311e-003	9.909855e-001	-1.332183e-001	9.908855e-001	-1.329558e-001	-1.283368e-003	-9.387348e-003
8005007.727	-1.197971e-003	-9.546484e-003	9.909176e-001	-1.344768e-001	9.907610e-001	-1.338427e-001	-1.320509e-003	-9.504174e-003
8067546.811	-1.200558e-003	-9.633769e-003	9.907383e-001	-1.355226e-001	9.906885e-001	-1.350658e-001	-1.256514e-003	-9.544120e-003
8130085.894	-1.232369e-003	-9.688569e-003	9.906060e-001	-1.364616e-001	9.903959e-001	-1.360743e-001	-1.336718e-003	-9.630513e-003
8192624.978	-1.256006e-003	-9.794209e-003	9.903855e-001	-1.374509e-001	9.902639e-001	-1.370508e-001	-1.297430e-003	-9.691389e-003
8255164.062	-1.280346e-003	-9.864203e-003	9.902967e-001	-1.385312e-001	9.901702e-001	-1.380355e-001	-1.355244e-003	-9.783311e-003
8317703.146	-1.268916e-003	-9.972795e-003	9.902491e-001	-1.396123e-001	9.901240e-001	-1.391264e-001	-1.395278e-003	-9.860783e-003
8380242.230	-1.273435e-003	-1.005182e-002	9.900346e-001	-1.403771e-001	9.901025e-001	-1.401600e-001	-1.388158e-003	-9.889436e-003
8442781.313	-1.332834e-003	-1.006251e-002	9.899646e-001	-1.414342e-001	9.897321e-001	-1.411273e-001	-1.438656e-003	-9.953093e-003
8505320.397	-1.384296e-003	-1.014540e-002	9.897221e-001	-1.426987e-001	9.895595e-001	-1.423665e-001	-1.406704e-003	-1.010002e-002
8567859.481	-1.381080e-003	-1.021317e-002	9.895340e-001	-1.437205e-001	9.894866e-001	-1.431429e-001	-1.425895e-003	-1.009817e-002
8630398.565	-1.366361e-003	-1.028072e-002	9.893819e-001	-1.448039e-001	9.892644e-001	-1.443235e-001	-1.448431e-003	-1.022579e-002
8692937.649	-1.417936e-003	-1.034910e-002	9.891203e-001	-1.457896e-001	9.890754e-001	-1.451932e-001	-1.536726e-003	-1.023015e-002
8755476.732	-1.472559e-003	-1.038757e-002	9.889805e-001	-1.468997e-001	9.890387e-001	-1.463661e-001	-1.520443e-003	-1.030317e-002
8818015.816	-1.468081e-003	-1.050872e-002	9.889632e-001	-1.477443e-001	9.889007e-001	-1.473059e-001	-1.525902e-003	-1.040342e-002
8880554.900	-1.505359e-003	-1.062031e-002	9.888142e-001	-1.489508e-001	9.887185e-001	-1.483485e-001	-1.584350e-003	-1.046461e-002
8943093.984	-1.495566e-003	-1.066105e-002	9.886726e-001	-1.500753e-001	9.884819e-001	-1.493504e-001	-1.544525e-003	-1.052285e-002
9005633.068	-1.534233e-003	-1.074450e-002	9.884391e-001	-1.509287e-001	9.883099e-001	-1.505978e-001	-1.594528e-003	-1.064393e-002
9068172.151	-1.530747e-003	-1.079540e-002	9.882807e-001	-1.520466e-001	9.879919e-001	-1.516445e-001	-1.677808e-003	-1.065453e-002
9130711.235	-1.558027e-003	-1.085735e-002	9.881194e-001	-1.530487e-001	9.880285e-001	-1.524717e-001	-1.628351e-003	-1.076766e-002
9193250.319	-1.587283e-003	-1.097048e-002	9.879144e-001	-1.540085e-001	9.878880e-001	-1.536674e-001	-1.625596e-003	-1.084724e-002
9255789.403	-1.586538e-003	-1.102712e-002	9.877193e-001	-1.552110e-001	9.877932e-001	-1.545968e-001	-1.661021e-003	-1.084120e-002
9318328.487	-1.682140e-003	-1.108588e-002	9.875710e-001	-1.562600e-001	9.876365e-001	-1.558712e-001	-1.708089e-003	-1.098647e-002
9380867.570	-1.711112e-003	-1.113211e-002	9.875058e-001	-1.572689e-001	9.872355e-001	-1.566927e-001	-1.742425e-003	-1.100616e-002
9443406.654	-1.707592e-003	-1.125970e-002	9.872634e-001	-1.582245e-001	9.872529e-001	-1.578719e-001	-1.713224e-003	-1.110169e-002
