!Agilent Technologies,E5061B,MY49102235,A.02.00
!Date: Mon Jul 10 16:50:14 2023
!Data & Calibration Information:
!Freq	S11:SOLT2(ON)	S21:SOLT2(ON)	S12:SOLT2(ON)	S22:SOLT2(ON)
# Hz S RI R 50
5.000	-3.849107e-004	4.397463e-004	1.001943e+000	2.257886e-003	1.000657e+000	3.288543e-006	-1.543775e-004	-6.594669e-005
62544.084	-5.778859e-005	-2.915700e-005	1.000093e+000	-9.941962e-004	1.000026e+000	-5.873288e-004	1.717483e-005	-1.341058e-004
125083.168	-1.524360e-005	-1.278134e-004	1.000171e+000	-2.368744e-003	1.000106e+000	-2.062373e-003	-4.433098e-005	-1.460523e-004
187622.251	1.705818e-004	-2.618355e-004	9.993643e-001	-2.590196e-003	1.000228e+000	-2.756854e-003	3.427542e-005	-2.216635e-004
250161.335	3.171506e-005	-2.052352e-004	9.998634e-001	-4.541886e-003	9.997393e-001	-4.159039e-003	2.043558e-005	-2.266355e-004
312700.419	3.232463e-005	-3.718237e-004	1.000343e+000	-5.335753e-003	9.991020e-001	-4.908427e-003	1.270811e-004	-3.088291e-004
375239.503	5.720554e-005	-3.948068e-004	1.000146e+000	-6.320308e-003	1.000070e+000	-6.153902e-003	5.512792e-006	-4.421427e-004
437778.587	8.902566e-005	-5.231285e-004	1.000075e+000	-7.549611e-003	9.990152e-001	-7.458890e-003	9.360158e-005	-3.474553e-004
500317.670	8.799177e-005	-6.292807e-004	1.000068e+000	-8.565556e-003	9.993446e-001	-8.608675e-003	1.030467e-004	-4.522609e-004
562856.754	1.156798e-004	-5.794803e-004	9.997918e-001	-9.705400e-003	9.996145e-001	-9.334419e-003	5.651704e-005	-6.271014e-004
625395.838	1.072313e-004	-6.899384e-004	9.999248e-001	-1.064937e-002	9.991647e-001	-1.020778e-002	1.193836e-004	-6.821171e-004
687934.922	-3.029165e-005	-8.349063e-004	1.000204e+000	-1.159366e-002	1.000091e+000	-1.155782e-002	1.024729e-005	-7.610955e-004
750474.006	-9.011232e-005	-9.214360e-004	9.998566e-001	-1.280891e-002	9.995452e-001	-1.173772e-002	-1.101143e-004	-9.097442e-004
813013.089	-7.524476e-005	-9.757737e-004	1.000454e+000	-1.390141e-002	9.991338e-001	-1.315168e-002	-8.098453e-005	-1.012355e-003
875552.173	-5.294311e-005	-1.084582e-003	9.999503e-001	-1.504370e-002	9.998576e-001	-1.469226e-002	-6.852228e-005	-1.088889e-003
938091.257	-1.622921e-004	-1.139110e-003	9.997626e-001	-1.578799e-002	9.993577e-001	-1.505761e-002	-1.372556e-004	-1.161472e-003
1000630.341	-1.034766e-004	-1.146645e-003	9.999664e-001	-1.663355e-002	9.996331e-001	-1.638161e-002	-8.186315e-005	-1.225709e-003
1063169.425	-7.884097e-005	-1.255160e-003	1.000668e+000	-1.782432e-002	1.000206e+000	-1.792702e-002	-5.313446e-005	-1.325005e-003
1125708.508	-6.856078e-005	-1.339381e-003	1.000303e+000	-1.935050e-002	9.993870e-001	-1.853107e-002	-4.965878e-005	-1.367239e-003
1188247.592	-6.814298e-005	-1.462719e-003	9.997443e-001	-2.001563e-002	9.994369e-001	-1.950171e-002	-4.580961e-005	-1.441081e-003
1250786.676	-8.485664e-005	-1.514276e-003	9.999040e-001	-2.126652e-002	9.990480e-001	-2.049314e-002	-5.351491e-005	-1.500728e-003
1313325.760	-7.181586e-005	-1.575785e-003	1.000010e+000	-2.160302e-002	9.990072e-001	-2.182148e-002	-9.694330e-005	-1.628993e-003
1375864.844	-5.059147e-005	-1.692242e-003	1.000358e+000	-2.377904e-002	9.992722e-001	-2.317720e-002	-8.546142e-005	-1.706758e-003
1438403.927	-7.144066e-005	-1.782153e-003	9.997899e-001	-2.454820e-002	9.995894e-001	-2.378767e-002	-6.258088e-005	-1.810306e-003
1500943.011	-7.632141e-005	-1.849688e-003	9.999649e-001	-2.562834e-002	9.993603e-001	-2.504769e-002	-7.196873e-005	-1.826120e-003
1563482.095	-1.357011e-004	-1.931388e-003	9.993050e-001	-2.655596e-002	9.994855e-001	-2.595864e-002	-1.067857e-004	-1.948447e-003
1626021.179	-3.194741e-005	-1.973885e-003	9.997242e-001	-2.765919e-002	9.992453e-001	-2.685150e-002	-4.912794e-005	-2.023875e-003
1688560.263	-3.676755e-005	-2.072070e-003	1.000193e+000	-2.876437e-002	9.994473e-001	-2.797297e-002	-6.026419e-005	-2.083510e-003
1751099.346	-2.402717e-005	-2.067127e-003	1.000078e+000	-2.970620e-002	9.992652e-001	-2.917165e-002	-8.253990e-005	-2.175191e-003
1813638.430	-1.275788e-004	-2.199527e-003	1.000085e+000	-3.038166e-002	9.989837e-001	-3.013236e-002	-1.160075e-004	-2.212942e-003
1876177.514	-9.857950e-005	-2.334272e-003	9.998431e-001	-3.182774e-002	9.994467e-001	-3.115564e-002	-7.109248e-005	-2.315209e-003
1938716.598	-9.028080e-005	-2.370034e-003	9.993947e-001	-3.291589e-002	9.997012e-001	-3.233614e-002	-6.691948e-005	-2.391033e-003
2001255.682	-7.638838e-005	-2.432015e-003	9.999488e-001	-3.373501e-002	9.987894e-001	-3.332474e-002	-1.051204e-004	-2.476571e-003
2063794.765	-1.082947e-004	-2.476817e-003	9.993820e-001	-3.464698e-002	9.995287e-001	-3.434757e-002	-6.938095e-005	-2.555491e-003
2126333.849	-7.389123e-005	-2.654685e-003	9.987854e-001	-3.592113e-002	9.991143e-001	-3.559994e-002	-1.560640e-004	-2.666566e-003
2188872.933	-9.925238e-005	-2.683925e-003	9.993722e-001	-3.678969e-002	9.993923e-001	-3.680512e-002	-1.078500e-004	-2.688429e-003
2251412.017	-3.259747e-005	-2.780631e-003	9.996386e-001	-3.861595e-002	9.991014e-001	-3.732375e-002	-6.702714e-005	-2.800961e-003
2313951.101	-1.036323e-004	-2.868381e-003	9.991465e-001	-3.928194e-002	9.988809e-001	-3.813746e-002	-6.618084e-005	-2.922211e-003
2376490.184	-9.121591e-005	-2.956051e-003	9.998449e-001	-4.021991e-002	9.991475e-001	-3.967972e-002	-9.664366e-005	-2.962369e-003
2439029.268	-1.315434e-004	-3.038367e-003	9.992852e-001	-4.094244e-002	9.985690e-001	-4.078727e-002	-1.484844e-004	-3.085508e-003
2501568.352	-1.325524e-004	-3.023770e-003	9.993468e-001	-4.197538e-002	9.993976e-001	-4.181301e-002	-9.142754e-005	-3.081502e-003
2564107.436	-9.625899e-005	-3.098073e-003	9.989087e-001	-4.316637e-002	9.987944e-001	-4.277775e-002	-1.278837e-004	-3.225482e-003
2626646.520	-1.583614e-004	-3.236882e-003	9.988575e-001	-4.435142e-002	9.991785e-001	-4.345763e-002	-1.181199e-004	-3.239157e-003
2689185.604	-1.623804e-004	-3.310307e-003	9.995034e-001	-4.502594e-002	9.993384e-001	-4.464255e-002	-1.188147e-004	-3.401021e-003
2751724.687	-9.556255e-005	-3.456398e-003	9.991756e-001	-4.614538e-002	9.983400e-001	-4.571711e-002	-1.694022e-004	-3.395400e-003
2814263.771	-1.032907e-004	-3.510612e-003	9.994394e-001	-4.748155e-002	9.990633e-001	-4.716298e-002	-1.650698e-004	-3.493181e-003
2876802.855	-1.540803e-004	-3.574678e-003	9.990841e-001	-4.877882e-002	9.984180e-001	-4.800695e-002	-1.564485e-004	-3.607742e-003
2939341.939	-1.638500e-004	-3.648092e-003	9.988894e-001	-4.945348e-002	9.987292e-001	-4.870678e-002	-1.961200e-004	-3.681590e-003
3001881.023	-2.053467e-004	-3.703892e-003	9.989233e-001	-4.999712e-002	9.989686e-001	-4.946543e-002	-2.303507e-004	-3.696796e-003
3064420.106	-1.568666e-004	-3.828910e-003	9.984712e-001	-5.141704e-002	9.980869e-001	-5.074701e-002	-2.122220e-004	-3.800013e-003
3126959.190	-1.811310e-004	-3.885953e-003	9.986874e-001	-5.256025e-002	9.983346e-001	-5.219619e-002	-1.970346e-004	-3.906132e-003
3189498.274	-1.373389e-004	-3.937409e-003	9.987585e-001	-5.375320e-002	9.982058e-001	-5.322699e-002	-2.289248e-004	-3.980920e-003
3252037.358	-1.612988e-004	-4.036123e-003	9.985453e-001	-5.473702e-002	9.983347e-001	-5.421150e-002	-2.057301e-004	-4.034493e-003
3314576.442	-1.742023e-004	-4.178641e-003	9.985801e-001	-5.580686e-002	9.984296e-001	-5.539810e-002	-2.549324e-004	-4.103614e-003
3377115.525	-2.124943e-004	-4.180903e-003	9.986017e-001	-5.692531e-002	9.981380e-001	-5.638722e-002	-2.539206e-004	-4.198268e-003
3439654.609	-1.895776e-004	-4.225955e-003	9.982657e-001	-5.784096e-002	9.982312e-001	-5.747165e-002	-2.568268e-004	-4.291785e-003
3502193.693	-1.937299e-004	-4.392939e-003	9.983462e-001	-5.893558e-002	9.981352e-001	-5.838447e-002	-2.485988e-004	-4.411075e-003
3564732.777	-2.353982e-004	-4.437394e-003	9.983283e-001	-6.000409e-002	9.980539e-001	-5.951301e-002	-2.440571e-004	-4.466160e-003
3627271.861	-2.306697e-004	-4.527794e-003	9.981765e-001	-6.107268e-002	9.980652e-001	-6.055010e-002	-2.821322e-004	-4.515477e-003
3689810.944	-2.570116e-004	-4.618485e-003	9.982248e-001	-6.205397e-002	9.978210e-001	-6.163705e-002	-3.268253e-004	-4.630379e-003
3752350.028	-2.970553e-004	-4.644683e-003	9.981205e-001	-6.317811e-002	9.978959e-001	-6.260231e-002	-2.655599e-004	-4.671505e-003
3814889.112	-2.511869e-004	-4.750397e-003	9.980123e-001	-6.415972e-002	9.977605e-001	-6.364835e-002	-2.906675e-004	-4.788435e-003
3877428.196	-2.032013e-004	-4.809338e-003	9.980170e-001	-6.524808e-002	9.976037e-001	-6.459938e-002	-3.335372e-004	-4.856415e-003
3939967.280	-2.947420e-004	-4.946198e-003	9.977929e-001	-6.633757e-002	9.975696e-001	-6.576685e-002	-3.173528e-004	-4.864761e-003
4002506.363	-2.503602e-004	-4.988627e-003	9.977834e-001	-6.731094e-002	9.975357e-001	-6.674749e-002	-3.370554e-004	-4.974385e-003
4065045.447	-2.642503e-004	-5.083734e-003	9.978401e-001	-6.847341e-002	9.975979e-001	-6.800565e-002	-3.280181e-004	-5.091483e-003
4127584.531	-3.277512e-004	-5.141445e-003	9.978443e-001	-6.946846e-002	9.974168e-001	-6.892725e-002	-3.480105e-004	-5.150482e-003
4190123.615	-3.051292e-004	-5.205444e-003	9.975379e-001	-7.034704e-002	9.973732e-001	-6.989901e-002	-3.901672e-004	-5.256299e-003
4252662.699	-3.753023e-004	-5.294109e-003	9.975072e-001	-7.145615e-002	9.971360e-001	-7.088783e-002	-4.130739e-004	-5.281337e-003
4315201.782	-3.069376e-004	-5.395495e-003	9.973984e-001	-7.256173e-002	9.971246e-001	-7.187146e-002	-4.274674e-004	-5.394907e-003
4377740.866	-3.539187e-004	-5.472368e-003	9.974324e-001	-7.361922e-002	9.971703e-001	-7.311715e-002	-3.726239e-004	-5.458484e-003
4440279.950	-3.370978e-004	-5.518584e-003	9.973204e-001	-7.444885e-002	9.971031e-001	-7.406505e-002	-4.115110e-004	-5.570564e-003
4502819.034	-3.183675e-004	-5.676082e-003	9.973251e-001	-7.559137e-002	9.968709e-001	-7.509461e-002	-4.156790e-004	-5.622977e-003
4565358.118	-3.587224e-004	-5.687138e-003	9.969012e-001	-7.658336e-002	9.969500e-001	-7.637214e-002	-4.111385e-004	-5.666438e-003
4627897.201	-3.597151e-004	-5.811908e-003	9.969977e-001	-7.769167e-002	9.969120e-001	-7.714317e-002	-4.723397e-004	-5.709245e-003
4690436.285	-3.513384e-004	-5.863379e-003	9.969684e-001	-7.879640e-002	9.967470e-001	-7.823886e-002	-4.698918e-004	-5.835631e-003
4752975.369	-4.322603e-004	-6.001182e-003	9.968168e-001	-7.984063e-002	9.965309e-001	-7.928824e-002	-4.693091e-004	-5.919373e-003
4815514.453	-4.181751e-004	-6.047751e-003	9.968671e-001	-8.094548e-002	9.964650e-001	-8.039809e-002	-4.824648e-004	-5.998885e-003
4878053.537	-4.584611e-004	-6.073767e-003	9.967454e-001	-8.209332e-002	9.964508e-001	-8.130162e-002	-5.115733e-004	-6.052266e-003
4940592.620	-4.346221e-004	-6.165793e-003	9.965547e-001	-8.298393e-002	9.962853e-001	-8.238312e-002	-5.317295e-004	-6.141299e-003
5003131.704	-4.409877e-004	-6.259097e-003	9.965053e-001	-8.408292e-002	9.961123e-001	-8.353709e-002	-6.103602e-004	-6.277443e-003
5065670.788	-5.050788e-004	-6.337879e-003	9.964707e-001	-8.512274e-002	9.960865e-001	-8.458210e-002	-5.513825e-004	-6.301903e-003
5128209.872	-4.634716e-004	-6.388804e-003	9.963188e-001	-8.608641e-002	9.961499e-001	-8.552360e-002	-5.740021e-004	-6.385006e-003
5190748.956	-4.902719e-004	-6.524115e-003	9.962676e-001	-8.720091e-002	9.961042e-001	-8.653811e-002	-5.802909e-004	-6.449047e-003
5253288.039	-5.245631e-004	-6.573227e-003	9.959083e-001	-8.812944e-002	9.959734e-001	-8.766136e-002	-5.368811e-004	-6.559149e-003
5315827.123	-5.263726e-004	-6.644501e-003	9.959702e-001	-8.922610e-002	9.958557e-001	-8.880731e-002	-5.737044e-004	-6.584282e-003
5378366.207	-5.654936e-004	-6.719448e-003	9.958093e-001	-9.031758e-002	9.957286e-001	-8.974949e-002	-6.111914e-004	-6.683964e-003
5440905.291	-5.556425e-004	-6.798807e-003	9.959937e-001	-9.124244e-002	9.957518e-001	-9.084775e-002	-6.003149e-004	-6.781945e-003
5503444.375	-5.760703e-004	-6.888964e-003	9.957732e-001	-9.243094e-002	9.954453e-001	-9.210739e-002	-6.336718e-004	-6.842342e-003
5565983.458	-6.180414e-004	-6.941535e-003	9.957703e-001	-9.342930e-002	9.953346e-001	-9.303599e-002	-5.935847e-004	-6.899758e-003
5628522.542	-6.333419e-004	-7.067181e-003	9.956071e-001	-9.438289e-002	9.955122e-001	-9.385260e-002	-7.227640e-004	-7.038100e-003
5691061.626	-5.745917e-004	-7.107525e-003	9.954831e-001	-9.544088e-002	9.951569e-001	-9.505141e-002	-7.160106e-004	-7.069717e-003
5753600.710	-6.109551e-004	-7.206893e-003	9.953092e-001	-9.658072e-002	9.951829e-001	-9.603507e-002	-6.639588e-004	-7.132281e-003
5816139.794	-5.728391e-004	-7.255446e-003	9.953521e-001	-9.757313e-002	9.950674e-001	-9.723886e-002	-7.570940e-004	-7.229545e-003
5878678.877	-6.525333e-004	-7.334994e-003	9.951156e-001	-9.856315e-002	9.948988e-001	-9.815312e-002	-7.052520e-004	-7.275953e-003
5941217.961	-6.843820e-004	-7.425922e-003	9.951112e-001	-9.957999e-002	9.949374e-001	-9.902644e-002	-7.935648e-004	-7.361244e-003
6003757.045	-6.647216e-004	-7.559396e-003	9.948328e-001	-1.007866e-001	9.947284e-001	-1.001129e-001	-7.833903e-004	-7.504850e-003
6066296.129	-7.227153e-004	-7.576255e-003	9.947475e-001	-1.018575e-001	9.945912e-001	-1.012788e-001	-7.847924e-004	-7.518901e-003
6128835.213	-7.226052e-004	-7.612307e-003	9.947659e-001	-1.028466e-001	9.946333e-001	-1.024658e-001	-7.790270e-004	-7.581700e-003
6191374.296	-7.584643e-004	-7.763234e-003	9.945499e-001	-1.036679e-001	9.943856e-001	-1.033355e-001	-8.404138e-004	-7.693558e-003
6253913.380	-7.442225e-004	-7.835874e-003	9.943970e-001	-1.049438e-001	9.941134e-001	-1.043775e-001	-8.557948e-004	-7.719930e-003
6316452.464	-7.497309e-004	-7.842899e-003	9.943251e-001	-1.058022e-001	9.942933e-001	-1.053024e-001	-8.382884e-004	-7.808022e-003
6378991.548	-7.807371e-004	-7.999763e-003	9.944194e-001	-1.069595e-001	9.940751e-001	-1.063433e-001	-8.374703e-004	-7.868407e-003
6441530.632	-8.131843e-004	-8.052244e-003	9.942835e-001	-1.080235e-001	9.938277e-001	-1.075879e-001	-8.691292e-004	-8.021570e-003
6504069.715	-8.160468e-004	-8.118321e-003	9.940424e-001	-1.090268e-001	9.939600e-001	-1.085856e-001	-8.929623e-004	-8.068445e-003
6566608.799	-8.209238e-004	-8.192401e-003	9.938813e-001	-1.100823e-001	9.937532e-001	-1.094963e-001	-9.467872e-004	-8.125989e-003
6629147.883	-8.466413e-004	-8.284105e-003	9.937379e-001	-1.111666e-001	9.936914e-001	-1.106181e-001	-9.652455e-004	-8.194368e-003
6691686.967	-8.708561e-004	-8.403623e-003	9.937478e-001	-1.120774e-001	9.932525e-001	-1.117772e-001	-9.930670e-004	-8.238799e-003
6754226.051	-9.192366e-004	-8.425743e-003	9.936901e-001	-1.131798e-001	9.934447e-001	-1.126950e-001	-9.565598e-004	-8.390779e-003
6816765.134	-9.541454e-004	-8.531178e-003	9.934183e-001	-1.142266e-001	9.932914e-001	-1.137799e-001	-9.747025e-004	-8.473366e-003
6879304.218	-9.244239e-004	-8.593747e-003	9.933157e-001	-1.152969e-001	9.930747e-001	-1.148171e-001	-9.887636e-004	-8.511285e-003
6941843.302	-9.186837e-004	-8.644258e-003	9.931597e-001	-1.161680e-001	9.930669e-001	-1.158960e-001	-1.025931e-003	-8.562197e-003
7004382.386	-9.808859e-004	-8.723052e-003	9.929631e-001	-1.174923e-001	9.930365e-001	-1.170417e-001	-1.048290e-003	-8.677056e-003
7066921.470	-9.864885e-004	-8.809836e-003	9.928552e-001	-1.184473e-001	9.928883e-001	-1.178234e-001	-1.060942e-003	-8.759234e-003
7129460.553	-9.781425e-004	-8.932870e-003	9.928563e-001	-1.194260e-001	9.927134e-001	-1.190842e-001	-1.087038e-003	-8.819440e-003
7191999.637	-1.026145e-003	-8.968545e-003	9.926470e-001	-1.205284e-001	9.924568e-001	-1.199267e-001	-1.100447e-003	-8.890028e-003
7254538.721	-9.680932e-004	-9.050274e-003	9.925960e-001	-1.215612e-001	9.924971e-001	-1.210760e-001	-1.152057e-003	-8.939118e-003
7317077.805	-1.070610e-003	-9.105834e-003	9.922987e-001	-1.226436e-001	9.924748e-001	-1.220783e-001	-1.148225e-003	-9.017619e-003
7379616.889	-1.045794e-003	-9.186545e-003	9.924345e-001	-1.236425e-001	9.921206e-001	-1.230191e-001	-1.148800e-003	-9.154582e-003
7442155.972	-1.063045e-003	-9.280766e-003	9.921017e-001	-1.246368e-001	9.918933e-001	-1.242538e-001	-1.198833e-003	-9.202369e-003
7504695.056	-1.074923e-003	-9.372882e-003	9.920101e-001	-1.256668e-001	9.919852e-001	-1.250910e-001	-1.168290e-003	-9.241759e-003
7567234.140	-1.113581e-003	-9.398061e-003	9.919749e-001	-1.268072e-001	9.917656e-001	-1.261461e-001	-1.209796e-003	-9.322325e-003
7629773.224	-1.123342e-003	-9.514963e-003	9.917454e-001	-1.278177e-001	9.916380e-001	-1.272573e-001	-1.243448e-003	-9.394977e-003
7692312.308	-1.165898e-003	-9.572099e-003	9.917532e-001	-1.288092e-001	9.915264e-001	-1.283061e-001	-1.219723e-003	-9.414664e-003
7754851.391	-1.174958e-003	-9.680796e-003	9.913965e-001	-1.297991e-001	9.913136e-001	-1.292916e-001	-1.297859e-003	-9.502194e-003
7817390.475	-1.188418e-003	-9.706921e-003	9.915609e-001	-1.308305e-001	9.912003e-001	-1.304636e-001	-1.250918e-003	-9.634450e-003
7879929.559	-1.232245e-003	-9.827020e-003	9.912202e-001	-1.318527e-001	9.910499e-001	-1.313906e-001	-1.301501e-003	-9.699330e-003
7942468.643	-1.257018e-003	-9.858181e-003	9.910622e-001	-1.328726e-001	9.909366e-001	-1.325744e-001	-1.341002e-003	-9.766301e-003
8005007.727	-1.250728e-003	-9.922628e-003	9.910070e-001	-1.341408e-001	9.908191e-001	-1.334279e-001	-1.375333e-003	-9.877815e-003
8067546.811	-1.256670e-003	-1.000607e-002	9.908105e-001	-1.351420e-001	9.907422e-001	-1.346250e-001	-1.321403e-003	-9.925479e-003
8130085.894	-1.283645e-003	-1.007270e-002	9.906803e-001	-1.360827e-001	9.904378e-001	-1.356423e-001	-1.390179e-003	-1.001235e-002
8192624.978	-1.302305e-003	-1.018409e-002	9.904861e-001	-1.371128e-001	9.902913e-001	-1.366527e-001	-1.368631e-003	-1.007026e-002
8255164.062	-1.339803e-003	-1.025058e-002	9.903763e-001	-1.381867e-001	9.902133e-001	-1.376378e-001	-1.413442e-003	-1.018109e-002
8317703.146	-1.329204e-003	-1.037998e-002	9.902816e-001	-1.392531e-001	9.901743e-001	-1.387209e-001	-1.466797e-003	-1.024156e-002
8380242.230	-1.339752e-003	-1.045504e-002	9.901225e-001	-1.399818e-001	9.901520e-001	-1.397432e-001	-1.438497e-003	-1.029795e-002
8442781.313	-1.388936e-003	-1.046464e-002	9.900173e-001	-1.410373e-001	9.897760e-001	-1.406999e-001	-1.511787e-003	-1.034136e-002
8505320.397	-1.439917e-003	-1.054861e-002	9.898188e-001	-1.423012e-001	9.895990e-001	-1.419113e-001	-1.478908e-003	-1.049875e-002
8567859.481	-1.440390e-003	-1.062855e-002	9.896307e-001	-1.433691e-001	9.895428e-001	-1.426864e-001	-1.485603e-003	-1.051039e-002
8630398.565	-1.435550e-003	-1.069191e-002	9.894637e-001	-1.444309e-001	9.893243e-001	-1.439025e-001	-1.512560e-003	-1.062933e-002
8692937.649	-1.473819e-003	-1.076128e-002	9.892206e-001	-1.454168e-001	9.891259e-001	-1.447431e-001	-1.618138e-003	-1.065284e-002
8755476.732	-1.535141e-003	-1.081004e-002	9.890672e-001	-1.465464e-001	9.890835e-001	-1.459737e-001	-1.586483e-003	-1.071628e-002
8818015.816	-1.528781e-003	-1.093547e-002	9.890311e-001	-1.473355e-001	9.889629e-001	-1.468583e-001	-1.603328e-003	-1.082583e-002
8880554.900	-1.593846e-003	-1.104398e-002	9.888699e-001	-1.485742e-001	9.887793e-001	-1.479129e-001	-1.670781e-003	-1.087943e-002
8943093.984	-1.568598e-003	-1.107464e-002	9.887218e-001	-1.497077e-001	9.885734e-001	-1.489086e-001	-1.631099e-003	-1.094448e-002
9005633.068	-1.605226e-003	-1.117947e-002	9.885073e-001	-1.505502e-001	9.883695e-001	-1.501446e-001	-1.677889e-003	-1.105893e-002
9068172.151	-1.601207e-003	-1.123346e-002	9.883487e-001	-1.516404e-001	9.880603e-001	-1.511889e-001	-1.766515e-003	-1.108050e-002
9130711.235	-1.619532e-003	-1.128950e-002	9.882112e-001	-1.526279e-001	9.880716e-001	-1.519303e-001	-1.706681e-003	-1.118773e-002
9193250.319	-1.653226e-003	-1.140606e-002	9.880382e-001	-1.536082e-001	9.879505e-001	-1.531878e-001	-1.703198e-003	-1.127913e-002
9255789.403	-1.653169e-003	-1.147074e-002	9.878443e-001	-1.548287e-001	9.878544e-001	-1.541289e-001	-1.739687e-003	-1.128159e-002
9318328.487	-1.752101e-003	-1.154356e-002	9.876713e-001	-1.558075e-001	9.877162e-001	-1.553866e-001	-1.792627e-003	-1.142700e-002
9380867.570	-1.776882e-003	-1.158007e-002	9.875911e-001	-1.568005e-001	9.873206e-001	-1.562197e-001	-1.816379e-003	-1.145583e-002
9443406.654	-1.777675e-003	-1.170079e-002	9.873498e-001	-1.578049e-001	9.873448e-001	-1.573721e-001	-1.795894e-003	-1.154636e-002
