!Agilent Technologies,E5061B,MY49102235,A.02.00
!Date: Mon Jul 10 15:56:58 2023
!Data & Calibration Information:
!Freq	S11:SOLT2(ON)	S21:SOLT2(ON)	S12:SOLT2(ON)	S22:SOLT2(ON)
# Hz S RI R 50
5.000	-4.353565e-004	4.479271e-004	1.001925e+000	2.291492e-003	1.000697e+000	-1.499840e-005	-1.139317e-004	-6.995159e-005
62544.084	-4.425560e-005	-2.172019e-005	1.000012e+000	-8.651590e-004	1.000141e+000	-7.319083e-004	3.352591e-006	-1.229259e-004
125083.168	-1.845670e-005	-1.269167e-004	1.000173e+000	-2.353025e-003	1.000163e+000	-2.187905e-003	-5.209247e-005	-1.297679e-004
187622.251	1.842392e-004	-2.788572e-004	9.993257e-001	-2.498525e-003	1.000200e+000	-2.905943e-003	5.151825e-005	-1.834856e-004
250161.335	5.801181e-005	-2.141716e-004	9.997106e-001	-4.391950e-003	9.997916e-001	-4.207873e-003	4.205519e-005	-2.345405e-004
312700.419	4.472105e-005	-3.750556e-004	1.000240e+000	-5.320604e-003	9.992136e-001	-4.847635e-003	1.295992e-004	-3.229704e-004
375239.503	9.835298e-005	-4.052502e-004	9.998951e-001	-6.184624e-003	1.000122e+000	-6.186952e-003	3.380414e-005	-4.437728e-004
437778.587	1.134605e-004	-5.582948e-004	9.999569e-001	-7.207071e-003	9.992288e-001	-7.545618e-003	9.471868e-005	-3.438569e-004
500317.670	1.048720e-004	-6.268209e-004	9.999453e-001	-8.479845e-003	9.994667e-001	-8.604008e-003	1.003925e-004	-4.623577e-004
562856.754	1.352791e-004	-6.209209e-004	9.997044e-001	-9.523536e-003	9.997184e-001	-9.031623e-003	6.378208e-005	-6.707385e-004
625395.838	1.069187e-004	-7.077875e-004	9.998434e-001	-1.051771e-002	9.991343e-001	-1.014463e-002	1.396012e-004	-6.907277e-004
687934.922	-5.316958e-006	-8.309777e-004	1.000055e+000	-1.152012e-002	1.000329e+000	-1.147110e-002	1.178201e-006	-7.855026e-004
750474.006	-1.026229e-004	-9.421363e-004	9.997957e-001	-1.271371e-002	9.995984e-001	-1.166412e-002	-1.446953e-004	-9.174721e-004
813013.089	-9.920404e-005	-9.930951e-004	1.000332e+000	-1.378141e-002	9.990622e-001	-1.302285e-002	-1.038434e-004	-1.032144e-003
875552.173	-9.775725e-005	-1.115859e-003	9.997200e-001	-1.496174e-002	1.000010e+000	-1.453698e-002	-8.243400e-005	-1.100479e-003
938091.257	-1.899337e-004	-1.145594e-003	9.995015e-001	-1.563104e-002	9.995218e-001	-1.496484e-002	-1.634562e-004	-1.153104e-003
1000630.341	-1.325563e-004	-1.160841e-003	9.997449e-001	-1.633789e-002	9.997380e-001	-1.646227e-002	-9.475858e-005	-1.250033e-003
1063169.425	-8.754235e-005	-1.276447e-003	1.000348e+000	-1.776577e-002	1.000348e+000	-1.784961e-002	-5.967475e-005	-1.341850e-003
1125708.508	-1.002489e-004	-1.356904e-003	1.000136e+000	-1.900676e-002	9.994286e-001	-1.848911e-002	-7.243326e-005	-1.378199e-003
1188247.592	-9.436795e-005	-1.466989e-003	9.995975e-001	-1.972736e-002	9.995570e-001	-1.958890e-002	-5.483443e-005	-1.457309e-003
1250786.676	-1.020000e-004	-1.535460e-003	9.997093e-001	-2.122561e-002	9.990358e-001	-2.043949e-002	-7.586428e-005	-1.517801e-003
1313325.760	-1.044826e-004	-1.592901e-003	9.997479e-001	-2.131857e-002	9.991053e-001	-2.179849e-002	-9.268347e-005	-1.648158e-003
1375864.844	-8.231335e-005	-1.705893e-003	1.000112e+000	-2.349723e-002	9.994206e-001	-2.315973e-002	-9.000524e-005	-1.733239e-003
1438403.927	-8.585898e-005	-1.819940e-003	9.995967e-001	-2.454628e-002	9.994817e-001	-2.374740e-002	-8.710308e-005	-1.803167e-003
1500943.011	-8.699448e-005	-1.869898e-003	9.999081e-001	-2.542057e-002	9.991728e-001	-2.509212e-002	-7.958678e-005	-1.849916e-003
1563482.095	-1.490933e-004	-1.956154e-003	9.992032e-001	-2.623397e-002	9.994751e-001	-2.588712e-002	-1.221598e-004	-1.969557e-003
1626021.179	-5.347392e-005	-2.004304e-003	9.995770e-001	-2.754571e-002	9.993350e-001	-2.665449e-002	-5.524055e-005	-2.038703e-003
1688560.263	-4.933653e-005	-2.098916e-003	9.999796e-001	-2.855558e-002	9.995906e-001	-2.782807e-002	-6.671343e-005	-2.085759e-003
1751099.346	-4.553703e-005	-2.092393e-003	9.997838e-001	-2.942368e-002	9.991407e-001	-2.905014e-002	-1.055310e-004	-2.200059e-003
1813638.430	-1.355117e-004	-2.223711e-003	9.999364e-001	-3.016315e-002	9.991612e-001	-3.012545e-002	-1.232303e-004	-2.251524e-003
1876177.514	-1.114164e-004	-2.373268e-003	9.997533e-001	-3.169141e-002	9.994892e-001	-3.110622e-002	-7.191672e-005	-2.346945e-003
1938716.598	-1.169254e-004	-2.416150e-003	9.992932e-001	-3.262798e-002	9.997965e-001	-3.232062e-002	-7.929711e-005	-2.414152e-003
2001255.682	-1.025970e-004	-2.456073e-003	9.998103e-001	-3.359138e-002	9.988970e-001	-3.337270e-002	-1.092642e-004	-2.498953e-003
2063794.765	-1.263547e-004	-2.500819e-003	9.992539e-001	-3.434173e-002	9.995100e-001	-3.431684e-002	-7.776926e-005	-2.592020e-003
2126333.849	-8.696627e-005	-2.693514e-003	9.986816e-001	-3.568595e-002	9.991790e-001	-3.550466e-002	-1.731575e-004	-2.700808e-003
2188872.933	-1.310232e-004	-2.722583e-003	9.993742e-001	-3.655454e-002	9.994206e-001	-3.649793e-002	-1.308216e-004	-2.709352e-003
2251412.017	-4.298493e-005	-2.821574e-003	9.995259e-001	-3.837141e-002	9.992257e-001	-3.727022e-002	-5.988771e-005	-2.831251e-003
2313951.101	-1.340031e-004	-2.908212e-003	9.989759e-001	-3.907394e-002	9.990718e-001	-3.798089e-002	-6.884755e-005	-2.952599e-003
2376490.184	-1.064451e-004	-2.991146e-003	9.997403e-001	-4.008444e-002	9.991055e-001	-3.962656e-002	-1.007217e-004	-2.990550e-003
2439029.268	-1.478990e-004	-3.080800e-003	9.991058e-001	-4.074717e-002	9.986190e-001	-4.063181e-002	-1.596389e-004	-3.125814e-003
2501568.352	-1.319855e-004	-3.058053e-003	9.989959e-001	-4.189789e-002	9.994088e-001	-4.167377e-002	-9.791188e-005	-3.124246e-003
2564107.436	-1.000627e-004	-3.149153e-003	9.986926e-001	-4.308632e-002	9.987070e-001	-4.271876e-002	-1.392310e-004	-3.263066e-003
2626646.520	-1.716934e-004	-3.288939e-003	9.985685e-001	-4.402693e-002	9.990772e-001	-4.333845e-002	-1.236067e-004	-3.297729e-003
2689185.604	-1.679783e-004	-3.340966e-003	9.994727e-001	-4.484874e-002	9.992504e-001	-4.459340e-002	-1.267249e-004	-3.454672e-003
2751724.687	-1.062590e-004	-3.500852e-003	9.990564e-001	-4.587309e-002	9.985402e-001	-4.575866e-002	-1.761411e-004	-3.437026e-003
2814263.771	-9.849159e-005	-3.560327e-003	9.991970e-001	-4.734256e-002	9.990080e-001	-4.709703e-002	-1.648319e-004	-3.543121e-003
2876802.855	-1.623496e-004	-3.622815e-003	9.989787e-001	-4.865716e-002	9.984621e-001	-4.804423e-002	-1.559580e-004	-3.654356e-003
2939341.939	-1.658830e-004	-3.695920e-003	9.987613e-001	-4.923914e-002	9.987899e-001	-4.861663e-002	-1.883459e-004	-3.731029e-003
3001881.023	-2.160826e-004	-3.744680e-003	9.988928e-001	-4.958912e-002	9.988973e-001	-4.943210e-002	-2.479129e-004	-3.761697e-003
3064420.106	-1.617065e-004	-3.882281e-003	9.982670e-001	-5.117678e-002	9.981628e-001	-5.079636e-002	-2.065771e-004	-3.846596e-003
3126959.190	-1.940124e-004	-3.935146e-003	9.985289e-001	-5.234806e-002	9.984183e-001	-5.215838e-002	-1.974462e-004	-3.963177e-003
3189498.274	-1.499646e-004	-4.008172e-003	9.985812e-001	-5.352913e-002	9.982573e-001	-5.316562e-002	-2.270650e-004	-4.031963e-003
3252037.358	-1.645705e-004	-4.098801e-003	9.984287e-001	-5.450941e-002	9.983678e-001	-5.414722e-002	-2.082722e-004	-4.092532e-003
3314576.442	-1.811832e-004	-4.244110e-003	9.984185e-001	-5.554041e-002	9.984480e-001	-5.532419e-002	-2.599895e-004	-4.172727e-003
3377115.525	-2.180251e-004	-4.232625e-003	9.984178e-001	-5.670695e-002	9.981976e-001	-5.630791e-002	-2.622904e-004	-4.265836e-003
3439654.609	-1.955500e-004	-4.305418e-003	9.981039e-001	-5.760859e-002	9.982706e-001	-5.741474e-002	-2.534441e-004	-4.361270e-003
3502193.693	-2.039572e-004	-4.451345e-003	9.982159e-001	-5.866722e-002	9.981750e-001	-5.831698e-002	-2.479538e-004	-4.465975e-003
3564732.777	-2.377993e-004	-4.503044e-003	9.981696e-001	-5.975790e-002	9.980978e-001	-5.943571e-002	-2.365293e-004	-4.524241e-003
3627271.861	-2.418964e-004	-4.597607e-003	9.980670e-001	-6.079708e-002	9.981360e-001	-6.048109e-002	-2.867934e-004	-4.593784e-003
3689810.944	-2.695520e-004	-4.687461e-003	9.980634e-001	-6.180775e-002	9.978886e-001	-6.154931e-002	-3.337346e-004	-4.695036e-003
3752350.028	-3.027981e-004	-4.739618e-003	9.979755e-001	-6.289208e-002	9.979402e-001	-6.252614e-002	-2.792292e-004	-4.748559e-003
3814889.112	-2.678648e-004	-4.824783e-003	9.978790e-001	-6.389396e-002	9.977954e-001	-6.353719e-002	-3.049651e-004	-4.860230e-003
3877428.196	-1.991545e-004	-4.886570e-003	9.978614e-001	-6.492196e-002	9.976628e-001	-6.456033e-002	-3.383112e-004	-4.929758e-003
3939967.280	-3.023434e-004	-5.011632e-003	9.976183e-001	-6.607047e-002	9.975807e-001	-6.567142e-002	-3.163613e-004	-4.949545e-003
4002506.363	-2.720459e-004	-5.074351e-003	9.976476e-001	-6.698089e-002	9.975796e-001	-6.668262e-002	-3.452286e-004	-5.049866e-003
4065045.447	-2.764502e-004	-5.161398e-003	9.976892e-001	-6.816461e-002	9.976272e-001	-6.795431e-002	-3.337802e-004	-5.177032e-003
4127584.531	-3.273420e-004	-5.223652e-003	9.976955e-001	-6.921715e-002	9.974594e-001	-6.883908e-002	-3.566089e-004	-5.236595e-003
4190123.615	-3.171266e-004	-5.300111e-003	9.973649e-001	-7.013843e-002	9.973892e-001	-6.980914e-002	-4.024802e-004	-5.335269e-003
4252662.699	-3.948753e-004	-5.380722e-003	9.973563e-001	-7.112629e-002	9.971907e-001	-7.082984e-002	-4.160333e-004	-5.356474e-003
4315201.782	-3.217543e-004	-5.488190e-003	9.973302e-001	-7.230814e-002	9.971766e-001	-7.177574e-002	-4.340681e-004	-5.479615e-003
4377740.866	-3.565161e-004	-5.568159e-003	9.972639e-001	-7.336805e-002	9.972209e-001	-7.305932e-002	-3.812901e-004	-5.553279e-003
4440279.950	-3.502378e-004	-5.601726e-003	9.972136e-001	-7.414199e-002	9.971340e-001	-7.395804e-002	-4.242411e-004	-5.661105e-003
4502819.034	-3.352200e-004	-5.775934e-003	9.972172e-001	-7.529518e-002	9.969234e-001	-7.501568e-002	-4.286724e-004	-5.711603e-003
4565358.118	-3.756330e-004	-5.794218e-003	9.967449e-001	-7.632022e-002	9.970137e-001	-7.625177e-002	-4.190242e-004	-5.771376e-003
4627897.201	-3.715521e-004	-5.909634e-003	9.968825e-001	-7.734327e-002	9.969530e-001	-7.702252e-002	-4.917560e-004	-5.803239e-003
4690436.285	-3.635320e-004	-5.950086e-003	9.968115e-001	-7.853549e-002	9.967767e-001	-7.811271e-002	-4.844653e-004	-5.915878e-003
4752975.369	-4.393417e-004	-6.095412e-003	9.966754e-001	-7.954054e-002	9.966069e-001	-7.921072e-002	-4.913959e-004	-6.007155e-003
4815514.453	-4.403221e-004	-6.156313e-003	9.967323e-001	-8.065634e-002	9.965186e-001	-8.027452e-002	-4.945442e-004	-6.098240e-003
4878053.537	-4.640670e-004	-6.174661e-003	9.966306e-001	-8.179980e-002	9.964892e-001	-8.118180e-002	-5.170172e-004	-6.146693e-003
4940592.620	-4.501661e-004	-6.273420e-003	9.964032e-001	-8.267414e-002	9.963340e-001	-8.228587e-002	-5.440197e-004	-6.234796e-003
5003131.704	-4.434799e-004	-6.359553e-003	9.963778e-001	-8.377479e-002	9.961467e-001	-8.342376e-002	-6.114712e-004	-6.360631e-003
5065670.788	-5.247826e-004	-6.446481e-003	9.963131e-001	-8.484241e-002	9.961504e-001	-8.442713e-002	-5.781631e-004	-6.400682e-003
5128209.872	-4.877942e-004	-6.501591e-003	9.961903e-001	-8.576709e-002	9.961937e-001	-8.536523e-002	-5.830329e-004	-6.488070e-003
5190748.956	-5.058506e-004	-6.646000e-003	9.961103e-001	-8.689915e-002	9.961665e-001	-8.642183e-002	-5.917193e-004	-6.556813e-003
5253288.039	-5.500484e-004	-6.676810e-003	9.958138e-001	-8.783520e-002	9.960406e-001	-8.749221e-002	-5.567208e-004	-6.640400e-003
5315827.123	-5.394712e-004	-6.757094e-003	9.958367e-001	-8.891825e-002	9.958610e-001	-8.868630e-002	-5.872869e-004	-6.691320e-003
5378366.207	-5.616772e-004	-6.840043e-003	9.956881e-001	-8.997302e-002	9.957500e-001	-8.957380e-002	-6.379369e-004	-6.782924e-003
5440905.291	-5.580414e-004	-6.922628e-003	9.958480e-001	-9.093664e-002	9.958112e-001	-9.074762e-002	-6.277973e-004	-6.873554e-003
5503444.375	-5.868602e-004	-7.003941e-003	9.956337e-001	-9.211168e-002	9.955355e-001	-9.197997e-002	-6.541272e-004	-6.942361e-003
5565983.458	-6.359440e-004	-7.059119e-003	9.956268e-001	-9.316748e-002	9.953790e-001	-9.287011e-002	-6.091759e-004	-7.016347e-003
5628522.542	-6.411383e-004	-7.181810e-003	9.955124e-001	-9.403709e-002	9.955313e-001	-9.374019e-002	-7.358763e-004	-7.139867e-003
5691061.626	-5.809676e-004	-7.234767e-003	9.953706e-001	-9.511427e-002	9.951771e-001	-9.494521e-002	-7.409540e-004	-7.181514e-003
5753600.710	-6.185859e-004	-7.340985e-003	9.951984e-001	-9.628697e-002	9.952211e-001	-9.591667e-002	-6.814439e-004	-7.242660e-003
5816139.794	-5.880388e-004	-7.395129e-003	9.951978e-001	-9.723763e-002	9.950927e-001	-9.713704e-002	-7.655695e-004	-7.346570e-003
5878678.877	-6.723523e-004	-7.480232e-003	9.949917e-001	-9.822300e-002	9.949772e-001	-9.798159e-002	-7.297388e-004	-7.378574e-003
5941217.961	-7.041839e-004	-7.553416e-003	9.949844e-001	-9.924286e-002	9.950063e-001	-9.883931e-002	-8.067896e-004	-7.479079e-003
6003757.045	-6.716415e-004	-7.702868e-003	9.947908e-001	-1.004632e-001	9.947986e-001	-1.000170e-001	-8.027158e-004	-7.606979e-003
6066296.129	-7.249978e-004	-7.721180e-003	9.945953e-001	-1.014667e-001	9.945808e-001	-1.011057e-001	-8.074963e-004	-7.636727e-003
6128835.213	-7.405050e-004	-7.746208e-003	9.946415e-001	-1.025276e-001	9.946705e-001	-1.023278e-001	-7.995566e-004	-7.699484e-003
6191374.296	-7.854291e-004	-7.915865e-003	9.944385e-001	-1.033511e-001	9.944201e-001	-1.031702e-001	-8.593327e-004	-7.814692e-003
6253913.380	-7.458764e-004	-7.980896e-003	9.942777e-001	-1.046417e-001	9.942153e-001	-1.042248e-001	-8.758917e-004	-7.839030e-003
6316452.464	-7.610929e-004	-7.994376e-003	9.941805e-001	-1.054894e-001	9.943578e-001	-1.051906e-001	-8.568255e-004	-7.944402e-003
6378991.548	-8.068345e-004	-8.142274e-003	9.943095e-001	-1.066055e-001	9.941268e-001	-1.062059e-001	-8.603399e-004	-7.983560e-003
6441530.632	-8.250072e-004	-8.187299e-003	9.941715e-001	-1.076599e-001	9.939358e-001	-1.074603e-001	-8.925605e-004	-8.146578e-003
6504069.715	-8.391302e-004	-8.260427e-003	9.939398e-001	-1.086744e-001	9.939517e-001	-1.084394e-001	-9.081109e-004	-8.200667e-003
6566608.799	-8.441759e-004	-8.342094e-003	9.937370e-001	-1.097450e-001	9.938025e-001	-1.093765e-001	-9.858851e-004	-8.253237e-003
6629147.883	-8.676437e-004	-8.430459e-003	9.936040e-001	-1.108413e-001	9.937189e-001	-1.104549e-001	-9.721501e-004	-8.316375e-003
6691686.967	-8.901289e-004	-8.538620e-003	9.936174e-001	-1.117080e-001	9.933410e-001	-1.116300e-001	-1.010923e-003	-8.370811e-003
6754226.051	-9.358200e-004	-8.575795e-003	9.935527e-001	-1.128487e-001	9.934900e-001	-1.125228e-001	-9.696164e-004	-8.521263e-003
6816765.134	-9.730061e-004	-8.684367e-003	9.933363e-001	-1.138863e-001	9.933651e-001	-1.136214e-001	-9.931873e-004	-8.599912e-003
6879304.218	-9.400176e-004	-8.756961e-003	9.932345e-001	-1.149999e-001	9.931162e-001	-1.146185e-001	-1.007530e-003	-8.645576e-003
6941843.302	-9.354366e-004	-8.799488e-003	9.930643e-001	-1.158242e-001	9.931692e-001	-1.157019e-001	-1.052032e-003	-8.692337e-003
7004382.386	-1.003183e-003	-8.873806e-003	9.928591e-001	-1.170906e-001	9.930520e-001	-1.168057e-001	-1.072335e-003	-8.805042e-003
7066921.470	-9.946540e-004	-8.967670e-003	9.928030e-001	-1.180662e-001	9.929437e-001	-1.176636e-001	-1.082225e-003	-8.879395e-003
7129460.553	-9.968381e-004	-9.097549e-003	9.927845e-001	-1.190648e-001	9.928090e-001	-1.189280e-001	-1.117794e-003	-8.961022e-003
7191999.637	-1.036620e-003	-9.133362e-003	9.925131e-001	-1.201724e-001	9.925575e-001	-1.197560e-001	-1.126685e-003	-9.034923e-003
7254538.721	-9.946398e-004	-9.210405e-003	9.924939e-001	-1.212080e-001	9.925293e-001	-1.208581e-001	-1.167258e-003	-9.087716e-003
7317077.805	-1.093042e-003	-9.274301e-003	9.922184e-001	-1.222365e-001	9.925302e-001	-1.218960e-001	-1.169499e-003	-9.150576e-003
7379616.889	-1.064965e-003	-9.352734e-003	9.923285e-001	-1.232601e-001	9.921743e-001	-1.228877e-001	-1.173685e-003	-9.298197e-003
7442155.972	-1.084323e-003	-9.450560e-003	9.920116e-001	-1.242542e-001	9.919705e-001	-1.240389e-001	-1.211385e-003	-9.347519e-003
7504695.056	-1.090410e-003	-9.541244e-003	9.919243e-001	-1.252745e-001	9.920500e-001	-1.249292e-001	-1.189341e-003	-9.377714e-003
7567234.140	-1.140233e-003	-9.589190e-003	9.918857e-001	-1.264248e-001	9.918165e-001	-1.259362e-001	-1.231783e-003	-9.457285e-003
7629773.224	-1.142122e-003	-9.691770e-003	9.916605e-001	-1.274210e-001	9.916839e-001	-1.270504e-001	-1.269119e-003	-9.536109e-003
7692312.308	-1.189173e-003	-9.759173e-003	9.916611e-001	-1.284055e-001	9.915706e-001	-1.281248e-001	-1.253009e-003	-9.552435e-003
7754851.391	-1.191954e-003	-9.861842e-003	9.913093e-001	-1.294193e-001	9.913696e-001	-1.290929e-001	-1.319676e-003	-9.648624e-003
7817390.475	-1.197917e-003	-9.899498e-003	9.914385e-001	-1.304206e-001	9.913025e-001	-1.302686e-001	-1.276012e-003	-9.786640e-003
7879929.559	-1.246136e-003	-1.001294e-002	9.911376e-001	-1.314919e-001	9.911165e-001	-1.311777e-001	-1.330886e-003	-9.844465e-003
7942468.643	-1.274991e-003	-1.003721e-002	9.909736e-001	-1.325132e-001	9.910036e-001	-1.323695e-001	-1.368978e-003	-9.913522e-003
8005007.727	-1.273448e-003	-1.011301e-002	9.909068e-001	-1.337520e-001	9.909010e-001	-1.332226e-001	-1.403741e-003	-1.003258e-002
8067546.811	-1.270899e-003	-1.019951e-002	9.907297e-001	-1.347724e-001	9.908306e-001	-1.344472e-001	-1.346533e-003	-1.008222e-002
8130085.894	-1.312799e-003	-1.026452e-002	9.905836e-001	-1.357284e-001	9.904706e-001	-1.354646e-001	-1.433645e-003	-1.016437e-002
8192624.978	-1.330655e-003	-1.037432e-002	9.904001e-001	-1.367424e-001	9.903736e-001	-1.364611e-001	-1.400464e-003	-1.022059e-002
8255164.062	-1.358787e-003	-1.044448e-002	9.903109e-001	-1.377797e-001	9.903079e-001	-1.374178e-001	-1.441822e-003	-1.034902e-002
8317703.146	-1.344920e-003	-1.056565e-002	9.902014e-001	-1.388808e-001	9.902582e-001	-1.385203e-001	-1.498156e-003	-1.040308e-002
8380242.230	-1.362188e-003	-1.065565e-002	9.900281e-001	-1.395976e-001	9.902275e-001	-1.395562e-001	-1.475480e-003	-1.045493e-002
8442781.313	-1.413118e-003	-1.067188e-002	9.899233e-001	-1.406667e-001	9.898648e-001	-1.404732e-001	-1.540643e-003	-1.050585e-002
8505320.397	-1.464153e-003	-1.075895e-002	9.897214e-001	-1.419220e-001	9.896804e-001	-1.417843e-001	-1.512809e-003	-1.066414e-002
8567859.481	-1.466608e-003	-1.082606e-002	9.895151e-001	-1.429460e-001	9.895901e-001	-1.424851e-001	-1.531462e-003	-1.067876e-002
8630398.565	-1.453661e-003	-1.089253e-002	9.893704e-001	-1.440222e-001	9.893790e-001	-1.436851e-001	-1.545337e-003	-1.079033e-002
8692937.649	-1.506779e-003	-1.096965e-002	9.891152e-001	-1.450278e-001	9.892303e-001	-1.445225e-001	-1.643791e-003	-1.081771e-002
8755476.732	-1.553024e-003	-1.101569e-002	9.889787e-001	-1.461626e-001	9.891594e-001	-1.457220e-001	-1.614152e-003	-1.089052e-002
8818015.816	-1.551350e-003	-1.114838e-002	9.889745e-001	-1.469355e-001	9.890155e-001	-1.466412e-001	-1.635237e-003	-1.099422e-002
8880554.900	-1.606968e-003	-1.126221e-002	9.887748e-001	-1.481603e-001	9.888619e-001	-1.476888e-001	-1.690329e-003	-1.104833e-002
8943093.984	-1.591546e-003	-1.129693e-002	9.886935e-001	-1.492692e-001	9.886227e-001	-1.486677e-001	-1.657063e-003	-1.110731e-002
9005633.068	-1.629544e-003	-1.139376e-002	9.884304e-001	-1.501429e-001	9.884448e-001	-1.499148e-001	-1.709409e-003	-1.123757e-002
9068172.151	-1.619116e-003	-1.144600e-002	9.883086e-001	-1.512160e-001	9.881325e-001	-1.509862e-001	-1.783614e-003	-1.125968e-002
9130711.235	-1.652693e-003	-1.151166e-002	9.881120e-001	-1.521896e-001	9.881576e-001	-1.517049e-001	-1.738689e-003	-1.136920e-002
9193250.319	-1.679956e-003	-1.163592e-002	9.879686e-001	-1.531854e-001	9.880134e-001	-1.529664e-001	-1.745033e-003	-1.145433e-002
9255789.403	-1.688936e-003	-1.169117e-002	9.877739e-001	-1.543712e-001	9.879301e-001	-1.539008e-001	-1.781705e-003	-1.146134e-002
9318328.487	-1.778405e-003	-1.175114e-002	9.876240e-001	-1.553966e-001	9.877991e-001	-1.551414e-001	-1.826251e-003	-1.160024e-002
9380867.570	-1.799224e-003	-1.179891e-002	9.875271e-001	-1.563910e-001	9.874152e-001	-1.559676e-001	-1.847632e-003	-1.163417e-002
9443406.654	-1.806972e-003	-1.193558e-002	9.872812e-001	-1.573643e-001	9.874151e-001	-1.571885e-001	-1.832985e-003	-1.171706e-002
