!Agilent Technologies,E5061B,MY49102235,A.02.00
!Date: Mon Jul 10 16:48:22 2023
!Data & Calibration Information:
!Freq	S11:SOLT2(ON)	S21:SOLT2(ON)	S12:SOLT2(ON)	S22:SOLT2(ON)
# Hz S RI R 50
5.000	-5.036391e-004	4.395961e-004	1.001920e+000	2.260565e-003	1.000629e+000	-1.558299e-005	-1.418374e-004	-6.234908e-005
62544.084	-6.212020e-005	3.497679e-005	1.000128e+000	-9.627893e-004	1.000104e+000	-7.717489e-004	4.204899e-006	-6.405158e-005
125083.168	-2.337023e-005	-1.105780e-005	1.000190e+000	-2.397656e-003	1.000056e+000	-2.266822e-003	-4.494490e-005	-2.076942e-005
187622.251	1.729528e-004	-8.677902e-005	9.994500e-001	-2.670248e-003	1.000176e+000	-2.977498e-003	3.069716e-005	-1.750294e-005
250161.335	4.247432e-005	2.703161e-005	9.998182e-001	-4.570904e-003	9.997334e-001	-4.415138e-003	3.862173e-005	1.572129e-005
312700.419	1.140489e-005	-5.057754e-005	1.000414e+000	-5.617287e-003	9.992186e-001	-5.230738e-003	1.078933e-004	1.873960e-005
375239.503	7.190893e-005	1.469035e-005	9.999484e-001	-6.709534e-003	1.000182e+000	-6.601912e-003	5.721434e-006	-5.537776e-005
437778.587	8.477884e-005	-8.480018e-005	1.000094e+000	-7.787625e-003	9.990923e-001	-8.090823e-003	7.945419e-005	1.226938e-004
500317.670	9.927346e-005	-9.342463e-005	1.000010e+000	-9.037318e-003	9.992952e-001	-9.279704e-003	1.100323e-004	7.564744e-005
562856.754	1.362706e-004	-3.255895e-006	9.997075e-001	-1.020537e-002	9.995956e-001	-9.901018e-003	6.518573e-005	-3.734126e-005
625395.838	1.046122e-004	-4.082889e-005	9.998456e-001	-1.134671e-002	9.990328e-001	-1.095940e-002	1.527005e-004	-8.877395e-006
687934.922	-8.403123e-006	-1.269274e-004	1.000149e+000	-1.215985e-002	1.000322e+000	-1.215811e-002	-1.449436e-005	-6.302924e-005
750474.006	-5.971355e-005	-1.358881e-004	9.998131e-001	-1.356856e-002	9.995863e-001	-1.252358e-002	-8.773015e-005	-1.195045e-004
813013.089	-5.756100e-005	-1.183426e-004	1.000358e+000	-1.462408e-002	9.990830e-001	-1.405630e-002	-6.751939e-005	-1.656365e-004
875552.173	-4.562551e-005	-1.780328e-004	9.998637e-001	-1.589333e-002	9.998479e-001	-1.555171e-002	-5.214748e-005	-1.621727e-004
938091.257	-1.368822e-004	-1.389373e-004	9.995423e-001	-1.668129e-002	9.994626e-001	-1.613507e-002	-1.077305e-004	-1.704500e-004
1000630.341	-7.736970e-005	-9.019284e-005	9.998860e-001	-1.755848e-002	9.996497e-001	-1.747587e-002	-5.198240e-005	-1.886909e-004
1063169.425	-4.345068e-005	-1.387752e-004	1.000421e+000	-1.893915e-002	1.000275e+000	-1.912368e-002	-2.123229e-005	-2.238331e-004
1125708.508	-4.054884e-005	-1.597774e-004	1.000186e+000	-2.027366e-002	9.994877e-001	-1.977514e-002	-2.780324e-005	-1.834798e-004
1188247.592	-3.594851e-005	-2.073733e-004	9.996739e-001	-2.122448e-002	9.994339e-001	-2.075967e-002	-7.135536e-006	-1.830861e-004
1250786.676	-4.693938e-005	-1.962000e-004	9.997577e-001	-2.262262e-002	9.991220e-001	-2.191339e-002	-1.432487e-005	-1.937694e-004
1313325.760	-5.171346e-005	-1.989427e-004	9.998887e-001	-2.279272e-002	9.990624e-001	-2.315404e-002	-5.665913e-005	-2.531607e-004
1375864.844	-8.664620e-006	-2.420792e-004	1.000185e+000	-2.504179e-002	9.993476e-001	-2.475949e-002	-3.965176e-005	-2.658957e-004
1438403.927	-2.808509e-005	-2.702172e-004	9.996722e-001	-2.603990e-002	9.995170e-001	-2.537497e-002	-2.576890e-005	-2.725723e-004
1500943.011	-2.871483e-005	-2.797851e-004	9.998966e-001	-2.709949e-002	9.991435e-001	-2.676006e-002	-2.666429e-005	-2.646932e-004
1563482.095	-8.645528e-005	-2.725645e-004	9.992670e-001	-2.802955e-002	9.995582e-001	-2.780828e-002	-5.305925e-005	-3.042821e-004
1626021.179	5.948578e-006	-2.517766e-004	9.996845e-001	-2.934010e-002	9.994083e-001	-2.850052e-002	1.323602e-005	-3.053302e-004
1688560.263	2.141506e-005	-2.992045e-004	1.000063e+000	-3.038147e-002	9.995318e-001	-2.974114e-002	-8.010272e-006	-3.075742e-004
1751099.346	2.207171e-005	-2.394640e-004	9.997842e-001	-3.139339e-002	9.989911e-001	-3.098967e-002	-1.971098e-005	-3.416938e-004
1813638.430	-5.168641e-005	-3.054944e-004	9.999763e-001	-3.222833e-002	9.990825e-001	-3.210722e-002	-3.810140e-005	-3.058975e-004
1876177.514	-3.499944e-005	-3.661695e-004	9.997512e-001	-3.379052e-002	9.995222e-001	-3.310308e-002	-1.361895e-005	-3.486195e-004
1938716.598	-2.038499e-005	-3.399394e-004	9.992102e-001	-3.486616e-002	9.996080e-001	-3.448157e-002	1.218163e-005	-3.667970e-004
2001255.682	-3.875126e-006	-3.220239e-004	9.998504e-001	-3.576299e-002	9.987698e-001	-3.554846e-002	-3.483374e-005	-3.727166e-004
2063794.765	-2.539159e-005	-3.033138e-004	9.993704e-001	-3.672351e-002	9.995358e-001	-3.659653e-002	3.178429e-005	-3.840116e-004
2126333.849	1.691025e-005	-4.284457e-004	9.986533e-001	-3.800103e-002	9.989794e-001	-3.782356e-002	-7.326120e-005	-4.461896e-004
2188872.933	-1.488180e-005	-3.732808e-004	9.993782e-001	-3.890418e-002	9.992657e-001	-3.906010e-002	-2.431782e-005	-3.814953e-004
2251412.017	5.449572e-005	-4.043833e-004	9.995759e-001	-4.080233e-002	9.990884e-001	-3.966714e-002	3.747884e-005	-4.330148e-004
2313951.101	-1.551138e-005	-4.488875e-004	9.990396e-001	-4.162261e-002	9.989790e-001	-4.070779e-002	3.974393e-005	-4.940888e-004
2376490.184	2.418315e-005	-4.526983e-004	9.998109e-001	-4.269269e-002	9.991562e-001	-4.223523e-002	2.730523e-005	-4.513152e-004
2439029.268	-2.383866e-005	-4.886608e-004	9.990231e-001	-4.342368e-002	9.985523e-001	-4.329988e-002	-3.631214e-005	-5.282215e-004
2501568.352	-1.359910e-005	-4.011055e-004	9.991885e-001	-4.447010e-002	9.992557e-001	-4.445652e-002	2.209434e-005	-4.608702e-004
2564107.436	3.769531e-005	-4.158122e-004	9.987150e-001	-4.573951e-002	9.985851e-001	-4.554985e-002	-2.682227e-006	-5.451716e-004
2626646.520	-3.167458e-005	-4.839398e-004	9.986203e-001	-4.696297e-002	9.991940e-001	-4.618354e-002	2.392952e-005	-4.908767e-004
2689185.604	-2.258050e-005	-4.862673e-004	9.992662e-001	-4.785765e-002	9.991559e-001	-4.757903e-002	2.051783e-005	-5.691086e-004
2751724.687	5.492274e-005	-5.676665e-004	9.990411e-001	-4.893663e-002	9.981931e-001	-4.866954e-002	-2.423423e-005	-4.976734e-004
2814263.771	5.993561e-005	-5.489236e-004	9.992797e-001	-5.036043e-002	9.989473e-001	-5.033904e-002	-1.997356e-005	-5.382868e-004
2876802.855	4.955891e-006	-5.736746e-004	9.989107e-001	-5.169953e-002	9.981813e-001	-5.104908e-002	-4.707302e-006	-5.927540e-004
2939341.939	9.681993e-006	-5.492123e-004	9.987268e-001	-5.243961e-002	9.985823e-001	-5.186954e-002	-2.975163e-005	-6.001778e-004
3001881.023	-4.230633e-005	-5.535577e-004	9.986852e-001	-5.295096e-002	9.988574e-001	-5.263079e-002	-6.513577e-005	-5.457056e-004
3064420.106	2.498694e-005	-6.112936e-004	9.983096e-001	-5.450315e-002	9.979488e-001	-5.407659e-002	-2.338261e-005	-5.780127e-004
3126959.190	5.560363e-006	-5.926619e-004	9.984634e-001	-5.573639e-002	9.982228e-001	-5.556263e-002	-3.418141e-006	-6.218453e-004
3189498.274	3.959352e-005	-5.901627e-004	9.984954e-001	-5.698867e-002	9.980760e-001	-5.666792e-002	-2.958930e-005	-6.433551e-004
3252037.358	4.009767e-005	-6.291837e-004	9.983076e-001	-5.806374e-002	9.981557e-001	-5.765773e-002	1.161363e-005	-6.329392e-004
3314576.442	2.388419e-005	-7.008471e-004	9.983076e-001	-5.917509e-002	9.982230e-001	-5.891200e-002	-4.209782e-005	-6.300960e-004
3377115.525	-4.024576e-006	-6.428564e-004	9.983273e-001	-6.038745e-002	9.979545e-001	-5.998682e-002	-3.013019e-005	-6.669122e-004
3439654.609	4.092562e-005	-6.205231e-004	9.980072e-001	-6.133191e-002	9.980610e-001	-6.112089e-002	-2.446224e-005	-6.901435e-004
3502193.693	3.719675e-005	-7.190190e-004	9.980923e-001	-6.248696e-002	9.979953e-001	-6.210202e-002	-7.966772e-006	-7.428761e-004
3564732.777	1.046932e-005	-7.056744e-004	9.980541e-001	-6.366246e-002	9.978461e-001	-6.331248e-002	3.913534e-006	-7.200328e-004
3627271.861	2.083995e-005	-7.274101e-004	9.979166e-001	-6.476133e-002	9.978942e-001	-6.443703e-002	-3.616163e-005	-7.219808e-004
3689810.944	8.128475e-006	-7.401850e-004	9.979505e-001	-6.580756e-002	9.975994e-001	-6.556509e-002	-6.369876e-005	-7.617261e-004
3752350.028	-2.738605e-005	-7.162070e-004	9.978366e-001	-6.701352e-002	9.976580e-001	-6.659385e-002	1.250557e-006	-7.425572e-004
3814889.112	2.364523e-005	-7.422956e-004	9.976939e-001	-6.805907e-002	9.975386e-001	-6.773888e-002	-1.090725e-005	-7.921082e-004
3877428.196	8.617144e-005	-7.441505e-004	9.976845e-001	-6.918500e-002	9.973507e-001	-6.875371e-002	-4.257603e-005	-7.816041e-004
3939967.280	2.381727e-005	-8.057606e-004	9.974532e-001	-7.037530e-002	9.973347e-001	-6.996897e-002	-1.628963e-005	-7.465165e-004
4002506.363	4.074751e-005	-8.047801e-004	9.974345e-001	-7.139325e-002	9.972727e-001	-7.100731e-002	-2.963782e-005	-7.802604e-004
4065045.447	4.802863e-005	-8.299915e-004	9.974912e-001	-7.260344e-002	9.973037e-001	-7.233424e-002	-9.621916e-006	-8.409081e-004
4127584.531	-1.122897e-005	-8.126062e-004	9.974680e-001	-7.368908e-002	9.971798e-001	-7.330371e-002	-2.127110e-005	-8.339801e-004
4190123.615	1.752755e-005	-8.200622e-004	9.971452e-001	-7.464503e-002	9.970861e-001	-7.434639e-002	-5.529585e-005	-8.728176e-004
4252662.699	-3.700571e-005	-8.343324e-004	9.971048e-001	-7.578150e-002	9.968657e-001	-7.537273e-002	-6.349136e-005	-8.268575e-004
4315201.782	2.856758e-005	-8.835631e-004	9.970570e-001	-7.699609e-002	9.968665e-001	-7.644776e-002	-7.821781e-005	-8.695855e-004
4377740.866	1.335146e-005	-8.822904e-004	9.970546e-001	-7.809904e-002	9.968667e-001	-7.776175e-002	-9.061616e-006	-8.841435e-004
4440279.950	3.760344e-005	-8.556752e-004	9.969714e-001	-7.896864e-002	9.967902e-001	-7.876313e-002	-3.361240e-005	-9.187713e-004
4502819.034	5.769523e-005	-9.691307e-004	9.969480e-001	-8.020879e-002	9.965274e-001	-7.986971e-002	-3.054802e-005	-9.190499e-004
4565358.118	4.169178e-005	-9.102431e-004	9.965322e-001	-8.129819e-002	9.966069e-001	-8.116625e-002	-1.014930e-005	-8.931955e-004
4627897.201	3.640682e-005	-9.633902e-004	9.965726e-001	-8.238212e-002	9.965675e-001	-8.207886e-002	-6.037085e-005	-8.723169e-004
4690436.285	5.889322e-005	-9.413051e-004	9.965115e-001	-8.359563e-002	9.963790e-001	-8.320350e-002	-4.248716e-005	-9.295122e-004
4752975.369	-6.252522e-006	-1.023844e-003	9.963508e-001	-8.469580e-002	9.961726e-001	-8.431704e-002	-3.053960e-005	-9.459696e-004
4815514.453	1.392168e-005	-1.006743e-003	9.963776e-001	-8.589112e-002	9.960810e-001	-8.551423e-002	-4.419154e-005	-9.713495e-004
4878053.537	-1.123772e-005	-9.688114e-004	9.962876e-001	-8.707968e-002	9.960667e-001	-8.646683e-002	-6.249764e-005	-9.472149e-004
4940592.620	1.996032e-005	-9.964644e-004	9.960614e-001	-8.804899e-002	9.958511e-001	-8.760830e-002	-6.004859e-005	-9.718739e-004
5003131.704	2.577223e-005	-1.007113e-003	9.960125e-001	-8.916595e-002	9.957040e-001	-8.883384e-002	-1.314375e-004	-1.035079e-003
5065670.788	-2.530139e-005	-1.032713e-003	9.959550e-001	-9.031629e-002	9.956558e-001	-8.991669e-002	-6.100239e-005	-1.009558e-003
5128209.872	2.919517e-005	-1.016444e-003	9.958356e-001	-9.133993e-002	9.957278e-001	-9.098162e-002	-7.640583e-005	-1.023457e-003
5190748.956	1.573816e-005	-1.100009e-003	9.957137e-001	-9.255771e-002	9.956661e-001	-9.202116e-002	-7.221903e-005	-1.025924e-003
5253288.039	-2.624829e-005	-1.074446e-003	9.953906e-001	-9.354168e-002	9.955316e-001	-9.317735e-002	-2.001615e-005	-1.065438e-003
5315827.123	2.657750e-006	-1.090458e-003	9.953869e-001	-9.468156e-002	9.953808e-001	-9.443311e-002	-3.413960e-005	-1.037140e-003
5378366.207	-1.224320e-005	-1.095180e-003	9.952511e-001	-9.586123e-002	9.952457e-001	-9.540742e-002	-6.408382e-005	-1.056282e-003
5440905.291	6.387706e-006	-1.110752e-003	9.953985e-001	-9.682342e-002	9.952409e-001	-9.658507e-002	-4.646398e-005	-1.083731e-003
5503444.375	-1.779044e-006	-1.126485e-003	9.951716e-001	-9.807119e-002	9.949904e-001	-9.792948e-002	-6.268435e-005	-1.095392e-003
5565983.458	-3.970173e-005	-1.121472e-003	9.951435e-001	-9.918196e-002	9.948308e-001	-9.889405e-002	-5.301347e-006	-1.096530e-003
5628522.542	-3.209364e-005	-1.170658e-003	9.950431e-001	-1.001472e-001	9.949710e-001	-9.981266e-002	-1.228924e-004	-1.164338e-003
5691061.626	3.319056e-005	-1.151936e-003	9.949002e-001	-1.012811e-001	9.945747e-001	-1.010301e-001	-1.066811e-004	-1.118979e-003
5753600.710	1.542378e-005	-1.199347e-003	9.946993e-001	-1.024996e-001	9.945961e-001	-1.020953e-001	-3.628501e-005	-1.129103e-003
5816139.794	5.378990e-005	-1.179867e-003	9.947091e-001	-1.035521e-001	9.944203e-001	-1.033602e-001	-1.212702e-004	-1.164663e-003
5878678.877	-6.920710e-006	-1.200608e-003	9.944504e-001	-1.046011e-001	9.943289e-001	-1.043176e-001	-5.083455e-005	-1.134714e-003
5941217.961	-2.386175e-005	-1.218276e-003	9.944337e-001	-1.056533e-001	9.943751e-001	-1.052627e-001	-1.234188e-004	-1.157880e-003
6003757.045	1.620338e-005	-1.287660e-003	9.941976e-001	-1.069400e-001	9.941651e-001	-1.064901e-001	-1.072440e-004	-1.233358e-003
6066296.129	-3.106598e-005	-1.235444e-003	9.940172e-001	-1.081131e-001	9.938759e-001	-1.076702e-001	-8.753807e-005	-1.180186e-003
6128835.213	-2.642436e-005	-1.219240e-003	9.940796e-001	-1.091576e-001	9.939658e-001	-1.089106e-001	-6.401049e-005	-1.177561e-003
6191374.296	-4.920167e-005	-1.304927e-003	9.938597e-001	-1.100317e-001	9.937591e-001	-1.098444e-001	-1.248258e-004	-1.250799e-003
6253913.380	-1.464817e-005	-1.313889e-003	9.936816e-001	-1.113927e-001	9.934554e-001	-1.109763e-001	-1.091257e-004	-1.200133e-003
6316452.464	3.572599e-007	-1.251752e-003	9.935898e-001	-1.123084e-001	9.935916e-001	-1.119834e-001	-8.293491e-005	-1.229159e-003
6378991.548	-2.748637e-005	-1.337128e-003	9.936515e-001	-1.135190e-001	9.933775e-001	-1.130548e-001	-6.721970e-005	-1.217786e-003
6441530.632	-3.985254e-005	-1.321171e-003	9.935253e-001	-1.146709e-001	9.931573e-001	-1.143891e-001	-9.870462e-005	-1.308019e-003
6504069.715	-3.250552e-005	-1.335793e-003	9.932771e-001	-1.157020e-001	9.932239e-001	-1.154298e-001	-9.232795e-005	-1.289021e-003
6566608.799	-8.323137e-006	-1.346270e-003	9.930465e-001	-1.168476e-001	9.930019e-001	-1.164470e-001	-1.388339e-004	-1.286145e-003
6629147.883	-3.183428e-005	-1.369427e-003	9.929187e-001	-1.180084e-001	9.929309e-001	-1.176059e-001	-1.343052e-004	-1.286287e-003
6691686.967	-3.867147e-005	-1.407460e-003	9.929436e-001	-1.189662e-001	9.925046e-001	-1.188010e-001	-1.495493e-004	-1.274753e-003
6754226.051	-6.241829e-005	-1.379495e-003	9.928021e-001	-1.201411e-001	9.926629e-001	-1.197919e-001	-9.589921e-005	-1.342000e-003
6816765.134	-9.211578e-005	-1.424352e-003	9.925815e-001	-1.212262e-001	9.925232e-001	-1.209531e-001	-9.300934e-005	-1.375862e-003
6879304.218	-3.570503e-005	-1.428045e-003	9.924681e-001	-1.224090e-001	9.922360e-001	-1.220495e-001	-1.004265e-004	-1.357802e-003
6941843.302	-2.142294e-005	-1.401377e-003	9.922615e-001	-1.233257e-001	9.922241e-001	-1.231713e-001	-1.259975e-004	-1.331838e-003
7004382.386	-6.348532e-005	-1.420754e-003	9.920483e-001	-1.247096e-001	9.921606e-001	-1.243227e-001	-1.176924e-004	-1.382783e-003
7066921.470	-4.791784e-005	-1.444462e-003	9.919785e-001	-1.257085e-001	9.920039e-001	-1.252931e-001	-1.159714e-004	-1.386155e-003
7129460.553	-1.620680e-005	-1.495276e-003	9.919245e-001	-1.267782e-001	9.918837e-001	-1.265818e-001	-1.428484e-004	-1.397842e-003
7191999.637	-4.996274e-005	-1.474647e-003	9.916798e-001	-1.279145e-001	9.915930e-001	-1.274641e-001	-1.228054e-004	-1.410371e-003
7254538.721	6.137391e-006	-1.492160e-003	9.916470e-001	-1.290116e-001	9.915797e-001	-1.286776e-001	-1.493812e-004	-1.393571e-003
7317077.805	-7.514468e-005	-1.482957e-003	9.913130e-001	-1.301699e-001	9.915455e-001	-1.297514e-001	-1.279642e-004	-1.400644e-003
7379616.889	-1.895307e-005	-1.491265e-003	9.914860e-001	-1.312454e-001	9.911509e-001	-1.307646e-001	-1.199710e-004	-1.471841e-003
7442155.972	-2.925395e-005	-1.523777e-003	9.910999e-001	-1.322848e-001	9.909495e-001	-1.320474e-001	-1.448146e-004	-1.460387e-003
7504695.056	-1.939893e-005	-1.546625e-003	9.909620e-001	-1.333757e-001	9.910159e-001	-1.330087e-001	-9.992054e-005	-1.442484e-003
7567234.140	-5.031295e-005	-1.528152e-003	9.909249e-001	-1.345968e-001	9.907554e-001	-1.340633e-001	-1.382314e-004	-1.444024e-003
7629773.224	-4.382294e-005	-1.569591e-003	9.906687e-001	-1.356263e-001	9.906050e-001	-1.352474e-001	-1.466480e-004	-1.453026e-003
7692312.308	-5.877267e-005	-1.567571e-003	9.906295e-001	-1.367230e-001	9.904747e-001	-1.363799e-001	-1.157405e-004	-1.407483e-003
7754851.391	-4.360178e-005	-1.604663e-003	9.903033e-001	-1.377737e-001	9.902910e-001	-1.374368e-001	-1.663712e-004	-1.446560e-003
7817390.475	-4.390560e-005	-1.567917e-003	9.904432e-001	-1.389044e-001	9.901716e-001	-1.386598e-001	-1.101775e-004	-1.503940e-003
7879929.559	-6.222802e-005	-1.616916e-003	9.901076e-001	-1.399239e-001	9.899783e-001	-1.396370e-001	-1.354049e-004	-1.500146e-003
7942468.643	-8.500675e-005	-1.595967e-003	9.899092e-001	-1.410510e-001	9.898260e-001	-1.408958e-001	-1.673700e-004	-1.513885e-003
8005007.727	-6.571104e-005	-1.605467e-003	9.898226e-001	-1.423389e-001	9.896934e-001	-1.418342e-001	-1.701053e-004	-1.569789e-003
8067546.811	-3.851112e-005	-1.611132e-003	9.896698e-001	-1.434452e-001	9.896136e-001	-1.430825e-001	-9.908229e-005	-1.548936e-003
8130085.894	-4.617268e-005	-1.621001e-003	9.894471e-001	-1.444434e-001	9.892923e-001	-1.441585e-001	-1.729026e-004	-1.565144e-003
8192624.978	-5.720840e-005	-1.663581e-003	9.892579e-001	-1.455667e-001	9.891165e-001	-1.452169e-001	-1.160969e-004	-1.572579e-003
8255164.062	-5.861008e-005	-1.673366e-003	9.891289e-001	-1.466577e-001	9.890423e-001	-1.462749e-001	-1.520435e-004	-1.611703e-003
8317703.146	-3.476597e-005	-1.725184e-003	9.890537e-001	-1.478124e-001	9.889702e-001	-1.474285e-001	-1.736288e-004	-1.608069e-003
8380242.230	-2.209399e-005	-1.739165e-003	9.888314e-001	-1.486268e-001	9.889574e-001	-1.484923e-001	-1.352399e-004	-1.597781e-003
8442781.313	-6.329009e-005	-1.690064e-003	9.887365e-001	-1.497374e-001	9.885473e-001	-1.495614e-001	-1.731014e-004	-1.587380e-003
8505320.397	-9.309516e-005	-1.713274e-003	9.885195e-001	-1.510591e-001	9.883746e-001	-1.508457e-001	-1.321865e-004	-1.676494e-003
8567859.481	-6.971516e-005	-1.729042e-003	9.883071e-001	-1.521363e-001	9.882714e-001	-1.516690e-001	-1.266104e-004	-1.622482e-003
8630398.565	-4.224332e-005	-1.730629e-003	9.881261e-001	-1.532793e-001	9.880302e-001	-1.529116e-001	-1.215475e-004	-1.689309e-003
8692937.649	-7.283685e-005	-1.727902e-003	9.878431e-001	-1.543516e-001	9.878075e-001	-1.538602e-001	-1.977598e-004	-1.629613e-003
8755476.732	-1.019308e-004	-1.713103e-003	9.876915e-001	-1.555525e-001	9.877413e-001	-1.551237e-001	-1.579709e-004	-1.645846e-003
8818015.816	-7.838132e-005	-1.778709e-003	9.876241e-001	-1.564119e-001	9.876238e-001	-1.561027e-001	-1.542304e-004	-1.674327e-003
8880554.900	-1.077605e-004	-1.827844e-003	9.874809e-001	-1.577012e-001	9.873892e-001	-1.571917e-001	-1.962231e-004	-1.677950e-003
8943093.984	-8.477269e-005	-1.791881e-003	9.873069e-001	-1.588793e-001	9.871827e-001	-1.582540e-001	-1.326399e-004	-1.681995e-003
9005633.068	-9.596177e-005	-1.832981e-003	9.870532e-001	-1.598481e-001	9.869577e-001	-1.595567e-001	-1.747509e-004	-1.728503e-003
9068172.151	-6.095193e-005	-1.824745e-003	9.868804e-001	-1.609564e-001	9.866397e-001	-1.606932e-001	-2.101379e-004	-1.695285e-003
9130711.235	-6.447401e-005	-1.810685e-003	9.866853e-001	-1.619951e-001	9.866359e-001	-1.614885e-001	-1.500324e-004	-1.745104e-003
9193250.319	-6.984445e-005	-1.871001e-003	9.864997e-001	-1.630410e-001	9.864310e-001	-1.628148e-001	-1.254036e-004	-1.759926e-003
9255789.403	-5.094016e-005	-1.878635e-003	9.863089e-001	-1.643089e-001	9.863773e-001	-1.638245e-001	-1.624375e-004	-1.697508e-003
9318328.487	-1.321458e-004	-1.866139e-003	9.860986e-001	-1.654230e-001	9.861894e-001	-1.651211e-001	-1.705565e-004	-1.776367e-003
9380867.570	-1.469381e-004	-1.844387e-003	9.860096e-001	-1.664826e-001	9.857712e-001	-1.659996e-001	-1.838005e-004	-1.747205e-003
9443406.654	-1.193731e-004	-1.910667e-003	9.857418e-001	-1.674859e-001	9.857619e-001	-1.672368e-001	-1.327482e-004	-1.774716e-003
9505945.738	-1.181817e-004	-1.938328e-003	9.856907e-001	-1.685492e-001	9.854396e-001	-1.682483e-001	-1.968243e-004	-1.802704e-003
