!Agilent Technologies,E5061B,MY49102235,A.02.00
!Date: Mon Jul 10 16:47:09 2023
!Data & Calibration Information:
!Freq	S11:SOLT2(ON)	S21:SOLT2(ON)	S12:SOLT2(ON)	S22:SOLT2(ON)
# Hz S RI R 50
5.000	-4.878226e-004	4.265517e-004	1.001787e+000	2.355500e-003	1.000501e+000	-6.112264e-005	-1.280570e-004	-6.349511e-005
62544.084	-5.505165e-005	4.279187e-004	1.000031e+000	-1.357668e-003	1.000103e+000	-1.161829e-003	2.043225e-005	3.304388e-004
125083.168	-2.701813e-005	7.561778e-004	1.000181e+000	-3.282329e-003	1.000145e+000	-2.962007e-003	-2.127393e-005	7.413688e-004
187622.251	1.828721e-004	1.062521e-003	9.994572e-001	-3.853287e-003	1.000257e+000	-4.276012e-003	5.065799e-005	1.135980e-003
250161.335	7.865185e-005	1.539332e-003	9.998045e-001	-6.064083e-003	9.998265e-001	-6.052826e-003	5.918384e-005	1.529507e-003
312700.419	9.399384e-005	1.858322e-003	1.000142e+000	-7.500887e-003	9.991465e-001	-7.084533e-003	1.798696e-004	1.877324e-003
375239.503	1.352216e-004	2.233471e-003	9.999630e-001	-8.784999e-003	9.999798e-001	-8.902865e-003	9.452238e-005	2.215598e-003
437778.587	2.023478e-004	2.550557e-003	9.998610e-001	-1.039153e-002	9.990117e-001	-1.061978e-002	1.928855e-004	2.738843e-003
500317.670	2.002433e-004	2.921032e-003	9.998846e-001	-1.207754e-002	9.993508e-001	-1.242795e-002	1.898034e-004	3.102890e-003
562856.754	2.634318e-004	3.347604e-003	9.996099e-001	-1.348133e-002	9.994969e-001	-1.313284e-002	2.083551e-004	3.302595e-003
625395.838	2.550388e-004	3.698239e-003	9.997585e-001	-1.502094e-002	9.990524e-001	-1.465911e-002	2.787969e-004	3.720800e-003
687934.922	1.420902e-004	3.987971e-003	1.000086e+000	-1.628277e-002	1.000213e+000	-1.641404e-002	1.563017e-004	4.051337e-003
750474.006	1.370627e-004	4.359409e-003	9.996293e-001	-1.784160e-002	9.993983e-001	-1.711883e-002	1.235681e-004	4.364568e-003
813013.089	1.958268e-004	4.743525e-003	1.000087e+000	-1.949175e-002	9.989354e-001	-1.901763e-002	1.799973e-004	4.694656e-003
875552.173	2.119678e-004	5.064040e-003	9.995426e-001	-2.103406e-002	9.998142e-001	-2.077694e-002	2.112342e-004	5.067508e-003
938091.257	1.391585e-004	5.448755e-003	9.992497e-001	-2.219947e-002	9.992496e-001	-2.180843e-002	1.788701e-004	5.434548e-003
1000630.341	2.464890e-004	5.871238e-003	9.994000e-001	-2.355926e-002	9.994924e-001	-2.351644e-002	2.770207e-004	5.793957e-003
1063169.425	3.067636e-004	6.207254e-003	1.000038e+000	-2.516400e-002	1.000062e+000	-2.536493e-002	3.385899e-004	6.141167e-003
1125708.508	3.413751e-004	6.558125e-003	9.998223e-001	-2.695009e-002	9.991057e-001	-2.650969e-002	3.527746e-004	6.541224e-003
1188247.592	3.755459e-004	6.884028e-003	9.991916e-001	-2.817871e-002	9.990223e-001	-2.795027e-002	3.997666e-004	6.913697e-003
1250786.676	4.022666e-004	7.270211e-003	9.993437e-001	-2.999564e-002	9.987125e-001	-2.947033e-002	4.388332e-004	7.278073e-003
1313325.760	4.490426e-004	7.651595e-003	9.993329e-001	-3.075955e-002	9.987487e-001	-3.111606e-002	4.387102e-004	7.608573e-003
1375864.844	5.114273e-004	7.982398e-003	9.996370e-001	-3.317648e-002	9.988045e-001	-3.292642e-002	4.805288e-004	7.959836e-003
1438403.927	5.307385e-004	8.341703e-003	9.991748e-001	-3.458438e-002	9.990041e-001	-3.400947e-002	5.333690e-004	8.320967e-003
1500943.011	5.817731e-004	8.714301e-003	9.993393e-001	-3.606730e-002	9.985974e-001	-3.571045e-002	5.795594e-004	8.736667e-003
1563482.095	5.624993e-004	9.092985e-003	9.986389e-001	-3.734832e-002	9.988608e-001	-3.706735e-002	5.998461e-004	9.070482e-003
1626021.179	7.103735e-004	9.491917e-003	9.988340e-001	-3.901258e-002	9.986310e-001	-3.832228e-002	7.093131e-004	9.442363e-003
1688560.263	7.576638e-004	9.853608e-003	9.992993e-001	-4.048198e-002	9.988535e-001	-4.008649e-002	7.379436e-004	9.827047e-003
1751099.346	8.240482e-004	1.030443e-002	9.990883e-001	-4.196584e-002	9.983237e-001	-4.164936e-002	7.566804e-004	1.020330e-002
1813638.430	7.795956e-004	1.064203e-002	9.991300e-001	-4.314917e-002	9.982737e-001	-4.298465e-002	7.894990e-004	1.063293e-002
1876177.514	8.513738e-004	1.095841e-002	9.988682e-001	-4.505321e-002	9.986650e-001	-4.440536e-002	8.753865e-004	1.099231e-002
1938716.598	9.085574e-004	1.138325e-002	9.983548e-001	-4.649027e-002	9.987044e-001	-4.619822e-002	9.310500e-004	1.135998e-002
2001255.682	9.791603e-004	1.178662e-002	9.988511e-001	-4.781511e-002	9.979658e-001	-4.763909e-002	9.718140e-004	1.176331e-002
2063794.765	1.012597e-003	1.223085e-002	9.982786e-001	-4.918761e-002	9.986210e-001	-4.908984e-002	1.075562e-003	1.214953e-002
2126333.849	1.135094e-003	1.251369e-002	9.975438e-001	-5.085720e-002	9.978852e-001	-5.083690e-002	1.029814e-003	1.248950e-002
2188872.933	1.156319e-003	1.294493e-002	9.980634e-001	-5.221134e-002	9.981700e-001	-5.235404e-002	1.163611e-003	1.294881e-002
2251412.017	1.310391e-003	1.334113e-002	9.983060e-001	-5.463398e-002	9.978615e-001	-5.349706e-002	1.287093e-003	1.332005e-002
2313951.101	1.315433e-003	1.373960e-002	9.976370e-001	-5.575115e-002	9.976479e-001	-5.479004e-002	1.361242e-003	1.366875e-002
2376490.184	1.421209e-003	1.413660e-002	9.982657e-001	-5.720504e-002	9.976737e-001	-5.682475e-002	1.437672e-003	1.413244e-002
2439029.268	1.446003e-003	1.452954e-002	9.975334e-001	-5.830028e-002	9.970756e-001	-5.822331e-002	1.445624e-003	1.449157e-002
2501568.352	1.562026e-003	1.504605e-002	9.975386e-001	-5.988762e-002	9.978397e-001	-5.994607e-002	1.598825e-003	1.497225e-002
2564107.436	1.714413e-003	1.544690e-002	9.971035e-001	-6.156504e-002	9.969787e-001	-6.149391e-002	1.674372e-003	1.532158e-002
2626646.520	1.747064e-003	1.580409e-002	9.968682e-001	-6.320440e-002	9.973111e-001	-6.254998e-002	1.787291e-003	1.579759e-002
2689185.604	1.855045e-003	1.623998e-002	9.975698e-001	-6.450307e-002	9.974712e-001	-6.428630e-002	1.891650e-003	1.614629e-002
2751724.687	2.024295e-003	1.659354e-002	9.971785e-001	-6.585632e-002	9.963625e-001	-6.598019e-002	1.955862e-003	1.666283e-002
2814263.771	2.140998e-003	1.702522e-002	9.971562e-001	-6.791176e-002	9.968422e-001	-6.788712e-002	2.076868e-003	1.703515e-002
2876802.855	2.205964e-003	1.746802e-002	9.966963e-001	-6.962996e-002	9.961451e-001	-6.911184e-002	2.211314e-003	1.743722e-002
2939341.939	2.330163e-003	1.791273e-002	9.963493e-001	-7.080810e-002	9.963337e-001	-7.029964e-002	2.312005e-003	1.786154e-002
3001881.023	2.430080e-003	1.835872e-002	9.963384e-001	-7.181635e-002	9.964795e-001	-7.162917e-002	2.415598e-003	1.835826e-002
3064420.106	2.614509e-003	1.874026e-002	9.957421e-001	-7.380736e-002	9.954704e-001	-7.345545e-002	2.575997e-003	1.876748e-002
3126959.190	2.749786e-003	1.920414e-002	9.957297e-001	-7.549785e-002	9.955750e-001	-7.536155e-002	2.738418e-003	1.917690e-002
3189498.274	2.942234e-003	1.966005e-002	9.956579e-001	-7.719974e-002	9.953121e-001	-7.695533e-002	2.861152e-003	1.961014e-002
3252037.358	3.100317e-003	2.006566e-002	9.953362e-001	-7.871153e-002	9.952322e-001	-7.841437e-002	3.063715e-003	2.007265e-002
3314576.442	3.238646e-003	2.046200e-002	9.951643e-001	-8.029714e-002	9.950991e-001	-8.010097e-002	3.192432e-003	2.052982e-002
3377115.525	3.386024e-003	2.096323e-002	9.949958e-001	-8.195686e-002	9.946740e-001	-8.161614e-002	3.350086e-003	2.094808e-002
3439654.609	3.603372e-003	2.143949e-002	9.944910e-001	-8.336001e-002	9.945945e-001	-8.320176e-002	3.535545e-003	2.137830e-002
3502193.693	3.786168e-003	2.182483e-002	9.944304e-001	-8.494385e-002	9.943659e-001	-8.469190e-002	3.749140e-003	2.180523e-002
3564732.777	3.964633e-003	2.228423e-002	9.941820e-001	-8.662264e-002	9.940578e-001	-8.628742e-002	3.964596e-003	2.226438e-002
3627271.861	4.175392e-003	2.273198e-002	9.937812e-001	-8.818261e-002	9.938205e-001	-8.795013e-002	4.147283e-003	2.272494e-002
3689810.944	4.377408e-003	2.316636e-002	9.936148e-001	-8.969872e-002	9.933590e-001	-8.950158e-002	4.330966e-003	2.315741e-002
3752350.028	4.581215e-003	2.365776e-002	9.933318e-001	-9.133122e-002	9.932101e-001	-9.103637e-002	4.610243e-003	2.363904e-002
3814889.112	4.857471e-003	2.408583e-002	9.929910e-001	-9.289892e-002	9.928031e-001	-9.258949e-002	4.825787e-003	2.404564e-002
3877428.196	5.165131e-003	2.456467e-002	9.926703e-001	-9.445805e-002	9.924178e-001	-9.408775e-002	5.040499e-003	2.452668e-002
3939967.280	5.340812e-003	2.497435e-002	9.922121e-001	-9.608333e-002	9.921322e-001	-9.577815e-002	5.331354e-003	2.502076e-002
4002506.363	5.639757e-003	2.542439e-002	9.919328e-001	-9.755512e-002	9.918210e-001	-9.725375e-002	5.595920e-003	2.543642e-002
4065045.447	5.914899e-003	2.586388e-002	9.917113e-001	-9.926040e-002	9.916104e-001	-9.906177e-002	5.872027e-003	2.585189e-002
4127584.531	6.144094e-003	2.633500e-002	9.914004e-001	-1.008184e-001	9.911633e-001	-1.005050e-001	6.146301e-003	2.630501e-002
4190123.615	6.462325e-003	2.678727e-002	9.908362e-001	-1.022104e-001	9.907562e-001	-1.019691e-001	6.387860e-003	2.674291e-002
4252662.699	6.720403e-003	2.722931e-002	9.904818e-001	-1.037778e-001	9.902404e-001	-1.035094e-001	6.688252e-003	2.721924e-002
4315201.782	7.093727e-003	2.761702e-002	9.901208e-001	-1.054389e-001	9.899532e-001	-1.049701e-001	6.998843e-003	2.762978e-002
4377740.866	7.392947e-003	2.806551e-002	9.897522e-001	-1.070695e-001	9.896440e-001	-1.067391e-001	7.383813e-003	2.806238e-002
4440279.950	7.765860e-003	2.851988e-002	9.893540e-001	-1.083498e-001	9.892184e-001	-1.082062e-001	7.707791e-003	2.846613e-002
4502819.034	8.125926e-003	2.886394e-002	9.889598e-001	-1.099953e-001	9.886479e-001	-1.097805e-001	8.050816e-003	2.889730e-002
4565358.118	8.450109e-003	2.936278e-002	9.881934e-001	-1.114636e-001	9.883486e-001	-1.114891e-001	8.425541e-003	2.935144e-002
4627897.201	8.824238e-003	2.971834e-002	9.878982e-001	-1.130307e-001	9.879158e-001	-1.127673e-001	8.740886e-003	2.981621e-002
4690436.285	9.225417e-003	3.014531e-002	9.874350e-001	-1.147244e-001	9.873942e-001	-1.143365e-001	9.134383e-003	3.017533e-002
4752975.369	9.533525e-003	3.050726e-002	9.869487e-001	-1.162097e-001	9.867947e-001	-1.159169e-001	9.506222e-003	3.057300e-002
4815514.453	9.948918e-003	3.091074e-002	9.866216e-001	-1.177914e-001	9.863659e-001	-1.174802e-001	9.910681e-003	3.095729e-002
4878053.537	1.032152e-002	3.136212e-002	9.860507e-001	-1.194075e-001	9.858746e-001	-1.188631e-001	1.029626e-002	3.138403e-002
4940592.620	1.078411e-002	3.172447e-002	9.854306e-001	-1.207775e-001	9.853119e-001	-1.204125e-001	1.071946e-002	3.173794e-002
5003131.704	1.120696e-002	3.208104e-002	9.850010e-001	-1.222970e-001	9.847130e-001	-1.220312e-001	1.106879e-002	3.208485e-002
5065670.788	1.158811e-002	3.244699e-002	9.844852e-001	-1.238275e-001	9.842298e-001	-1.234996e-001	1.157373e-002	3.247827e-002
5128209.872	1.207738e-002	3.282563e-002	9.839146e-001	-1.252120e-001	9.838855e-001	-1.248895e-001	1.199778e-002	3.282179e-002
5190748.956	1.252497e-002	3.311613e-002	9.833508e-001	-1.267772e-001	9.833813e-001	-1.263571e-001	1.246310e-002	3.319275e-002
5253288.039	1.294693e-002	3.350356e-002	9.825976e-001	-1.280822e-001	9.827761e-001	-1.278314e-001	1.296645e-002	3.350793e-002
5315827.123	1.340902e-002	3.382093e-002	9.821336e-001	-1.296106e-001	9.821197e-001	-1.294514e-001	1.340759e-002	3.388433e-002
5378366.207	1.388191e-002	3.414657e-002	9.815044e-001	-1.311151e-001	9.815685e-001	-1.307243e-001	1.384607e-002	3.418204e-002
5440905.291	1.438151e-002	3.444429e-002	9.812310e-001	-1.324280e-001	9.811138e-001	-1.323005e-001	1.434022e-002	3.447896e-002
5503444.375	1.485332e-002	3.474574e-002	9.805074e-001	-1.339864e-001	9.803165e-001	-1.339107e-001	1.480801e-002	3.478638e-002
5565983.458	1.532450e-002	3.506648e-002	9.800480e-001	-1.353735e-001	9.796873e-001	-1.351654e-001	1.536416e-002	3.508944e-002
5628522.542	1.581641e-002	3.529737e-002	9.793706e-001	-1.366824e-001	9.793476e-001	-1.364395e-001	1.574315e-002	3.533002e-002
5691061.626	1.637972e-002	3.559943e-002	9.787344e-001	-1.380666e-001	9.784571e-001	-1.379244e-001	1.627677e-002	3.563689e-002
5753600.710	1.688683e-002	3.583201e-002	9.780000e-001	-1.395869e-001	9.779928e-001	-1.392782e-001	1.684056e-002	3.589148e-002
5816139.794	1.742156e-002	3.609058e-002	9.775055e-001	-1.408772e-001	9.773140e-001	-1.407842e-001	1.729271e-002	3.610925e-002
5878678.877	1.790102e-002	3.631171e-002	9.767817e-001	-1.421456e-001	9.766671e-001	-1.419846e-001	1.787876e-002	3.638895e-002
5941217.961	1.839203e-002	3.653862e-002	9.762483e-001	-1.435538e-001	9.761835e-001	-1.431704e-001	1.834034e-002	3.660042e-002
6003757.045	1.895335e-002	3.668492e-002	9.754521e-001	-1.449926e-001	9.754560e-001	-1.446183e-001	1.887746e-002	3.672958e-002
6066296.129	1.946989e-002	3.694576e-002	9.747465e-001	-1.462494e-001	9.746992e-001	-1.459949e-001	1.941114e-002	3.698902e-002
6128835.213	1.999480e-002	3.715721e-002	9.742620e-001	-1.475911e-001	9.741924e-001	-1.474826e-001	1.996226e-002	3.718493e-002
6191374.296	2.046748e-002	3.726740e-002	9.735792e-001	-1.487392e-001	9.734835e-001	-1.485824e-001	2.044579e-002	3.731944e-002
6253913.380	2.105793e-002	3.742564e-002	9.728194e-001	-1.501991e-001	9.726465e-001	-1.498536e-001	2.099309e-002	3.753184e-002
6316452.464	2.160351e-002	3.764909e-002	9.722131e-001	-1.513297e-001	9.722466e-001	-1.510449e-001	2.154733e-002	3.766714e-002
6378991.548	2.209395e-002	3.769523e-002	9.717326e-001	-1.526242e-001	9.715468e-001	-1.522803e-001	2.208953e-002	3.781754e-002
6441530.632	2.262077e-002	3.785788e-002	9.710943e-001	-1.539232e-001	9.707535e-001	-1.537052e-001	2.257796e-002	3.787749e-002
6504069.715	2.315642e-002	3.795576e-002	9.702881e-001	-1.551201e-001	9.702826e-001	-1.549490e-001	2.311685e-002	3.801158e-002
6566608.799	2.370376e-002	3.808213e-002	9.695748e-001	-1.563583e-001	9.696104e-001	-1.560690e-001	2.358788e-002	3.813827e-002
6629147.883	2.420371e-002	3.816792e-002	9.688989e-001	-1.576505e-001	9.689847e-001	-1.572848e-001	2.412783e-002	3.824204e-002
6691686.967	2.470028e-002	3.820553e-002	9.683958e-001	-1.586975e-001	9.680240e-001	-1.585855e-001	2.463733e-002	3.835158e-002
6754226.051	2.521992e-002	3.832785e-002	9.677998e-001	-1.599907e-001	9.676348e-001	-1.597108e-001	2.521644e-002	3.835210e-002
6816765.134	2.570456e-002	3.835201e-002	9.670225e-001	-1.611280e-001	9.669816e-001	-1.609837e-001	2.573774e-002	3.838764e-002
6879304.218	2.627011e-002	3.841749e-002	9.664001e-001	-1.623594e-001	9.662282e-001	-1.620888e-001	2.624651e-002	3.848599e-002
6941843.302	2.681399e-002	3.849092e-002	9.657051e-001	-1.633820e-001	9.656914e-001	-1.632873e-001	2.672721e-002	3.856444e-002
7004382.386	2.728736e-002	3.852662e-002	9.649753e-001	-1.647440e-001	9.651266e-001	-1.645202e-001	2.726663e-002	3.855343e-002
7066921.470	2.779450e-002	3.852880e-002	9.643852e-001	-1.658134e-001	9.644681e-001	-1.654917e-001	2.777069e-002	3.858053e-002
7129460.553	2.830730e-002	3.850414e-002	9.638641e-001	-1.669280e-001	9.638105e-001	-1.668523e-001	2.823076e-002	3.861180e-002
7191999.637	2.877757e-002	3.853813e-002	9.631001e-001	-1.681344e-001	9.630881e-001	-1.677721e-001	2.875764e-002	3.861377e-002
7254538.721	2.933426e-002	3.855028e-002	9.626062e-001	-1.692203e-001	9.625537e-001	-1.689966e-001	2.920929e-002	3.865074e-002
7317077.805	2.973910e-002	3.856767e-002	9.617863e-001	-1.703798e-001	9.620593e-001	-1.700686e-001	2.972645e-002	3.864368e-002
7379616.889	3.025654e-002	3.853945e-002	9.614248e-001	-1.714497e-001	9.612103e-001	-1.710866e-001	3.020282e-002	3.857161e-002
7442155.972	3.073272e-002	3.850878e-002	9.605816e-001	-1.725123e-001	9.604850e-001	-1.723564e-001	3.066028e-002	3.857624e-002
7504695.056	3.122004e-002	3.848434e-002	9.600211e-001	-1.735923e-001	9.600922e-001	-1.733025e-001	3.117067e-002	3.858569e-002
7567234.140	3.165275e-002	3.846431e-002	9.595119e-001	-1.747914e-001	9.593973e-001	-1.743357e-001	3.163135e-002	3.854559e-002
7629773.224	3.213924e-002	3.840421e-002	9.587957e-001	-1.758450e-001	9.587648e-001	-1.754869e-001	3.206366e-002	3.851640e-002
7692312.308	3.256598e-002	3.836542e-002	9.583238e-001	-1.768749e-001	9.581684e-001	-1.765907e-001	3.256674e-002	3.851331e-002
7754851.391	3.304136e-002	3.829900e-002	9.575236e-001	-1.778655e-001	9.575240e-001	-1.776250e-001	3.296934e-002	3.845856e-002
7817390.475	3.349153e-002	3.829066e-002	9.571636e-001	-1.789748e-001	9.569262e-001	-1.788061e-001	3.346512e-002	3.834903e-002
7879929.559	3.391387e-002	3.819005e-002	9.564207e-001	-1.800001e-001	9.563426e-001	-1.797429e-001	3.388652e-002	3.830480e-002
7942468.643	3.433237e-002	3.816500e-002	9.558002e-001	-1.810250e-001	9.557519e-001	-1.809324e-001	3.430405e-002	3.823747e-002
8005007.727	3.480103e-002	3.809413e-002	9.552806e-001	-1.823137e-001	9.551806e-001	-1.818402e-001	3.471566e-002	3.813060e-002
8067546.811	3.525130e-002	3.798770e-002	9.546492e-001	-1.833273e-001	9.546109e-001	-1.830409e-001	3.522347e-002	3.806846e-002
8130085.894	3.565390e-002	3.794129e-002	9.540686e-001	-1.842450e-001	9.539186e-001	-1.840600e-001	3.558426e-002	3.800997e-002
8192624.978	3.605531e-002	3.783251e-002	9.534311e-001	-1.852657e-001	9.533129e-001	-1.850532e-001	3.606707e-002	3.792500e-002
8255164.062	3.647301e-002	3.773895e-002	9.528988e-001	-1.863718e-001	9.528102e-001	-1.860043e-001	3.643972e-002	3.781331e-002
8317703.146	3.689741e-002	3.760217e-002	9.524077e-001	-1.873871e-001	9.523265e-001	-1.870969e-001	3.682607e-002	3.773950e-002
8380242.230	3.732547e-002	3.750670e-002	9.518103e-001	-1.881706e-001	9.518892e-001	-1.881166e-001	3.727201e-002	3.764740e-002
8442781.313	3.769210e-002	3.746481e-002	9.512780e-001	-1.891849e-001	9.511351e-001	-1.890468e-001	3.764398e-002	3.758429e-002
8505320.397	3.806070e-002	3.735211e-002	9.506304e-001	-1.904677e-001	9.505219e-001	-1.902572e-001	3.806136e-002	3.738910e-002
8567859.481	3.849270e-002	3.724676e-002	9.500385e-001	-1.914108e-001	9.500513e-001	-1.910369e-001	3.849582e-002	3.734391e-002
8630398.565	3.890917e-002	3.714221e-002	9.494802e-001	-1.924574e-001	9.494300e-001	-1.921485e-001	3.888218e-002	3.718462e-002
8692937.649	3.927128e-002	3.704326e-002	9.488460e-001	-1.933966e-001	9.488380e-001	-1.930165e-001	3.919123e-002	3.715381e-002
8755476.732	3.962346e-002	3.695791e-002	9.483044e-001	-1.945206e-001	9.483864e-001	-1.941825e-001	3.960994e-002	3.703915e-002
8818015.816	4.001017e-002	3.680011e-002	9.478839e-001	-1.953172e-001	9.478706e-001	-1.950663e-001	3.999755e-002	3.689129e-002
8880554.900	4.035110e-002	3.664637e-002	9.473157e-001	-1.965117e-001	9.473015e-001	-1.960820e-001	4.033277e-002	3.677839e-002
8943093.984	4.074646e-002	3.655473e-002	9.467723e-001	-1.975493e-001	9.466814e-001	-1.970105e-001	4.075885e-002	3.666850e-002
9005633.068	4.109773e-002	3.641412e-002	9.461636e-001	-1.983718e-001	9.460919e-001	-1.981898e-001	4.108878e-002	3.650513e-002
9068172.151	4.148050e-002	3.630083e-002	9.456742e-001	-1.994015e-001	9.454227e-001	-1.991814e-001	4.139431e-002	3.642759e-002
9130711.235	4.185021e-002	3.617618e-002	9.451198e-001	-2.003567e-001	9.450927e-001	-1.999457e-001	4.182210e-002	3.625802e-002
9193250.319	4.218301e-002	3.600154e-002	9.445806e-001	-2.012798e-001	9.445516e-001	-2.010992e-001	4.220139e-002	3.610577e-002
9255789.403	4.254437e-002	3.587454e-002	9.440261e-001	-2.024093e-001	9.441030e-001	-2.020131e-001	4.252669e-002	3.605198e-002
9318328.487	4.281948e-002	3.577493e-002	9.434645e-001	-2.034012e-001	9.435550e-001	-2.031890e-001	4.285087e-002	3.584679e-002
9380867.570	4.316219e-002	3.564740e-002	9.430380e-001	-2.043167e-001	9.428682e-001	-2.039425e-001	4.318751e-002	3.575757e-002
9443406.654	4.350383e-002	3.547170e-002	9.424480e-001	-2.052556e-001	9.424903e-001	-2.050634e-001	4.354959e-002	3.557786e-002
9505945.738	4.383454e-002	3.531404e-002	9.420325e-001	-2.062122e-001	9.418158e-001	-2.059269e-001	4.382808e-002	3.544708e-002
9568484.822	4.418692e-002	3.516783e-002	9.415711e-001	-2.073878e-001	9.414295e-001	-2.068485e-001	4.420497e-002	3.531270e-002
9631023.906	4.451171e-002	3.503879e-002	9.409317e-001	-2.082198e-001	9.408042e-001	-2.079160e-001	4.449651e-002	3.517572e-002
9693562.989	4.483090e-002	3.490161e-002	9.402932e-001	-2.091199e-001	9.403870e-001	-2.089363e-001	4.478866e-002	3.504463e-002
9756102.073	4.507364e-002	3.474672e-002	9.399105e-001	-2.099850e-001	9.399409e-001	-2.097656e-001	4.514005e-002	3.481297e-002
