!Agilent Technologies,E5061B,MY49102235,A.02.00
!Date: Mon Jul 10 15:53:09 2023
!Data & Calibration Information:
!Freq	S11:SOLT2(ON)	S21:SOLT2(ON)	S12:SOLT2(ON)	S22:SOLT2(ON)
# Hz S RI R 50
5.000	-4.330643e-004	4.311790e-004	1.001982e+000	2.389439e-003	1.000733e+000	-6.788874e-005	-8.118430e-005	-6.799534e-005
62544.084	-2.608897e-005	4.032274e-004	9.999322e-001	-1.144727e-003	1.000089e+000	-1.214753e-003	1.913265e-005	3.095324e-004
125083.168	1.572124e-005	7.059167e-004	1.000158e+000	-3.090194e-003	1.000060e+000	-2.903714e-003	-4.599670e-006	6.988607e-004
187622.251	2.161122e-004	1.002326e-003	9.992797e-001	-3.778136e-003	1.000165e+000	-4.078957e-003	8.620668e-005	1.056144e-003
250161.335	8.670501e-005	1.440262e-003	9.998917e-001	-5.987572e-003	9.997643e-001	-5.960191e-003	7.301370e-005	1.443155e-003
312700.419	1.166087e-004	1.724557e-003	1.000118e+000	-7.294071e-003	9.991252e-001	-7.041927e-003	1.988635e-004	1.767093e-003
375239.503	1.717063e-004	2.105351e-003	9.997973e-001	-8.639136e-003	9.999810e-001	-8.646785e-003	1.087737e-004	2.040370e-003
437778.587	2.321979e-004	2.355937e-003	9.997948e-001	-1.007614e-002	9.990182e-001	-1.051139e-002	1.868908e-004	2.566672e-003
500317.670	2.340444e-004	2.696464e-003	9.997421e-001	-1.168405e-002	9.992358e-001	-1.208732e-002	2.262316e-004	2.871676e-003
562856.754	2.897345e-004	3.113275e-003	9.994166e-001	-1.318911e-002	9.995084e-001	-1.304571e-002	1.987709e-004	3.108391e-003
625395.838	2.909595e-004	3.469743e-003	9.995002e-001	-1.479707e-002	9.989721e-001	-1.443369e-002	3.024370e-004	3.472682e-003
687934.922	1.792708e-004	3.698157e-003	9.998799e-001	-1.585898e-002	1.000088e+000	-1.609651e-002	1.792917e-004	3.777382e-003
750474.006	8.555807e-005	4.023648e-003	9.995685e-001	-1.755874e-002	9.994087e-001	-1.667717e-002	6.401747e-005	4.040344e-003
813013.089	1.085815e-004	4.398341e-003	1.000119e+000	-1.903253e-002	9.990457e-001	-1.858459e-002	1.270557e-004	4.337480e-003
875552.173	1.511259e-004	4.667016e-003	9.994908e-001	-2.064157e-002	9.996017e-001	-2.035938e-002	1.601871e-004	4.675128e-003
938091.257	8.453069e-005	5.046225e-003	9.992953e-001	-2.174148e-002	9.990793e-001	-2.121787e-002	1.008700e-004	5.018450e-003
1000630.341	1.756122e-004	5.439428e-003	9.994899e-001	-2.305647e-002	9.993529e-001	-2.307902e-002	2.082067e-004	5.354709e-003
1063169.425	2.444671e-004	5.748660e-003	1.000129e+000	-2.466069e-002	9.999622e-001	-2.497308e-002	2.764768e-004	5.672961e-003
1125708.508	2.694312e-004	6.067307e-003	9.997744e-001	-2.635706e-002	9.991303e-001	-2.599672e-002	2.913057e-004	6.062546e-003
1188247.592	2.963971e-004	6.365915e-003	9.991818e-001	-2.754985e-002	9.991961e-001	-2.740374e-002	3.359492e-004	6.404165e-003
1250786.676	3.086171e-004	6.720072e-003	9.992209e-001	-2.929585e-002	9.987356e-001	-2.875379e-002	3.614661e-004	6.732430e-003
1313325.760	3.665520e-004	7.079340e-003	9.993847e-001	-3.001595e-002	9.987238e-001	-3.045187e-002	3.655138e-004	7.032831e-003
1375864.844	4.266983e-004	7.384631e-003	9.996647e-001	-3.252305e-002	9.988226e-001	-3.236410e-002	4.187874e-004	7.368214e-003
1438403.927	4.434099e-004	7.700187e-003	9.991181e-001	-3.387185e-002	9.989234e-001	-3.327051e-002	4.468863e-004	7.701739e-003
1500943.011	5.002449e-004	8.046775e-003	9.992407e-001	-3.536305e-002	9.984801e-001	-3.499205e-002	5.049442e-004	8.075339e-003
1563482.095	4.687147e-004	8.398310e-003	9.986152e-001	-3.664201e-002	9.989023e-001	-3.628470e-002	5.116223e-004	8.387134e-003
1626021.179	6.118528e-004	8.778724e-003	9.989664e-001	-3.825685e-002	9.986628e-001	-3.755079e-002	6.142597e-004	8.718219e-003
1688560.263	6.549368e-004	9.105667e-003	9.993219e-001	-3.963310e-002	9.988186e-001	-3.912135e-002	6.339865e-004	9.086552e-003
1751099.346	7.009849e-004	9.511307e-003	9.990956e-001	-4.101314e-002	9.983096e-001	-4.073190e-002	6.559392e-004	9.423850e-003
1813638.430	6.551239e-004	9.815824e-003	9.991826e-001	-4.214110e-002	9.984508e-001	-4.214697e-002	6.811214e-004	9.819426e-003
1876177.514	7.288472e-004	1.011137e-002	9.987412e-001	-4.414541e-002	9.985724e-001	-4.354105e-002	7.677656e-004	1.012411e-002
1938716.598	7.876068e-004	1.050320e-002	9.984164e-001	-4.558018e-002	9.989482e-001	-4.523091e-002	8.280297e-004	1.047564e-002
2001255.682	8.548398e-004	1.086864e-002	9.989068e-001	-4.684567e-002	9.979590e-001	-4.670541e-002	8.313665e-004	1.083972e-002
2063794.765	8.748341e-004	1.128636e-002	9.982625e-001	-4.796039e-002	9.985618e-001	-4.812804e-002	9.443354e-004	1.118519e-002
2126333.849	9.889281e-004	1.152283e-002	9.976001e-001	-4.985047e-002	9.980844e-001	-4.985455e-002	9.056864e-004	1.150177e-002
2188872.933	9.992927e-004	1.193426e-002	9.981935e-001	-5.113495e-002	9.981851e-001	-5.120002e-002	1.007920e-003	1.192754e-002
2251412.017	1.141218e-003	1.227286e-002	9.982884e-001	-5.354017e-002	9.979702e-001	-5.245235e-002	1.120895e-003	1.226388e-002
2313951.101	1.136811e-003	1.264062e-002	9.977332e-001	-5.450693e-002	9.977038e-001	-5.367908e-002	1.185504e-003	1.257778e-002
2376490.184	1.227295e-003	1.299673e-002	9.984049e-001	-5.594996e-002	9.978304e-001	-5.576624e-002	1.255077e-003	1.299308e-002
2439029.268	1.246229e-003	1.334767e-002	9.977182e-001	-5.704654e-002	9.972674e-001	-5.706059e-002	1.236609e-003	1.331006e-002
2501568.352	1.340128e-003	1.382251e-002	9.976286e-001	-5.859908e-002	9.979156e-001	-5.867322e-002	1.379157e-003	1.375124e-002
2564107.436	1.466039e-003	1.418956e-002	9.971303e-001	-6.023831e-002	9.971325e-001	-6.000034e-002	1.425662e-003	1.406824e-002
2626646.520	1.481768e-003	1.452078e-002	9.970448e-001	-6.182057e-002	9.975439e-001	-6.110799e-002	1.520109e-003	1.450034e-002
2689185.604	1.574566e-003	1.490109e-002	9.975795e-001	-6.304978e-002	9.976689e-001	-6.290351e-002	1.624018e-003	1.481892e-002
2751724.687	1.734464e-003	1.521960e-002	9.971950e-001	-6.450419e-002	9.966445e-001	-6.447979e-002	1.669925e-003	1.528983e-002
2814263.771	1.814936e-003	1.563590e-002	9.973238e-001	-6.635894e-002	9.972771e-001	-6.641024e-002	1.777224e-003	1.563210e-002
2876802.855	1.872817e-003	1.601977e-002	9.968574e-001	-6.820785e-002	9.965688e-001	-6.767872e-002	1.896825e-003	1.599026e-002
2939341.939	1.964654e-003	1.643486e-002	9.966546e-001	-6.931444e-002	9.966504e-001	-6.881876e-002	1.967388e-003	1.639316e-002
3001881.023	2.041637e-003	1.684042e-002	9.966762e-001	-7.026726e-002	9.968004e-001	-7.006236e-002	2.032977e-003	1.683861e-002
3064420.106	2.199123e-003	1.717188e-002	9.959950e-001	-7.215116e-002	9.957085e-001	-7.182280e-002	2.167807e-003	1.721053e-002
3126959.190	2.302140e-003	1.760561e-002	9.960789e-001	-7.379580e-002	9.959723e-001	-7.372459e-002	2.310886e-003	1.756917e-002
3189498.274	2.467981e-003	1.800608e-002	9.960425e-001	-7.543150e-002	9.957067e-001	-7.522668e-002	2.388041e-003	1.797197e-002
3252037.358	2.602387e-003	1.838853e-002	9.957425e-001	-7.691270e-002	9.956635e-001	-7.667898e-002	2.559928e-003	1.839493e-002
3314576.442	2.688602e-003	1.873503e-002	9.955935e-001	-7.843989e-002	9.955942e-001	-7.830011e-002	2.641886e-003	1.880814e-002
3377115.525	2.799893e-003	1.921444e-002	9.954694e-001	-8.010700e-002	9.951874e-001	-7.981669e-002	2.777814e-003	1.918821e-002
3439654.609	2.984317e-003	1.963866e-002	9.950271e-001	-8.144182e-002	9.951159e-001	-8.137007e-002	2.925132e-003	1.958785e-002
3502193.693	3.141509e-003	1.997937e-002	9.949422e-001	-8.301685e-002	9.949566e-001	-8.278132e-002	3.093856e-003	1.996320e-002
3564732.777	3.263562e-003	2.041883e-002	9.947662e-001	-8.461760e-002	9.946863e-001	-8.435746e-002	3.267683e-003	2.039881e-002
3627271.861	3.437134e-003	2.082069e-002	9.944807e-001	-8.610953e-002	9.945011e-001	-8.596211e-002	3.402862e-003	2.082540e-002
3689810.944	3.589848e-003	2.122852e-002	9.943039e-001	-8.760556e-002	9.940820e-001	-8.744186e-002	3.527588e-003	2.121796e-002
3752350.028	3.744010e-003	2.166875e-002	9.940659e-001	-8.922352e-002	9.939651e-001	-8.899165e-002	3.782443e-003	2.165956e-002
3814889.112	3.972233e-003	2.207427e-002	9.937691e-001	-9.069943e-002	9.936221e-001	-9.052724e-002	3.955859e-003	2.203602e-002
3877428.196	4.236465e-003	2.250978e-002	9.935206e-001	-9.228664e-002	9.933066e-001	-9.199877e-002	4.123239e-003	2.247879e-002
3939967.280	4.356149e-003	2.290093e-002	9.931232e-001	-9.388026e-002	9.930454e-001	-9.361191e-002	4.341583e-003	2.295372e-002
4002506.363	4.606634e-003	2.332841e-002	9.929018e-001	-9.536058e-002	9.928224e-001	-9.508565e-002	4.540663e-003	2.335708e-002
4065045.447	4.827416e-003	2.374540e-002	9.927169e-001	-9.696553e-002	9.926081e-001	-9.686793e-002	4.774330e-003	2.372438e-002
4127584.531	4.987227e-003	2.417089e-002	9.924851e-001	-9.853386e-002	9.922340e-001	-9.825622e-002	4.995170e-003	2.415242e-002
4190123.615	5.259303e-003	2.460288e-002	9.919687e-001	-9.993037e-002	9.919279e-001	-9.970361e-002	5.189548e-003	2.457114e-002
4252662.699	5.443395e-003	2.501943e-002	9.916773e-001	-1.014437e-001	9.914743e-001	-1.012171e-001	5.411912e-003	2.502470e-002
4315201.782	5.761231e-003	2.539774e-002	9.913653e-001	-1.030949e-001	9.912261e-001	-1.027116e-001	5.651378e-003	2.541225e-002
4377740.866	5.993875e-003	2.582478e-002	9.911196e-001	-1.046765e-001	9.909742e-001	-1.044330e-001	5.992973e-003	2.582841e-002
4440279.950	6.312802e-003	2.626915e-002	9.907216e-001	-1.059633e-001	9.906462e-001	-1.059055e-001	6.245382e-003	2.622154e-002
4502819.034	6.602340e-003	2.659414e-002	9.904221e-001	-1.075973e-001	9.901641e-001	-1.074122e-001	6.525116e-003	2.664705e-002
4565358.118	6.861563e-003	2.706825e-002	9.896912e-001	-1.090847e-001	9.899241e-001	-1.091810e-001	6.825932e-003	2.708151e-002
4627897.201	7.158875e-003	2.743466e-002	9.895304e-001	-1.106391e-001	9.895319e-001	-1.104505e-001	7.087781e-003	2.753182e-002
4690436.285	7.486063e-003	2.786589e-002	9.891157e-001	-1.122613e-001	9.890427e-001	-1.120033e-001	7.408848e-003	2.789506e-002
4752975.369	7.740663e-003	2.820680e-002	9.886986e-001	-1.137774e-001	9.885673e-001	-1.135382e-001	7.723532e-003	2.829548e-002
4815514.453	8.087086e-003	2.862066e-002	9.883515e-001	-1.153618e-001	9.881284e-001	-1.150921e-001	8.046616e-003	2.867247e-002
4878053.537	8.402065e-003	2.907380e-002	9.879035e-001	-1.169823e-001	9.877476e-001	-1.165058e-001	8.368501e-003	2.908832e-002
4940592.620	8.784716e-003	2.944070e-002	9.873531e-001	-1.183209e-001	9.872932e-001	-1.180592e-001	8.715769e-003	2.946542e-002
5003131.704	9.146392e-003	2.980981e-002	9.869965e-001	-1.199010e-001	9.867298e-001	-1.197048e-001	8.994220e-003	2.980523e-002
5065670.788	9.458191e-003	3.017644e-002	9.865602e-001	-1.214002e-001	9.863578e-001	-1.211480e-001	9.422153e-003	3.022551e-002
5128209.872	9.877350e-003	3.057706e-002	9.860473e-001	-1.227830e-001	9.860190e-001	-1.225911e-001	9.796046e-003	3.057663e-002
5190748.956	1.024762e-002	3.086877e-002	9.855520e-001	-1.244076e-001	9.855877e-001	-1.240359e-001	1.017478e-002	3.096967e-002
5253288.039	1.060308e-002	3.127389e-002	9.849014e-001	-1.257573e-001	9.850568e-001	-1.255611e-001	1.062014e-002	3.131233e-002
5315827.123	1.100575e-002	3.162105e-002	9.844582e-001	-1.272980e-001	9.845117e-001	-1.271728e-001	1.099805e-002	3.169272e-002
5378366.207	1.140505e-002	3.197078e-002	9.839136e-001	-1.288336e-001	9.840088e-001	-1.285013e-001	1.135998e-002	3.202044e-002
5440905.291	1.184152e-002	3.230016e-002	9.836721e-001	-1.301358e-001	9.835747e-001	-1.300693e-001	1.178914e-002	3.233793e-002
5503444.375	1.223227e-002	3.263443e-002	9.830306e-001	-1.317261e-001	9.828783e-001	-1.317520e-001	1.221485e-002	3.269575e-002
5565983.458	1.265148e-002	3.297281e-002	9.826130e-001	-1.331418e-001	9.823244e-001	-1.330215e-001	1.269779e-002	3.301525e-002
5628522.542	1.308873e-002	3.324762e-002	9.820217e-001	-1.345172e-001	9.820252e-001	-1.342960e-001	1.300598e-002	3.327563e-002
5691061.626	1.359621e-002	3.356971e-002	9.814248e-001	-1.359082e-001	9.812315e-001	-1.358311e-001	1.348057e-002	3.364600e-002
5753600.710	1.402538e-002	3.385989e-002	9.807938e-001	-1.374321e-001	9.808071e-001	-1.372539e-001	1.399165e-002	3.392544e-002
5816139.794	1.452397e-002	3.416003e-002	9.803534e-001	-1.388241e-001	9.801731e-001	-1.387827e-001	1.439035e-002	3.418673e-002
5878678.877	1.494471e-002	3.442966e-002	9.796653e-001	-1.401183e-001	9.795598e-001	-1.399847e-001	1.492211e-002	3.451728e-002
5941217.961	1.539084e-002	3.468570e-002	9.791718e-001	-1.414962e-001	9.791529e-001	-1.412688e-001	1.532070e-002	3.478760e-002
6003757.045	1.590013e-002	3.488571e-002	9.784744e-001	-1.430376e-001	9.784794e-001	-1.427098e-001	1.581260e-002	3.495907e-002
6066296.129	1.635116e-002	3.518707e-002	9.778469e-001	-1.443972e-001	9.777629e-001	-1.441409e-001	1.630040e-002	3.526605e-002
6128835.213	1.684142e-002	3.546785e-002	9.773816e-001	-1.457282e-001	9.773011e-001	-1.456519e-001	1.680704e-002	3.551405e-002
6191374.296	1.728707e-002	3.561532e-002	9.767042e-001	-1.469283e-001	9.766688e-001	-1.468845e-001	1.724559e-002	3.568885e-002
6253913.380	1.782967e-002	3.582449e-002	9.759530e-001	-1.484494e-001	9.758439e-001	-1.481596e-001	1.775466e-002	3.596503e-002
6316452.464	1.833838e-002	3.609520e-002	9.754310e-001	-1.496047e-001	9.754938e-001	-1.494117e-001	1.827039e-002	3.613841e-002
6378991.548	1.879996e-002	3.621353e-002	9.749844e-001	-1.510123e-001	9.747806e-001	-1.507135e-001	1.877992e-002	3.635884e-002
6441530.632	1.928207e-002	3.642013e-002	9.743459e-001	-1.523178e-001	9.740625e-001	-1.522026e-001	1.924836e-002	3.646276e-002
6504069.715	1.979021e-002	3.658401e-002	9.736204e-001	-1.536148e-001	9.736131e-001	-1.534841e-001	1.975917e-002	3.665280e-002
6566608.799	2.030505e-002	3.674995e-002	9.729041e-001	-1.548915e-001	9.729584e-001	-1.546320e-001	2.020358e-002	3.682786e-002
6629147.883	2.078905e-002	3.688801e-002	9.722747e-001	-1.562130e-001	9.723514e-001	-1.559537e-001	2.070762e-002	3.699965e-002
6691686.967	2.127944e-002	3.697485e-002	9.717848e-001	-1.573359e-001	9.714126e-001	-1.573327e-001	2.120066e-002	3.715722e-002
6754226.051	2.175854e-002	3.717188e-002	9.712219e-001	-1.586509e-001	9.710726e-001	-1.584589e-001	2.176195e-002	3.720780e-002
6816765.134	2.223007e-002	3.723665e-002	9.704335e-001	-1.598563e-001	9.704590e-001	-1.597476e-001	2.225413e-002	3.731415e-002
6879304.218	2.276669e-002	3.735704e-002	9.698250e-001	-1.611572e-001	9.696604e-001	-1.609201e-001	2.275198e-002	3.744920e-002
6941843.302	2.329670e-002	3.748333e-002	9.691484e-001	-1.622261e-001	9.691761e-001	-1.621753e-001	2.322373e-002	3.758104e-002
7004382.386	2.377136e-002	3.757907e-002	9.684308e-001	-1.636173e-001	9.686125e-001	-1.634688e-001	2.373589e-002	3.762168e-002
7066921.470	2.426269e-002	3.763258e-002	9.678942e-001	-1.647347e-001	9.679635e-001	-1.644804e-001	2.423244e-002	3.770704e-002
7129460.553	2.476762e-002	3.764763e-002	9.673725e-001	-1.659353e-001	9.673104e-001	-1.659052e-001	2.469533e-002	3.778212e-002
7191999.637	2.523027e-002	3.774420e-002	9.666164e-001	-1.671843e-001	9.666185e-001	-1.668656e-001	2.521085e-002	3.783821e-002
7254538.721	2.578380e-002	3.779971e-002	9.660826e-001	-1.683089e-001	9.660715e-001	-1.681221e-001	2.565358e-002	3.793306e-002
7317077.805	2.618310e-002	3.787405e-002	9.652998e-001	-1.694841e-001	9.655601e-001	-1.692894e-001	2.616683e-002	3.797343e-002
7379616.889	2.669448e-002	3.788634e-002	9.649299e-001	-1.706263e-001	9.647220e-001	-1.703341e-001	2.663484e-002	3.794754e-002
7442155.972	2.717795e-002	3.789839e-002	9.641427e-001	-1.717563e-001	9.640288e-001	-1.716809e-001	2.710629e-002	3.799969e-002
7504695.056	2.765817e-002	3.793156e-002	9.635190e-001	-1.729025e-001	9.636258e-001	-1.726446e-001	2.760748e-002	3.805722e-002
7567234.140	2.809187e-002	3.797201e-002	9.630293e-001	-1.741413e-001	9.629167e-001	-1.737501e-001	2.806075e-002	3.806672e-002
7629773.224	2.858342e-002	3.794582e-002	9.623018e-001	-1.752181e-001	9.622991e-001	-1.749363e-001	2.850202e-002	3.807323e-002
7692312.308	2.901248e-002	3.795687e-002	9.618414e-001	-1.763030e-001	9.616782e-001	-1.761066e-001	2.901292e-002	3.812606e-002
7754851.391	2.948767e-002	3.792389e-002	9.610231e-001	-1.773556e-001	9.610386e-001	-1.771417e-001	2.940903e-002	3.810239e-002
7817390.475	2.994030e-002	3.796129e-002	9.606921e-001	-1.784691e-001	9.604491e-001	-1.783946e-001	2.991896e-002	3.803999e-002
7879929.559	3.036344e-002	3.789427e-002	9.598716e-001	-1.795681e-001	9.598441e-001	-1.793697e-001	3.033713e-002	3.805489e-002
7942468.643	3.080166e-002	3.792301e-002	9.593061e-001	-1.806426e-001	9.592558e-001	-1.806226e-001	3.076001e-002	3.801486e-002
8005007.727	3.127796e-002	3.789113e-002	9.587338e-001	-1.819338e-001	9.586953e-001	-1.815456e-001	3.118606e-002	3.795797e-002
8067546.811	3.173426e-002	3.783948e-002	9.581389e-001	-1.830120e-001	9.581540e-001	-1.827444e-001	3.169017e-002	3.793778e-002
8130085.894	3.214420e-002	3.782336e-002	9.575631e-001	-1.840028e-001	9.574010e-001	-1.838466e-001	3.206598e-002	3.790380e-002
8192624.978	3.254695e-002	3.773753e-002	9.569274e-001	-1.850182e-001	9.568355e-001	-1.848629e-001	3.255514e-002	3.786070e-002
8255164.062	3.297816e-002	3.768936e-002	9.563798e-001	-1.861623e-001	9.563005e-001	-1.858918e-001	3.294933e-002	3.778141e-002
8317703.146	3.342060e-002	3.759426e-002	9.558616e-001	-1.872265e-001	9.558226e-001	-1.870006e-001	3.334730e-002	3.775341e-002
8380242.230	3.385596e-002	3.753556e-002	9.552290e-001	-1.879962e-001	9.553709e-001	-1.880158e-001	3.380094e-002	3.770068e-002
8442781.313	3.423289e-002	3.751638e-002	9.546835e-001	-1.890589e-001	9.545885e-001	-1.890572e-001	3.417531e-002	3.767649e-002
8505320.397	3.461828e-002	3.744970e-002	9.540743e-001	-1.903484e-001	9.539533e-001	-1.902606e-001	3.461584e-002	3.752228e-002
8567859.481	3.506685e-002	3.737403e-002	9.534314e-001	-1.913696e-001	9.534614e-001	-1.910561e-001	3.506411e-002	3.751132e-002
8630398.565	3.548772e-002	3.730883e-002	9.528779e-001	-1.924621e-001	9.528572e-001	-1.922370e-001	3.545481e-002	3.737440e-002
8692937.649	3.587575e-002	3.723951e-002	9.522208e-001	-1.934364e-001	9.522332e-001	-1.931192e-001	3.578778e-002	3.737739e-002
8755476.732	3.623065e-002	3.718218e-002	9.516178e-001	-1.945559e-001	9.517685e-001	-1.943366e-001	3.622293e-002	3.729222e-002
8818015.816	3.663103e-002	3.706141e-002	9.512245e-001	-1.954043e-001	9.512170e-001	-1.952442e-001	3.661779e-002	3.718333e-002
8880554.900	3.699646e-002	3.691825e-002	9.506323e-001	-1.966083e-001	9.506278e-001	-1.962799e-001	3.697329e-002	3.710579e-002
8943093.984	3.740625e-002	3.686657e-002	9.500677e-001	-1.977250e-001	9.500289e-001	-1.972579e-001	3.740324e-002	3.702312e-002
9005633.068	3.777145e-002	3.676220e-002	9.495184e-001	-1.985925e-001	9.494196e-001	-1.984360e-001	3.775635e-002	3.688816e-002
9068172.151	3.817383e-002	3.667538e-002	9.489342e-001	-1.996325e-001	9.487152e-001	-1.994797e-001	3.808792e-002	3.683555e-002
9130711.235	3.854812e-002	3.656864e-002	9.483959e-001	-2.005981e-001	9.483808e-001	-2.002337e-001	3.852086e-002	3.670111e-002
9193250.319	3.889803e-002	3.644095e-002	9.478514e-001	-2.015513e-001	9.478365e-001	-2.014232e-001	3.890997e-002	3.657903e-002
9255789.403	3.928462e-002	3.633400e-002	9.472839e-001	-2.027196e-001	9.473653e-001	-2.023674e-001	3.927053e-002	3.654405e-002
9318328.487	3.957734e-002	3.626050e-002	9.467016e-001	-2.037058e-001	9.468186e-001	-2.035729e-001	3.959556e-002	3.636460e-002
9380867.570	3.993592e-002	3.616657e-002	9.462407e-001	-2.046872e-001	9.460716e-001	-2.043392e-001	3.993925e-002	3.629412e-002
9443406.654	4.029703e-002	3.598839e-002	9.456482e-001	-2.056441e-001	9.456790e-001	-2.055113e-001	4.033894e-002	3.616009e-002
9505945.738	4.064713e-002	3.586793e-002	9.452157e-001	-2.065782e-001	9.450318e-001	-2.063952e-001	4.063642e-002	3.604933e-002
9568484.822	4.101992e-002	3.574605e-002	9.447171e-001	-2.077809e-001	9.445852e-001	-2.073545e-001	4.102483e-002	3.593137e-002
9631023.906	4.136455e-002	3.563518e-002	9.440745e-001	-2.086756e-001	9.439843e-001	-2.084227e-001	4.134142e-002	3.581568e-002
9693562.989	4.169209e-002	3.553801e-002	9.434221e-001	-2.095897e-001	9.435370e-001	-2.094741e-001	4.165829e-002	3.571342e-002
9756102.073	4.195437e-002	3.540119e-002	9.430236e-001	-2.104728e-001	9.430521e-001	-2.103571e-001	4.202986e-002	3.550555e-002
