!Agilent Technologies,E5061B,MY49102235,A.02.00
!Date: Mon Jul 10 15:56:26 2023
!Data & Calibration Information:
!Freq	S11:SOLT2(ON)	S21:SOLT2(ON)	S12:SOLT2(ON)	S22:SOLT2(ON)
# Hz S RI R 50
5.000	-4.117781e-004	4.458323e-004	1.001985e+000	2.352406e-003	1.000649e+000	-2.176721e-005	-3.170553e-005	-6.978513e-005
62544.084	-5.812180e-005	-1.710314e-005	9.999553e-001	-8.460119e-004	1.000111e+000	-5.743710e-004	2.962282e-005	-1.160687e-004
125083.168	-7.622166e-006	-1.187622e-004	1.000106e+000	-2.235236e-003	1.000094e+000	-2.108032e-003	-3.736989e-005	-1.321625e-004
187622.251	1.814343e-004	-2.856418e-004	9.995133e-001	-2.482873e-003	1.000049e+000	-2.838536e-003	6.291826e-005	-1.810095e-004
250161.335	5.003773e-005	-2.021779e-004	9.998061e-001	-4.449271e-003	9.997695e-001	-4.150923e-003	4.273198e-005	-2.380519e-004
312700.419	5.178320e-005	-3.690020e-004	1.000255e+000	-5.192630e-003	9.992327e-001	-4.987993e-003	1.338270e-004	-3.100393e-004
375239.503	9.270142e-005	-3.967245e-004	9.999691e-001	-6.086686e-003	1.000118e+000	-6.254357e-003	2.093690e-005	-4.182663e-004
437778.587	1.177908e-004	-5.482029e-004	9.999387e-001	-7.231245e-003	9.991636e-001	-7.526305e-003	1.033523e-004	-3.287129e-004
500317.670	1.120789e-004	-5.915127e-004	9.999245e-001	-8.518875e-003	9.993543e-001	-8.822691e-003	1.107351e-004	-4.106270e-004
562856.754	1.392752e-004	-5.872768e-004	9.997382e-001	-9.597692e-003	9.995877e-001	-9.165674e-003	7.973748e-005	-6.362323e-004
625395.838	1.171312e-004	-6.672261e-004	9.998174e-001	-1.063021e-002	9.992021e-001	-1.027602e-002	1.350929e-004	-6.475424e-004
687934.922	1.581524e-005	-8.202150e-004	1.000114e+000	-1.137096e-002	1.000247e+000	-1.162521e-002	3.069299e-006	-7.276767e-004
750474.006	-1.139516e-004	-9.152905e-004	9.997337e-001	-1.270046e-002	9.996064e-001	-1.170597e-002	-1.302483e-004	-8.832306e-004
813013.089	-1.044057e-004	-9.481757e-004	1.000355e+000	-1.381325e-002	9.991919e-001	-1.320248e-002	-9.627789e-005	-9.826179e-004
875552.173	-1.002213e-004	-1.059546e-003	9.997346e-001	-1.484184e-002	1.000004e+000	-1.463655e-002	-8.894424e-005	-1.068384e-003
938091.257	-1.909404e-004	-1.105839e-003	9.997064e-001	-1.561726e-002	9.994546e-001	-1.496925e-002	-1.705259e-004	-1.123412e-003
1000630.341	-1.273065e-004	-1.127744e-003	9.997103e-001	-1.647513e-002	9.996322e-001	-1.640563e-002	-9.291361e-005	-1.202547e-003
1063169.425	-8.832344e-005	-1.211705e-003	1.000421e+000	-1.774971e-002	1.000285e+000	-1.790249e-002	-5.500380e-005	-1.293975e-003
1125708.508	-9.968146e-005	-1.309935e-003	1.000040e+000	-1.908311e-002	9.995639e-001	-1.856407e-002	-6.650344e-005	-1.317099e-003
1188247.592	-9.965091e-005	-1.426636e-003	9.995552e-001	-1.988223e-002	9.995429e-001	-1.955378e-002	-4.829065e-005	-1.401278e-003
1250786.676	-1.134251e-004	-1.475324e-003	9.997564e-001	-2.125910e-002	9.990404e-001	-2.063040e-002	-5.717766e-005	-1.466440e-003
1313325.760	-1.028762e-004	-1.543535e-003	9.997733e-001	-2.148517e-002	9.990046e-001	-2.177202e-002	-1.026595e-004	-1.589031e-003
1375864.844	-8.170825e-005	-1.642228e-003	1.000140e+000	-2.364173e-002	9.992888e-001	-2.326318e-002	-9.272972e-005	-1.671476e-003
1438403.927	-9.367170e-005	-1.739855e-003	9.996471e-001	-2.459164e-002	9.994887e-001	-2.380232e-002	-8.419611e-005	-1.756354e-003
1500943.011	-8.480269e-005	-1.797168e-003	9.998607e-001	-2.541485e-002	9.993369e-001	-2.521983e-002	-8.354356e-005	-1.788285e-003
1563482.095	-1.475709e-004	-1.876903e-003	9.992924e-001	-2.638286e-002	9.994701e-001	-2.605295e-002	-1.227422e-004	-1.890205e-003
1626021.179	-6.026532e-005	-1.926229e-003	9.996589e-001	-2.756373e-002	9.994192e-001	-2.690471e-002	-5.921528e-005	-1.970254e-003
1688560.263	-4.902534e-005	-2.018181e-003	1.000110e+000	-2.862505e-002	9.995271e-001	-2.801428e-002	-6.545687e-005	-2.026428e-003
1751099.346	-4.093367e-005	-2.026312e-003	9.997853e-001	-2.950198e-002	9.991406e-001	-2.919868e-002	-9.866605e-005	-2.128180e-003
1813638.430	-1.369339e-004	-2.147998e-003	9.999416e-001	-3.030319e-002	9.988794e-001	-3.016439e-002	-1.262528e-004	-2.162436e-003
1876177.514	-1.026140e-004	-2.282523e-003	9.997091e-001	-3.182939e-002	9.994847e-001	-3.107206e-002	-7.513222e-005	-2.257244e-003
1938716.598	-1.176915e-004	-2.326150e-003	9.992375e-001	-3.276965e-002	9.997932e-001	-3.247336e-002	-6.952816e-005	-2.336216e-003
2001255.682	-1.034914e-004	-2.359926e-003	9.999157e-001	-3.360418e-002	9.988338e-001	-3.340631e-002	-1.138395e-004	-2.408944e-003
2063794.765	-1.279816e-004	-2.420550e-003	9.991440e-001	-3.456668e-002	9.996016e-001	-3.444667e-002	-5.504478e-005	-2.494377e-003
2126333.849	-7.487633e-005	-2.592363e-003	9.986788e-001	-3.569400e-002	9.992296e-001	-3.567682e-002	-1.547399e-004	-2.602563e-003
2188872.933	-1.176209e-004	-2.622590e-003	9.993387e-001	-3.658745e-002	9.993019e-001	-3.677518e-002	-1.203984e-004	-2.617627e-003
2251412.017	-5.140104e-005	-2.709028e-003	9.995575e-001	-3.846676e-002	9.991989e-001	-3.740448e-002	-6.246047e-005	-2.730392e-003
2313951.101	-1.193448e-004	-2.794015e-003	9.990507e-001	-3.914459e-002	9.991090e-001	-3.825401e-002	-6.772302e-005	-2.853880e-003
2376490.184	-9.894450e-005	-2.897191e-003	9.996652e-001	-4.023154e-002	9.991576e-001	-3.966961e-002	-9.132691e-005	-2.889940e-003
2439029.268	-1.536445e-004	-2.975499e-003	9.990975e-001	-4.084569e-002	9.986242e-001	-4.082656e-002	-1.429846e-004	-3.013849e-003
2501568.352	-1.372529e-004	-2.958214e-003	9.991690e-001	-4.188294e-002	9.995093e-001	-4.188208e-002	-8.720015e-005	-3.020060e-003
2564107.436	-9.845181e-005	-3.042286e-003	9.986790e-001	-4.305314e-002	9.985295e-001	-4.283748e-002	-1.373321e-004	-3.149015e-003
2626646.520	-1.614661e-004	-3.162517e-003	9.985737e-001	-4.415550e-002	9.991020e-001	-4.338209e-002	-1.140115e-004	-3.186122e-003
2689185.604	-1.631015e-004	-3.232392e-003	9.993972e-001	-4.496562e-002	9.992857e-001	-4.471728e-002	-1.301007e-004	-3.321492e-003
2751724.687	-1.025818e-004	-3.381398e-003	9.991647e-001	-4.590007e-002	9.984158e-001	-4.580461e-002	-1.684023e-004	-3.308115e-003
2814263.771	-9.825729e-005	-3.444415e-003	9.991380e-001	-4.745300e-002	9.989666e-001	-4.736373e-002	-1.648955e-004	-3.430351e-003
2876802.855	-1.609071e-004	-3.501518e-003	9.990527e-001	-4.867383e-002	9.984470e-001	-4.822642e-002	-1.657837e-004	-3.524852e-003
2939341.939	-1.639245e-004	-3.562079e-003	9.987407e-001	-4.932285e-002	9.987549e-001	-4.881028e-002	-1.930624e-004	-3.598243e-003
3001881.023	-2.149429e-004	-3.608127e-003	9.988923e-001	-4.975845e-002	9.990093e-001	-4.961658e-002	-2.379815e-004	-3.608630e-003
3064420.106	-1.537250e-004	-3.736978e-003	9.984364e-001	-5.126938e-002	9.981080e-001	-5.100119e-002	-2.089350e-004	-3.712302e-003
3126959.190	-1.889284e-004	-3.791215e-003	9.985466e-001	-5.248387e-002	9.983809e-001	-5.227453e-002	-1.929596e-004	-3.809319e-003
3189498.274	-1.480425e-004	-3.849918e-003	9.985903e-001	-5.367012e-002	9.982565e-001	-5.331421e-002	-2.224424e-004	-3.887919e-003
3252037.358	-1.531897e-004	-3.958269e-003	9.984048e-001	-5.466040e-002	9.983968e-001	-5.428908e-002	-1.969838e-004	-3.946081e-003
3314576.442	-1.824946e-004	-4.090983e-003	9.983980e-001	-5.568407e-002	9.984359e-001	-5.546094e-002	-2.557160e-004	-4.017373e-003
3377115.525	-2.228433e-004	-4.099141e-003	9.984774e-001	-5.686088e-002	9.981659e-001	-5.646347e-002	-2.703121e-004	-4.109469e-003
3439654.609	-1.888952e-004	-4.139703e-003	9.981429e-001	-5.776637e-002	9.982780e-001	-5.756771e-002	-2.541914e-004	-4.199651e-003
3502193.693	-1.892817e-004	-4.296857e-003	9.982049e-001	-5.880923e-002	9.981670e-001	-5.850123e-002	-2.407997e-004	-4.314638e-003
3564732.777	-2.241076e-004	-4.352525e-003	9.982179e-001	-5.993177e-002	9.981104e-001	-5.957015e-002	-2.420250e-004	-4.358737e-003
3627271.861	-2.344440e-004	-4.431378e-003	9.980600e-001	-6.097188e-002	9.981094e-001	-6.064917e-002	-2.704435e-004	-4.427407e-003
3689810.944	-2.656102e-004	-4.520883e-003	9.980708e-001	-6.197553e-002	9.978552e-001	-6.168274e-002	-3.168306e-004	-4.527683e-003
3752350.028	-2.864649e-004	-4.552021e-003	9.980206e-001	-6.301454e-002	9.979081e-001	-6.271269e-002	-2.665289e-004	-4.575411e-003
3814889.112	-2.512315e-004	-4.664716e-003	9.978734e-001	-6.406250e-002	9.977537e-001	-6.374081e-002	-2.920514e-004	-4.683644e-003
3877428.196	-1.905469e-004	-4.706683e-003	9.978464e-001	-6.512967e-002	9.976449e-001	-6.472679e-002	-3.171299e-004	-4.749957e-003
3939967.280	-2.904252e-004	-4.839555e-003	9.976208e-001	-6.627571e-002	9.976004e-001	-6.582821e-002	-3.106673e-004	-4.764371e-003
4002506.363	-2.455716e-004	-4.896495e-003	9.976602e-001	-6.719935e-002	9.975675e-001	-6.682296e-002	-3.376038e-004	-4.869724e-003
4065045.447	-2.561861e-004	-4.960279e-003	9.976830e-001	-6.835105e-002	9.975916e-001	-6.810929e-002	-3.136073e-004	-4.991827e-003
4127584.531	-3.268861e-004	-5.044020e-003	9.976968e-001	-6.936093e-002	9.974461e-001	-6.902277e-002	-3.390895e-004	-5.056622e-003
4190123.615	-3.037079e-004	-5.106797e-003	9.973908e-001	-7.028685e-002	9.973632e-001	-6.998640e-002	-3.923711e-004	-5.148275e-003
4252662.699	-3.759447e-004	-5.185507e-003	9.973720e-001	-7.132269e-002	9.971501e-001	-7.100294e-002	-4.083997e-004	-5.179394e-003
4315201.782	-3.196523e-004	-5.302875e-003	9.973002e-001	-7.248613e-002	9.971668e-001	-7.194570e-002	-4.295044e-004	-5.283343e-003
4377740.866	-3.418553e-004	-5.370711e-003	9.972740e-001	-7.357405e-002	9.971771e-001	-7.323129e-002	-3.703858e-004	-5.350175e-003
4440279.950	-3.251531e-004	-5.394726e-003	9.972213e-001	-7.433595e-002	9.971468e-001	-7.414340e-002	-4.027749e-004	-5.447165e-003
4502819.034	-3.046970e-004	-5.581127e-003	9.972376e-001	-7.549346e-002	9.969099e-001	-7.526639e-002	-4.244180e-004	-5.504550e-003
4565358.118	-3.614369e-004	-5.578973e-003	9.967638e-001	-7.652160e-002	9.969852e-001	-7.648679e-002	-3.970159e-004	-5.544659e-003
4627897.201	-3.674138e-004	-5.690257e-003	9.968693e-001	-7.759451e-002	9.969338e-001	-7.723444e-002	-4.626848e-004	-5.584097e-003
4690436.285	-3.462916e-004	-5.740486e-003	9.968217e-001	-7.875818e-002	9.967898e-001	-7.832803e-002	-4.630052e-004	-5.699601e-003
4752975.369	-4.321636e-004	-5.877617e-003	9.967150e-001	-7.974567e-002	9.965263e-001	-7.941764e-002	-4.704235e-004	-5.787931e-003
4815514.453	-4.192599e-004	-5.938725e-003	9.967177e-001	-8.082929e-002	9.964756e-001	-8.050548e-002	-4.877550e-004	-5.873183e-003
4878053.537	-4.566645e-004	-5.942637e-003	9.966258e-001	-8.201564e-002	9.964681e-001	-8.140247e-002	-4.968820e-004	-5.930321e-003
4940592.620	-4.269806e-004	-6.040617e-003	9.964052e-001	-8.290303e-002	9.962848e-001	-8.250257e-002	-5.270830e-004	-6.019571e-003
5003131.704	-4.324707e-004	-6.122145e-003	9.963905e-001	-8.397403e-002	9.961384e-001	-8.366013e-002	-6.045586e-004	-6.142661e-003
5065670.788	-4.999178e-004	-6.212448e-003	9.963108e-001	-8.503531e-002	9.961063e-001	-8.466327e-002	-5.514252e-004	-6.178342e-003
5128209.872	-4.592884e-004	-6.262108e-003	9.961953e-001	-8.601179e-002	9.961757e-001	-8.561034e-002	-5.761989e-004	-6.260469e-003
5190748.956	-4.825215e-004	-6.404393e-003	9.960991e-001	-8.713510e-002	9.961047e-001	-8.665970e-002	-5.808035e-004	-6.311046e-003
5253288.039	-5.135600e-004	-6.437934e-003	9.958180e-001	-8.804979e-002	9.960352e-001	-8.778165e-002	-5.267135e-004	-6.411421e-003
5315827.123	-5.214198e-004	-6.521916e-003	9.958269e-001	-8.914130e-002	9.958556e-001	-8.891904e-002	-5.650384e-004	-6.448640e-003
5378366.207	-5.462825e-004	-6.581473e-003	9.956761e-001	-9.025960e-002	9.957628e-001	-8.986534e-002	-6.081802e-004	-6.535647e-003
5440905.291	-5.553663e-004	-6.671171e-003	9.957979e-001	-9.118329e-002	9.957722e-001	-9.097071e-002	-6.090301e-004	-6.633471e-003
5503444.375	-5.615206e-004	-6.751617e-003	9.956245e-001	-9.235978e-002	9.955173e-001	-9.225107e-002	-6.289194e-004	-6.691473e-003
5565983.458	-6.135392e-004	-6.801166e-003	9.956168e-001	-9.336499e-002	9.953625e-001	-9.310892e-002	-5.840284e-004	-6.759589e-003
5628522.542	-6.034277e-004	-6.934299e-003	9.954971e-001	-9.432670e-002	9.955107e-001	-9.402197e-002	-7.233789e-004	-6.886141e-003
5691061.626	-5.617846e-004	-6.961775e-003	9.953934e-001	-9.539910e-002	9.951392e-001	-9.517870e-002	-7.058283e-004	-6.908483e-003
5753600.710	-5.948864e-004	-7.079789e-003	9.952146e-001	-9.653999e-002	9.952024e-001	-9.618563e-002	-6.563324e-004	-6.987401e-003
5816139.794	-5.635751e-004	-7.115150e-003	9.952163e-001	-9.751084e-002	9.950780e-001	-9.738203e-002	-7.545127e-004	-7.072470e-003
5878678.877	-6.454643e-004	-7.214456e-003	9.949632e-001	-9.846330e-002	9.949161e-001	-9.823837e-002	-7.011000e-004	-7.112365e-003
5941217.961	-6.679594e-004	-7.290751e-003	9.949967e-001	-9.952591e-002	9.949563e-001	-9.913341e-002	-7.875040e-004	-7.195799e-003
6003757.045	-6.509033e-004	-7.411508e-003	9.947457e-001	-1.007364e-001	9.948092e-001	-1.002849e-001	-7.801208e-004	-7.354214e-003
6066296.129	-6.977697e-004	-7.433223e-003	9.946278e-001	-1.017863e-001	9.945241e-001	-1.014038e-001	-7.660214e-004	-7.345812e-003
6128835.213	-7.066212e-004	-7.467323e-003	9.946326e-001	-1.028119e-001	9.946008e-001	-1.025893e-001	-7.626324e-004	-7.414634e-003
6191374.296	-7.466264e-004	-7.624565e-003	9.944704e-001	-1.036165e-001	9.944455e-001	-1.034899e-001	-8.427810e-004	-7.545576e-003
6253913.380	-7.322213e-004	-7.707450e-003	9.942688e-001	-1.049076e-001	9.941518e-001	-1.045113e-001	-8.388830e-004	-7.554446e-003
6316452.464	-7.385483e-004	-7.702412e-003	9.942107e-001	-1.057880e-001	9.943095e-001	-1.054792e-001	-8.229558e-004	-7.648720e-003
6378991.548	-7.679282e-004	-7.847458e-003	9.943079e-001	-1.069105e-001	9.941237e-001	-1.064843e-001	-8.272992e-004	-7.699053e-003
6441530.632	-7.994251e-004	-7.892706e-003	9.941690e-001	-1.079615e-001	9.938605e-001	-1.077276e-001	-8.671978e-004	-7.853609e-003
6504069.715	-8.077271e-004	-7.977369e-003	9.939260e-001	-1.089602e-001	9.939378e-001	-1.087558e-001	-8.830388e-004	-7.910612e-003
6566608.799	-7.981408e-004	-8.048675e-003	9.937167e-001	-1.100375e-001	9.937947e-001	-1.096605e-001	-9.509228e-004	-7.952738e-003
6629147.883	-8.391102e-004	-8.131426e-003	9.936206e-001	-1.111421e-001	9.936987e-001	-1.107980e-001	-9.456930e-004	-8.020585e-003
6691686.967	-8.498107e-004	-8.237873e-003	9.936645e-001	-1.120242e-001	9.932918e-001	-1.119168e-001	-9.804712e-004	-8.065812e-003
6754226.051	-8.955839e-004	-8.269207e-003	9.935513e-001	-1.131352e-001	9.934788e-001	-1.128446e-001	-9.377103e-004	-8.213021e-003
6816765.134	-9.366835e-004	-8.371475e-003	9.932553e-001	-1.141652e-001	9.933263e-001	-1.139234e-001	-9.586872e-004	-8.294893e-003
6879304.218	-9.116810e-004	-8.434150e-003	9.932183e-001	-1.152527e-001	9.930695e-001	-1.149539e-001	-9.682988e-004	-8.328388e-003
6941843.302	-8.975621e-004	-8.474829e-003	9.930449e-001	-1.161705e-001	9.930995e-001	-1.160512e-001	-1.025867e-003	-8.376491e-003
7004382.386	-9.680973e-004	-8.560155e-003	9.928358e-001	-1.174418e-001	9.929964e-001	-1.171299e-001	-1.029103e-003	-8.494842e-003
7066921.470	-9.573767e-004	-8.656806e-003	9.927483e-001	-1.183902e-001	9.929014e-001	-1.180121e-001	-1.042307e-003	-8.573379e-003
7129460.553	-9.575145e-004	-8.771432e-003	9.927617e-001	-1.193769e-001	9.927548e-001	-1.192022e-001	-1.068210e-003	-8.630754e-003
7191999.637	-9.954111e-004	-8.819538e-003	9.925336e-001	-1.205042e-001	9.925023e-001	-1.200774e-001	-1.080116e-003	-8.701388e-003
7254538.721	-9.604881e-004	-8.886030e-003	9.924676e-001	-1.214993e-001	9.924684e-001	-1.212431e-001	-1.123207e-003	-8.762417e-003
7317077.805	-1.050564e-003	-8.943198e-003	9.921866e-001	-1.225852e-001	9.924986e-001	-1.222606e-001	-1.128145e-003	-8.818801e-003
7379616.889	-1.016725e-003	-9.022934e-003	9.923040e-001	-1.236304e-001	9.921406e-001	-1.231803e-001	-1.124424e-003	-8.962354e-003
7442155.972	-1.049782e-003	-9.114900e-003	9.919998e-001	-1.246153e-001	9.919525e-001	-1.244052e-001	-1.174466e-003	-9.006002e-003
7504695.056	-1.048304e-003	-9.198049e-003	9.918952e-001	-1.256431e-001	9.920023e-001	-1.252887e-001	-1.139167e-003	-9.043136e-003
7567234.140	-1.100975e-003	-9.229816e-003	9.918793e-001	-1.267781e-001	9.917656e-001	-1.262983e-001	-1.192273e-003	-9.112359e-003
7629773.224	-1.097638e-003	-9.345060e-003	9.916014e-001	-1.277606e-001	9.916372e-001	-1.273821e-001	-1.233078e-003	-9.190245e-003
7692312.308	-1.137058e-003	-9.409781e-003	9.916292e-001	-1.288160e-001	9.915107e-001	-1.284418e-001	-1.193539e-003	-9.212299e-003
7754851.391	-1.147577e-003	-9.513397e-003	9.912961e-001	-1.297661e-001	9.913433e-001	-1.294737e-001	-1.285912e-003	-9.292668e-003
7817390.475	-1.152761e-003	-9.538292e-003	9.914076e-001	-1.307542e-001	9.912009e-001	-1.306306e-001	-1.236442e-003	-9.428865e-003
7879929.559	-1.205362e-003	-9.649690e-003	9.910877e-001	-1.318283e-001	9.910934e-001	-1.315700e-001	-1.278635e-003	-9.484482e-003
7942468.643	-1.232000e-003	-9.679886e-003	9.909481e-001	-1.328447e-001	9.909483e-001	-1.327309e-001	-1.325189e-003	-9.549573e-003
8005007.727	-1.221429e-003	-9.754920e-003	9.908665e-001	-1.340747e-001	9.908012e-001	-1.336415e-001	-1.363002e-003	-9.670536e-003
8067546.811	-1.236680e-003	-9.826287e-003	9.907397e-001	-1.351269e-001	9.907429e-001	-1.348076e-001	-1.304864e-003	-9.712362e-003
8130085.894	-1.257053e-003	-9.895988e-003	9.905614e-001	-1.360971e-001	9.904360e-001	-1.358419e-001	-1.381542e-003	-9.797440e-003
8192624.978	-1.276852e-003	-1.000129e-002	9.903786e-001	-1.371254e-001	9.903108e-001	-1.368197e-001	-1.361624e-003	-9.862462e-003
8255164.062	-1.309231e-003	-1.008040e-002	9.902867e-001	-1.381989e-001	9.902268e-001	-1.377977e-001	-1.405992e-003	-9.964135e-003
8317703.146	-1.296100e-003	-1.019304e-002	9.901759e-001	-1.392305e-001	9.901838e-001	-1.389013e-001	-1.439013e-003	-1.003134e-002
8380242.230	-1.304803e-003	-1.027809e-002	9.900070e-001	-1.399931e-001	9.901925e-001	-1.399003e-001	-1.420346e-003	-1.007274e-002
8442781.313	-1.364419e-003	-1.029243e-002	9.898965e-001	-1.410456e-001	9.897964e-001	-1.408814e-001	-1.483552e-003	-1.012008e-002
8505320.397	-1.400281e-003	-1.037297e-002	9.897041e-001	-1.423183e-001	9.896097e-001	-1.421353e-001	-1.457822e-003	-1.028859e-002
8567859.481	-1.402754e-003	-1.044994e-002	9.894931e-001	-1.433329e-001	9.895741e-001	-1.428873e-001	-1.473919e-003	-1.028525e-002
8630398.565	-1.386794e-003	-1.050613e-002	9.893768e-001	-1.443805e-001	9.893724e-001	-1.440335e-001	-1.483745e-003	-1.040659e-002
8692937.649	-1.448547e-003	-1.057538e-002	9.891148e-001	-1.453829e-001	9.891520e-001	-1.449051e-001	-1.590712e-003	-1.041904e-002
8755476.732	-1.500624e-003	-1.062546e-002	9.889470e-001	-1.465321e-001	9.891070e-001	-1.461342e-001	-1.563795e-003	-1.049736e-002
8818015.816	-1.498250e-003	-1.074063e-002	9.889137e-001	-1.473405e-001	9.889661e-001	-1.470730e-001	-1.575526e-003	-1.059680e-002
8880554.900	-1.542213e-003	-1.085195e-002	9.887810e-001	-1.485733e-001	9.887852e-001	-1.480978e-001	-1.628853e-003	-1.064479e-002
8943093.984	-1.531952e-003	-1.089434e-002	9.886629e-001	-1.496844e-001	9.885496e-001	-1.490692e-001	-1.603970e-003	-1.070690e-002
9005633.068	-1.560325e-003	-1.098190e-002	9.884011e-001	-1.505405e-001	9.883654e-001	-1.503400e-001	-1.652995e-003	-1.082700e-002
9068172.151	-1.551652e-003	-1.103297e-002	9.882501e-001	-1.516044e-001	9.880551e-001	-1.513996e-001	-1.722882e-003	-1.083839e-002
9130711.235	-1.582174e-003	-1.109217e-002	9.880761e-001	-1.526011e-001	9.880799e-001	-1.521518e-001	-1.680296e-003	-1.095056e-002
9193250.319	-1.613746e-003	-1.121368e-002	9.879029e-001	-1.535889e-001	9.879296e-001	-1.533967e-001	-1.672749e-003	-1.103980e-002
9255789.403	-1.613074e-003	-1.127209e-002	9.876853e-001	-1.547927e-001	9.878252e-001	-1.543166e-001	-1.719171e-003	-1.104228e-002
9318328.487	-1.719482e-003	-1.133001e-002	9.875557e-001	-1.558328e-001	9.877079e-001	-1.555876e-001	-1.765705e-003	-1.118312e-002
9380867.570	-1.730120e-003	-1.137442e-002	9.874742e-001	-1.568116e-001	9.873397e-001	-1.564296e-001	-1.788957e-003	-1.121565e-002
9443406.654	-1.729464e-003	-1.150994e-002	9.872443e-001	-1.577985e-001	9.873406e-001	-1.575938e-001	-1.762132e-003	-1.129614e-002
