!Agilent Technologies,E5061B,MY49102235,A.02.00
!Date: Mon Jul 10 16:48:59 2023
!Data & Calibration Information:
!Freq	S11:SOLT2(ON)	S21:SOLT2(ON)	S12:SOLT2(ON)	S22:SOLT2(ON)
# Hz S RI R 50
5.000	-5.817903e-004	4.332464e-004	1.001991e+000	2.280032e-003	1.000527e+000	-1.029241e-005	-7.370479e-005	-4.312304e-005
62544.084	-5.789037e-005	-1.160894e-005	1.000102e+000	-9.672009e-004	1.000088e+000	-6.392482e-004	1.187782e-005	-1.225006e-004
125083.168	-3.576105e-005	-1.180948e-004	1.000239e+000	-2.400339e-003	1.000159e+000	-2.144425e-003	-6.013555e-005	-1.250654e-004
187622.251	1.623470e-004	-2.509076e-004	9.995063e-001	-2.539718e-003	1.000128e+000	-2.833519e-003	2.961030e-005	-1.698921e-004
250161.335	2.061125e-005	-1.930611e-004	9.999893e-001	-4.397037e-003	9.998730e-001	-4.183608e-003	1.120551e-005	-2.050051e-004
312700.419	4.018371e-005	-3.207427e-004	1.000358e+000	-5.309663e-003	9.991596e-001	-5.054935e-003	1.182460e-004	-2.531626e-004
375239.503	5.069485e-005	-3.180792e-004	1.000030e+000	-6.441768e-003	9.999889e-001	-6.226771e-003	2.027610e-005	-3.698509e-004
437778.587	8.629305e-005	-4.736195e-004	1.000007e+000	-7.392083e-003	9.991230e-001	-7.618962e-003	8.276453e-005	-2.728128e-004
500317.670	8.537297e-005	-5.464943e-004	1.000050e+000	-8.519096e-003	9.993199e-001	-8.790749e-003	1.022594e-004	-3.632353e-004
562856.754	1.253114e-004	-5.108007e-004	9.997509e-001	-9.693712e-003	9.995577e-001	-9.312441e-003	7.411210e-005	-5.393664e-004
625395.838	1.010703e-004	-5.889911e-004	9.998859e-001	-1.076550e-002	9.990902e-001	-1.038745e-002	1.202929e-004	-5.536256e-004
687934.922	-2.477138e-005	-7.244525e-004	1.000149e+000	-1.160664e-002	1.000303e+000	-1.173456e-002	-3.124685e-005	-6.463495e-004
750474.006	-7.663868e-005	-7.860560e-004	9.998358e-001	-1.289171e-002	9.995717e-001	-1.192967e-002	-9.212860e-005	-7.760119e-004
813013.089	-6.254934e-005	-8.373307e-004	1.000472e+000	-1.398058e-002	9.990871e-001	-1.331060e-002	-8.806768e-005	-8.727387e-004
875552.173	-4.821945e-005	-9.328036e-004	9.999333e-001	-1.514603e-002	9.999676e-001	-1.481794e-002	-6.100943e-005	-9.394219e-004
938091.257	-1.572003e-004	-9.716042e-004	9.996954e-001	-1.586445e-002	9.993777e-001	-1.528460e-002	-1.323635e-004	-9.924920e-004
1000630.341	-9.952089e-005	-9.790639e-004	9.998549e-001	-1.669007e-002	9.997142e-001	-1.653790e-002	-6.914946e-005	-1.054977e-003
1063169.425	-6.123238e-005	-1.068766e-003	1.000474e+000	-1.800875e-002	1.000412e+000	-1.804260e-002	-2.839211e-005	-1.147290e-003
1125708.508	-6.179140e-005	-1.146898e-003	1.000176e+000	-1.937234e-002	9.994192e-001	-1.875484e-002	-3.458281e-005	-1.162284e-003
1188247.592	-6.410443e-005	-1.253316e-003	9.997083e-001	-2.019837e-002	9.995568e-001	-1.977116e-002	-3.483247e-005	-1.220021e-003
1250786.676	-8.372663e-005	-1.303752e-003	9.998040e-001	-2.146927e-002	9.990968e-001	-2.075701e-002	-3.615430e-005	-1.273905e-003
1313325.760	-6.328266e-005	-1.351403e-003	9.999408e-001	-2.173193e-002	9.990408e-001	-2.193579e-002	-7.816033e-005	-1.403186e-003
1375864.844	-4.336099e-005	-1.454712e-003	1.000311e+000	-2.385458e-002	9.993666e-001	-2.348630e-002	-6.801127e-005	-1.477201e-003
1438403.927	-6.216989e-005	-1.540342e-003	9.996632e-001	-2.485219e-002	9.994494e-001	-2.408870e-002	-5.849832e-005	-1.535782e-003
1500943.011	-5.717298e-005	-1.595596e-003	9.999704e-001	-2.583067e-002	9.991420e-001	-2.535118e-002	-7.188894e-005	-1.579616e-003
1563482.095	-1.212354e-004	-1.647662e-003	9.993423e-001	-2.669635e-002	9.994375e-001	-2.629305e-002	-9.651178e-005	-1.666512e-003
1626021.179	-2.047157e-005	-1.686274e-003	9.996183e-001	-2.800733e-002	9.993023e-001	-2.710687e-002	-3.680140e-005	-1.741348e-003
1688560.263	-1.962850e-005	-1.788606e-003	1.000043e+000	-2.897604e-002	9.994590e-001	-2.827740e-002	-4.464065e-005	-1.777848e-003
1751099.346	-2.020236e-005	-1.765040e-003	9.998668e-001	-2.990127e-002	9.991286e-001	-2.950448e-002	-6.843987e-005	-1.874104e-003
1813638.430	-1.035258e-004	-1.882315e-003	1.000137e+000	-3.062337e-002	9.990687e-001	-3.046848e-002	-9.912628e-005	-1.892429e-003
1876177.514	-7.621706e-005	-2.016265e-003	9.998731e-001	-3.218981e-002	9.994748e-001	-3.145069e-002	-5.825786e-005	-1.992814e-003
1938716.598	-8.482825e-005	-2.038846e-003	9.993431e-001	-3.319449e-002	9.997301e-001	-3.279122e-002	-4.970175e-005	-2.053959e-003
2001255.682	-7.549625e-005	-2.081699e-003	9.998988e-001	-3.407446e-002	9.987559e-001	-3.377215e-002	-9.327689e-005	-2.128865e-003
2063794.765	-1.102157e-004	-2.113381e-003	9.993116e-001	-3.482953e-002	9.996393e-001	-3.481693e-002	-4.526616e-005	-2.199723e-003
2126333.849	-4.796095e-005	-2.295656e-003	9.987272e-001	-3.629464e-002	9.989954e-001	-3.605538e-002	-1.428244e-004	-2.312328e-003
2188872.933	-1.033881e-004	-2.301915e-003	9.993658e-001	-3.699058e-002	9.993468e-001	-3.707592e-002	-9.363164e-005	-2.303342e-003
2251412.017	-2.180313e-005	-2.389893e-003	9.996135e-001	-3.883799e-002	9.992230e-001	-3.775630e-002	-4.612230e-005	-2.419594e-003
2313951.101	-1.045223e-004	-2.476214e-003	9.990313e-001	-3.950450e-002	9.990033e-001	-3.846216e-002	-4.583410e-005	-2.525337e-003
2376490.184	-6.788013e-005	-2.547770e-003	9.998597e-001	-4.058258e-002	9.990685e-001	-4.012385e-002	-7.333283e-005	-2.548787e-003
2439029.268	-1.173520e-004	-2.631974e-003	9.992144e-001	-4.119697e-002	9.985418e-001	-4.113850e-002	-1.276220e-004	-2.663745e-003
2501568.352	-1.118815e-004	-2.588799e-003	9.992488e-001	-4.234473e-002	9.993451e-001	-4.222611e-002	-7.053781e-005	-2.649536e-003
2564107.436	-6.492418e-005	-2.660707e-003	9.988980e-001	-4.358756e-002	9.986274e-001	-4.324238e-002	-1.080580e-004	-2.789930e-003
2626646.520	-1.430413e-004	-2.777649e-003	9.988773e-001	-4.459202e-002	9.992480e-001	-4.385751e-002	-8.503398e-005	-2.794134e-003
2689185.604	-1.401366e-004	-2.846818e-003	9.994816e-001	-4.541668e-002	9.992200e-001	-4.517686e-002	-9.457448e-005	-2.939200e-003
2751724.687	-6.745433e-005	-2.979855e-003	9.991880e-001	-4.649070e-002	9.983839e-001	-4.627806e-002	-1.409599e-004	-2.910347e-003
2814263.771	-7.410731e-005	-3.020159e-003	9.993161e-001	-4.793265e-002	9.990026e-001	-4.780287e-002	-1.420983e-004	-3.014069e-003
2876802.855	-1.298347e-004	-3.095084e-003	9.990777e-001	-4.927227e-002	9.984276e-001	-4.856934e-002	-1.286655e-004	-3.124094e-003
2939341.939	-1.227158e-004	-3.136760e-003	9.988573e-001	-4.997021e-002	9.987108e-001	-4.930336e-002	-1.620763e-004	-3.174319e-003
3001881.023	-1.761153e-004	-3.180820e-003	9.989156e-001	-5.043825e-002	9.990238e-001	-5.011898e-002	-2.001208e-004	-3.198764e-003
3064420.106	-1.260570e-004	-3.290281e-003	9.984225e-001	-5.188484e-002	9.980722e-001	-5.141107e-002	-1.658180e-004	-3.264787e-003
3126959.190	-1.438923e-004	-3.334403e-003	9.985995e-001	-5.301675e-002	9.983462e-001	-5.278503e-002	-1.581260e-004	-3.355545e-003
3189498.274	-1.162277e-004	-3.396178e-003	9.986827e-001	-5.422386e-002	9.981986e-001	-5.385336e-002	-1.903579e-004	-3.440136e-003
3252037.358	-1.234288e-004	-3.483824e-003	9.984872e-001	-5.523234e-002	9.983473e-001	-5.483488e-002	-1.673472e-004	-3.480615e-003
3314576.442	-1.386491e-004	-3.606099e-003	9.985035e-001	-5.626357e-002	9.983565e-001	-5.600817e-002	-2.150009e-004	-3.526929e-003
3377115.525	-1.818859e-004	-3.599269e-003	9.985045e-001	-5.746123e-002	9.981394e-001	-5.702495e-002	-2.149277e-004	-3.631517e-003
3439654.609	-1.489207e-004	-3.637024e-003	9.981918e-001	-5.835351e-002	9.982277e-001	-5.810761e-002	-2.138902e-004	-3.701581e-003
3502193.693	-1.509831e-004	-3.785132e-003	9.982555e-001	-5.947533e-002	9.981565e-001	-5.904873e-002	-2.062277e-004	-3.808573e-003
3564732.777	-1.908298e-004	-3.828940e-003	9.982392e-001	-6.058779e-002	9.980434e-001	-6.014747e-002	-1.919300e-004	-3.843814e-003
3627271.861	-1.929774e-004	-3.900984e-003	9.981104e-001	-6.160127e-002	9.980777e-001	-6.128279e-002	-2.407299e-004	-3.903354e-003
3689810.944	-2.208631e-004	-3.985504e-003	9.981192e-001	-6.260676e-002	9.978302e-001	-6.231662e-002	-2.762187e-004	-3.996429e-003
3752350.028	-2.422897e-004	-4.017779e-003	9.980433e-001	-6.374257e-002	9.978674e-001	-6.330268e-002	-2.178663e-004	-4.028780e-003
3814889.112	-2.017492e-004	-4.088504e-003	9.979225e-001	-6.474460e-002	9.977033e-001	-6.436180e-002	-2.455416e-004	-4.131075e-003
3877428.196	-1.637614e-004	-4.142111e-003	9.978943e-001	-6.578344e-002	9.975846e-001	-6.536619e-002	-2.759362e-004	-4.181960e-003
3939967.280	-2.342005e-004	-4.254558e-003	9.976914e-001	-6.696506e-002	9.975235e-001	-6.651221e-002	-2.629373e-004	-4.204731e-003
4002506.363	-1.962334e-004	-4.316969e-003	9.976758e-001	-6.791684e-002	9.974990e-001	-6.745386e-002	-2.733449e-004	-4.294839e-003
4065045.447	-2.112234e-004	-4.378759e-003	9.977341e-001	-6.904961e-002	9.975507e-001	-6.877566e-002	-2.688772e-004	-4.400100e-003
4127584.531	-2.718059e-004	-4.425490e-003	9.977801e-001	-7.010854e-002	9.974255e-001	-6.966567e-002	-2.799827e-004	-4.442517e-003
4190123.615	-2.605977e-004	-4.490756e-003	9.974072e-001	-7.099319e-002	9.973172e-001	-7.066728e-002	-3.350058e-004	-4.541110e-003
4252662.699	-3.219754e-004	-4.550850e-003	9.974014e-001	-7.203614e-002	9.971153e-001	-7.165028e-002	-3.445874e-004	-4.556766e-003
4315201.782	-2.579184e-004	-4.661357e-003	9.973364e-001	-7.324267e-002	9.971543e-001	-7.265194e-002	-3.669111e-004	-4.653344e-003
4377740.866	-3.017807e-004	-4.729478e-003	9.973542e-001	-7.434633e-002	9.971162e-001	-7.390187e-002	-3.132946e-004	-4.713459e-003
4440279.950	-2.782160e-004	-4.745428e-003	9.972176e-001	-7.510025e-002	9.970738e-001	-7.485055e-002	-3.439447e-004	-4.810130e-003
4502819.034	-2.572560e-004	-4.906329e-003	9.972341e-001	-7.629587e-002	9.968668e-001	-7.591898e-002	-3.602900e-004	-4.855668e-003
4565358.118	-3.066519e-004	-4.897935e-003	9.968007e-001	-7.730162e-002	9.969070e-001	-7.715626e-002	-3.443305e-004	-4.888756e-003
4627897.201	-3.112922e-004	-5.015308e-003	9.969012e-001	-7.838475e-002	9.968560e-001	-7.796028e-002	-4.016243e-004	-4.925151e-003
4690436.285	-2.976819e-004	-5.053276e-003	9.968382e-001	-7.950615e-002	9.966766e-001	-7.906857e-002	-3.888359e-004	-5.034539e-003
4752975.369	-3.699697e-004	-5.174535e-003	9.967476e-001	-8.054653e-002	9.965001e-001	-8.014731e-002	-3.989774e-004	-5.101698e-003
4815514.453	-3.564848e-004	-5.230409e-003	9.967468e-001	-8.166552e-002	9.964141e-001	-8.128060e-002	-3.915628e-004	-5.186507e-003
4878053.537	-3.770884e-004	-5.234373e-003	9.966115e-001	-8.287482e-002	9.964047e-001	-8.221092e-002	-4.224654e-004	-5.220859e-003
4940592.620	-3.675604e-004	-5.323948e-003	9.964495e-001	-8.376814e-002	9.962503e-001	-8.327999e-002	-4.410576e-004	-5.306434e-003
5003131.704	-3.577811e-004	-5.393021e-003	9.963658e-001	-8.484336e-002	9.960676e-001	-8.442555e-002	-5.172738e-004	-5.416092e-003
5065670.788	-4.294096e-004	-5.482689e-003	9.963114e-001	-8.588914e-002	9.960356e-001	-8.546864e-002	-4.684830e-004	-5.445024e-003
5128209.872	-3.943574e-004	-5.507066e-003	9.961899e-001	-8.685189e-002	9.961139e-001	-8.647234e-002	-4.819663e-004	-5.497059e-003
5190748.956	-4.115542e-004	-5.638635e-003	9.960712e-001	-8.807349e-002	9.960389e-001	-8.748605e-002	-4.930284e-004	-5.565273e-003
5253288.039	-4.459886e-004	-5.666317e-003	9.958078e-001	-8.895319e-002	9.959588e-001	-8.858331e-002	-4.411314e-004	-5.656188e-003
5315827.123	-4.374957e-004	-5.733255e-003	9.958536e-001	-9.006350e-002	9.957683e-001	-8.976934e-002	-4.747948e-004	-5.685976e-003
5378366.207	-4.695191e-004	-5.796220e-003	9.956705e-001	-9.120261e-002	9.956629e-001	-9.068179e-002	-5.241349e-004	-5.764404e-003
5440905.291	-4.709519e-004	-5.872236e-003	9.958557e-001	-9.209277e-002	9.956950e-001	-9.181709e-002	-5.109534e-004	-5.848225e-003
5503444.375	-4.802604e-004	-5.945511e-003	9.956030e-001	-9.329938e-002	9.954270e-001	-9.311154e-002	-5.350227e-004	-5.905462e-003
5565983.458	-5.231473e-004	-5.985874e-003	9.956472e-001	-9.433126e-002	9.952569e-001	-9.400786e-002	-4.861660e-004	-5.964324e-003
5628522.542	-5.307288e-004	-6.097392e-003	9.954937e-001	-9.525096e-002	9.954275e-001	-9.485959e-002	-6.201693e-004	-6.077931e-003
5691061.626	-4.770277e-004	-6.127522e-003	9.953798e-001	-9.632849e-002	9.950244e-001	-9.605897e-002	-6.074945e-004	-6.099486e-003
5753600.710	-5.074425e-004	-6.228697e-003	9.952017e-001	-9.748438e-002	9.951009e-001	-9.710383e-002	-5.599664e-004	-6.166493e-003
5816139.794	-4.844030e-004	-6.264468e-003	9.952064e-001	-9.852067e-002	9.949858e-001	-9.829443e-002	-6.404019e-004	-6.244913e-003
5878678.877	-5.525832e-004	-6.335778e-003	9.949860e-001	-9.947972e-002	9.948123e-001	-9.919346e-002	-5.909661e-004	-6.272475e-003
5941217.961	-5.743493e-004	-6.416059e-003	9.949565e-001	-1.005008e-001	9.948751e-001	-1.000397e-001	-6.770560e-004	-6.349416e-003
6003757.045	-5.533176e-004	-6.532663e-003	9.947202e-001	-1.017542e-001	9.946781e-001	-1.011958e-001	-6.648134e-004	-6.498048e-003
6066296.129	-6.130049e-004	-6.541465e-003	9.945828e-001	-1.027803e-001	9.944670e-001	-1.023726e-001	-6.657937e-004	-6.481988e-003
6128835.213	-6.072918e-004	-6.576430e-003	9.946384e-001	-1.038217e-001	9.945244e-001	-1.035504e-001	-6.658689e-004	-6.522798e-003
6191374.296	-6.607556e-004	-6.712574e-003	9.944294e-001	-1.047012e-001	9.942943e-001	-1.043849e-001	-7.101557e-004	-6.655386e-003
6253913.380	-6.308857e-004	-6.767347e-003	9.942290e-001	-1.059226e-001	9.940432e-001	-1.054774e-001	-7.243805e-004	-6.663881e-003
6316452.464	-6.279038e-004	-6.760880e-003	9.941729e-001	-1.068211e-001	9.941797e-001	-1.064559e-001	-6.934932e-004	-6.735870e-003
6378991.548	-6.751324e-004	-6.913353e-003	9.942917e-001	-1.079409e-001	9.939796e-001	-1.074386e-001	-7.126230e-004	-6.786882e-003
6441530.632	-6.956679e-004	-6.937792e-003	9.941089e-001	-1.089892e-001	9.937524e-001	-1.087396e-001	-7.482615e-004	-6.923724e-003
6504069.715	-6.975736e-004	-7.015543e-003	9.939088e-001	-1.100990e-001	9.938158e-001	-1.097710e-001	-7.541373e-004	-6.962382e-003
6566608.799	-6.995283e-004	-7.082539e-003	9.937078e-001	-1.111283e-001	9.936433e-001	-1.106809e-001	-8.199696e-004	-7.013746e-003
6629147.883	-7.174530e-004	-7.151972e-003	9.935628e-001	-1.122360e-001	9.935763e-001	-1.118154e-001	-8.246925e-004	-7.073823e-003
6691686.967	-7.415913e-004	-7.247372e-003	9.935837e-001	-1.131433e-001	9.931354e-001	-1.129289e-001	-8.590050e-004	-7.105365e-003
6754226.051	-7.933014e-004	-7.272912e-003	9.935043e-001	-1.142874e-001	9.933021e-001	-1.138898e-001	-8.085898e-004	-7.245307e-003
6816765.134	-8.275322e-004	-7.365701e-003	9.932703e-001	-1.153141e-001	9.931644e-001	-1.149838e-001	-8.234567e-004	-7.320638e-003
6879304.218	-7.843789e-004	-7.422850e-003	9.931907e-001	-1.164013e-001	9.929743e-001	-1.160270e-001	-8.324967e-004	-7.344298e-003
6941843.302	-7.863245e-004	-7.467891e-003	9.929778e-001	-1.173006e-001	9.929642e-001	-1.171016e-001	-8.824901e-004	-7.379891e-003
7004382.386	-8.445957e-004	-7.521529e-003	9.927564e-001	-1.186035e-001	9.928843e-001	-1.182268e-001	-8.877177e-004	-7.491737e-003
7066921.470	-8.398451e-004	-7.609607e-003	9.926960e-001	-1.195489e-001	9.927481e-001	-1.190895e-001	-8.950744e-004	-7.555646e-003
7129460.553	-8.230657e-004	-7.712259e-003	9.927423e-001	-1.205652e-001	9.926304e-001	-1.203560e-001	-9.255463e-004	-7.614374e-003
7191999.637	-8.717269e-004	-7.753178e-003	9.924557e-001	-1.217284e-001	9.923585e-001	-1.211796e-001	-9.208028e-004	-7.678468e-003
7254538.721	-8.180576e-004	-7.818628e-003	9.924190e-001	-1.227348e-001	9.923548e-001	-1.223502e-001	-9.714027e-004	-7.721994e-003
7317077.805	-9.196627e-004	-7.871141e-003	9.921118e-001	-1.238229e-001	9.923218e-001	-1.233730e-001	-9.705985e-004	-7.774999e-003
7379616.889	-8.822569e-004	-7.932937e-003	9.922355e-001	-1.248150e-001	9.919621e-001	-1.242847e-001	-9.686184e-004	-7.906159e-003
7442155.972	-9.085185e-004	-8.006528e-003	9.919309e-001	-1.258035e-001	9.917573e-001	-1.255488e-001	-1.009622e-003	-7.947407e-003
7504695.056	-9.020567e-004	-8.077647e-003	9.917869e-001	-1.268861e-001	9.918448e-001	-1.264504e-001	-9.854529e-004	-7.981826e-003
7567234.140	-9.566416e-004	-8.119924e-003	9.918023e-001	-1.280166e-001	9.916357e-001	-1.274966e-001	-1.022289e-003	-8.030048e-003
7629773.224	-9.501693e-004	-8.224503e-003	9.915643e-001	-1.290260e-001	9.914622e-001	-1.285599e-001	-1.060765e-003	-8.109103e-003
7692312.308	-1.000998e-003	-8.260761e-003	9.915412e-001	-1.300571e-001	9.913400e-001	-1.296338e-001	-1.043166e-003	-8.108713e-003
7754851.391	-9.903203e-004	-8.363067e-003	9.911755e-001	-1.310584e-001	9.911620e-001	-1.306647e-001	-1.109581e-003	-8.197131e-003
7817390.475	-1.002519e-003	-8.368012e-003	9.913447e-001	-1.320837e-001	9.910567e-001	-1.318169e-001	-1.060711e-003	-8.309505e-003
7879929.559	-1.046009e-003	-8.468807e-003	9.909978e-001	-1.330937e-001	9.909074e-001	-1.327588e-001	-1.106119e-003	-8.367409e-003
7942468.643	-1.087979e-003	-8.499669e-003	9.908560e-001	-1.341392e-001	9.907772e-001	-1.339560e-001	-1.142856e-003	-8.420351e-003
8005007.727	-1.066356e-003	-8.571155e-003	9.907808e-001	-1.353778e-001	9.906345e-001	-1.348148e-001	-1.173127e-003	-8.524619e-003
8067546.811	-1.065417e-003	-8.637392e-003	9.905919e-001	-1.364570e-001	9.905653e-001	-1.360279e-001	-1.118145e-003	-8.569920e-003
8130085.894	-1.109131e-003	-8.683964e-003	9.904598e-001	-1.373953e-001	9.902454e-001	-1.370600e-001	-1.189825e-003	-8.642922e-003
8192624.978	-1.116148e-003	-8.784534e-003	9.902517e-001	-1.384301e-001	9.901363e-001	-1.380564e-001	-1.158863e-003	-8.694159e-003
8255164.062	-1.136932e-003	-8.853040e-003	9.901558e-001	-1.395242e-001	9.900525e-001	-1.390726e-001	-1.204389e-003	-8.783702e-003
8317703.146	-1.126644e-003	-8.958937e-003	9.900686e-001	-1.405797e-001	9.899946e-001	-1.401520e-001	-1.245100e-003	-8.847934e-003
8380242.230	-1.148248e-003	-9.037469e-003	9.898924e-001	-1.413504e-001	9.899451e-001	-1.411843e-001	-1.228347e-003	-8.876442e-003
8442781.313	-1.190372e-003	-9.029865e-003	9.898029e-001	-1.424329e-001	9.896147e-001	-1.421571e-001	-1.283738e-003	-8.919703e-003
8505320.397	-1.239678e-003	-9.113113e-003	9.895594e-001	-1.436768e-001	9.894300e-001	-1.433982e-001	-1.253097e-003	-9.076145e-003
8567859.481	-1.233938e-003	-9.174589e-003	9.894012e-001	-1.447199e-001	9.893487e-001	-1.441840e-001	-1.271751e-003	-9.065013e-003
8630398.565	-1.220514e-003	-9.224990e-003	9.892375e-001	-1.457960e-001	9.891326e-001	-1.453961e-001	-1.288878e-003	-9.184274e-003
8692937.649	-1.266157e-003	-9.291771e-003	9.889633e-001	-1.467872e-001	9.889623e-001	-1.462545e-001	-1.379884e-003	-9.181977e-003
8755476.732	-1.319478e-003	-9.320774e-003	9.888087e-001	-1.479555e-001	9.889003e-001	-1.474816e-001	-1.348299e-003	-9.250456e-003
8818015.816	-1.309881e-003	-9.438467e-003	9.887898e-001	-1.487774e-001	9.887424e-001	-1.484056e-001	-1.357751e-003	-9.331209e-003
8880554.900	-1.357116e-003	-9.540291e-003	9.886282e-001	-1.500175e-001	9.885396e-001	-1.494512e-001	-1.419941e-003	-9.389230e-003
8943093.984	-1.335233e-003	-9.565847e-003	9.884709e-001	-1.511223e-001	9.883284e-001	-1.504723e-001	-1.382908e-003	-9.441230e-003
9005633.068	-1.371276e-003	-9.647682e-003	9.882830e-001	-1.519766e-001	9.881502e-001	-1.517016e-001	-1.435610e-003	-9.553467e-003
9068172.151	-1.364676e-003	-9.685370e-003	9.881022e-001	-1.531039e-001	9.878578e-001	-1.527934e-001	-1.497982e-003	-9.551770e-003
9130711.235	-1.381637e-003	-9.738872e-003	9.879149e-001	-1.540942e-001	9.878668e-001	-1.535422e-001	-1.441460e-003	-9.664324e-003
9193250.319	-1.421810e-003	-9.843691e-003	9.877456e-001	-1.550818e-001	9.877416e-001	-1.547748e-001	-1.441698e-003	-9.740774e-003
9255789.403	-1.409289e-003	-9.905849e-003	9.875513e-001	-1.562992e-001	9.876424e-001	-1.557581e-001	-1.479138e-003	-9.722733e-003
9318328.487	-1.506512e-003	-9.948649e-003	9.874151e-001	-1.573279e-001	9.874888e-001	-1.569788e-001	-1.520547e-003	-9.868365e-003
9380867.570	-1.530411e-003	-9.987461e-003	9.873057e-001	-1.583251e-001	9.870863e-001	-1.578220e-001	-1.545554e-003	-9.879524e-003
9443406.654	-1.518348e-003	-1.011103e-002	9.870761e-001	-1.593362e-001	9.871000e-001	-1.590245e-001	-1.527272e-003	-9.963322e-003
