!Agilent Technologies,E5061B,MY49102235,A.02.00
!Date: Mon Jul 10 15:52:18 2023
!Data & Calibration Information:
!Freq	S11:SOLT2(ON)	S21:SOLT2(ON)	S12:SOLT2(ON)	S22:SOLT2(ON)
# Hz S RI R 50
5.000	-3.956452e-004	4.465378e-004	1.002147e+000	2.387329e-003	1.000796e+000	-6.979823e-005	-9.066729e-005	-6.364769e-005
62544.084	-3.805079e-005	4.117798e-004	9.999930e-001	-1.313317e-003	1.000055e+000	-1.103282e-003	2.943883e-005	3.306944e-004
125083.168	2.015445e-005	7.475170e-004	1.000125e+000	-2.991418e-003	1.000098e+000	-3.043252e-003	-1.600859e-005	7.220796e-004
187622.251	2.297120e-004	1.013720e-003	9.994089e-001	-3.621382e-003	1.000099e+000	-4.244832e-003	8.501353e-005	1.106274e-003
250161.335	1.049309e-004	1.492603e-003	9.998123e-001	-5.955784e-003	9.996394e-001	-5.879531e-003	9.008094e-005	1.474689e-003
312700.419	1.087568e-004	1.767541e-003	1.000211e+000	-7.221343e-003	9.991995e-001	-7.098379e-003	1.895550e-004	1.836065e-003
375239.503	1.609218e-004	2.181032e-003	9.999603e-001	-8.745178e-003	9.999794e-001	-8.801824e-003	1.098662e-004	2.135136e-003
437778.587	2.047176e-004	2.456017e-003	9.999758e-001	-1.020880e-002	9.988728e-001	-1.057132e-002	2.219218e-004	2.670291e-003
500317.670	2.261244e-004	2.808268e-003	9.998032e-001	-1.175424e-002	9.992377e-001	-1.219757e-002	2.244405e-004	2.993173e-003
562856.754	2.847840e-004	3.257589e-003	9.996218e-001	-1.343491e-002	9.993017e-001	-1.312474e-002	2.378020e-004	3.233758e-003
625395.838	3.098574e-004	3.588287e-003	9.995617e-001	-1.478621e-002	9.989619e-001	-1.461243e-002	3.126193e-004	3.631071e-003
687934.922	2.148796e-004	3.858845e-003	9.998390e-001	-1.600320e-002	9.999948e-001	-1.624598e-002	2.048847e-004	3.938806e-003
750474.006	1.100752e-004	4.196835e-003	9.995668e-001	-1.768889e-002	9.992646e-001	-1.680633e-002	9.535917e-005	4.213819e-003
813013.089	1.481007e-004	4.582348e-003	1.000240e+000	-1.928876e-002	9.987794e-001	-1.869849e-002	1.468730e-004	4.536230e-003
875552.173	1.784763e-004	4.901676e-003	9.995854e-001	-2.078928e-002	9.996216e-001	-2.053467e-002	1.762836e-004	4.899756e-003
938091.257	1.024272e-004	5.282346e-003	9.992408e-001	-2.186560e-002	9.991320e-001	-2.139272e-002	1.481695e-004	5.255634e-003
1000630.341	2.091167e-004	5.694214e-003	9.995717e-001	-2.326329e-002	9.992529e-001	-2.327158e-002	2.418477e-004	5.617600e-003
1063169.425	2.722697e-004	6.025264e-003	1.000106e+000	-2.506605e-002	9.999921e-001	-2.510451e-002	3.058637e-004	5.958259e-003
1125708.508	2.951610e-004	6.361341e-003	9.998166e-001	-2.669228e-002	9.989922e-001	-2.638329e-002	3.327908e-004	6.338907e-003
1188247.592	3.476128e-004	6.696111e-003	9.993206e-001	-2.797954e-002	9.990247e-001	-2.767766e-002	3.756110e-004	6.720209e-003
1250786.676	3.693749e-004	7.061363e-003	9.993342e-001	-2.970844e-002	9.985685e-001	-2.911649e-002	4.026684e-004	7.074986e-003
1313325.760	4.121690e-004	7.442307e-003	9.993944e-001	-3.046662e-002	9.985675e-001	-3.082243e-002	4.167360e-004	7.398371e-003
1375864.844	4.785787e-004	7.773709e-003	9.996442e-001	-3.304595e-002	9.987176e-001	-3.269615e-002	4.654587e-004	7.754680e-003
1438403.927	4.974350e-004	8.119083e-003	9.991267e-001	-3.437672e-002	9.989663e-001	-3.369436e-002	5.143014e-004	8.104940e-003
1500943.011	5.613690e-004	8.497052e-003	9.993820e-001	-3.566654e-002	9.985045e-001	-3.543345e-002	5.663539e-004	8.504957e-003
1563482.095	5.323746e-004	8.896536e-003	9.987020e-001	-3.707542e-002	9.987830e-001	-3.666652e-002	5.851552e-004	8.849603e-003
1626021.179	6.889509e-004	9.288409e-003	9.988301e-001	-3.858974e-002	9.985912e-001	-3.799980e-002	7.115752e-004	9.222104e-003
1688560.263	7.579027e-004	9.631271e-003	9.992746e-001	-4.022747e-002	9.987072e-001	-3.964945e-002	7.365705e-004	9.632940e-003
1751099.346	8.129833e-004	1.010216e-002	9.992154e-001	-4.158764e-002	9.982421e-001	-4.130190e-002	7.596699e-004	9.990385e-003
1813638.430	7.802146e-004	1.044577e-002	9.991896e-001	-4.277702e-002	9.982388e-001	-4.278347e-002	8.035717e-004	1.043322e-002
1876177.514	8.581675e-004	1.077182e-002	9.987175e-001	-4.479966e-002	9.986052e-001	-4.423380e-002	9.150439e-004	1.078020e-002
1938716.598	9.336721e-004	1.120201e-002	9.983466e-001	-4.624437e-002	9.986639e-001	-4.599554e-002	9.749525e-004	1.118123e-002
2001255.682	1.009614e-003	1.161658e-002	9.988173e-001	-4.757322e-002	9.978767e-001	-4.739526e-002	9.980763e-004	1.158134e-002
2063794.765	1.061840e-003	1.207230e-002	9.981657e-001	-4.891998e-002	9.983347e-001	-4.888615e-002	1.127973e-003	1.197570e-002
2126333.849	1.184417e-003	1.236444e-002	9.975016e-001	-5.056213e-002	9.978194e-001	-5.066632e-002	1.101484e-003	1.234965e-002
2188872.933	1.249328e-003	1.282960e-002	9.980355e-001	-5.198370e-002	9.977539e-001	-5.211996e-002	1.248746e-003	1.282569e-002
2251412.017	1.403032e-003	1.323527e-002	9.981905e-001	-5.435340e-002	9.976818e-001	-5.332608e-002	1.380745e-003	1.320422e-002
2313951.101	1.449845e-003	1.364683e-002	9.975720e-001	-5.555941e-002	9.974250e-001	-5.456228e-002	1.506750e-003	1.359884e-002
2376490.184	1.585162e-003	1.406071e-002	9.981950e-001	-5.700125e-002	9.974106e-001	-5.669794e-002	1.592138e-003	1.406579e-002
2439029.268	1.652034e-003	1.447048e-002	9.973924e-001	-5.825642e-002	9.967495e-001	-5.818545e-002	1.654406e-003	1.443080e-002
2501568.352	1.803238e-003	1.500009e-002	9.973479e-001	-5.980058e-002	9.973530e-001	-5.977072e-002	1.840830e-003	1.493907e-002
2564107.436	1.985704e-003	1.543987e-002	9.967483e-001	-6.147839e-002	9.965205e-001	-6.132023e-002	1.960185e-003	1.530916e-002
2626646.520	2.063249e-003	1.580766e-002	9.965433e-001	-6.310191e-002	9.968794e-001	-6.245990e-002	2.117876e-003	1.579625e-002
2689185.604	2.243325e-003	1.627014e-002	9.972405e-001	-6.445039e-002	9.969289e-001	-6.428042e-002	2.276771e-003	1.616979e-002
2751724.687	2.450035e-003	1.662830e-002	9.966642e-001	-6.594265e-002	9.958627e-001	-6.576929e-002	2.393252e-003	1.669192e-002
2814263.771	2.619771e-003	1.708294e-002	9.965675e-001	-6.795655e-002	9.961609e-001	-6.775404e-002	2.566531e-003	1.708476e-002
2876802.855	2.780844e-003	1.753564e-002	9.962193e-001	-6.978779e-002	9.954259e-001	-6.911414e-002	2.783568e-003	1.750264e-002
2939341.939	2.953255e-003	1.800212e-002	9.958326e-001	-7.080569e-002	9.955116e-001	-7.034514e-002	2.937724e-003	1.793702e-002
3001881.023	3.106191e-003	1.843875e-002	9.956750e-001	-7.184487e-002	9.956917e-001	-7.160719e-002	3.107454e-003	1.844424e-002
3064420.106	3.375438e-003	1.882058e-002	9.949677e-001	-7.384107e-002	9.945027e-001	-7.345301e-002	3.354489e-003	1.886313e-002
3126959.190	3.593780e-003	1.930226e-002	9.948806e-001	-7.551709e-002	9.946527e-001	-7.535113e-002	3.597878e-003	1.926221e-002
3189498.274	3.857751e-003	1.973876e-002	9.947391e-001	-7.722391e-002	9.942601e-001	-7.691426e-002	3.798001e-003	1.969985e-002
3252037.358	4.112001e-003	2.016287e-002	9.943007e-001	-7.874162e-002	9.941836e-001	-7.839546e-002	4.085239e-003	2.016596e-002
3314576.442	4.333743e-003	2.053301e-002	9.940383e-001	-8.027255e-002	9.939353e-001	-8.011133e-002	4.279795e-003	2.060519e-002
3377115.525	4.581336e-003	2.104044e-002	9.938113e-001	-8.193649e-002	9.934035e-001	-8.162788e-002	4.547244e-003	2.101119e-002
3439654.609	4.883947e-003	2.149269e-002	9.932116e-001	-8.333164e-002	9.932358e-001	-8.318368e-002	4.843070e-003	2.142831e-002
3502193.693	5.189656e-003	2.184999e-002	9.929990e-001	-8.495708e-002	9.928906e-001	-8.463804e-002	5.145178e-003	2.182222e-002
3564732.777	5.453729e-003	2.230350e-002	9.926889e-001	-8.653450e-002	9.924882e-001	-8.625904e-002	5.476408e-003	2.226984e-002
3627271.861	5.786496e-003	2.270784e-002	9.922175e-001	-8.808794e-002	9.921516e-001	-8.786060e-002	5.749238e-003	2.270945e-002
3689810.944	6.079844e-003	2.311158e-002	9.918863e-001	-8.956056e-002	9.915902e-001	-8.936512e-002	6.038392e-003	2.310204e-002
3752350.028	6.398335e-003	2.355744e-002	9.914592e-001	-9.116718e-002	9.913141e-001	-9.084342e-002	6.438246e-003	2.353358e-002
3814889.112	6.782877e-003	2.394608e-002	9.910330e-001	-9.265505e-002	9.908392e-001	-9.237153e-002	6.769730e-003	2.391723e-002
3877428.196	7.215226e-003	2.436399e-002	9.906341e-001	-9.412299e-002	9.903030e-001	-9.381288e-002	7.091359e-003	2.432891e-002
3939967.280	7.502356e-003	2.471884e-002	9.900496e-001	-9.573154e-002	9.898893e-001	-9.545298e-002	7.491589e-003	2.477071e-002
4002506.363	7.917920e-003	2.510788e-002	9.896468e-001	-9.716167e-002	9.895132e-001	-9.685274e-002	7.873613e-003	2.511916e-002
4065045.447	8.299104e-003	2.547745e-002	9.892849e-001	-9.875376e-002	9.891331e-001	-9.859977e-002	8.277612e-003	2.546629e-002
4127584.531	8.653685e-003	2.587048e-002	9.888886e-001	-1.002470e-001	9.885808e-001	-9.996461e-002	8.670450e-003	2.583572e-002
4190123.615	9.086242e-003	2.623446e-002	9.881840e-001	-1.015735e-001	9.880915e-001	-1.013868e-001	9.045560e-003	2.618192e-002
4252662.699	9.463695e-003	2.656963e-002	9.877055e-001	-1.030663e-001	9.874602e-001	-1.028060e-001	9.451862e-003	2.656541e-002
4315201.782	9.959233e-003	2.687067e-002	9.872481e-001	-1.046229e-001	9.870032e-001	-1.041870e-001	9.862747e-003	2.687233e-002
4377740.866	1.036491e-002	2.720056e-002	9.867749e-001	-1.061328e-001	9.865707e-001	-1.058009e-001	1.035633e-002	2.719830e-002
4440279.950	1.085205e-002	2.754959e-002	9.862818e-001	-1.072833e-001	9.860537e-001	-1.071893e-001	1.079680e-002	2.749579e-002
4502819.034	1.130997e-002	2.776530e-002	9.857862e-001	-1.088390e-001	9.854094e-001	-1.086206e-001	1.123863e-002	2.781347e-002
4565358.118	1.173656e-002	2.813790e-002	9.848774e-001	-1.101846e-001	9.849773e-001	-1.102053e-001	1.172634e-002	2.813454e-002
4627897.201	1.221163e-002	2.835479e-002	9.845211e-001	-1.116128e-001	9.844788e-001	-1.113747e-001	1.214118e-002	2.845989e-002
4690436.285	1.270130e-002	2.866446e-002	9.839822e-001	-1.131898e-001	9.838452e-001	-1.127795e-001	1.263328e-002	2.869269e-002
4752975.369	1.311561e-002	2.886935e-002	9.833893e-001	-1.144990e-001	9.831593e-001	-1.141985e-001	1.309618e-002	2.894364e-002
4815514.453	1.360996e-002	2.913163e-002	9.829140e-001	-1.159768e-001	9.825810e-001	-1.156574e-001	1.358559e-002	2.917178e-002
4878053.537	1.406421e-002	2.945058e-002	9.823090e-001	-1.174074e-001	9.820882e-001	-1.168444e-001	1.404266e-002	2.944472e-002
4940592.620	1.460201e-002	2.963811e-002	9.816110e-001	-1.186169e-001	9.813811e-001	-1.182901e-001	1.454495e-002	2.966276e-002
5003131.704	1.509635e-002	2.983785e-002	9.810502e-001	-1.199958e-001	9.807739e-001	-1.197298e-001	1.497029e-002	2.982970e-002
5065670.788	1.553090e-002	3.002982e-002	9.805139e-001	-1.213333e-001	9.802476e-001	-1.210324e-001	1.553492e-002	3.005720e-002
5128209.872	1.609459e-002	3.024797e-002	9.798991e-001	-1.225277e-001	9.798160e-001	-1.222651e-001	1.601828e-002	3.022339e-002
5190748.956	1.656511e-002	3.035864e-002	9.792666e-001	-1.239660e-001	9.792318e-001	-1.235301e-001	1.652432e-002	3.043651e-002
5253288.039	1.706379e-002	3.057468e-002	9.784466e-001	-1.251299e-001	9.785756e-001	-1.248789e-001	1.707920e-002	3.057292e-002
5315827.123	1.755505e-002	3.071290e-002	9.780063e-001	-1.264372e-001	9.779422e-001	-1.262761e-001	1.756390e-002	3.076935e-002
5378366.207	1.805734e-002	3.086060e-002	9.773462e-001	-1.277415e-001	9.773567e-001	-1.273986e-001	1.802999e-002	3.088980e-002
5440905.291	1.856677e-002	3.097806e-002	9.770020e-001	-1.288294e-001	9.768144e-001	-1.287439e-001	1.853977e-002	3.099827e-002
5503444.375	1.906017e-002	3.108510e-002	9.762239e-001	-1.302527e-001	9.760214e-001	-1.302282e-001	1.904927e-002	3.113447e-002
5565983.458	1.954335e-002	3.122241e-002	9.757733e-001	-1.314821e-001	9.753988e-001	-1.312720e-001	1.960763e-002	3.125187e-002
5628522.542	2.004217e-002	3.128092e-002	9.751202e-001	-1.325858e-001	9.750337e-001	-1.323053e-001	1.997949e-002	3.129097e-002
5691061.626	2.062140e-002	3.138988e-002	9.744869e-001	-1.338055e-001	9.741622e-001	-1.336611e-001	2.051445e-002	3.142196e-002
5753600.710	2.110372e-002	3.142853e-002	9.737399e-001	-1.350739e-001	9.736820e-001	-1.348132e-001	2.106116e-002	3.149920e-002
5816139.794	2.163446e-002	3.152207e-002	9.732665e-001	-1.362142e-001	9.730229e-001	-1.361300e-001	2.149476e-002	3.153342e-002
5878678.877	2.208120e-002	3.155789e-002	9.725736e-001	-1.372906e-001	9.724042e-001	-1.371865e-001	2.208137e-002	3.162516e-002
5941217.961	2.256479e-002	3.159491e-002	9.719948e-001	-1.384781e-001	9.719563e-001	-1.381508e-001	2.249819e-002	3.166215e-002
6003757.045	2.309004e-002	3.156683e-002	9.712923e-001	-1.397990e-001	9.712396e-001	-1.394496e-001	2.300905e-002	3.161372e-002
6066296.129	2.353397e-002	3.162721e-002	9.706721e-001	-1.409252e-001	9.705361e-001	-1.406285e-001	2.349582e-002	3.168773e-002
6128835.213	2.402003e-002	3.168160e-002	9.702327e-001	-1.420224e-001	9.701223e-001	-1.419212e-001	2.399535e-002	3.170440e-002
6191374.296	2.445684e-002	3.161488e-002	9.695036e-001	-1.429748e-001	9.693540e-001	-1.428442e-001	2.442434e-002	3.167334e-002
6253913.380	2.498219e-002	3.160732e-002	9.688943e-001	-1.443321e-001	9.686612e-001	-1.439411e-001	2.490942e-002	3.171324e-002
6316452.464	2.545023e-002	3.166026e-002	9.683190e-001	-1.452226e-001	9.682885e-001	-1.450190e-001	2.540077e-002	3.167748e-002
6378991.548	2.588216e-002	3.155192e-002	9.679602e-001	-1.464199e-001	9.676673e-001	-1.460506e-001	2.587821e-002	3.167029e-002
6441530.632	2.633199e-002	3.154437e-002	9.673233e-001	-1.475240e-001	9.669669e-001	-1.473449e-001	2.629465e-002	3.157386e-002
6504069.715	2.679947e-002	3.150835e-002	9.666668e-001	-1.485930e-001	9.665668e-001	-1.484421e-001	2.675042e-002	3.154214e-002
6566608.799	2.725909e-002	3.146041e-002	9.660116e-001	-1.496835e-001	9.659540e-001	-1.493630e-001	2.715361e-002	3.152934e-002
6629147.883	2.767329e-002	3.140292e-002	9.654184e-001	-1.507828e-001	9.653912e-001	-1.504949e-001	2.760209e-002	3.147052e-002
6691686.967	2.809145e-002	3.128904e-002	9.649835e-001	-1.517016e-001	9.645496e-001	-1.516268e-001	2.800819e-002	3.144443e-002
6754226.051	2.850695e-002	3.127609e-002	9.644605e-001	-1.528472e-001	9.642789e-001	-1.525845e-001	2.849550e-002	3.129099e-002
6816765.134	2.889171e-002	3.116345e-002	9.637881e-001	-1.538846e-001	9.636633e-001	-1.536975e-001	2.892250e-002	3.120004e-002
6879304.218	2.935865e-002	3.110261e-002	9.632567e-001	-1.549620e-001	9.630406e-001	-1.546933e-001	2.933957e-002	3.116957e-002
6941843.302	2.980131e-002	3.104626e-002	9.627163e-001	-1.558650e-001	9.626333e-001	-1.557727e-001	2.973079e-002	3.112735e-002
7004382.386	3.018308e-002	3.093686e-002	9.620371e-001	-1.570763e-001	9.621319e-001	-1.568952e-001	3.016217e-002	3.097530e-002
7066921.470	3.058284e-002	3.083796e-002	9.615667e-001	-1.580286e-001	9.616236e-001	-1.577344e-001	3.054723e-002	3.089508e-002
7129460.553	3.099677e-002	3.069062e-002	9.611631e-001	-1.590206e-001	9.610546e-001	-1.589560e-001	3.091934e-002	3.080669e-002
7191999.637	3.135238e-002	3.062670e-002	9.605211e-001	-1.601196e-001	9.604117e-001	-1.597966e-001	3.132719e-002	3.069638e-002
7254538.721	3.180034e-002	3.049798e-002	9.600728e-001	-1.610743e-001	9.599663e-001	-1.608738e-001	3.168455e-002	3.060599e-002
7317077.805	3.209461e-002	3.042819e-002	9.593998e-001	-1.621483e-001	9.595603e-001	-1.618545e-001	3.208207e-002	3.050741e-002
7379616.889	3.250809e-002	3.030268e-002	9.591255e-001	-1.631145e-001	9.588277e-001	-1.627995e-001	3.244653e-002	3.032689e-002
7442155.972	3.286482e-002	3.017138e-002	9.584389e-001	-1.640956e-001	9.582620e-001	-1.639526e-001	3.278477e-002	3.023723e-002
7504695.056	3.324137e-002	3.003776e-002	9.579507e-001	-1.650913e-001	9.579899e-001	-1.648132e-001	3.319026e-002	3.015459e-002
7567234.140	3.356795e-002	2.994828e-002	9.575796e-001	-1.661655e-001	9.573406e-001	-1.657536e-001	3.352626e-002	3.001485e-002
7629773.224	3.391538e-002	2.978889e-002	9.569482e-001	-1.671006e-001	9.568577e-001	-1.668101e-001	3.385722e-002	2.990372e-002
7692312.308	3.423478e-002	2.967871e-002	9.565865e-001	-1.680904e-001	9.563858e-001	-1.678102e-001	3.422800e-002	2.983491e-002
7754851.391	3.459842e-002	2.952707e-002	9.559321e-001	-1.690167e-001	9.558594e-001	-1.687934e-001	3.452037e-002	2.967853e-002
7817390.475	3.494403e-002	2.942938e-002	9.556780e-001	-1.699793e-001	9.553950e-001	-1.699064e-001	3.490121e-002	2.949874e-002
7879929.559	3.523629e-002	2.925920e-002	9.550397e-001	-1.709833e-001	9.549060e-001	-1.707588e-001	3.521219e-002	2.938356e-002
7942468.643	3.555074e-002	2.917076e-002	9.545265e-001	-1.719822e-001	9.544161e-001	-1.718635e-001	3.551444e-002	2.923867e-002
8005007.727	3.589262e-002	2.903067e-002	9.541043e-001	-1.731182e-001	9.539859e-001	-1.726859e-001	3.581137e-002	2.907908e-002
8067546.811	3.623843e-002	2.886677e-002	9.536097e-001	-1.740690e-001	9.535257e-001	-1.738177e-001	3.620764e-002	2.894780e-002
8130085.894	3.652713e-002	2.874115e-002	9.530979e-001	-1.749968e-001	9.529393e-001	-1.747809e-001	3.644760e-002	2.881030e-002
8192624.978	3.681342e-002	2.857247e-002	9.526381e-001	-1.759035e-001	9.524502e-001	-1.757344e-001	3.681536e-002	2.866638e-002
8255164.062	3.712128e-002	2.843288e-002	9.521841e-001	-1.769270e-001	9.520732e-001	-1.766069e-001	3.708585e-002	2.850057e-002
8317703.146	3.743015e-002	2.823918e-002	9.518234e-001	-1.779515e-001	9.517267e-001	-1.776292e-001	3.735232e-002	2.837118e-002
8380242.230	3.775196e-002	2.809088e-002	9.513254e-001	-1.786295e-001	9.513938e-001	-1.785986e-001	3.769035e-002	2.823886e-002
8442781.313	3.799675e-002	2.800987e-002	9.509260e-001	-1.796250e-001	9.507185e-001	-1.795276e-001	3.793180e-002	2.812460e-002
8505320.397	3.826628e-002	2.785188e-002	9.504373e-001	-1.808168e-001	9.502270e-001	-1.806842e-001	3.826053e-002	2.788465e-002
8567859.481	3.857671e-002	2.768202e-002	9.499199e-001	-1.817450e-001	9.498407e-001	-1.813896e-001	3.856904e-002	2.778966e-002
8630398.565	3.888246e-002	2.753376e-002	9.494630e-001	-1.827683e-001	9.493609e-001	-1.825088e-001	3.883242e-002	2.759436e-002
8692937.649	3.912536e-002	2.739546e-002	9.489306e-001	-1.836628e-001	9.488392e-001	-1.832784e-001	3.904953e-002	2.750945e-002
8755476.732	3.936836e-002	2.727445e-002	9.484575e-001	-1.846912e-001	9.484887e-001	-1.844035e-001	3.936138e-002	2.735815e-002
8818015.816	3.965748e-002	2.707826e-002	9.481416e-001	-1.854762e-001	9.480992e-001	-1.852718e-001	3.962297e-002	2.718071e-002
8880554.900	3.989088e-002	2.688883e-002	9.477381e-001	-1.866343e-001	9.476353e-001	-1.861787e-001	3.986476e-002	2.704006e-002
8943093.984	4.017082e-002	2.677815e-002	9.473021e-001	-1.876286e-001	9.471492e-001	-1.871709e-001	4.018085e-002	2.689779e-002
9005633.068	4.043727e-002	2.659327e-002	9.468108e-001	-1.884651e-001	9.466630e-001	-1.882701e-001	4.040137e-002	2.669865e-002
9068172.151	4.071555e-002	2.645121e-002	9.463632e-001	-1.894407e-001	9.461020e-001	-1.892606e-001	4.061352e-002	2.659886e-002
9130711.235	4.098272e-002	2.630131e-002	9.459702e-001	-1.903657e-001	9.458526e-001	-1.899708e-001	4.093713e-002	2.640377e-002
9193250.319	4.120048e-002	2.611414e-002	9.455023e-001	-1.912495e-001	9.454100e-001	-1.911142e-001	4.120692e-002	2.622633e-002
9255789.403	4.146941e-002	2.595741e-002	9.450433e-001	-1.923674e-001	9.450619e-001	-1.919987e-001	4.143594e-002	2.614725e-002
9318328.487	4.163967e-002	2.583185e-002	9.446024e-001	-1.932892e-001	9.446597e-001	-1.931793e-001	4.165288e-002	2.591139e-002
9380867.570	4.188470e-002	2.568409e-002	9.442495e-001	-1.942542e-001	9.440338e-001	-1.938724e-001	4.187721e-002	2.580283e-002
9443406.654	4.212173e-002	2.547735e-002	9.437460e-001	-1.951535e-001	9.437583e-001	-1.949837e-001	4.215692e-002	2.563174e-002
9505945.738	4.236268e-002	2.531051e-002	9.434466e-001	-1.960583e-001	9.432262e-001	-1.958332e-001	4.234032e-002	2.546099e-002
9568484.822	4.261467e-002	2.515829e-002	9.430869e-001	-1.972121e-001	9.429044e-001	-1.967611e-001	4.261590e-002	2.531339e-002
9631023.906	4.283432e-002	2.499019e-002	9.425720e-001	-1.980770e-001	9.423949e-001	-1.977910e-001	4.281457e-002	2.515322e-002
9693562.989	4.306108e-002	2.487849e-002	9.420393e-001	-1.989370e-001	9.420485e-001	-1.987980e-001	4.300770e-002	2.501016e-002
9756102.073	4.320850e-002	2.469635e-002	9.416940e-001	-1.997977e-001	9.417274e-001	-1.995935e-001	4.326448e-002	2.475616e-002
