!Agilent Technologies,E5061B,MY49102235,A.02.00
!Date: Mon Jul 10 15:54:10 2023
!Data & Calibration Information:
!Freq	S11:SOLT2(ON)	S21:SOLT2(ON)	S12:SOLT2(ON)	S22:SOLT2(ON)
# Hz S RI R 50
5.000	-4.681099e-004	4.382965e-004	1.001965e+000	2.342132e-003	1.000717e+000	-5.718826e-005	-1.175828e-004	-4.382766e-005
62544.084	-5.043306e-005	3.265731e-005	1.000028e+000	-8.537234e-004	1.000136e+000	-7.436098e-004	2.828314e-008	-6.012039e-005
125083.168	-6.369825e-006	-9.931465e-007	1.000008e+000	-2.324111e-003	1.000137e+000	-2.279230e-003	-3.155879e-005	-1.390529e-005
187622.251	1.903877e-004	-8.462555e-005	9.992875e-001	-2.616591e-003	1.000242e+000	-3.200367e-003	3.965789e-005	-1.718110e-005
250161.335	6.970364e-005	8.386838e-006	9.996905e-001	-4.479111e-003	9.998510e-001	-4.467877e-003	3.497545e-005	-1.850402e-006
312700.419	5.598977e-005	-6.006167e-005	1.000136e+000	-5.482589e-003	9.992694e-001	-5.256124e-003	1.409388e-004	-2.197815e-005
375239.503	1.007358e-004	-4.255617e-005	9.998050e-001	-6.487158e-003	1.000155e+000	-6.627533e-003	2.226776e-005	-8.011254e-005
437778.587	1.166101e-004	-1.466966e-004	9.999237e-001	-7.551783e-003	9.991957e-001	-8.018196e-003	1.031950e-004	5.995012e-005
500317.670	1.174062e-004	-1.609780e-004	9.999226e-001	-8.757699e-003	9.993735e-001	-9.228889e-003	1.162412e-004	1.389853e-005
562856.754	1.568557e-004	-7.763722e-005	9.995945e-001	-1.000472e-002	9.996932e-001	-9.731320e-003	7.978246e-005	-1.163893e-004
625395.838	1.314796e-004	-9.139504e-005	9.997074e-001	-1.121253e-002	9.991252e-001	-1.087928e-002	1.506609e-004	-7.205982e-005
687934.922	3.090052e-005	-2.070786e-004	1.000019e+000	-1.194703e-002	1.000291e+000	-1.226249e-002	4.705573e-006	-1.212234e-004
750474.006	-1.084576e-004	-2.319877e-004	9.996032e-001	-1.328200e-002	9.995383e-001	-1.246102e-002	-1.251782e-004	-2.228383e-004
813013.089	-7.913132e-005	-2.095759e-004	1.000238e+000	-1.457931e-002	9.991708e-001	-1.402894e-002	-9.482583e-005	-2.601970e-004
875552.173	-8.894167e-005	-2.790764e-004	9.997583e-001	-1.573201e-002	9.999618e-001	-1.547532e-002	-7.956952e-005	-2.658230e-004
938091.257	-1.702457e-004	-2.687559e-004	9.994262e-001	-1.645437e-002	9.994464e-001	-1.589166e-002	-1.447353e-004	-2.731628e-004
1000630.341	-1.148569e-004	-2.105186e-004	9.995764e-001	-1.723393e-002	9.996198e-001	-1.745527e-002	-7.722286e-005	-3.067808e-004
1063169.425	-8.592241e-005	-2.589926e-004	1.000289e+000	-1.864484e-002	1.000307e+000	-1.894722e-002	-4.623340e-005	-3.376478e-004
1125708.508	-7.281076e-005	-2.909343e-004	1.000039e+000	-1.997489e-002	9.994995e-001	-1.963649e-002	-4.837650e-005	-3.097815e-004
1188247.592	-8.536304e-005	-3.474626e-004	9.994214e-001	-2.089132e-002	9.996132e-001	-2.076443e-002	-2.141503e-005	-3.270249e-004
1250786.676	-8.047910e-005	-3.503826e-004	9.995220e-001	-2.226028e-002	9.993138e-001	-2.175473e-002	-3.262180e-005	-3.252364e-004
1313325.760	-7.519639e-005	-3.598520e-004	9.996551e-001	-2.256424e-002	9.990280e-001	-2.307689e-002	-7.641162e-005	-3.978100e-004
1375864.844	-4.049041e-005	-4.100413e-004	1.000033e+000	-2.477212e-002	9.993559e-001	-2.454498e-002	-4.949277e-005	-4.246874e-004
1438403.927	-7.071465e-005	-4.411284e-004	9.994780e-001	-2.574218e-002	9.994805e-001	-2.528327e-002	-4.940016e-005	-4.555599e-004
1500943.011	-5.016708e-005	-4.512448e-004	9.997604e-001	-2.666808e-002	9.991670e-001	-2.657537e-002	-4.858202e-005	-4.325202e-004
1563482.095	-1.045794e-004	-4.694722e-004	9.991012e-001	-2.772921e-002	9.995447e-001	-2.747669e-002	-8.179771e-005	-4.823870e-004
1626021.179	-1.349510e-005	-4.553077e-004	9.994540e-001	-2.895033e-002	9.993436e-001	-2.834297e-002	-7.377114e-006	-4.987007e-004
1688560.263	-7.149987e-006	-5.006774e-004	9.998687e-001	-3.008031e-002	9.995922e-001	-2.964494e-002	-2.070798e-005	-5.047134e-004
1751099.346	1.194070e-005	-4.495774e-004	9.996571e-001	-3.099971e-002	9.990768e-001	-3.071486e-002	-5.253987e-005	-5.423719e-004
1813638.430	-9.106180e-005	-5.139602e-004	9.997634e-001	-3.182090e-002	9.990671e-001	-3.194873e-002	-5.955649e-005	-5.254006e-004
1876177.514	-6.523372e-005	-5.872310e-004	9.995622e-001	-3.334960e-002	9.994862e-001	-3.296296e-002	-1.930854e-005	-5.699741e-004
1938716.598	-5.334439e-005	-5.737878e-004	9.991144e-001	-3.440388e-002	9.996547e-001	-3.425288e-002	-1.306712e-005	-5.819119e-004
2001255.682	-3.477155e-005	-5.604991e-004	9.996663e-001	-3.528266e-002	9.988647e-001	-3.531387e-002	-4.509230e-005	-6.149741e-004
2063794.765	-6.660105e-005	-5.564910e-004	9.991058e-001	-3.619588e-002	9.995390e-001	-3.631895e-002	7.962996e-006	-6.288356e-004
2126333.849	-1.174475e-005	-6.841881e-004	9.984413e-001	-3.756050e-002	9.990906e-001	-3.769858e-002	-8.561362e-005	-6.972008e-004
2188872.933	-3.862841e-005	-6.591837e-004	9.991921e-001	-3.857583e-002	9.992959e-001	-3.874251e-002	-4.777602e-005	-6.416531e-004
2251412.017	3.204357e-005	-6.838803e-004	9.995263e-001	-4.034696e-002	9.992738e-001	-3.936182e-002	1.759565e-005	-6.926317e-004
2313951.101	-4.013864e-005	-7.273765e-004	9.989459e-001	-4.121265e-002	9.988248e-001	-4.039077e-002	1.624960e-005	-7.669357e-004
2376490.184	5.849231e-008	-7.507213e-004	9.995887e-001	-4.219799e-002	9.989992e-001	-4.203928e-002	-4.216743e-006	-7.437770e-004
2439029.268	-5.328926e-005	-7.846149e-004	9.989205e-001	-4.300514e-002	9.985755e-001	-4.306444e-002	-5.823605e-005	-8.115739e-004
2501568.352	-3.678696e-005	-7.073799e-004	9.990201e-001	-4.406697e-002	9.993282e-001	-4.413784e-002	-3.274516e-006	-7.609488e-004
2564107.436	9.514537e-006	-7.195749e-004	9.985913e-001	-4.526840e-002	9.985811e-001	-4.522618e-002	-2.917853e-005	-8.475327e-004
2626646.520	-5.853766e-005	-8.034132e-004	9.984273e-001	-4.650320e-002	9.991448e-001	-4.593685e-002	-5.624372e-006	-8.149494e-004
2689185.604	-4.299230e-005	-8.183966e-004	9.991316e-001	-4.736590e-002	9.991740e-001	-4.724390e-002	4.187199e-006	-8.975758e-004
2751724.687	1.252160e-005	-9.179376e-004	9.988298e-001	-4.831718e-002	9.983285e-001	-4.829653e-002	-5.217849e-005	-8.376626e-004
2814263.771	2.605196e-005	-8.942506e-004	9.990554e-001	-4.986441e-002	9.990793e-001	-4.996061e-002	-3.669175e-005	-8.817969e-004
2876802.855	-3.813598e-005	-9.121683e-004	9.988132e-001	-5.113477e-002	9.982680e-001	-5.075650e-002	-2.315332e-005	-9.517707e-004
2939341.939	-2.805430e-005	-9.144306e-004	9.986825e-001	-5.186513e-002	9.986361e-001	-5.144192e-002	-5.518174e-005	-9.499633e-004
3001881.023	-6.650582e-005	-9.123725e-004	9.985411e-001	-5.226910e-002	9.989769e-001	-5.229877e-002	-9.302415e-005	-9.155673e-004
3064420.106	-1.289633e-005	-9.928394e-004	9.981287e-001	-5.396365e-002	9.979215e-001	-5.378477e-002	-4.953631e-005	-9.576798e-004
3126959.190	-3.269372e-005	-9.774779e-004	9.982972e-001	-5.513924e-002	9.982786e-001	-5.514568e-002	-3.397813e-005	-1.003404e-003
3189498.274	6.480113e-006	-9.801721e-004	9.983824e-001	-5.641950e-002	9.981301e-001	-5.625114e-002	-6.606633e-005	-1.028281e-003
3252037.358	1.885450e-005	-1.021700e-003	9.981762e-001	-5.746426e-002	9.982453e-001	-5.728163e-002	-1.949334e-005	-1.021955e-003
3314576.442	-1.381473e-006	-1.107438e-003	9.981536e-001	-5.854665e-002	9.983006e-001	-5.849776e-002	-7.255444e-005	-1.029227e-003
3377115.525	-3.050793e-005	-1.061253e-003	9.981917e-001	-5.975788e-002	9.980259e-001	-5.958585e-002	-6.765970e-005	-1.081873e-003
3439654.609	-2.221747e-006	-1.053918e-003	9.978605e-001	-6.071406e-002	9.981079e-001	-6.068743e-002	-6.460939e-005	-1.106807e-003
3502193.693	3.530096e-006	-1.158857e-003	9.979491e-001	-6.186546e-002	9.980219e-001	-6.168121e-002	-5.105209e-005	-1.167041e-003
3564732.777	-2.222829e-005	-1.148034e-003	9.979015e-001	-6.301804e-002	9.979152e-001	-6.283522e-002	-4.420347e-005	-1.154829e-003
3627271.861	-2.121297e-005	-1.168860e-003	9.977857e-001	-6.412540e-002	9.979342e-001	-6.403006e-002	-6.190824e-005	-1.174995e-003
3689810.944	-4.032203e-005	-1.198165e-003	9.977769e-001	-6.516128e-002	9.976915e-001	-6.506074e-002	-1.007289e-004	-1.220837e-003
3752350.028	-6.361213e-005	-1.185135e-003	9.977163e-001	-6.630388e-002	9.977230e-001	-6.613147e-002	-3.188005e-005	-1.199817e-003
3814889.112	-1.360533e-005	-1.227953e-003	9.976005e-001	-6.735332e-002	9.975772e-001	-6.724991e-002	-5.406530e-005	-1.265244e-003
3877428.196	4.534931e-005	-1.225201e-003	9.975590e-001	-6.850272e-002	9.974184e-001	-6.825665e-002	-9.366480e-005	-1.260395e-003
3939967.280	-4.245795e-005	-1.293252e-003	9.973296e-001	-6.965840e-002	9.973970e-001	-6.946057e-002	-5.868203e-005	-1.231701e-003
4002506.363	8.677000e-006	-1.288761e-003	9.973230e-001	-7.064784e-002	9.973741e-001	-7.049182e-002	-6.587127e-005	-1.279989e-003
4065045.447	-9.760809e-007	-1.333967e-003	9.973722e-001	-7.183292e-002	9.973847e-001	-7.180544e-002	-5.015220e-005	-1.333316e-003
4127584.531	-5.195603e-005	-1.328949e-003	9.973914e-001	-7.296693e-002	9.972154e-001	-7.278940e-002	-7.236304e-005	-1.345444e-003
4190123.615	-2.708803e-005	-1.334044e-003	9.970933e-001	-7.391186e-002	9.971300e-001	-7.380410e-002	-1.121856e-004	-1.379635e-003
4252662.699	-8.562028e-005	-1.369331e-003	9.970002e-001	-7.503674e-002	9.969196e-001	-7.486146e-002	-1.165497e-004	-1.351266e-003
4315201.782	-7.816838e-006	-1.421990e-003	9.969563e-001	-7.624245e-002	9.969442e-001	-7.590542e-002	-1.275247e-004	-1.415240e-003
4377740.866	-4.361237e-005	-1.435080e-003	9.969699e-001	-7.737294e-002	9.969411e-001	-7.720668e-002	-7.013826e-005	-1.420413e-003
4440279.950	-1.642784e-005	-1.418073e-003	9.968486e-001	-7.822531e-002	9.968701e-001	-7.820992e-002	-9.180544e-005	-1.463826e-003
4502819.034	1.558523e-005	-1.522654e-003	9.968251e-001	-7.941997e-002	9.966523e-001	-7.934714e-002	-8.411117e-005	-1.474603e-003
4565358.118	-2.614755e-005	-1.483012e-003	9.963837e-001	-8.050299e-002	9.966679e-001	-8.061797e-002	-7.317469e-005	-1.456090e-003
4627897.201	-2.689062e-005	-1.553105e-003	9.964531e-001	-8.154850e-002	9.966033e-001	-8.146371e-002	-1.283683e-004	-1.441955e-003
4690436.285	1.279233e-005	-1.531678e-003	9.964355e-001	-8.284780e-002	9.964819e-001	-8.259683e-002	-9.930598e-005	-1.499839e-003
4752975.369	-7.107419e-005	-1.613455e-003	9.963125e-001	-8.391023e-002	9.962563e-001	-8.370870e-002	-1.035656e-004	-1.529891e-003
4815514.453	-4.204029e-005	-1.602903e-003	9.963238e-001	-8.507432e-002	9.961906e-001	-8.489474e-002	-1.021493e-004	-1.562350e-003
4878053.537	-6.985345e-005	-1.581534e-003	9.962271e-001	-8.628214e-002	9.961533e-001	-8.585869e-002	-1.299627e-004	-1.552727e-003
4940592.620	-3.263163e-005	-1.620677e-003	9.960081e-001	-8.721212e-002	9.959315e-001	-8.699732e-002	-1.326241e-004	-1.585993e-003
5003131.704	-3.215542e-005	-1.646566e-003	9.959347e-001	-8.835102e-002	9.957827e-001	-8.822766e-002	-2.046537e-004	-1.646248e-003
5065670.788	-9.630131e-005	-1.679145e-003	9.958741e-001	-8.944669e-002	9.957501e-001	-8.928290e-002	-1.420007e-004	-1.633181e-003
5128209.872	-3.609575e-005	-1.669161e-003	9.957729e-001	-9.044635e-002	9.958009e-001	-9.030536e-002	-1.522040e-004	-1.652974e-003
5190748.956	-5.751499e-005	-1.749083e-003	9.956257e-001	-9.169484e-002	9.957601e-001	-9.136089e-002	-1.484849e-004	-1.659961e-003
5253288.039	-8.079866e-005	-1.736333e-003	9.953130e-001	-9.262129e-002	9.956548e-001	-9.253061e-002	-9.372110e-005	-1.704157e-003
5315827.123	-6.456087e-005	-1.759011e-003	9.953315e-001	-9.379903e-002	9.954449e-001	-9.375127e-002	-1.235234e-004	-1.687310e-003
5378366.207	-8.166476e-005	-1.763824e-003	9.951596e-001	-9.497735e-002	9.953308e-001	-9.472949e-002	-1.522773e-004	-1.722812e-003
5440905.291	-6.451133e-005	-1.792572e-003	9.953607e-001	-9.592912e-002	9.953452e-001	-9.592260e-002	-1.367744e-004	-1.752695e-003
5503444.375	-7.407374e-005	-1.815783e-003	9.951196e-001	-9.716616e-002	9.950628e-001	-9.726074e-002	-1.452749e-004	-1.767074e-003
5565983.458	-1.139462e-004	-1.822104e-003	9.951271e-001	-9.826066e-002	9.949401e-001	-9.818830e-002	-9.055650e-005	-1.782474e-003
5628522.542	-1.038845e-004	-1.881207e-003	9.949638e-001	-9.926964e-002	9.950906e-001	-9.908301e-002	-2.091157e-004	-1.851084e-003
5691061.626	-3.772625e-005	-1.865857e-003	9.948169e-001	-1.003724e-001	9.946972e-001	-1.003527e-001	-1.965961e-004	-1.817807e-003
5753600.710	-6.224851e-005	-1.934845e-003	9.946269e-001	-1.015666e-001	9.947289e-001	-1.013865e-001	-1.388132e-004	-1.829570e-003
5816139.794	-2.683039e-005	-1.909622e-003	9.946299e-001	-1.026293e-001	9.945714e-001	-1.026662e-001	-2.035810e-004	-1.871009e-003
5878678.877	-9.071403e-005	-1.948534e-003	9.944057e-001	-1.036339e-001	9.944426e-001	-1.035738e-001	-1.364842e-004	-1.856495e-003
5941217.961	-1.124534e-004	-1.967541e-003	9.944051e-001	-1.047060e-001	9.944787e-001	-1.045134e-001	-2.227635e-004	-1.886103e-003
6003757.045	-6.811304e-005	-2.042131e-003	9.941377e-001	-1.059782e-001	9.942580e-001	-1.057383e-001	-2.062120e-004	-1.974360e-003
6066296.129	-1.083035e-004	-2.005092e-003	9.940113e-001	-1.070469e-001	9.940204e-001	-1.069124e-001	-1.877389e-004	-1.924033e-003
6128835.213	-1.079762e-004	-1.994454e-003	9.940080e-001	-1.081677e-001	9.940700e-001	-1.081726e-001	-1.727576e-004	-1.926373e-003
6191374.296	-1.396198e-004	-2.088089e-003	9.938363e-001	-1.090361e-001	9.938918e-001	-1.090382e-001	-2.288007e-004	-2.018119e-003
6253913.380	-1.083972e-004	-2.105058e-003	9.935988e-001	-1.103991e-001	9.935789e-001	-1.101482e-001	-2.213335e-004	-1.964010e-003
6316452.464	-9.531187e-005	-2.047562e-003	9.935704e-001	-1.113338e-001	9.937004e-001	-1.111673e-001	-1.913050e-004	-1.996503e-003
6378991.548	-1.294007e-004	-2.151740e-003	9.936030e-001	-1.124591e-001	9.935129e-001	-1.122287e-001	-1.828164e-004	-1.996179e-003
6441530.632	-1.301462e-004	-2.140434e-003	9.934726e-001	-1.136534e-001	9.932873e-001	-1.135433e-001	-2.093064e-004	-2.091547e-003
6504069.715	-1.205159e-004	-2.165690e-003	9.932679e-001	-1.146535e-001	9.933519e-001	-1.146260e-001	-2.137459e-004	-2.085717e-003
6566608.799	-1.155541e-004	-2.178413e-003	9.930440e-001	-1.157847e-001	9.931600e-001	-1.156218e-001	-2.660378e-004	-2.079326e-003
6629147.883	-1.360636e-004	-2.201129e-003	9.929048e-001	-1.169644e-001	9.930594e-001	-1.167487e-001	-2.535581e-004	-2.096391e-003
6691686.967	-1.412610e-004	-2.260576e-003	9.929171e-001	-1.179217e-001	9.926436e-001	-1.179367e-001	-2.696349e-004	-2.079930e-003
6754226.051	-1.704459e-004	-2.240824e-003	9.928197e-001	-1.190825e-001	9.927752e-001	-1.189803e-001	-2.193115e-004	-2.176820e-003
6816765.134	-1.894861e-004	-2.296335e-003	9.925612e-001	-1.201502e-001	9.926402e-001	-1.200855e-001	-2.242062e-004	-2.204643e-003
6879304.218	-1.449750e-004	-2.297725e-003	9.924156e-001	-1.213159e-001	9.923985e-001	-1.211505e-001	-2.263322e-004	-2.189358e-003
6941843.302	-1.381178e-004	-2.293173e-003	9.922415e-001	-1.222453e-001	9.923955e-001	-1.222936e-001	-2.538123e-004	-2.173846e-003
7004382.386	-1.720891e-004	-2.310553e-003	9.920475e-001	-1.235435e-001	9.923240e-001	-1.234597e-001	-2.516982e-004	-2.238799e-003
7066921.470	-1.656956e-004	-2.340317e-003	9.919420e-001	-1.245797e-001	9.921957e-001	-1.243763e-001	-2.567576e-004	-2.258258e-003
7129460.553	-1.387113e-004	-2.404984e-003	9.919514e-001	-1.256358e-001	9.920384e-001	-1.256982e-001	-2.704660e-004	-2.273766e-003
7191999.637	-1.732679e-004	-2.395505e-003	9.916796e-001	-1.267884e-001	9.917493e-001	-1.265960e-001	-2.679612e-004	-2.284214e-003
7254538.721	-1.045442e-004	-2.413995e-003	9.916543e-001	-1.278608e-001	9.917487e-001	-1.277883e-001	-2.946869e-004	-2.285599e-003
7317077.805	-1.950289e-004	-2.413116e-003	9.913319e-001	-1.290034e-001	9.917136e-001	-1.288432e-001	-2.775921e-004	-2.285397e-003
7379616.889	-1.483430e-004	-2.439329e-003	9.914593e-001	-1.300922e-001	9.913098e-001	-1.298760e-001	-2.632016e-004	-2.372956e-003
7442155.972	-1.647759e-004	-2.475752e-003	9.911187e-001	-1.311192e-001	9.911206e-001	-1.311398e-001	-2.854073e-004	-2.363257e-003
7504695.056	-1.523429e-004	-2.495976e-003	9.910041e-001	-1.322192e-001	9.911723e-001	-1.320227e-001	-2.605489e-004	-2.353459e-003
7567234.140	-1.827894e-004	-2.487451e-003	9.909562e-001	-1.334142e-001	9.909428e-001	-1.330945e-001	-2.762879e-004	-2.370510e-003
7629773.224	-1.621076e-004	-2.555143e-003	9.907030e-001	-1.344674e-001	9.908068e-001	-1.342790e-001	-2.953210e-004	-2.393811e-003
7692312.308	-1.967760e-004	-2.552250e-003	9.906546e-001	-1.355126e-001	9.906461e-001	-1.353984e-001	-2.601204e-004	-2.351102e-003
7754851.391	-1.828640e-004	-2.594117e-003	9.903532e-001	-1.365533e-001	9.904543e-001	-1.364629e-001	-3.285052e-004	-2.386011e-003
7817390.475	-1.793760e-004	-2.563126e-003	9.904491e-001	-1.376730e-001	9.903231e-001	-1.376776e-001	-2.669312e-004	-2.461477e-003
7879929.559	-2.147818e-004	-2.622285e-003	9.901343e-001	-1.387154e-001	9.901718e-001	-1.386542e-001	-3.042201e-004	-2.460179e-003
7942468.643	-2.273257e-004	-2.607048e-003	9.899413e-001	-1.398258e-001	9.900360e-001	-1.398680e-001	-3.294567e-004	-2.475022e-003
8005007.727	-2.050856e-004	-2.625649e-003	9.898447e-001	-1.410980e-001	9.898827e-001	-1.408272e-001	-3.454674e-004	-2.542880e-003
8067546.811	-1.880905e-004	-2.655552e-003	9.896745e-001	-1.422507e-001	9.897860e-001	-1.420797e-001	-2.692150e-004	-2.529655e-003
8130085.894	-2.063510e-004	-2.659577e-003	9.895104e-001	-1.431982e-001	9.894779e-001	-1.431616e-001	-3.313032e-004	-2.555427e-003
8192624.978	-2.046952e-004	-2.703150e-003	9.893241e-001	-1.443121e-001	9.893163e-001	-1.442152e-001	-2.857942e-004	-2.562039e-003
8255164.062	-2.185133e-004	-2.727393e-003	9.891856e-001	-1.454131e-001	9.892440e-001	-1.452448e-001	-3.189133e-004	-2.616131e-003
8317703.146	-1.919180e-004	-2.788045e-003	9.890980e-001	-1.465336e-001	9.891686e-001	-1.463582e-001	-3.547485e-004	-2.625816e-003
8380242.230	-1.871197e-004	-2.820459e-003	9.889042e-001	-1.473534e-001	9.891333e-001	-1.474364e-001	-3.137251e-004	-2.616146e-003
8442781.313	-2.263233e-004	-2.771757e-003	9.888042e-001	-1.484689e-001	9.887644e-001	-1.485090e-001	-3.515569e-004	-2.602588e-003
8505320.397	-2.558945e-004	-2.807678e-003	9.886013e-001	-1.497943e-001	9.885283e-001	-1.497609e-001	-3.148137e-004	-2.711159e-003
8567859.481	-2.406287e-004	-2.823539e-003	9.883826e-001	-1.508155e-001	9.884610e-001	-1.505880e-001	-3.108807e-004	-2.672438e-003
8630398.565	-2.042624e-004	-2.826584e-003	9.881721e-001	-1.519607e-001	9.882273e-001	-1.518198e-001	-3.166426e-004	-2.732091e-003
8692937.649	-2.494676e-004	-2.842095e-003	9.879126e-001	-1.530161e-001	9.880188e-001	-1.527398e-001	-3.922844e-004	-2.689878e-003
8755476.732	-2.731154e-004	-2.826372e-003	9.877573e-001	-1.541831e-001	9.879882e-001	-1.539962e-001	-3.484659e-004	-2.697147e-003
8818015.816	-2.528888e-004	-2.899922e-003	9.877494e-001	-1.550831e-001	9.878241e-001	-1.550066e-001	-3.494195e-004	-2.749497e-003
8880554.900	-2.901402e-004	-2.960477e-003	9.875425e-001	-1.563562e-001	9.875936e-001	-1.560706e-001	-3.890298e-004	-2.755706e-003
8943093.984	-2.600352e-004	-2.939294e-003	9.873751e-001	-1.575138e-001	9.873742e-001	-1.571013e-001	-3.342464e-004	-2.760915e-003
9005633.068	-2.725044e-004	-2.981896e-003	9.871431e-001	-1.584549e-001	9.872043e-001	-1.584158e-001	-3.697957e-004	-2.826011e-003
9068172.151	-2.529545e-004	-2.978109e-003	9.869612e-001	-1.595807e-001	9.868610e-001	-1.595418e-001	-4.179908e-004	-2.791356e-003
9130711.235	-2.536971e-004	-2.976040e-003	9.868154e-001	-1.606297e-001	9.868415e-001	-1.603641e-001	-3.554917e-004	-2.850854e-003
9193250.319	-2.711970e-004	-3.043757e-003	9.866203e-001	-1.616632e-001	9.866886e-001	-1.616358e-001	-3.365083e-004	-2.879559e-003
9255789.403	-2.483711e-004	-3.060545e-003	9.864048e-001	-1.629272e-001	9.865900e-001	-1.626647e-001	-3.599640e-004	-2.822017e-003
9318328.487	-3.118193e-004	-3.056490e-003	9.862076e-001	-1.640064e-001	9.864419e-001	-1.639290e-001	-3.917255e-004	-2.908398e-003
9380867.570	-3.285833e-004	-3.049753e-003	9.861336e-001	-1.650461e-001	9.860387e-001	-1.648349e-001	-3.900259e-004	-2.885934e-003
9443406.654	-3.238692e-004	-3.123374e-003	9.858792e-001	-1.660981e-001	9.860330e-001	-1.660608e-001	-3.559675e-004	-2.924646e-003
