!Agilent Technologies,E5061B,MY49102235,A.02.00
!Date: Mon Jul 10 15:55:32 2023
!Data & Calibration Information:
!Freq	S11:SOLT2(ON)	S21:SOLT2(ON)	S12:SOLT2(ON)	S22:SOLT2(ON)
# Hz S RI R 50
5.000	-4.602092e-004	4.456856e-004	1.002032e+000	2.355711e-003	1.000838e+000	-6.209733e-005	-1.532593e-004	-5.401444e-005
62544.084	-4.568694e-005	-2.212606e-005	1.000028e+000	-7.777160e-004	1.000143e+000	-6.611657e-004	1.565576e-005	-1.164988e-004
125083.168	-6.280162e-006	-1.217224e-004	1.000091e+000	-2.158736e-003	1.000148e+000	-2.128922e-003	-4.530988e-005	-1.294159e-004
187622.251	1.750362e-004	-2.628820e-004	9.995184e-001	-2.412223e-003	1.000142e+000	-2.920599e-003	4.852796e-005	-1.617447e-004
250161.335	6.823338e-005	-1.908642e-004	9.997800e-001	-4.289826e-003	9.997691e-001	-4.237900e-003	3.483147e-005	-2.095032e-004
312700.419	5.232147e-005	-3.057561e-004	1.000230e+000	-5.286768e-003	9.992661e-001	-5.030073e-003	1.281331e-004	-2.656824e-004
375239.503	8.826173e-005	-3.396853e-004	9.999423e-001	-6.310105e-003	9.999559e-001	-6.200781e-003	4.873123e-005	-3.763379e-004
437778.587	1.212788e-004	-4.707013e-004	9.999020e-001	-7.309233e-003	9.991110e-001	-7.710261e-003	9.296648e-005	-2.700038e-004
500317.670	9.402795e-005	-5.441584e-004	1.000036e+000	-8.505435e-003	9.992516e-001	-8.845603e-003	1.215218e-004	-3.660864e-004
562856.754	1.273346e-004	-5.084854e-004	9.997386e-001	-9.651122e-003	9.996112e-001	-9.238007e-003	7.576635e-005	-5.682030e-004
625395.838	1.220854e-004	-5.951455e-004	9.998145e-001	-1.068827e-002	9.991595e-001	-1.039004e-002	1.338736e-004	-5.658497e-004
687934.922	8.362060e-006	-7.553482e-004	1.000107e+000	-1.135617e-002	1.000299e+000	-1.171294e-002	-3.040246e-006	-6.737717e-004
750474.006	-1.028719e-004	-8.295466e-004	9.997130e-001	-1.276863e-002	9.995630e-001	-1.178469e-002	-1.202736e-004	-7.968628e-004
813013.089	-9.198107e-005	-8.608236e-004	1.000276e+000	-1.397099e-002	9.991677e-001	-1.325774e-002	-1.066238e-004	-8.982525e-004
875552.173	-1.057717e-004	-9.613002e-004	9.997570e-001	-1.495491e-002	1.000057e+000	-1.475335e-002	-7.498191e-005	-9.546383e-004
938091.257	-1.956807e-004	-9.975389e-004	9.995606e-001	-1.564534e-002	9.994510e-001	-1.512107e-002	-1.614652e-004	-1.020273e-003
1000630.341	-1.348919e-004	-1.002365e-003	9.997709e-001	-1.658323e-002	9.997837e-001	-1.655387e-002	-9.095576e-005	-1.077470e-003
1063169.425	-1.005945e-004	-1.095323e-003	1.000367e+000	-1.785988e-002	1.000416e+000	-1.808111e-002	-5.195944e-005	-1.170041e-003
1125708.508	-8.960555e-005	-1.162136e-003	1.000103e+000	-1.924313e-002	9.994339e-001	-1.884611e-002	-5.807315e-005	-1.197534e-003
1188247.592	-1.000164e-004	-1.273035e-003	9.995545e-001	-1.992967e-002	9.995467e-001	-1.989672e-002	-4.127745e-005	-1.264495e-003
1250786.676	-1.112111e-004	-1.330237e-003	9.996418e-001	-2.136945e-002	9.992332e-001	-2.074218e-002	-5.473046e-005	-1.318314e-003
1313325.760	-9.565273e-005	-1.383836e-003	9.998239e-001	-2.154196e-002	9.990797e-001	-2.204559e-002	-9.748806e-005	-1.440529e-003
1375864.844	-7.500650e-005	-1.501518e-003	1.000095e+000	-2.373750e-002	9.993683e-001	-2.333849e-002	-8.551041e-005	-1.504679e-003
1438403.927	-9.279507e-005	-1.566555e-003	9.995280e-001	-2.463389e-002	9.995210e-001	-2.396589e-002	-8.046875e-005	-1.584260e-003
1500943.011	-8.441431e-005	-1.629526e-003	9.998257e-001	-2.560980e-002	9.992415e-001	-2.532007e-002	-6.123277e-005	-1.596772e-003
1563482.095	-1.418827e-004	-1.682040e-003	9.991030e-001	-2.646272e-002	9.995703e-001	-2.628883e-002	-1.092720e-004	-1.716061e-003
1626021.179	-5.315865e-005	-1.729776e-003	9.996428e-001	-2.777652e-002	9.994017e-001	-2.708133e-002	-4.044522e-005	-1.772372e-003
1688560.263	-4.363572e-005	-1.832199e-003	9.999260e-001	-2.883932e-002	9.995797e-001	-2.815442e-002	-5.977234e-005	-1.822930e-003
1751099.346	-3.835837e-005	-1.819287e-003	9.998493e-001	-2.972241e-002	9.992009e-001	-2.939219e-002	-8.036978e-005	-1.915164e-003
1813638.430	-1.166881e-004	-1.937491e-003	9.999180e-001	-3.049651e-002	9.990476e-001	-3.052264e-002	-1.102527e-004	-1.947298e-003
1876177.514	-1.062635e-004	-2.062948e-003	9.995937e-001	-3.200766e-002	9.994377e-001	-3.131775e-002	-7.142813e-005	-2.034706e-003
1938716.598	-1.101346e-004	-2.094899e-003	9.992032e-001	-3.288232e-002	9.997446e-001	-3.272342e-002	-6.067579e-005	-2.111319e-003
2001255.682	-9.727968e-005	-2.128063e-003	9.997147e-001	-3.369606e-002	9.987706e-001	-3.367689e-002	-1.026154e-004	-2.190616e-003
2063794.765	-1.271540e-004	-2.173568e-003	9.992733e-001	-3.468646e-002	9.996628e-001	-3.461696e-002	-5.959819e-005	-2.265193e-003
2126333.849	-7.369808e-005	-2.362889e-003	9.986004e-001	-3.603816e-002	9.991356e-001	-3.583746e-002	-1.476106e-004	-2.368159e-003
2188872.933	-1.103513e-004	-2.364384e-003	9.993586e-001	-3.688632e-002	9.993386e-001	-3.701438e-002	-1.096845e-004	-2.363236e-003
2251412.017	-3.283395e-005	-2.457989e-003	9.994935e-001	-3.871900e-002	9.991637e-001	-3.767376e-002	-4.231471e-005	-2.469860e-003
2313951.101	-1.095718e-004	-2.545922e-003	9.990174e-001	-3.937667e-002	9.989057e-001	-3.855491e-002	-5.411502e-005	-2.587679e-003
2376490.184	-8.671315e-005	-2.597956e-003	9.997290e-001	-4.027071e-002	9.992007e-001	-4.001174e-002	-8.553490e-005	-2.611706e-003
2439029.268	-1.359104e-004	-2.688798e-003	9.991528e-001	-4.106924e-002	9.985498e-001	-4.114745e-002	-1.354962e-004	-2.728346e-003
2501568.352	-1.334314e-004	-2.660549e-003	9.991909e-001	-4.206082e-002	9.994509e-001	-4.221400e-002	-7.741860e-005	-2.725647e-003
2564107.436	-7.033628e-005	-2.746261e-003	9.987087e-001	-4.344382e-002	9.986673e-001	-4.318693e-002	-1.183500e-004	-2.856288e-003
2626646.520	-1.567482e-004	-2.861454e-003	9.986351e-001	-4.446226e-002	9.991850e-001	-4.369057e-002	-9.624263e-005	-2.873730e-003
2689185.604	-1.507327e-004	-2.915607e-003	9.993362e-001	-4.517125e-002	9.993967e-001	-4.515315e-002	-9.604122e-005	-3.016957e-003
2751724.687	-8.671863e-005	-3.057665e-003	9.990744e-001	-4.635109e-002	9.984661e-001	-4.621978e-002	-1.405793e-004	-2.990653e-003
2814263.771	-8.875768e-005	-3.117324e-003	9.992366e-001	-4.766559e-002	9.989549e-001	-4.760179e-002	-1.465051e-004	-3.094535e-003
2876802.855	-1.388009e-004	-3.168035e-003	9.989567e-001	-4.905845e-002	9.984182e-001	-4.850932e-002	-1.433529e-004	-3.203296e-003
2939341.939	-1.438422e-004	-3.223102e-003	9.987060e-001	-4.965951e-002	9.987654e-001	-4.916976e-002	-1.633937e-004	-3.265995e-003
3001881.023	-1.918431e-004	-3.271840e-003	9.988252e-001	-5.020425e-002	9.990179e-001	-4.995339e-002	-2.045982e-004	-3.271945e-003
3064420.106	-1.430526e-004	-3.389902e-003	9.983656e-001	-5.154766e-002	9.980415e-001	-5.135190e-002	-1.852763e-004	-3.369718e-003
3126959.190	-1.574851e-004	-3.426553e-003	9.985576e-001	-5.278122e-002	9.984212e-001	-5.265355e-002	-1.646896e-004	-3.457214e-003
3189498.274	-1.273086e-004	-3.491131e-003	9.986136e-001	-5.398522e-002	9.982200e-001	-5.370545e-002	-1.934953e-004	-3.523781e-003
3252037.358	-1.310446e-004	-3.575429e-003	9.984044e-001	-5.499459e-002	9.983438e-001	-5.470603e-002	-1.711038e-004	-3.580858e-003
3314576.442	-1.570453e-004	-3.715378e-003	9.984072e-001	-5.603697e-002	9.983913e-001	-5.589940e-002	-2.260493e-004	-3.623787e-003
3377115.525	-1.975623e-004	-3.715953e-003	9.984624e-001	-5.720359e-002	9.981683e-001	-5.689726e-002	-2.278710e-004	-3.732693e-003
3439654.609	-1.654119e-004	-3.747349e-003	9.981050e-001	-5.807868e-002	9.982391e-001	-5.797318e-002	-2.255512e-004	-3.812441e-003
3502193.693	-1.749020e-004	-3.897389e-003	9.982062e-001	-5.916678e-002	9.981455e-001	-5.894873e-002	-2.089153e-004	-3.913433e-003
3564732.777	-2.008096e-004	-3.932880e-003	9.981702e-001	-6.026314e-002	9.980795e-001	-6.004681e-002	-2.110481e-004	-3.959734e-003
3627271.861	-1.981178e-004	-4.020465e-003	9.980216e-001	-6.133811e-002	9.980974e-001	-6.113364e-002	-2.430729e-004	-4.015848e-003
3689810.944	-2.244244e-004	-4.088019e-003	9.980645e-001	-6.233809e-002	9.977992e-001	-6.214903e-002	-2.943790e-004	-4.108521e-003
3752350.028	-2.595963e-004	-4.135701e-003	9.979714e-001	-6.345885e-002	9.978768e-001	-6.318487e-002	-2.357653e-004	-4.142995e-003
3814889.112	-2.239799e-004	-4.209139e-003	9.978794e-001	-6.444288e-002	9.977494e-001	-6.419484e-002	-2.676527e-004	-4.260492e-003
3877428.196	-1.628006e-004	-4.258484e-003	9.978831e-001	-6.547575e-002	9.975951e-001	-6.519301e-002	-2.907526e-004	-4.299205e-003
3939967.280	-2.494547e-004	-4.381382e-003	9.976378e-001	-6.667427e-002	9.975680e-001	-6.632809e-002	-2.743668e-004	-4.330409e-003
4002506.363	-2.210482e-004	-4.431038e-003	9.976110e-001	-6.760774e-002	9.975848e-001	-6.730873e-002	-2.984591e-004	-4.408091e-003
4065045.447	-2.187195e-004	-4.516184e-003	9.976391e-001	-6.875476e-002	9.976093e-001	-6.857282e-002	-2.998337e-004	-4.527746e-003
4127584.531	-2.995528e-004	-4.568747e-003	9.976659e-001	-6.981836e-002	9.974296e-001	-6.950381e-002	-3.052611e-004	-4.586619e-003
4190123.615	-2.674924e-004	-4.618163e-003	9.973774e-001	-7.073886e-002	9.973578e-001	-7.049437e-002	-3.554038e-004	-4.672593e-003
4252662.699	-3.390589e-004	-4.698247e-003	9.973371e-001	-7.178136e-002	9.971119e-001	-7.149235e-002	-3.810637e-004	-4.693592e-003
4315201.782	-2.718529e-004	-4.800842e-003	9.972857e-001	-7.293680e-002	9.971428e-001	-7.251829e-002	-3.802753e-004	-4.796214e-003
4377740.866	-3.151633e-004	-4.861641e-003	9.972521e-001	-7.402980e-002	9.971462e-001	-7.377851e-002	-3.290226e-004	-4.854936e-003
4440279.950	-2.976147e-004	-4.887656e-003	9.971802e-001	-7.479900e-002	9.971142e-001	-7.469595e-002	-3.676704e-004	-4.944476e-003
4502819.034	-2.802082e-004	-5.064148e-003	9.971687e-001	-7.595103e-002	9.968566e-001	-7.578901e-002	-3.714655e-004	-4.998031e-003
4565358.118	-3.103578e-004	-5.051282e-003	9.967191e-001	-7.697994e-002	9.969321e-001	-7.701917e-002	-3.747529e-004	-5.036352e-003
4627897.201	-3.175774e-004	-5.170128e-003	9.968471e-001	-7.804973e-002	9.969051e-001	-7.780892e-002	-4.275987e-004	-5.060518e-003
4690436.285	-3.074177e-004	-5.200399e-003	9.968114e-001	-7.920600e-002	9.967164e-001	-7.890735e-002	-4.094938e-004	-5.177168e-003
4752975.369	-3.804508e-004	-5.327529e-003	9.966492e-001	-8.023236e-002	9.965214e-001	-7.997347e-002	-4.163975e-004	-5.258825e-003
4815514.453	-3.629621e-004	-5.378818e-003	9.966976e-001	-8.137551e-002	9.964170e-001	-8.107476e-002	-4.245153e-004	-5.330341e-003
4878053.537	-4.053209e-004	-5.392299e-003	9.965677e-001	-8.253500e-002	9.964597e-001	-8.199452e-002	-4.543726e-004	-5.362240e-003
4940592.620	-3.833412e-004	-5.479316e-003	9.963829e-001	-8.345370e-002	9.962498e-001	-8.311476e-002	-4.665427e-004	-5.453183e-003
5003131.704	-3.802377e-004	-5.558813e-003	9.963454e-001	-8.449095e-002	9.961104e-001	-8.426906e-002	-5.453135e-004	-5.565803e-003
5065670.788	-4.484546e-004	-5.642252e-003	9.962715e-001	-8.558590e-002	9.960516e-001	-8.528540e-002	-4.909597e-004	-5.598076e-003
5128209.872	-4.134054e-004	-5.680067e-003	9.961210e-001	-8.653196e-002	9.961216e-001	-8.624103e-002	-5.094490e-004	-5.675657e-003
5190748.956	-4.301580e-004	-5.813952e-003	9.960375e-001	-8.771615e-002	9.960765e-001	-8.729097e-002	-5.245483e-004	-5.725780e-003
5253288.039	-4.625488e-004	-5.836265e-003	9.957402e-001	-8.861489e-002	9.959943e-001	-8.836727e-002	-4.741086e-004	-5.824033e-003
5315827.123	-4.647829e-004	-5.919589e-003	9.957585e-001	-8.968763e-002	9.958338e-001	-8.956229e-002	-5.124312e-004	-5.850648e-003
5378366.207	-4.890726e-004	-5.969393e-003	9.956258e-001	-9.084380e-002	9.957392e-001	-9.049688e-002	-5.466210e-004	-5.940191e-003
5440905.291	-4.821682e-004	-6.058378e-003	9.957920e-001	-9.174856e-002	9.957283e-001	-9.165380e-002	-5.502676e-004	-6.008355e-003
5503444.375	-5.047228e-004	-6.136680e-003	9.955523e-001	-9.294412e-002	9.954563e-001	-9.291260e-002	-5.719739e-004	-6.078720e-003
5565983.458	-5.468478e-004	-6.179154e-003	9.955753e-001	-9.397074e-002	9.953000e-001	-9.382259e-002	-5.170600e-004	-6.125226e-003
5628522.542	-5.533704e-004	-6.288731e-003	9.954436e-001	-9.489475e-002	9.954683e-001	-9.465604e-002	-6.480766e-004	-6.249755e-003
5691061.626	-5.025836e-004	-6.318107e-003	9.953140e-001	-9.598228e-002	9.950914e-001	-9.583526e-002	-6.398191e-004	-6.265627e-003
5753600.710	-5.297125e-004	-6.419401e-003	9.951378e-001	-9.714077e-002	9.951272e-001	-9.686310e-002	-5.873156e-004	-6.335850e-003
5816139.794	-5.063401e-004	-6.454768e-003	9.951640e-001	-9.813014e-002	9.950176e-001	-9.803691e-002	-6.831373e-004	-6.427843e-003
5878678.877	-5.766483e-004	-6.542388e-003	9.949454e-001	-9.910343e-002	9.948639e-001	-9.895106e-002	-6.227849e-004	-6.443170e-003
5941217.961	-6.014944e-004	-6.612948e-003	9.949180e-001	-1.001628e-001	9.949488e-001	-9.983774e-002	-7.136118e-004	-6.528057e-003
6003757.045	-5.644899e-004	-6.738207e-003	9.946699e-001	-1.013969e-001	9.947004e-001	-1.010057e-001	-6.997334e-004	-6.673209e-003
6066296.129	-6.295244e-004	-6.755152e-003	9.945484e-001	-1.023888e-001	9.944991e-001	-1.021040e-001	-6.939720e-004	-6.662927e-003
6128835.213	-6.370556e-004	-6.781978e-003	9.946043e-001	-1.034201e-001	9.945869e-001	-1.033476e-001	-6.898984e-004	-6.714447e-003
6191374.296	-6.813757e-004	-6.914952e-003	9.943872e-001	-1.043296e-001	9.943671e-001	-1.041430e-001	-7.587489e-004	-6.846659e-003
6253913.380	-6.486577e-004	-6.987834e-003	9.941566e-001	-1.055717e-001	9.941082e-001	-1.052561e-001	-7.674313e-004	-6.849701e-003
6316452.464	-6.535190e-004	-6.994970e-003	9.941448e-001	-1.064255e-001	9.942572e-001	-1.062321e-001	-7.382289e-004	-6.934630e-003
6378991.548	-6.923139e-004	-7.134685e-003	9.942383e-001	-1.076127e-001	9.940230e-001	-1.072490e-001	-7.444173e-004	-6.983375e-003
6441530.632	-7.223391e-004	-7.163721e-003	9.941232e-001	-1.086194e-001	9.937915e-001	-1.085142e-001	-7.732151e-004	-7.121759e-003
6504069.715	-7.273018e-004	-7.231531e-003	9.938730e-001	-1.096651e-001	9.938969e-001	-1.095100e-001	-7.857190e-004	-7.165511e-003
6566608.799	-7.154886e-004	-7.298970e-003	9.936790e-001	-1.107363e-001	9.937249e-001	-1.104232e-001	-8.599010e-004	-7.212421e-003
6629147.883	-7.512334e-004	-7.371515e-003	9.935115e-001	-1.118636e-001	9.936320e-001	-1.115486e-001	-8.669798e-004	-7.274254e-003
6691686.967	-7.700534e-004	-7.486236e-003	9.935579e-001	-1.127482e-001	9.932426e-001	-1.127303e-001	-8.914382e-004	-7.306875e-003
6754226.051	-8.051948e-004	-7.503187e-003	9.934609e-001	-1.138864e-001	9.933591e-001	-1.136170e-001	-8.465265e-004	-7.442348e-003
6816765.134	-8.431127e-004	-7.615143e-003	9.932279e-001	-1.149524e-001	9.932476e-001	-1.147496e-001	-8.661518e-004	-7.521377e-003
6879304.218	-8.152948e-004	-7.651186e-003	9.931240e-001	-1.160129e-001	9.930010e-001	-1.157880e-001	-8.755174e-004	-7.551685e-003
6941843.302	-8.102899e-004	-7.692383e-003	9.929315e-001	-1.168695e-001	9.930337e-001	-1.168224e-001	-9.187178e-004	-7.589887e-003
7004382.386	-8.672767e-004	-7.769889e-003	9.927626e-001	-1.181617e-001	9.929401e-001	-1.179624e-001	-9.321282e-004	-7.702023e-003
7066921.470	-8.662570e-004	-7.859437e-003	9.926823e-001	-1.191367e-001	9.928035e-001	-1.188117e-001	-9.510419e-004	-7.769953e-003
7129460.553	-8.533434e-004	-7.958659e-003	9.926838e-001	-1.201404e-001	9.926712e-001	-1.200874e-001	-9.755191e-004	-7.826039e-003
7191999.637	-8.968040e-004	-7.993277e-003	9.924246e-001	-1.212461e-001	9.924116e-001	-1.209417e-001	-9.762404e-004	-7.891080e-003
7254538.721	-8.516038e-004	-8.062755e-003	9.924109e-001	-1.222788e-001	9.924251e-001	-1.220584e-001	-1.017796e-003	-7.940580e-003
7317077.805	-9.476417e-004	-8.113560e-003	9.920697e-001	-1.233823e-001	9.924120e-001	-1.230968e-001	-1.023654e-003	-7.993923e-003
7379616.889	-9.138738e-004	-8.178341e-003	9.922482e-001	-1.243698e-001	9.920032e-001	-1.240422e-001	-1.019535e-003	-8.126203e-003
7442155.972	-9.364510e-004	-8.270164e-003	9.919308e-001	-1.253810e-001	9.918393e-001	-1.252916e-001	-1.056748e-003	-8.167902e-003
7504695.056	-9.435352e-004	-8.350377e-003	9.918157e-001	-1.264424e-001	9.918898e-001	-1.261738e-001	-1.037027e-003	-8.202166e-003
7567234.140	-9.849847e-004	-8.386360e-003	9.917865e-001	-1.275900e-001	9.916854e-001	-1.272033e-001	-1.080242e-003	-8.263610e-003
7629773.224	-9.971649e-004	-8.482503e-003	9.915582e-001	-1.285719e-001	9.915120e-001	-1.283151e-001	-1.114402e-003	-8.331785e-003
7692312.308	-1.030087e-003	-8.540936e-003	9.915080e-001	-1.296308e-001	9.914086e-001	-1.293587e-001	-1.086948e-003	-8.350758e-003
7754851.391	-1.021486e-003	-8.645946e-003	9.911999e-001	-1.306088e-001	9.912159e-001	-1.303590e-001	-1.155046e-003	-8.430821e-003
7817390.475	-1.040136e-003	-8.651961e-003	9.913148e-001	-1.316334e-001	9.911051e-001	-1.315425e-001	-1.108941e-003	-8.547825e-003
7879929.559	-1.087548e-003	-8.754024e-003	9.910115e-001	-1.326866e-001	9.909601e-001	-1.324677e-001	-1.155162e-003	-8.597508e-003
7942468.643	-1.119853e-003	-8.790420e-003	9.908274e-001	-1.337236e-001	9.908345e-001	-1.336668e-001	-1.193646e-003	-8.655350e-003
8005007.727	-1.101070e-003	-8.851880e-003	9.907566e-001	-1.349638e-001	9.907010e-001	-1.345310e-001	-1.233421e-003	-8.773751e-003
8067546.811	-1.116152e-003	-8.922620e-003	9.906118e-001	-1.360100e-001	9.906364e-001	-1.357485e-001	-1.176913e-003	-8.803606e-003
8130085.894	-1.126703e-003	-8.974623e-003	9.904468e-001	-1.369661e-001	9.903207e-001	-1.367587e-001	-1.249463e-003	-8.879763e-003
8192624.978	-1.148814e-003	-9.083891e-003	9.902487e-001	-1.379893e-001	9.902183e-001	-1.377846e-001	-1.211947e-003	-8.940137e-003
8255164.062	-1.162738e-003	-9.152090e-003	9.901336e-001	-1.390800e-001	9.901084e-001	-1.387529e-001	-1.265161e-003	-9.031295e-003
8317703.146	-1.162090e-003	-9.253601e-003	9.900668e-001	-1.401372e-001	9.900804e-001	-1.398744e-001	-1.303364e-003	-9.098699e-003
8380242.230	-1.178749e-003	-9.321941e-003	9.898914e-001	-1.409253e-001	9.900695e-001	-1.408720e-001	-1.283799e-003	-9.142496e-003
8442781.313	-1.221372e-003	-9.334508e-003	9.898022e-001	-1.419801e-001	9.896713e-001	-1.418626e-001	-1.347187e-003	-9.173825e-003
8505320.397	-1.263958e-003	-9.420051e-003	9.895822e-001	-1.432389e-001	9.895030e-001	-1.431199e-001	-1.312152e-003	-9.333066e-003
8567859.481	-1.266372e-003	-9.480693e-003	9.893636e-001	-1.442489e-001	9.894313e-001	-1.438772e-001	-1.331747e-003	-9.322890e-003
8630398.565	-1.253809e-003	-9.529965e-003	9.892219e-001	-1.453525e-001	9.891878e-001	-1.450742e-001	-1.347059e-003	-9.437831e-003
8692937.649	-1.302978e-003	-9.598239e-003	9.889705e-001	-1.463349e-001	9.890317e-001	-1.459245e-001	-1.436039e-003	-9.432468e-003
8755476.732	-1.346436e-003	-9.629917e-003	9.888191e-001	-1.474720e-001	9.889651e-001	-1.471462e-001	-1.409915e-003	-9.509852e-003
8818015.816	-1.347990e-003	-9.745585e-003	9.887934e-001	-1.482997e-001	9.888540e-001	-1.480923e-001	-1.424712e-003	-9.605204e-003
8880554.900	-1.400055e-003	-9.854832e-003	9.886396e-001	-1.495099e-001	9.886239e-001	-1.491274e-001	-1.481297e-003	-9.648884e-003
8943093.984	-1.382823e-003	-9.886207e-003	9.884967e-001	-1.506396e-001	9.884127e-001	-1.501086e-001	-1.438412e-003	-9.710238e-003
9005633.068	-1.410800e-003	-9.976246e-003	9.882698e-001	-1.515157e-001	9.882456e-001	-1.513965e-001	-1.509623e-003	-9.821526e-003
9068172.151	-1.399790e-003	-1.001853e-002	9.880807e-001	-1.525901e-001	9.879059e-001	-1.524508e-001	-1.566118e-003	-9.833904e-003
9130711.235	-1.419219e-003	-1.006490e-002	9.879401e-001	-1.536026e-001	9.879556e-001	-1.532309e-001	-1.510954e-003	-9.932761e-003
9193250.319	-1.454951e-003	-1.018750e-002	9.877501e-001	-1.545852e-001	9.878104e-001	-1.544491e-001	-1.505768e-003	-1.000973e-002
9255789.403	-1.448086e-003	-1.023975e-002	9.875769e-001	-1.557980e-001	9.877138e-001	-1.554232e-001	-1.541674e-003	-1.000023e-002
9318328.487	-1.546221e-003	-1.028285e-002	9.873967e-001	-1.568406e-001	9.875615e-001	-1.566366e-001	-1.594071e-003	-1.013746e-002
9380867.570	-1.575031e-003	-1.033099e-002	9.872963e-001	-1.578570e-001	9.871766e-001	-1.575009e-001	-1.619448e-003	-1.016285e-002
9443406.654	-1.568798e-003	-1.044426e-002	9.870996e-001	-1.588275e-001	9.871747e-001	-1.587052e-001	-1.596198e-003	-1.024010e-002
