!Agilent Technologies,E5061B,MY49102235,A.02.00
!Date: Mon Jul 10 16:24:59 2023
!Data & Calibration Information:
!Freq	S11:SOLT2(ON)	S21:SOLT2(ON)	S12:SOLT2(ON)	S22:SOLT2(ON)
# Hz S RI R 50
5.000	-4.682692e-004	4.323538e-004	1.001751e+000	2.344729e-003	1.000547e+000	-4.537019e-005	-1.215597e-004	-6.119648e-005
62544.084	-3.835730e-005	4.152410e-004	9.999976e-001	-1.285133e-003	1.000077e+000	-1.126521e-003	1.631633e-005	3.207717e-004
125083.168	1.488224e-005	7.266490e-004	1.000169e+000	-3.132149e-003	1.000124e+000	-2.974268e-003	-2.949801e-005	7.162171e-004
187622.251	2.044555e-004	1.011011e-003	9.993073e-001	-3.817686e-003	1.000121e+000	-4.119326e-003	9.061526e-005	1.096720e-003
250161.335	8.542463e-005	1.500829e-003	9.997845e-001	-6.088268e-003	9.997611e-001	-6.018889e-003	6.862015e-005	1.494480e-003
312700.419	9.456149e-005	1.780556e-003	1.000184e+000	-7.337760e-003	9.991151e-001	-7.144909e-003	1.911279e-004	1.839645e-003
375239.503	1.494018e-004	2.170804e-003	9.999182e-001	-8.774765e-003	1.000062e+000	-8.817276e-003	8.732948e-005	2.129688e-003
437778.587	1.841833e-004	2.450912e-003	9.999525e-001	-1.030380e-002	9.989403e-001	-1.062091e-002	2.021352e-004	2.659106e-003
500317.670	2.249362e-004	2.792580e-003	9.998713e-001	-1.181465e-002	9.992733e-001	-1.222666e-002	2.101457e-004	2.986544e-003
562856.754	2.784757e-004	3.252702e-003	9.995493e-001	-1.344922e-002	9.994615e-001	-1.308627e-002	2.085971e-004	3.209566e-003
625395.838	2.785790e-004	3.586243e-003	9.996016e-001	-1.489741e-002	9.990215e-001	-1.462455e-002	2.837957e-004	3.612737e-003
687934.922	1.747261e-004	3.847866e-003	9.999299e-001	-1.608753e-002	1.000088e+000	-1.629154e-002	1.746175e-004	3.929910e-003
750474.006	1.474565e-004	4.198720e-003	9.995182e-001	-1.775943e-002	9.993031e-001	-1.692881e-002	1.379780e-004	4.205308e-003
813013.089	1.883813e-004	4.581632e-003	1.000086e+000	-1.925351e-002	9.990213e-001	-1.870154e-002	1.886253e-004	4.536614e-003
875552.173	2.208908e-004	4.894855e-003	9.995606e-001	-2.078464e-002	9.997050e-001	-2.063683e-002	2.359760e-004	4.893196e-003
938091.257	1.534671e-004	5.270894e-003	9.993251e-001	-2.202815e-002	9.991634e-001	-2.153494e-002	1.830874e-004	5.251141e-003
1000630.341	2.550914e-004	5.686231e-003	9.993708e-001	-2.332016e-002	9.993377e-001	-2.333698e-002	2.864210e-004	5.589574e-003
1063169.425	3.243597e-004	6.005893e-003	1.000110e+000	-2.493130e-002	9.999022e-001	-2.520840e-002	3.491185e-004	5.914355e-003
1125708.508	3.535861e-004	6.330372e-003	9.997097e-001	-2.677448e-002	9.990562e-001	-2.627031e-002	3.798967e-004	6.320616e-003
1188247.592	3.916700e-004	6.656512e-003	9.991881e-001	-2.800600e-002	9.991051e-001	-2.771586e-002	4.247913e-004	6.680187e-003
1250786.676	4.079751e-004	7.033145e-003	9.992805e-001	-2.978875e-002	9.986613e-001	-2.915207e-002	4.469609e-004	7.045459e-003
1313325.760	4.679846e-004	7.413417e-003	9.993631e-001	-3.042156e-002	9.986013e-001	-3.085829e-002	4.569980e-004	7.352551e-003
1375864.844	5.325157e-004	7.735634e-003	9.996441e-001	-3.294173e-002	9.988092e-001	-3.275014e-002	5.046577e-004	7.711253e-003
1438403.927	5.549767e-004	8.075975e-003	9.990385e-001	-3.444674e-002	9.989208e-001	-3.374073e-002	5.588745e-004	8.064474e-003
1500943.011	6.172629e-004	8.454909e-003	9.993273e-001	-3.578286e-002	9.985151e-001	-3.549373e-002	6.023032e-004	8.471721e-003
1563482.095	5.746950e-004	8.823138e-003	9.985690e-001	-3.714998e-002	9.989238e-001	-3.671730e-002	6.328530e-004	8.809390e-003
1626021.179	7.369677e-004	9.222625e-003	9.989204e-001	-3.870858e-002	9.985956e-001	-3.807747e-002	7.305696e-004	9.172936e-003
1688560.263	7.804239e-004	9.559775e-003	9.992246e-001	-4.024194e-002	9.987258e-001	-3.966918e-002	7.695579e-004	9.559351e-003
1751099.346	8.441334e-004	1.003015e-002	9.991022e-001	-4.161361e-002	9.983193e-001	-4.126132e-002	7.985581e-004	9.922275e-003
1813638.430	8.013920e-004	1.035777e-002	9.990200e-001	-4.275521e-002	9.982243e-001	-4.280859e-002	8.266992e-004	1.034153e-002
1876177.514	8.895456e-004	1.068142e-002	9.988519e-001	-4.480979e-002	9.985446e-001	-4.414039e-002	9.148069e-004	1.070050e-002
1938716.598	9.638586e-004	1.111208e-002	9.982556e-001	-4.623437e-002	9.987219e-001	-4.597084e-002	9.901561e-004	1.107784e-002
2001255.682	1.026684e-003	1.150839e-002	9.988714e-001	-4.757146e-002	9.977780e-001	-4.725829e-002	1.006577e-003	1.147663e-002
2063794.765	1.076946e-003	1.195668e-002	9.981933e-001	-4.881695e-002	9.984520e-001	-4.886400e-002	1.129368e-003	1.186421e-002
2126333.849	1.194039e-003	1.224200e-002	9.975239e-001	-5.062832e-002	9.979972e-001	-5.053209e-002	1.096862e-003	1.223865e-002
2188872.933	1.225250e-003	1.270200e-002	9.980713e-001	-5.193899e-002	9.980835e-001	-5.210956e-002	1.232580e-003	1.269984e-002
2251412.017	1.385197e-003	1.308526e-002	9.982633e-001	-5.432179e-002	9.977390e-001	-5.324508e-002	1.355223e-003	1.308104e-002
2313951.101	1.401284e-003	1.351242e-002	9.975755e-001	-5.540685e-002	9.974984e-001	-5.462166e-002	1.456690e-003	1.343526e-002
2376490.184	1.514531e-003	1.390186e-002	9.981077e-001	-5.694019e-002	9.975851e-001	-5.664801e-002	1.537434e-003	1.390813e-002
2439029.268	1.579295e-003	1.432090e-002	9.975069e-001	-5.821218e-002	9.969126e-001	-5.812410e-002	1.573955e-003	1.427751e-002
2501568.352	1.695936e-003	1.484296e-002	9.973508e-001	-5.974416e-002	9.976889e-001	-5.971019e-002	1.749621e-003	1.478575e-002
2564107.436	1.863121e-003	1.527559e-002	9.968720e-001	-6.132629e-002	9.967513e-001	-6.115256e-002	1.827466e-003	1.515237e-002
2626646.520	1.940468e-003	1.565762e-002	9.966409e-001	-6.306946e-002	9.971585e-001	-6.248918e-002	1.980498e-003	1.564955e-002
2689185.604	2.074031e-003	1.610171e-002	9.972882e-001	-6.442881e-002	9.971048e-001	-6.414543e-002	2.100096e-003	1.600998e-002
2751724.687	2.264705e-003	1.649491e-002	9.968496e-001	-6.577411e-002	9.960173e-001	-6.582254e-002	2.204111e-003	1.655718e-002
2814263.771	2.413075e-003	1.695304e-002	9.968289e-001	-6.773654e-002	9.966012e-001	-6.783745e-002	2.364689e-003	1.696816e-002
2876802.855	2.531241e-003	1.741436e-002	9.964580e-001	-6.963073e-002	9.958218e-001	-6.915456e-002	2.540737e-003	1.738927e-002
2939341.939	2.699617e-003	1.787630e-002	9.960046e-001	-7.088417e-002	9.959951e-001	-7.029702e-002	2.687125e-003	1.785423e-002
3001881.023	2.855421e-003	1.835234e-002	9.959099e-001	-7.189632e-002	9.960445e-001	-7.165748e-002	2.832976e-003	1.835327e-002
3064420.106	3.083668e-003	1.876264e-002	9.951896e-001	-7.370796e-002	9.949166e-001	-7.342604e-002	3.054931e-003	1.879208e-002
3126959.190	3.265066e-003	1.923911e-002	9.951773e-001	-7.555728e-002	9.950213e-001	-7.539086e-002	3.282657e-003	1.922619e-002
3189498.274	3.539248e-003	1.971247e-002	9.950638e-001	-7.725891e-002	9.946202e-001	-7.699959e-002	3.467014e-003	1.967892e-002
3252037.358	3.772498e-003	2.015662e-002	9.946524e-001	-7.880820e-002	9.945276e-001	-7.849269e-002	3.736554e-003	2.015568e-002
3314576.442	3.966032e-003	2.054554e-002	9.944091e-001	-8.038817e-002	9.943511e-001	-8.022025e-002	3.926491e-003	2.062872e-002
3377115.525	4.196302e-003	2.109785e-002	9.941966e-001	-8.212542e-002	9.938445e-001	-8.178246e-002	4.178599e-003	2.107727e-002
3439654.609	4.517602e-003	2.157437e-002	9.935628e-001	-8.351943e-002	9.936485e-001	-8.337898e-002	4.450215e-003	2.150863e-002
3502193.693	4.782891e-003	2.195756e-002	9.933967e-001	-8.515514e-002	9.933093e-001	-8.482169e-002	4.751302e-003	2.195004e-002
3564732.777	5.046291e-003	2.244536e-002	9.930523e-001	-8.675875e-002	9.929360e-001	-8.651234e-002	5.057003e-003	2.240970e-002
3627271.861	5.365836e-003	2.286856e-002	9.926385e-001	-8.832004e-002	9.926260e-001	-8.810135e-002	5.339070e-003	2.287635e-002
3689810.944	5.675174e-003	2.330582e-002	9.923128e-001	-8.988962e-002	9.920150e-001	-8.966032e-002	5.630788e-003	2.330549e-002
3752350.028	5.987098e-003	2.378338e-002	9.918853e-001	-9.147407e-002	9.917638e-001	-9.118175e-002	6.029354e-003	2.376470e-002
3814889.112	6.373554e-003	2.420960e-002	9.914583e-001	-9.301694e-002	9.912655e-001	-9.270420e-002	6.364037e-003	2.416949e-002
3877428.196	6.795522e-003	2.465627e-002	9.910540e-001	-9.456062e-002	9.907596e-001	-9.421073e-002	6.686464e-003	2.462091e-002
3939967.280	7.093133e-003	2.504538e-002	9.904454e-001	-9.616085e-002	9.903836e-001	-9.585613e-002	7.088459e-003	2.510310e-002
4002506.363	7.501169e-003	2.546327e-002	9.900628e-001	-9.759913e-002	9.899193e-001	-9.726026e-002	7.465817e-003	2.548574e-002
4065045.447	7.908103e-003	2.585852e-002	9.896937e-001	-9.926345e-002	9.896008e-001	-9.906607e-002	7.871451e-003	2.584433e-002
4127584.531	8.264254e-003	2.628705e-002	9.892955e-001	-1.007766e-001	9.889948e-001	-1.004635e-001	8.269422e-003	2.625224e-002
4190123.615	8.711351e-003	2.668955e-002	9.885561e-001	-1.021172e-001	9.884926e-001	-1.019174e-001	8.651126e-003	2.663607e-002
4252662.699	9.095079e-003	2.704903e-002	9.881078e-001	-1.036443e-001	9.878409e-001	-1.033508e-001	9.078395e-003	2.705209e-002
4315201.782	9.595763e-003	2.738010e-002	9.875833e-001	-1.052480e-001	9.874344e-001	-1.047953e-001	9.525764e-003	2.739813e-002
4377740.866	1.001323e-002	2.774089e-002	9.871102e-001	-1.067849e-001	9.869876e-001	-1.064503e-001	1.002871e-002	2.775144e-002
4440279.950	1.052684e-002	2.813660e-002	9.865865e-001	-1.079698e-001	9.864275e-001	-1.078230e-001	1.047039e-002	2.807485e-002
4502819.034	1.101405e-002	2.837309e-002	9.860797e-001	-1.095355e-001	9.857519e-001	-1.093309e-001	1.094066e-002	2.841888e-002
4565358.118	1.145977e-002	2.877025e-002	9.851593e-001	-1.109514e-001	9.853238e-001	-1.109294e-001	1.144112e-002	2.876296e-002
4627897.201	1.194758e-002	2.902917e-002	9.847966e-001	-1.123889e-001	9.847811e-001	-1.121210e-001	1.188400e-002	2.912134e-002
4690436.285	1.246169e-002	2.936102e-002	9.842482e-001	-1.139131e-001	9.841233e-001	-1.135748e-001	1.239923e-002	2.937676e-002
4752975.369	1.288977e-002	2.958489e-002	9.835731e-001	-1.153034e-001	9.834351e-001	-1.150100e-001	1.289676e-002	2.964015e-002
4815514.453	1.342915e-002	2.987716e-002	9.831207e-001	-1.167745e-001	9.828020e-001	-1.164514e-001	1.340586e-002	2.989144e-002
4878053.537	1.391850e-002	3.018589e-002	9.824669e-001	-1.182848e-001	9.822780e-001	-1.177086e-001	1.390218e-002	3.018129e-002
4940592.620	1.446621e-002	3.039601e-002	9.817305e-001	-1.194720e-001	9.815836e-001	-1.191261e-001	1.442435e-002	3.041534e-002
5003131.704	1.498790e-002	3.061575e-002	9.811415e-001	-1.208381e-001	9.809037e-001	-1.205940e-001	1.487714e-002	3.060906e-002
5065670.788	1.547006e-002	3.083135e-002	9.805870e-001	-1.222406e-001	9.803629e-001	-1.219056e-001	1.547032e-002	3.085896e-002
5128209.872	1.605390e-002	3.106592e-002	9.799394e-001	-1.234650e-001	9.798574e-001	-1.231540e-001	1.598550e-002	3.103219e-002
5190748.956	1.656754e-002	3.118382e-002	9.792893e-001	-1.248491e-001	9.792580e-001	-1.244646e-001	1.653181e-002	3.124255e-002
5253288.039	1.707424e-002	3.140351e-002	9.784164e-001	-1.260518e-001	9.786205e-001	-1.257649e-001	1.710230e-002	3.141525e-002
5315827.123	1.761932e-002	3.156758e-002	9.779360e-001	-1.274243e-001	9.779192e-001	-1.271886e-001	1.762284e-002	3.161314e-002
5378366.207	1.813718e-002	3.171871e-002	9.772499e-001	-1.287103e-001	9.772487e-001	-1.283269e-001	1.812418e-002	3.172762e-002
5440905.291	1.869056e-002	3.182959e-002	9.768151e-001	-1.298386e-001	9.767808e-001	-1.297188e-001	1.868510e-002	3.185025e-002
5503444.375	1.922506e-002	3.195225e-002	9.760829e-001	-1.312342e-001	9.759253e-001	-1.311630e-001	1.921065e-002	3.198649e-002
5565983.458	1.973058e-002	3.208188e-002	9.755292e-001	-1.324266e-001	9.752275e-001	-1.322301e-001	1.980527e-002	3.209462e-002
5628522.542	2.027120e-002	3.215072e-002	9.748965e-001	-1.335409e-001	9.748483e-001	-1.332676e-001	2.022366e-002	3.214493e-002
5691061.626	2.087537e-002	3.224150e-002	9.741969e-001	-1.347756e-001	9.739156e-001	-1.346326e-001	2.078520e-002	3.226000e-002
5753600.710	2.138255e-002	3.229724e-002	9.734716e-001	-1.360831e-001	9.734063e-001	-1.357556e-001	2.136507e-002	3.233508e-002
5816139.794	2.194792e-002	3.237279e-002	9.729499e-001	-1.371806e-001	9.727278e-001	-1.370933e-001	2.182543e-002	3.236584e-002
5878678.877	2.244483e-002	3.240974e-002	9.722068e-001	-1.383069e-001	9.720734e-001	-1.381010e-001	2.243683e-002	3.245424e-002
5941217.961	2.293407e-002	3.242663e-002	9.716857e-001	-1.394412e-001	9.716002e-001	-1.391211e-001	2.289580e-002	3.247938e-002
6003757.045	2.348649e-002	3.239228e-002	9.708792e-001	-1.407377e-001	9.708462e-001	-1.403689e-001	2.341717e-002	3.242850e-002
6066296.129	2.397987e-002	3.246228e-002	9.701949e-001	-1.418651e-001	9.701206e-001	-1.415590e-001	2.394518e-002	3.249806e-002
6128835.213	2.448797e-002	3.250218e-002	9.697469e-001	-1.430062e-001	9.696529e-001	-1.428459e-001	2.446710e-002	3.250265e-002
6191374.296	2.494682e-002	3.241145e-002	9.690341e-001	-1.438793e-001	9.689358e-001	-1.437416e-001	2.493437e-002	3.245328e-002
6253913.380	2.549694e-002	3.239538e-002	9.682877e-001	-1.452143e-001	9.681426e-001	-1.448655e-001	2.543584e-002	3.248202e-002
6316452.464	2.599022e-002	3.243204e-002	9.677454e-001	-1.461152e-001	9.678414e-001	-1.458868e-001	2.595844e-002	3.242901e-002
6378991.548	2.646403e-002	3.230588e-002	9.673484e-001	-1.473084e-001	9.670782e-001	-1.469244e-001	2.645797e-002	3.241558e-002
6441530.632	2.692669e-002	3.229906e-002	9.667137e-001	-1.483957e-001	9.663866e-001	-1.482074e-001	2.689707e-002	3.229188e-002
6504069.715	2.740108e-002	3.223423e-002	9.660326e-001	-1.493967e-001	9.659883e-001	-1.492182e-001	2.738238e-002	3.225688e-002
6566608.799	2.789530e-002	3.217188e-002	9.653572e-001	-1.504799e-001	9.653257e-001	-1.501430e-001	2.780317e-002	3.221214e-002
6629147.883	2.832371e-002	3.208814e-002	9.647518e-001	-1.516040e-001	9.647814e-001	-1.512902e-001	2.826598e-002	3.215483e-002
6691686.967	2.877467e-002	3.197453e-002	9.643192e-001	-1.525209e-001	9.639159e-001	-1.523879e-001	2.870358e-002	3.209518e-002
6754226.051	2.919976e-002	3.194475e-002	9.637378e-001	-1.536166e-001	9.636012e-001	-1.533321e-001	2.921666e-002	3.193297e-002
6816765.134	2.961320e-002	3.181092e-002	9.630914e-001	-1.546507e-001	9.630238e-001	-1.544059e-001	2.965673e-002	3.182531e-002
6879304.218	3.009429e-002	3.172825e-002	9.624977e-001	-1.557179e-001	9.623138e-001	-1.554360e-001	3.008070e-002	3.176912e-002
6941843.302	3.053548e-002	3.164438e-002	9.618994e-001	-1.565618e-001	9.618717e-001	-1.564859e-001	3.048403e-002	3.169351e-002
7004382.386	3.095080e-002	3.152870e-002	9.612780e-001	-1.577978e-001	9.613777e-001	-1.575532e-001	3.092745e-002	3.153936e-002
7066921.470	3.136519e-002	3.139883e-002	9.607615e-001	-1.587534e-001	9.608434e-001	-1.583914e-001	3.133906e-002	3.142825e-002
7129460.553	3.177608e-002	3.125336e-002	9.603118e-001	-1.596964e-001	9.602727e-001	-1.596034e-001	3.171708e-002	3.131524e-002
7191999.637	3.216863e-002	3.116344e-002	9.596596e-001	-1.607892e-001	9.596388e-001	-1.604095e-001	3.214442e-002	3.118489e-002
7254538.721	3.262081e-002	3.103002e-002	9.592240e-001	-1.617272e-001	9.591697e-001	-1.614763e-001	3.250619e-002	3.109605e-002
7317077.805	3.292469e-002	3.091317e-002	9.585131e-001	-1.627789e-001	9.587720e-001	-1.624490e-001	3.292154e-002	3.097267e-002
7379616.889	3.335208e-002	3.077898e-002	9.582780e-001	-1.637401e-001	9.580027e-001	-1.633346e-001	3.331444e-002	3.076009e-002
7442155.972	3.372169e-002	3.061947e-002	9.575631e-001	-1.646565e-001	9.574212e-001	-1.645011e-001	3.365692e-002	3.064877e-002
7504695.056	3.410469e-002	3.047525e-002	9.570580e-001	-1.656009e-001	9.571136e-001	-1.653359e-001	3.407943e-002	3.054731e-002
7567234.140	3.444166e-002	3.036915e-002	9.566789e-001	-1.667069e-001	9.565143e-001	-1.662739e-001	3.441534e-002	3.040366e-002
7629773.224	3.482189e-002	3.018497e-002	9.560369e-001	-1.676583e-001	9.559999e-001	-1.672977e-001	3.474924e-002	3.025705e-002
7692312.308	3.513256e-002	3.005929e-002	9.556639e-001	-1.685586e-001	9.555037e-001	-1.682992e-001	3.514636e-002	3.015861e-002
7754851.391	3.550448e-002	2.987800e-002	9.549674e-001	-1.694701e-001	9.549581e-001	-1.692181e-001	3.543656e-002	2.999101e-002
7817390.475	3.585400e-002	2.976615e-002	9.547469e-001	-1.704736e-001	9.544906e-001	-1.703259e-001	3.583832e-002	2.978993e-002
7879929.559	3.616546e-002	2.956582e-002	9.540655e-001	-1.714041e-001	9.539914e-001	-1.711699e-001	3.614129e-002	2.964561e-002
7942468.643	3.647952e-002	2.946216e-002	9.535566e-001	-1.723565e-001	9.535118e-001	-1.722550e-001	3.645227e-002	2.949109e-002
8005007.727	3.683485e-002	2.929530e-002	9.531236e-001	-1.734986e-001	9.530517e-001	-1.730407e-001	3.675172e-002	2.929491e-002
8067546.811	3.717584e-002	2.911964e-002	9.526366e-001	-1.744806e-001	9.526294e-001	-1.741914e-001	3.716090e-002	2.915491e-002
8130085.894	3.747284e-002	2.897251e-002	9.521433e-001	-1.753267e-001	9.520057e-001	-1.751115e-001	3.740465e-002	2.899608e-002
8192624.978	3.777622e-002	2.878768e-002	9.516397e-001	-1.762656e-001	9.515258e-001	-1.760167e-001	3.776876e-002	2.883577e-002
8255164.062	3.807642e-002	2.861399e-002	9.512198e-001	-1.772475e-001	9.511107e-001	-1.769116e-001	3.805449e-002	2.864360e-002
8317703.146	3.838511e-002	2.840889e-002	9.508283e-001	-1.782161e-001	9.507931e-001	-1.778940e-001	3.832132e-002	2.849542e-002
8380242.230	3.871115e-002	2.824671e-002	9.503362e-001	-1.789332e-001	9.504302e-001	-1.788722e-001	3.865595e-002	2.833808e-002
8442781.313	3.896275e-002	2.813788e-002	9.499241e-001	-1.798537e-001	9.497717e-001	-1.797174e-001	3.890580e-002	2.820438e-002
8505320.397	3.921727e-002	2.794410e-002	9.493899e-001	-1.810328e-001	9.492606e-001	-1.808770e-001	3.923301e-002	2.794533e-002
8567859.481	3.954456e-002	2.776756e-002	9.489102e-001	-1.819499e-001	9.489138e-001	-1.815655e-001	3.954385e-002	2.783396e-002
8630398.565	3.984555e-002	2.759936e-002	9.484358e-001	-1.829165e-001	9.483682e-001	-1.826192e-001	3.980581e-002	2.760921e-002
8692937.649	4.010069e-002	2.744251e-002	9.479329e-001	-1.838359e-001	9.479001e-001	-1.834277e-001	4.002055e-002	2.750484e-002
8755476.732	4.034005e-002	2.730134e-002	9.474861e-001	-1.848603e-001	9.475712e-001	-1.845110e-001	4.033470e-002	2.733165e-002
8818015.816	4.061649e-002	2.708913e-002	9.471568e-001	-1.856134e-001	9.471568e-001	-1.853582e-001	4.059620e-002	2.713412e-002
8880554.900	4.085078e-002	2.687383e-002	9.467179e-001	-1.867123e-001	9.466808e-001	-1.863081e-001	4.083025e-002	2.696896e-002
8943093.984	4.114946e-002	2.672898e-002	9.462775e-001	-1.877290e-001	9.461870e-001	-1.872040e-001	4.114175e-002	2.680519e-002
9005633.068	4.138987e-002	2.654254e-002	9.458219e-001	-1.885350e-001	9.457099e-001	-1.883081e-001	4.136568e-002	2.658732e-002
9068172.151	4.166946e-002	2.638881e-002	9.453826e-001	-1.894846e-001	9.451339e-001	-1.892659e-001	4.157308e-002	2.646567e-002
9130711.235	4.191791e-002	2.622145e-002	9.449814e-001	-1.903671e-001	9.449323e-001	-1.899477e-001	4.189167e-002	2.625654e-002
9193250.319	4.214295e-002	2.601138e-002	9.445206e-001	-1.912846e-001	9.444982e-001	-1.911021e-001	4.214446e-002	2.606110e-002
9255789.403	4.239350e-002	2.583408e-002	9.440515e-001	-1.923510e-001	9.441604e-001	-1.919661e-001	4.236439e-002	2.596199e-002
9318328.487	4.258204e-002	2.568818e-002	9.436411e-001	-1.932952e-001	9.437477e-001	-1.931161e-001	4.258861e-002	2.571469e-002
9380867.570	4.280559e-002	2.552513e-002	9.432974e-001	-1.941951e-001	9.431060e-001	-1.937793e-001	4.281576e-002	2.557950e-002
9443406.654	4.303043e-002	2.529368e-002	9.427944e-001	-1.950825e-001	9.428543e-001	-1.948893e-001	4.307910e-002	2.538602e-002
9505945.738	4.326500e-002	2.512881e-002	9.424848e-001	-1.959588e-001	9.423207e-001	-1.957199e-001	4.324635e-002	2.520411e-002
9568484.822	4.351890e-002	2.494426e-002	9.421575e-001	-1.971186e-001	9.419767e-001	-1.966260e-001	4.351938e-002	2.504015e-002
9631023.906	4.373285e-002	2.475982e-002	9.416149e-001	-1.979614e-001	9.414751e-001	-1.976282e-001	4.371837e-002	2.487889e-002
9693562.989	4.396374e-002	2.462726e-002	9.411114e-001	-1.988115e-001	9.411632e-001	-1.986173e-001	4.391309e-002	2.470588e-002
9756102.073	4.408910e-002	2.442654e-002	9.407924e-001	-1.996365e-001	9.407862e-001	-1.994633e-001	4.415228e-002	2.444534e-002
