!Agilent Technologies,E5061B,MY49102235,A.02.00
!Date: Mon Jul 10 16:26:12 2023
!Data & Calibration Information:
!Freq	S11:SOLT2(ON)	S21:SOLT2(ON)	S12:SOLT2(ON)	S22:SOLT2(ON)
# Hz S RI R 50
5.000	-4.508289e-004	4.283421e-004	1.001792e+000	2.361571e-003	1.000471e+000	-2.919672e-005	-5.964056e-005	-6.424044e-005
62544.084	-3.898603e-005	4.504365e-004	1.000073e+000	-1.303245e-003	1.000145e+000	-1.174904e-003	8.827726e-006	3.561883e-004
125083.168	-5.413871e-006	8.131301e-004	1.000189e+000	-3.207289e-003	1.000130e+000	-3.095477e-003	-2.466073e-005	8.189607e-004
187622.251	1.997024e-004	1.138309e-003	9.994287e-001	-3.921442e-003	1.000183e+000	-4.209040e-003	8.594037e-005	1.213051e-003
250161.335	8.585570e-005	1.667590e-003	9.998289e-001	-6.298672e-003	9.998392e-001	-6.229616e-003	6.128322e-005	1.650300e-003
312700.419	1.100769e-004	1.995907e-003	1.000156e+000	-7.610302e-003	9.991454e-001	-7.351220e-003	1.902283e-004	2.048666e-003
375239.503	1.651013e-004	2.433918e-003	9.998563e-001	-9.052416e-003	1.000092e+000	-9.042015e-003	9.445628e-005	2.371316e-003
437778.587	1.997549e-004	2.749668e-003	9.998883e-001	-1.059684e-002	9.990751e-001	-1.086101e-002	1.996571e-004	2.944784e-003
500317.670	2.324485e-004	3.150499e-003	9.997854e-001	-1.223297e-002	9.992351e-001	-1.261003e-002	2.324130e-004	3.323742e-003
562856.754	2.658996e-004	3.629230e-003	9.995622e-001	-1.387739e-002	9.995424e-001	-1.342758e-002	2.233978e-004	3.562913e-003
625395.838	2.877142e-004	3.980144e-003	9.995873e-001	-1.525602e-002	9.988833e-001	-1.499385e-002	3.219185e-004	4.022206e-003
687934.922	1.980228e-004	4.285185e-003	9.998931e-001	-1.647236e-002	9.999734e-001	-1.668849e-002	2.068500e-004	4.362853e-003
750474.006	1.813421e-004	4.694329e-003	9.995853e-001	-1.831169e-002	9.994178e-001	-1.748067e-002	1.642979e-004	4.706367e-003
813013.089	2.231693e-004	5.108546e-003	9.999587e-001	-1.979216e-002	9.989005e-001	-1.937390e-002	2.265513e-004	5.050937e-003
875552.173	2.461536e-004	5.445117e-003	9.994202e-001	-2.136764e-002	9.996791e-001	-2.120793e-002	2.542150e-004	5.458897e-003
938091.257	1.897406e-004	5.863188e-003	9.992524e-001	-2.260466e-002	9.992326e-001	-2.216339e-002	2.062404e-004	5.849589e-003
1000630.341	2.777679e-004	6.321213e-003	9.993913e-001	-2.387087e-002	9.993814e-001	-2.395247e-002	3.043389e-004	6.230887e-003
1063169.425	3.543930e-004	6.676164e-003	1.000063e+000	-2.568341e-002	1.000030e+000	-2.587930e-002	3.810454e-004	6.609022e-003
1125708.508	3.897171e-004	7.047237e-003	9.996491e-001	-2.747890e-002	9.989369e-001	-2.704975e-002	4.109759e-004	7.031777e-003
1188247.592	4.243751e-004	7.407335e-003	9.991758e-001	-2.868186e-002	9.991135e-001	-2.849261e-002	4.667154e-004	7.429805e-003
1250786.676	4.581770e-004	7.811258e-003	9.991855e-001	-3.058742e-002	9.986554e-001	-2.994399e-002	4.963789e-004	7.823854e-003
1313325.760	5.082108e-004	8.220006e-003	9.993519e-001	-3.124671e-002	9.985873e-001	-3.154632e-002	4.847994e-004	8.180137e-003
1375864.844	5.638704e-004	8.587801e-003	9.995286e-001	-3.392210e-002	9.987824e-001	-3.354369e-002	5.548730e-004	8.567435e-003
1438403.927	6.063370e-004	8.944186e-003	9.990189e-001	-3.533648e-002	9.988602e-001	-3.468375e-002	6.036443e-004	8.940599e-003
1500943.011	6.544724e-004	9.360675e-003	9.991884e-001	-3.667732e-002	9.985082e-001	-3.644840e-002	6.638074e-004	9.386386e-003
1563482.095	6.402290e-004	9.770441e-003	9.984236e-001	-3.807081e-002	9.987143e-001	-3.783108e-002	6.807170e-004	9.748351e-003
1626021.179	7.808384e-004	1.018408e-002	9.988251e-001	-3.975641e-002	9.986818e-001	-3.905323e-002	7.931405e-004	1.015020e-002
1688560.263	8.423459e-004	1.057125e-002	9.991742e-001	-4.127240e-002	9.989020e-001	-4.072635e-002	8.256051e-004	1.057275e-002
1751099.346	8.973257e-004	1.105050e-002	9.990088e-001	-4.256051e-002	9.982027e-001	-4.233813e-002	8.387376e-004	1.094211e-002
1813638.430	8.598431e-004	1.140707e-002	9.989835e-001	-4.385466e-002	9.982193e-001	-4.387671e-002	8.825535e-004	1.139705e-002
1876177.514	9.381408e-004	1.175369e-002	9.987579e-001	-4.583835e-002	9.985249e-001	-4.522063e-002	9.744482e-004	1.177656e-002
1938716.598	1.006113e-003	1.219780e-002	9.982021e-001	-4.724132e-002	9.986785e-001	-4.713974e-002	1.047858e-003	1.217431e-002
2001255.682	1.082032e-003	1.263117e-002	9.987106e-001	-4.854552e-002	9.977782e-001	-4.855190e-002	1.067031e-003	1.259379e-002
2063794.765	1.134909e-003	1.308878e-002	9.981506e-001	-5.005489e-002	9.984349e-001	-4.997976e-002	1.188040e-003	1.300933e-002
2126333.849	1.250524e-003	1.338750e-002	9.973402e-001	-5.176352e-002	9.978726e-001	-5.176308e-002	1.142833e-003	1.338026e-002
2188872.933	1.273380e-003	1.388145e-002	9.980411e-001	-5.315247e-002	9.979855e-001	-5.332539e-002	1.275926e-003	1.387313e-002
2251412.017	1.421145e-003	1.426928e-002	9.982000e-001	-5.553743e-002	9.977387e-001	-5.438676e-002	1.388726e-003	1.425475e-002
2313951.101	1.432690e-003	1.469277e-002	9.975754e-001	-5.669951e-002	9.974884e-001	-5.575751e-002	1.470311e-003	1.464289e-002
2376490.184	1.547968e-003	1.511710e-002	9.982538e-001	-5.825298e-002	9.976039e-001	-5.785048e-002	1.537931e-003	1.511644e-002
2439029.268	1.584181e-003	1.553327e-002	9.975142e-001	-5.936627e-002	9.969774e-001	-5.936409e-002	1.565189e-003	1.549533e-002
2501568.352	1.674508e-003	1.607144e-002	9.974728e-001	-6.084033e-002	9.975928e-001	-6.091993e-002	1.705533e-003	1.600585e-002
2564107.436	1.832503e-003	1.648654e-002	9.969599e-001	-6.264769e-002	9.968543e-001	-6.241247e-002	1.777938e-003	1.639113e-002
2626646.520	1.859564e-003	1.689497e-002	9.968024e-001	-6.424244e-002	9.972459e-001	-6.364535e-002	1.899522e-003	1.688148e-002
2689185.604	1.973191e-003	1.734733e-002	9.974411e-001	-6.557716e-002	9.972451e-001	-6.546069e-002	2.006805e-003	1.725295e-002
2751724.687	2.131671e-003	1.772216e-002	9.969375e-001	-6.711149e-002	9.962652e-001	-6.700720e-002	2.068084e-003	1.779889e-002
2814263.771	2.251966e-003	1.820179e-002	9.970144e-001	-6.905989e-002	9.967662e-001	-6.903550e-002	2.182448e-003	1.821336e-002
2876802.855	2.330221e-003	1.865121e-002	9.965189e-001	-7.083260e-002	9.960096e-001	-7.039581e-002	2.329247e-003	1.862286e-002
2939341.939	2.438705e-003	1.913581e-002	9.962701e-001	-7.212280e-002	9.962568e-001	-7.153534e-002	2.418818e-003	1.910628e-002
3001881.023	2.541184e-003	1.962638e-002	9.962612e-001	-7.300604e-002	9.964368e-001	-7.288036e-002	2.521424e-003	1.961364e-002
3064420.106	2.721570e-003	2.001905e-002	9.954796e-001	-7.500703e-002	9.953583e-001	-7.475259e-002	2.683206e-003	2.005626e-002
3126959.190	2.861234e-003	2.051823e-002	9.956053e-001	-7.679724e-002	9.954653e-001	-7.663097e-002	2.844293e-003	2.049533e-002
3189498.274	3.045799e-003	2.099388e-002	9.955256e-001	-7.852587e-002	9.951757e-001	-7.823628e-002	2.969398e-003	2.096642e-002
3252037.358	3.211473e-003	2.144135e-002	9.951781e-001	-8.005331e-002	9.951224e-001	-7.977057e-002	3.165109e-003	2.144454e-002
3314576.442	3.335582e-003	2.185529e-002	9.950364e-001	-8.166672e-002	9.950106e-001	-8.153193e-002	3.290610e-003	2.194063e-002
3377115.525	3.485417e-003	2.240812e-002	9.948680e-001	-8.338572e-002	9.945772e-001	-8.307420e-002	3.445420e-003	2.239099e-002
3439654.609	3.710986e-003	2.290785e-002	9.943812e-001	-8.481746e-002	9.945186e-001	-8.472734e-002	3.644596e-003	2.285868e-002
3502193.693	3.902277e-003	2.331055e-002	9.942838e-001	-8.648992e-002	9.942368e-001	-8.619543e-002	3.842444e-003	2.331072e-002
3564732.777	4.071114e-003	2.382563e-002	9.940211e-001	-8.814520e-002	9.939594e-001	-8.786041e-002	4.061125e-003	2.380813e-002
3627271.861	4.286364e-003	2.430711e-002	9.937249e-001	-8.975480e-002	9.937485e-001	-8.949252e-002	4.245632e-003	2.430476e-002
3689810.944	4.485798e-003	2.477510e-002	9.935165e-001	-9.131729e-002	9.932743e-001	-9.108130e-002	4.421883e-003	2.476990e-002
3752350.028	4.677861e-003	2.530414e-002	9.931605e-001	-9.297344e-002	9.931038e-001	-9.265711e-002	4.714208e-003	2.528250e-002
3814889.112	4.964826e-003	2.576512e-002	9.928639e-001	-9.455655e-002	9.927520e-001	-9.426603e-002	4.929783e-003	2.573821e-002
3877428.196	5.265160e-003	2.627361e-002	9.925759e-001	-9.615528e-002	9.923255e-001	-9.583798e-002	5.137380e-003	2.625285e-002
3939967.280	5.442554e-003	2.672042e-002	9.920893e-001	-9.784413e-002	9.920765e-001	-9.753101e-002	5.428587e-003	2.678323e-002
4002506.363	5.732250e-003	2.722334e-002	9.918272e-001	-9.933438e-002	9.917575e-001	-9.906693e-002	5.680652e-003	2.725694e-002
4065045.447	6.016245e-003	2.769350e-002	9.915861e-001	-1.010873e-001	9.915137e-001	-1.008942e-001	5.961945e-003	2.770222e-002
4127584.531	6.245776e-003	2.819880e-002	9.913123e-001	-1.027139e-001	9.910419e-001	-1.023826e-001	6.230375e-003	2.818789e-002
4190123.615	6.563305e-003	2.870766e-002	9.907089e-001	-1.041278e-001	9.906946e-001	-1.039262e-001	6.497677e-003	2.866829e-002
4252662.699	6.824180e-003	2.918051e-002	9.903588e-001	-1.057540e-001	9.901615e-001	-1.054417e-001	6.795240e-003	2.919221e-002
4315201.782	7.215149e-003	2.962849e-002	9.899833e-001	-1.074669e-001	9.898607e-001	-1.070115e-001	7.109990e-003	2.965280e-002
4377740.866	7.507344e-003	3.012101e-002	9.896546e-001	-1.090975e-001	9.895142e-001	-1.088246e-001	7.488729e-003	3.012376e-002
4440279.950	7.888838e-003	3.062112e-002	9.892170e-001	-1.104412e-001	9.891136e-001	-1.103662e-001	7.821879e-003	3.057480e-002
4502819.034	8.248192e-003	3.101026e-002	9.888557e-001	-1.121536e-001	9.885632e-001	-1.119404e-001	8.160742e-003	3.106442e-002
4565358.118	8.601179e-003	3.155017e-002	9.880620e-001	-1.137058e-001	9.882107e-001	-1.136917e-001	8.555520e-003	3.156488e-002
4627897.201	8.974537e-003	3.195994e-002	9.877585e-001	-1.152902e-001	9.878053e-001	-1.150503e-001	8.885143e-003	3.206542e-002
4690436.285	9.377894e-003	3.244219e-002	9.873170e-001	-1.170296e-001	9.872342e-001	-1.166599e-001	9.290111e-003	3.247856e-002
4752975.369	9.699670e-003	3.284970e-002	9.867675e-001	-1.185786e-001	9.866641e-001	-1.182547e-001	9.674822e-003	3.293749e-002
4815514.453	1.012198e-002	3.331225e-002	9.864317e-001	-1.202034e-001	9.861593e-001	-1.199173e-001	1.008389e-002	3.335791e-002
4878053.537	1.051410e-002	3.380605e-002	9.859094e-001	-1.218444e-001	9.857194e-001	-1.213238e-001	1.048701e-002	3.383613e-002
4940592.620	1.098888e-002	3.422872e-002	9.851880e-001	-1.232695e-001	9.851235e-001	-1.229401e-001	1.091461e-002	3.425040e-002
5003131.704	1.144904e-002	3.464361e-002	9.847041e-001	-1.248788e-001	9.845229e-001	-1.246026e-001	1.128141e-002	3.463963e-002
5065670.788	1.184323e-002	3.504855e-002	9.842619e-001	-1.264422e-001	9.840156e-001	-1.261431e-001	1.181199e-002	3.509230e-002
5128209.872	1.234190e-002	3.548634e-002	9.836507e-001	-1.278791e-001	9.836145e-001	-1.275674e-001	1.225349e-002	3.548474e-002
5190748.956	1.280128e-002	3.582842e-002	9.830890e-001	-1.294565e-001	9.830996e-001	-1.290899e-001	1.273909e-002	3.592386e-002
5253288.039	1.325699e-002	3.625486e-002	9.822823e-001	-1.309120e-001	9.824932e-001	-1.306290e-001	1.326482e-002	3.628889e-002
5315827.123	1.374667e-002	3.663987e-002	9.818146e-001	-1.324512e-001	9.818351e-001	-1.322751e-001	1.373692e-002	3.671449e-002
5378366.207	1.424607e-002	3.701126e-002	9.811634e-001	-1.340163e-001	9.812239e-001	-1.336638e-001	1.419696e-002	3.705206e-002
5440905.291	1.475939e-002	3.737595e-002	9.808330e-001	-1.353319e-001	9.807530e-001	-1.352386e-001	1.471914e-002	3.741065e-002
5503444.375	1.526221e-002	3.772707e-002	9.800663e-001	-1.369535e-001	9.799328e-001	-1.368806e-001	1.522329e-002	3.778408e-002
5565983.458	1.576654e-002	3.808826e-002	9.795438e-001	-1.384131e-001	9.792539e-001	-1.382171e-001	1.581237e-002	3.812174e-002
5628522.542	1.629173e-002	3.837594e-002	9.788823e-001	-1.397390e-001	9.788809e-001	-1.395394e-001	1.621987e-002	3.841876e-002
5691061.626	1.690378e-002	3.872171e-002	9.782230e-001	-1.412122e-001	9.779692e-001	-1.410760e-001	1.679093e-002	3.876860e-002
5753600.710	1.742911e-002	3.901469e-002	9.774763e-001	-1.427422e-001	9.774530e-001	-1.424904e-001	1.738423e-002	3.907893e-002
5816139.794	1.801104e-002	3.932489e-002	9.769083e-001	-1.440984e-001	9.767763e-001	-1.440600e-001	1.787016e-002	3.935197e-002
5878678.877	1.853446e-002	3.959367e-002	9.761312e-001	-1.454167e-001	9.760478e-001	-1.452787e-001	1.849622e-002	3.968716e-002
5941217.961	1.906355e-002	3.986172e-002	9.756096e-001	-1.468201e-001	9.755532e-001	-1.465640e-001	1.900079e-002	3.995229e-002
6003757.045	1.966420e-002	4.005781e-002	9.747634e-001	-1.483614e-001	9.747930e-001	-1.480186e-001	1.958399e-002	4.012309e-002
6066296.129	2.022518e-002	4.035329e-002	9.739643e-001	-1.497392e-001	9.739510e-001	-1.494154e-001	2.017151e-002	4.042792e-002
6128835.213	2.079803e-002	4.062112e-002	9.734583e-001	-1.510930e-001	9.734226e-001	-1.509367e-001	2.075751e-002	4.066394e-002
6191374.296	2.131652e-002	4.076593e-002	9.727604e-001	-1.522109e-001	9.726974e-001	-1.521301e-001	2.128879e-002	4.084038e-002
6253913.380	2.195950e-002	4.097622e-002	9.718976e-001	-1.537514e-001	9.717714e-001	-1.534232e-001	2.187640e-002	4.110230e-002
6316452.464	2.254946e-002	4.123262e-002	9.712766e-001	-1.548930e-001	9.713408e-001	-1.546695e-001	2.248732e-002	4.126714e-002
6378991.548	2.310105e-002	4.132475e-002	9.707754e-001	-1.562665e-001	9.705309e-001	-1.559219e-001	2.308761e-002	4.147107e-002
6441530.632	2.367062e-002	4.151323e-002	9.700276e-001	-1.576128e-001	9.697369e-001	-1.574319e-001	2.361697e-002	4.156039e-002
6504069.715	2.425892e-002	4.165823e-002	9.692215e-001	-1.588396e-001	9.692092e-001	-1.586974e-001	2.421494e-002	4.172349e-002
6566608.799	2.486896e-002	4.180367e-002	9.684427e-001	-1.601321e-001	9.684374e-001	-1.598073e-001	2.473882e-002	4.188677e-002
6629147.883	2.541662e-002	4.193689e-002	9.677068e-001	-1.614415e-001	9.677690e-001	-1.611061e-001	2.533450e-002	4.202274e-002
6691686.967	2.598537e-002	4.198882e-002	9.671450e-001	-1.625006e-001	9.667794e-001	-1.624303e-001	2.590727e-002	4.217310e-002
6754226.051	2.653792e-002	4.214439e-002	9.664744e-001	-1.638333e-001	9.663720e-001	-1.635828e-001	2.654459e-002	4.218908e-002
6816765.134	2.709015e-002	4.220617e-002	9.656760e-001	-1.650300e-001	9.656375e-001	-1.648292e-001	2.709420e-002	4.226995e-002
6879304.218	2.769915e-002	4.229533e-002	9.649528e-001	-1.662458e-001	9.648337e-001	-1.660076e-001	2.766969e-002	4.238593e-002
6941843.302	2.829563e-002	4.238850e-002	9.642145e-001	-1.672897e-001	9.642512e-001	-1.672327e-001	2.821232e-002	4.248098e-002
7004382.386	2.883594e-002	4.244207e-002	9.634403e-001	-1.686756e-001	9.636001e-001	-1.684903e-001	2.880055e-002	4.250502e-002
7066921.470	2.939473e-002	4.247278e-002	9.627833e-001	-1.697786e-001	9.629045e-001	-1.694995e-001	2.935841e-002	4.254926e-002
7129460.553	2.996659e-002	4.246319e-002	9.622561e-001	-1.709172e-001	9.622203e-001	-1.708481e-001	2.988615e-002	4.260121e-002
7191999.637	3.049377e-002	4.252590e-002	9.614477e-001	-1.721286e-001	9.614284e-001	-1.717873e-001	3.046355e-002	4.261635e-002
7254538.721	3.110293e-002	4.253705e-002	9.608230e-001	-1.732450e-001	9.608418e-001	-1.730141e-001	3.098236e-002	4.266671e-002
7317077.805	3.156159e-002	4.257324e-002	9.599630e-001	-1.743916e-001	9.602424e-001	-1.741416e-001	3.154490e-002	4.268422e-002
7379616.889	3.214675e-002	4.256964e-002	9.595825e-001	-1.755152e-001	9.593630e-001	-1.751510e-001	3.207076e-002	4.261089e-002
7442155.972	3.266413e-002	4.253868e-002	9.587245e-001	-1.765881e-001	9.586261e-001	-1.764098e-001	3.258411e-002	4.262986e-002
7504695.056	3.321152e-002	4.253133e-002	9.580565e-001	-1.776770e-001	9.581341e-001	-1.774010e-001	3.315940e-002	4.265137e-002
7567234.140	3.369441e-002	4.253109e-002	9.574928e-001	-1.788613e-001	9.573993e-001	-1.784545e-001	3.366425e-002	4.262354e-002
7629773.224	3.423591e-002	4.246072e-002	9.567177e-001	-1.799342e-001	9.567090e-001	-1.796271e-001	3.415236e-002	4.260389e-002
7692312.308	3.470892e-002	4.244602e-002	9.561915e-001	-1.809678e-001	9.560344e-001	-1.807037e-001	3.470936e-002	4.261030e-002
7754851.391	3.524179e-002	4.237633e-002	9.553286e-001	-1.819942e-001	9.553428e-001	-1.817694e-001	3.515887e-002	4.255360e-002
7817390.475	3.573556e-002	4.237336e-002	9.549332e-001	-1.830619e-001	9.547119e-001	-1.829761e-001	3.571802e-002	4.245316e-002
7879929.559	3.621646e-002	4.227815e-002	9.541248e-001	-1.841243e-001	9.540579e-001	-1.839032e-001	3.618746e-002	4.241830e-002
7942468.643	3.668948e-002	4.226275e-002	9.534283e-001	-1.852093e-001	9.534259e-001	-1.850945e-001	3.665752e-002	4.235874e-002
8005007.727	3.720968e-002	4.219541e-002	9.528659e-001	-1.864158e-001	9.528255e-001	-1.859635e-001	3.711160e-002	4.225840e-002
8067546.811	3.770523e-002	4.210546e-002	9.522089e-001	-1.874572e-001	9.522356e-001	-1.871707e-001	3.767176e-002	4.220816e-002
8130085.894	3.816742e-002	4.203386e-002	9.515615e-001	-1.884225e-001	9.514323e-001	-1.882144e-001	3.808377e-002	4.212563e-002
8192624.978	3.861994e-002	4.193628e-002	9.509049e-001	-1.894247e-001	9.508072e-001	-1.892002e-001	3.861514e-002	4.204334e-002
8255164.062	3.907909e-002	4.184382e-002	9.503060e-001	-1.905016e-001	9.502580e-001	-1.901758e-001	3.904030e-002	4.193736e-002
8317703.146	3.955244e-002	4.169725e-002	9.497739e-001	-1.915364e-001	9.497332e-001	-1.912659e-001	3.948025e-002	4.185488e-002
8380242.230	4.002236e-002	4.160924e-002	9.491137e-001	-1.922804e-001	9.492291e-001	-1.922566e-001	3.996829e-002	4.177472e-002
8442781.313	4.044630e-002	4.157260e-002	9.485386e-001	-1.933403e-001	9.484316e-001	-1.932352e-001	4.037812e-002	4.170914e-002
8505320.397	4.084798e-002	4.145207e-002	9.478687e-001	-1.945807e-001	9.477618e-001	-1.944405e-001	4.086306e-002	4.150779e-002
8567859.481	4.133491e-002	4.133348e-002	9.472242e-001	-1.955403e-001	9.472623e-001	-1.951764e-001	4.133517e-002	4.146991e-002
8630398.565	4.180148e-002	4.123740e-002	9.466238e-001	-1.965758e-001	9.465843e-001	-1.963175e-001	4.175862e-002	4.130788e-002
8692937.649	4.220589e-002	4.113342e-002	9.459258e-001	-1.975410e-001	9.459330e-001	-1.971804e-001	4.213825e-002	4.126002e-002
8755476.732	4.259699e-002	4.104107e-002	9.453257e-001	-1.986540e-001	9.454502e-001	-1.982971e-001	4.258450e-002	4.113831e-002
8818015.816	4.303375e-002	4.087470e-002	9.448608e-001	-1.994462e-001	9.448743e-001	-1.991967e-001	4.300699e-002	4.097857e-002
8880554.900	4.341209e-002	4.070610e-002	9.442930e-001	-2.006011e-001	9.442581e-001	-2.002202e-001	4.339886e-002	4.086495e-002
8943093.984	4.385254e-002	4.062186e-002	9.437031e-001	-2.016750e-001	9.436452e-001	-2.011525e-001	4.386672e-002	4.074750e-002
9005633.068	4.424690e-002	4.046980e-002	9.430831e-001	-2.024781e-001	9.430017e-001	-2.023442e-001	4.423110e-002	4.057948e-002
9068172.151	4.467333e-002	4.035309e-002	9.424775e-001	-2.034891e-001	9.422544e-001	-2.033021e-001	4.458742e-002	4.049570e-002
9130711.235	4.508091e-002	4.020767e-002	9.418988e-001	-2.044334e-001	9.418935e-001	-2.040468e-001	4.504127e-002	4.031890e-002
9193250.319	4.545483e-002	4.003396e-002	9.413271e-001	-2.053584e-001	9.413187e-001	-2.052052e-001	4.546778e-002	4.015945e-002
9255789.403	4.586136e-002	3.989851e-002	9.407280e-001	-2.064860e-001	9.408543e-001	-2.060973e-001	4.584041e-002	4.009664e-002
9318328.487	4.617990e-002	3.978301e-002	9.401609e-001	-2.074453e-001	9.402595e-001	-2.072683e-001	4.618739e-002	3.988415e-002
9380867.570	4.655492e-002	3.964737e-002	9.396774e-001	-2.083835e-001	9.395013e-001	-2.080125e-001	4.656797e-002	3.979099e-002
9443406.654	4.693193e-002	3.945713e-002	9.390364e-001	-2.093178e-001	9.390958e-001	-2.091325e-001	4.697392e-002	3.961214e-002
9505945.738	4.729950e-002	3.930654e-002	9.385756e-001	-2.102258e-001	9.383991e-001	-2.100023e-001	4.729757e-002	3.945654e-002
9568484.822	4.770114e-002	3.913971e-002	9.380690e-001	-2.113952e-001	9.379418e-001	-2.109265e-001	4.771021e-002	3.930973e-002
9631023.906	4.805555e-002	3.899459e-002	9.374161e-001	-2.122524e-001	9.373282e-001	-2.119435e-001	4.803535e-002	3.916868e-002
9693562.989	4.842576e-002	3.887489e-002	9.367687e-001	-2.131206e-001	9.368396e-001	-2.129404e-001	4.836732e-002	3.903417e-002
9756102.073	4.868907e-002	3.869885e-002	9.363150e-001	-2.139617e-001	9.363617e-001	-2.137800e-001	4.876235e-002	3.878345e-002
