!Agilent Technologies,E5061B,MY49102235,A.02.00
!Date: Mon Jul 10 17:13:10 2023
!Data & Calibration Information:
!Freq	S11:SOLT2(ON)	S21:SOLT2(ON)	S12:SOLT2(ON)	S22:SOLT2(ON)
# Hz S RI R 50
5.000	-5.127532e-004	4.391606e-004	1.001868e+000	2.295104e-003	1.000615e+000	-5.268063e-005	-1.307880e-004	-6.195159e-005
62544.084	-4.349971e-005	4.882320e-005	9.999547e-001	-8.486755e-004	1.000104e+000	-7.227444e-004	1.306077e-005	-4.832228e-005
125083.168	-1.357553e-005	2.486353e-006	1.000218e+000	-2.415949e-003	9.999930e-001	-2.131696e-003	-3.028211e-005	1.781916e-005
187622.251	1.570217e-004	-4.008642e-005	9.994712e-001	-2.823302e-003	1.000042e+000	-3.047047e-003	4.965685e-005	4.874485e-005
250161.335	5.429710e-005	7.132121e-005	9.998490e-001	-4.662806e-003	9.997835e-001	-4.564034e-003	2.870670e-005	7.644414e-005
312700.419	3.506023e-005	8.953522e-007	1.000269e+000	-5.612082e-003	9.992595e-001	-5.378864e-003	1.096349e-004	7.995538e-005
375239.503	8.032241e-005	4.323298e-005	1.000054e+000	-6.592559e-003	1.000155e+000	-6.608997e-003	1.769137e-005	1.382805e-005
437778.587	1.072560e-004	-1.422601e-005	9.999637e-001	-7.739912e-003	9.992436e-001	-8.043112e-003	8.351972e-005	1.784079e-004
500317.670	1.211126e-004	-1.397816e-005	9.999890e-001	-8.948731e-003	9.992319e-001	-9.473309e-003	1.236041e-004	1.993071e-004
562856.754	1.327675e-004	1.029060e-004	9.996962e-001	-1.027052e-002	9.996437e-001	-9.880925e-003	6.717622e-005	5.173759e-005
625395.838	1.162536e-004	8.217233e-005	9.997999e-001	-1.141448e-002	9.991644e-001	-1.107989e-002	1.301564e-004	1.135218e-004
687934.922	8.344791e-006	-1.602351e-005	1.000070e+000	-1.219067e-002	1.000275e+000	-1.240853e-002	8.500369e-007	7.028276e-005
750474.006	-7.548113e-005	-6.189092e-006	9.997093e-001	-1.364183e-002	9.996199e-001	-1.269290e-002	-9.446534e-005	5.837206e-006
813013.089	-6.591718e-005	1.693980e-005	1.000230e+000	-1.478906e-002	9.992523e-001	-1.421109e-002	-6.730578e-005	-1.778868e-005
875552.173	-5.441671e-005	-2.792312e-005	9.996811e-001	-1.598323e-002	9.999057e-001	-1.575420e-002	-5.549901e-005	-1.399975e-005
938091.257	-1.557437e-004	1.287700e-005	9.996175e-001	-1.670864e-002	9.994781e-001	-1.623687e-002	-1.279740e-004	2.825551e-007
1000630.341	-8.674816e-005	7.056392e-005	9.996237e-001	-1.763083e-002	9.996321e-001	-1.770280e-002	-5.783002e-005	-1.104367e-005
1063169.425	-4.698949e-005	4.536511e-005	1.000428e+000	-1.894658e-002	1.000270e+000	-1.917380e-002	-2.283007e-005	-2.660292e-005
1125708.508	-4.378479e-005	2.339292e-005	1.000101e+000	-2.043812e-002	9.994729e-001	-1.987481e-002	-2.985503e-005	1.399681e-005
1188247.592	-4.002227e-005	8.301005e-006	9.996800e-001	-2.125430e-002	9.994954e-001	-2.102888e-002	-7.213923e-006	8.026230e-006
1250786.676	-4.929339e-005	2.030119e-005	9.997716e-001	-2.266570e-002	9.990794e-001	-2.192224e-002	-2.272934e-005	2.627406e-005
1313325.760	-3.424309e-005	1.336806e-005	9.997953e-001	-2.305728e-002	9.989663e-001	-2.331232e-002	-5.337627e-005	-2.662536e-005
1375864.844	-7.611127e-006	-1.151896e-005	1.000214e+000	-2.531507e-002	9.993734e-001	-2.486604e-002	-4.074082e-005	-1.542594e-005
1438403.927	-3.341296e-005	-3.913245e-005	9.995240e-001	-2.628508e-002	9.994658e-001	-2.556939e-002	-2.580629e-005	-4.083328e-005
1500943.011	-1.682366e-005	-1.517433e-005	9.998965e-001	-2.724122e-002	9.991588e-001	-2.691956e-002	-2.471555e-005	2.456076e-006
1563482.095	-8.079172e-005	-1.265545e-005	9.991666e-001	-2.822421e-002	9.995503e-001	-2.800035e-002	-3.716968e-005	-3.863722e-005
1626021.179	2.463024e-005	2.711074e-005	9.995279e-001	-2.946718e-002	9.993035e-001	-2.882031e-002	2.231628e-005	-3.658289e-005
1688560.263	3.574410e-005	-1.828225e-005	9.998386e-001	-3.059425e-002	9.993860e-001	-2.998435e-002	1.316768e-006	-2.150364e-005
1751099.346	3.775627e-005	6.196944e-005	9.997875e-001	-3.158970e-002	9.990680e-001	-3.118733e-002	-1.927140e-005	-3.101586e-005
1813638.430	-4.760845e-005	1.599672e-005	9.997070e-001	-3.248866e-002	9.990331e-001	-3.251832e-002	-1.799428e-005	-7.171635e-006
1876177.514	-1.884717e-005	-3.341335e-005	9.996373e-001	-3.394521e-002	9.994435e-001	-3.351887e-002	7.942750e-006	-4.141573e-005
1938716.598	-1.313194e-005	-1.147595e-005	9.991288e-001	-3.505197e-002	9.996547e-001	-3.472409e-002	1.580026e-005	-3.445423e-005
2001255.682	9.167378e-007	1.072195e-005	9.997331e-001	-3.596168e-002	9.987766e-001	-3.584821e-002	-9.425044e-006	-3.716321e-005
2063794.765	-2.912535e-005	4.303094e-005	9.992366e-001	-3.690143e-002	9.995474e-001	-3.684288e-002	3.062763e-005	-4.341076e-005
2126333.849	3.771363e-005	-6.510234e-005	9.986666e-001	-3.816406e-002	9.990146e-001	-3.819609e-002	-5.929053e-005	-8.418885e-005
2188872.933	-3.469371e-006	-1.807054e-005	9.992463e-001	-3.923894e-002	9.991582e-001	-3.924774e-002	-1.167492e-005	-9.238526e-006
2251412.017	7.770207e-005	-2.449988e-005	9.994949e-001	-4.111710e-002	9.990530e-001	-4.005975e-002	5.216226e-005	-5.972678e-005
2313951.101	6.765212e-006	-4.621622e-005	9.989750e-001	-4.190971e-002	9.989569e-001	-4.104029e-002	6.308503e-005	-1.039188e-004
2376490.184	3.142437e-005	-6.122078e-005	9.996377e-001	-4.289736e-002	9.990130e-001	-4.256378e-002	3.990519e-005	-6.979768e-005
2439029.268	-6.548482e-006	-7.378535e-005	9.990365e-001	-4.385387e-002	9.985026e-001	-4.363919e-002	-1.683701e-005	-1.102960e-004
2501568.352	2.311660e-006	2.764934e-005	9.989704e-001	-4.483273e-002	9.992624e-001	-4.487730e-002	5.483669e-005	-3.546342e-005
2564107.436	5.214808e-005	1.984493e-005	9.986026e-001	-4.624074e-002	9.984650e-001	-4.587616e-002	2.039210e-005	-9.990339e-005
2626646.520	-3.520051e-006	-3.630617e-005	9.985524e-001	-4.726237e-002	9.989165e-001	-4.656703e-002	4.192865e-005	-5.309924e-005
2689185.604	-6.650940e-006	-2.683791e-005	9.993502e-001	-4.812150e-002	9.993206e-001	-4.800666e-002	4.675947e-005	-1.187534e-004
2751724.687	7.485135e-005	-1.057670e-004	9.989858e-001	-4.926202e-002	9.982209e-001	-4.908446e-002	-1.551446e-007	-4.289348e-005
2814263.771	6.800197e-005	-8.377000e-005	9.990943e-001	-5.070424e-002	9.989426e-001	-5.067119e-002	2.018274e-005	-8.161186e-005
2876802.855	3.319747e-005	-8.615725e-005	9.989178e-001	-5.204272e-002	9.981653e-001	-5.146710e-002	2.178607e-005	-1.127790e-004
2939341.939	3.205341e-005	-6.433013e-005	9.986312e-001	-5.286586e-002	9.985397e-001	-5.227348e-002	6.702152e-006	-1.061971e-004
3001881.023	-1.843372e-005	-3.039436e-005	9.987574e-001	-5.325463e-002	9.988295e-001	-5.313477e-002	-2.606533e-005	-6.530251e-005
3064420.106	5.290115e-005	-1.002219e-004	9.982472e-001	-5.494366e-002	9.978517e-001	-5.445973e-002	1.633911e-005	-6.072721e-005
3126959.190	3.768686e-005	-6.877839e-005	9.983559e-001	-5.614409e-002	9.982153e-001	-5.597906e-002	3.052634e-005	-9.325753e-005
3189498.274	7.548635e-005	-5.389018e-005	9.984191e-001	-5.738892e-002	9.980899e-001	-5.710211e-002	5.659609e-006	-1.067533e-004
3252037.358	8.885217e-005	-8.270867e-005	9.982358e-001	-5.847363e-002	9.981415e-001	-5.812702e-002	3.701309e-005	-8.770529e-005
3314576.442	5.294283e-005	-1.475420e-004	9.982490e-001	-5.962275e-002	9.982171e-001	-5.936963e-002	5.874929e-006	-7.521858e-005
3377115.525	3.190093e-005	-7.138049e-005	9.982376e-001	-6.084822e-002	9.979558e-001	-6.046019e-002	8.672810e-006	-9.608102e-005
3439654.609	7.758997e-005	-5.514479e-005	9.979247e-001	-6.180552e-002	9.980360e-001	-6.161063e-002	1.142246e-005	-1.140717e-004
3502193.693	7.705931e-005	-1.216990e-004	9.979932e-001	-6.293246e-002	9.979087e-001	-6.263122e-002	2.722506e-005	-1.594118e-004
3564732.777	4.137066e-005	-1.060368e-004	9.979803e-001	-6.411844e-002	9.978579e-001	-6.378688e-002	6.261648e-005	-1.364807e-004
3627271.861	6.209004e-005	-1.123950e-004	9.978275e-001	-6.521507e-002	9.978528e-001	-6.496580e-002	2.438608e-005	-1.197894e-004
3689810.944	5.272456e-005	-1.187745e-004	9.978381e-001	-6.632736e-002	9.975955e-001	-6.604801e-002	-6.044132e-006	-1.419278e-004
3752350.028	2.440793e-005	-8.780924e-005	9.977324e-001	-6.751508e-002	9.975903e-001	-6.714111e-002	5.765806e-005	-1.254060e-004
3814889.112	7.726349e-005	-1.173173e-004	9.976341e-001	-6.853598e-002	9.974669e-001	-6.824331e-002	4.770229e-005	-1.635284e-004
3877428.196	1.321454e-004	-9.256996e-005	9.975813e-001	-6.969301e-002	9.973155e-001	-6.931209e-002	1.445898e-005	-1.517680e-004
3939967.280	6.251722e-005	-1.448450e-004	9.973305e-001	-7.087324e-002	9.972678e-001	-7.052041e-002	2.853938e-005	-9.488518e-005
4002506.363	1.033086e-004	-1.417641e-004	9.973242e-001	-7.191803e-002	9.972421e-001	-7.154508e-002	4.378996e-005	-1.202839e-004
4065045.447	9.068786e-005	-1.274247e-004	9.973886e-001	-7.314079e-002	9.972729e-001	-7.291601e-002	6.010896e-005	-1.588105e-004
4127584.531	4.085588e-005	-1.255160e-004	9.973739e-001	-7.426364e-002	9.971293e-001	-7.391091e-002	4.410644e-005	-1.627640e-004
4190123.615	8.261080e-005	-1.162062e-004	9.970571e-001	-7.519749e-002	9.970190e-001	-7.491263e-002	2.454952e-006	-1.736254e-004
4252662.699	1.974863e-005	-1.180229e-004	9.970328e-001	-7.633352e-002	9.967980e-001	-7.603987e-002	9.957139e-006	-1.222235e-004
4315201.782	9.221378e-005	-1.734146e-004	9.969504e-001	-7.757045e-002	9.967840e-001	-7.705941e-002	-6.215718e-006	-1.593186e-004
4377740.866	6.710481e-005	-1.480527e-004	9.969244e-001	-7.867938e-002	9.968053e-001	-7.839158e-002	5.660254e-005	-1.564380e-004
4440279.950	8.903601e-005	-1.155808e-004	9.968212e-001	-7.956365e-002	9.967673e-001	-7.940254e-002	3.835716e-005	-1.818091e-004
4502819.034	1.255412e-004	-2.170911e-004	9.968386e-001	-8.077578e-002	9.964885e-001	-8.051526e-002	4.042279e-005	-1.629127e-004
4565358.118	9.345464e-005	-1.434313e-004	9.963638e-001	-8.190963e-002	9.965697e-001	-8.182219e-002	6.608522e-005	-1.455470e-004
4627897.201	1.029724e-004	-1.947379e-004	9.964469e-001	-8.304170e-002	9.964642e-001	-8.267655e-002	2.003675e-005	-1.085779e-004
4690436.285	1.284377e-004	-1.549217e-004	9.963818e-001	-8.424135e-002	9.963330e-001	-8.385169e-002	2.900208e-005	-1.446195e-004
4752975.369	6.575974e-005	-2.231005e-004	9.962386e-001	-8.534008e-002	9.961422e-001	-8.502655e-002	3.901977e-005	-1.569562e-004
4815514.453	7.847849e-005	-1.999297e-004	9.962585e-001	-8.653585e-002	9.960169e-001	-8.618571e-002	5.274836e-005	-1.741711e-004
4878053.537	6.805528e-005	-1.514800e-004	9.961604e-001	-8.773883e-002	9.959563e-001	-8.715169e-002	2.662048e-005	-1.357501e-004
4940592.620	9.527600e-005	-1.627121e-004	9.959028e-001	-8.868675e-002	9.957801e-001	-8.833956e-002	2.755893e-005	-1.628053e-004
5003131.704	1.125542e-004	-1.886971e-004	9.958603e-001	-8.989297e-002	9.956392e-001	-8.955710e-002	-4.296782e-005	-2.010135e-004
5065670.788	5.931872e-005	-2.007693e-004	9.958291e-001	-9.098827e-002	9.955831e-001	-9.065599e-002	2.929386e-005	-1.623956e-004
5128209.872	1.063074e-004	-1.626326e-004	9.956777e-001	-9.199652e-002	9.956293e-001	-9.166788e-002	3.071724e-005	-1.756369e-004
5190748.956	1.028427e-004	-2.323849e-004	9.955694e-001	-9.323088e-002	9.955788e-001	-9.276863e-002	2.510803e-005	-1.746224e-004
5253288.039	8.181605e-005	-1.981743e-004	9.952636e-001	-9.423336e-002	9.954495e-001	-9.390135e-002	8.485275e-005	-1.943019e-004
5315827.123	8.794183e-005	-1.960309e-004	9.952868e-001	-9.538525e-002	9.952873e-001	-9.518551e-002	6.767020e-005	-1.520480e-004
5378366.207	6.900904e-005	-1.916013e-004	9.950981e-001	-9.655614e-002	9.951641e-001	-9.616495e-002	3.077682e-005	-1.680812e-004
5440905.291	9.424623e-005	-2.053937e-004	9.952393e-001	-9.758962e-002	9.951713e-001	-9.736976e-002	6.013878e-005	-1.904301e-004
5503444.375	8.037967e-005	-2.195206e-004	9.950210e-001	-9.880212e-002	9.948957e-001	-9.871933e-002	4.615777e-005	-1.856187e-004
5565983.458	5.513945e-005	-2.024528e-004	9.950369e-001	-9.989934e-002	9.947206e-001	-9.966674e-002	1.139689e-004	-1.778204e-004
5628522.542	6.243537e-005	-2.216911e-004	9.948698e-001	-1.009111e-001	9.948814e-001	-1.006192e-001	-7.502348e-006	-2.268144e-004
5691061.626	1.370095e-004	-2.077500e-004	9.947447e-001	-1.020362e-001	9.944960e-001	-1.018758e-001	8.572766e-006	-1.815090e-004
5753600.710	1.249855e-004	-2.397685e-004	9.945524e-001	-1.032917e-001	9.944954e-001	-1.029136e-001	7.251654e-005	-1.739329e-004
5816139.794	1.678971e-004	-2.055617e-004	9.945638e-001	-1.043607e-001	9.944310e-001	-1.042108e-001	-6.813089e-006	-2.092061e-004
5878678.877	1.077355e-004	-2.248815e-004	9.942580e-001	-1.053536e-001	9.942263e-001	-1.051380e-001	7.229764e-005	-1.696988e-004
5941217.961	8.066750e-005	-2.265069e-004	9.943100e-001	-1.064743e-001	9.942664e-001	-1.061319e-001	4.604820e-006	-1.797629e-004
6003757.045	1.287934e-004	-2.908246e-004	9.940851e-001	-1.077616e-001	9.940539e-001	-1.073408e-001	3.153749e-005	-2.493120e-004
6066296.129	9.363008e-005	-2.180080e-004	9.938645e-001	-1.088874e-001	9.938005e-001	-1.085255e-001	3.725225e-005	-1.829935e-004
6128835.213	1.013012e-004	-1.803785e-004	9.938963e-001	-1.100241e-001	9.938519e-001	-1.098099e-001	5.897972e-005	-1.667353e-004
6191374.296	7.069412e-005	-2.778837e-004	9.937154e-001	-1.108568e-001	9.936343e-001	-1.107509e-001	1.502312e-005	-2.206441e-004
6253913.380	1.045257e-004	-2.640278e-004	9.935036e-001	-1.122248e-001	9.933296e-001	-1.118345e-001	1.953624e-005	-1.633918e-004
6316452.464	1.262606e-004	-1.902538e-004	9.934299e-001	-1.131599e-001	9.934835e-001	-1.128563e-001	6.127742e-005	-1.902813e-004
6378991.548	1.012599e-004	-2.722812e-004	9.935268e-001	-1.143501e-001	9.932944e-001	-1.139565e-001	7.717323e-005	-1.617440e-004
6441530.632	1.047718e-004	-2.471467e-004	9.933601e-001	-1.154952e-001	9.930245e-001	-1.152785e-001	5.231128e-005	-2.448373e-004
6504069.715	1.158234e-004	-2.557097e-004	9.930709e-001	-1.165580e-001	9.931137e-001	-1.164108e-001	5.265505e-005	-2.191556e-004
6566608.799	1.365153e-004	-2.433279e-004	9.928930e-001	-1.177445e-001	9.928635e-001	-1.173949e-001	7.996161e-006	-2.061692e-004
6629147.883	1.131328e-004	-2.470632e-004	9.927311e-001	-1.188817e-001	9.928022e-001	-1.185345e-001	2.442191e-005	-2.049355e-004
6691686.967	1.120580e-004	-2.957839e-004	9.927300e-001	-1.198548e-001	9.923843e-001	-1.197632e-001	-8.642084e-006	-1.699060e-004
6754226.051	8.923023e-005	-2.539890e-004	9.926558e-001	-1.210622e-001	9.925247e-001	-1.207810e-001	6.568246e-005	-2.299425e-004
6816765.134	7.089460e-005	-3.004833e-004	9.923958e-001	-1.221736e-001	9.923761e-001	-1.219287e-001	6.559656e-005	-2.524530e-004
6879304.218	1.130289e-004	-2.742261e-004	9.922865e-001	-1.233093e-001	9.921337e-001	-1.230080e-001	6.891648e-005	-2.201069e-004
6941843.302	1.288587e-004	-2.449004e-004	9.920934e-001	-1.242856e-001	9.921028e-001	-1.241605e-001	4.035125e-005	-1.869968e-004
7004382.386	9.757996e-005	-2.434930e-004	9.918601e-001	-1.256002e-001	9.920232e-001	-1.253406e-001	5.704686e-005	-2.415322e-004
7066921.470	1.176658e-004	-2.716206e-004	9.917601e-001	-1.266971e-001	9.918556e-001	-1.262615e-001	5.295050e-005	-2.260867e-004
7129460.553	1.450166e-004	-3.027751e-004	9.917765e-001	-1.276980e-001	9.917313e-001	-1.275692e-001	3.636176e-005	-2.176882e-004
7191999.637	1.194366e-004	-2.716659e-004	9.914952e-001	-1.288895e-001	9.914610e-001	-1.285241e-001	5.436721e-005	-2.268336e-004
7254538.721	1.867746e-004	-2.769347e-004	9.914043e-001	-1.299887e-001	9.914497e-001	-1.297395e-001	2.583195e-005	-2.009651e-004
7317077.805	1.059807e-004	-2.640695e-004	9.911232e-001	-1.311741e-001	9.914109e-001	-1.308011e-001	6.162010e-005	-1.998467e-004
7379616.889	1.546148e-004	-2.723638e-004	9.912444e-001	-1.322122e-001	9.910217e-001	-1.318267e-001	7.656490e-005	-2.714700e-004
7442155.972	1.502365e-004	-2.878294e-004	9.908848e-001	-1.333025e-001	9.907975e-001	-1.331114e-001	5.266719e-005	-2.428337e-004
7504695.056	1.570212e-004	-2.956863e-004	9.907549e-001	-1.344146e-001	9.908719e-001	-1.340693e-001	9.474817e-005	-2.101294e-004
7567234.140	1.425545e-004	-2.645290e-004	9.907641e-001	-1.356033e-001	9.906193e-001	-1.351506e-001	6.800871e-005	-2.044694e-004
7629773.224	1.521954e-004	-2.997970e-004	9.904870e-001	-1.366822e-001	9.904530e-001	-1.363108e-001	4.984281e-005	-2.049220e-004
7692312.308	1.384558e-004	-2.941102e-004	9.904478e-001	-1.377841e-001	9.903156e-001	-1.374370e-001	8.546801e-005	-1.477912e-004
7754851.391	1.632124e-004	-3.106218e-004	9.900864e-001	-1.388052e-001	9.901025e-001	-1.385423e-001	4.688413e-005	-1.776525e-004
7817390.475	1.615854e-004	-2.717971e-004	9.901718e-001	-1.399099e-001	9.900115e-001	-1.397769e-001	9.810428e-005	-2.256863e-004
7879929.559	1.272246e-004	-3.134263e-004	9.898565e-001	-1.410341e-001	9.898248e-001	-1.407585e-001	7.253545e-005	-2.172210e-004
7942468.643	1.135010e-004	-2.682531e-004	9.896887e-001	-1.421469e-001	9.896562e-001	-1.420159e-001	5.294191e-005	-2.116372e-004
8005007.727	1.526946e-004	-2.668836e-004	9.896051e-001	-1.434456e-001	9.895365e-001	-1.429612e-001	4.940525e-005	-2.576033e-004
8067546.811	1.832468e-004	-2.736569e-004	9.894230e-001	-1.445283e-001	9.893976e-001	-1.442203e-001	1.277253e-004	-2.300713e-004
8130085.894	1.699374e-004	-2.639245e-004	9.892533e-001	-1.455479e-001	9.890975e-001	-1.453370e-001	6.483265e-005	-2.360649e-004
8192624.978	1.626343e-004	-3.049390e-004	9.890234e-001	-1.466675e-001	9.889413e-001	-1.463609e-001	1.201323e-004	-2.272292e-004
8255164.062	1.669965e-004	-3.056118e-004	9.889003e-001	-1.478232e-001	9.888305e-001	-1.474483e-001	9.216207e-005	-2.632529e-004
8317703.146	2.004765e-004	-3.465900e-004	9.888105e-001	-1.489211e-001	9.887641e-001	-1.485848e-001	6.000781e-005	-2.519847e-004
8380242.230	2.038562e-004	-3.535865e-004	9.885946e-001	-1.498026e-001	9.887318e-001	-1.497261e-001	1.092622e-004	-2.270516e-004
8442781.313	1.727674e-004	-2.910479e-004	9.884690e-001	-1.508987e-001	9.883506e-001	-1.507559e-001	6.818522e-005	-1.997145e-004
8505320.397	1.516955e-004	-3.126117e-004	9.882298e-001	-1.522349e-001	9.881485e-001	-1.520487e-001	1.188986e-004	-2.904264e-004
8567859.481	1.798024e-004	-3.119079e-004	9.880516e-001	-1.533126e-001	9.880738e-001	-1.528889e-001	1.229623e-004	-2.248076e-004
8630398.565	2.175814e-004	-3.046775e-004	9.878641e-001	-1.544371e-001	9.878272e-001	-1.541365e-001	1.326405e-004	-2.759905e-004
8692937.649	1.860591e-004	-2.930798e-004	9.876023e-001	-1.555319e-001	9.876109e-001	-1.550867e-001	5.637181e-005	-2.199496e-004
8755476.732	1.580521e-004	-2.691668e-004	9.874114e-001	-1.566916e-001	9.875243e-001	-1.563432e-001	1.063155e-004	-2.063209e-004
8818015.816	1.830604e-004	-3.209216e-004	9.873535e-001	-1.576091e-001	9.873853e-001	-1.573570e-001	1.161025e-004	-2.447005e-004
8880554.900	1.530961e-004	-3.540379e-004	9.871665e-001	-1.588903e-001	9.871723e-001	-1.584489e-001	7.603220e-005	-2.312724e-004
8943093.984	1.813106e-004	-3.179548e-004	9.869818e-001	-1.600995e-001	9.869247e-001	-1.595291e-001	1.397262e-004	-2.163022e-004
9005633.068	1.728642e-004	-3.272753e-004	9.867922e-001	-1.610420e-001	9.867137e-001	-1.608350e-001	1.022043e-004	-2.696436e-004
9068172.151	2.189688e-004	-3.105874e-004	9.865771e-001	-1.621958e-001	9.863834e-001	-1.619513e-001	5.648343e-005	-2.075377e-004
9130711.235	2.106677e-004	-3.046770e-004	9.864272e-001	-1.632230e-001	9.863795e-001	-1.627666e-001	1.345993e-004	-2.452750e-004
9193250.319	2.112987e-004	-3.454894e-004	9.862263e-001	-1.643089e-001	9.862163e-001	-1.640870e-001	1.608305e-004	-2.564147e-004
9255789.403	2.290946e-004	-3.346995e-004	9.859902e-001	-1.655348e-001	9.861293e-001	-1.650982e-001	1.444647e-004	-1.834780e-004
9318328.487	1.578868e-004	-3.281032e-004	9.858183e-001	-1.666654e-001	9.859243e-001	-1.664469e-001	1.241146e-004	-2.670913e-004
9380867.570	1.555404e-004	-2.976730e-004	9.857081e-001	-1.677390e-001	9.855675e-001	-1.673545e-001	1.250010e-004	-2.103042e-004
9443406.654	1.795272e-004	-3.513267e-004	9.854540e-001	-1.687999e-001	9.855325e-001	-1.685777e-001	1.525917e-004	-2.430603e-004
9505945.738	1.887436e-004	-3.592203e-004	9.853522e-001	-1.698741e-001	9.852259e-001	-1.695547e-001	1.104910e-004	-2.614977e-004
9568484.822	2.000622e-004	-3.607538e-004	9.852307e-001	-1.711328e-001	9.850895e-001	-1.706387e-001	1.756105e-004	-2.304965e-004
