!Agilent Technologies,E5061B,MY49102235,A.02.00
!Date: Mon Jul 10 16:27:40 2023
!Data & Calibration Information:
!Freq	S11:SOLT2(ON)	S21:SOLT2(ON)	S12:SOLT2(ON)	S22:SOLT2(ON)
# Hz S RI R 50
5.000	-3.963141e-004	4.390731e-004	1.001797e+000	2.278470e-003	1.000511e+000	4.339365e-006	-9.690628e-005	-6.697926e-005
62544.084	-4.721287e-005	-2.890042e-005	9.999243e-001	-8.255814e-004	1.000058e+000	-6.177170e-004	2.216984e-005	-1.231921e-004
125083.168	-3.172444e-005	-1.528149e-004	1.000252e+000	-2.249831e-003	1.000216e+000	-2.103141e-003	-6.157563e-005	-1.519379e-004
187622.251	1.667123e-004	-2.911555e-004	9.994322e-001	-2.485005e-003	1.000175e+000	-2.827894e-003	2.391172e-005	-1.951747e-004
250161.335	3.857738e-005	-2.074301e-004	9.997578e-001	-4.477424e-003	9.997879e-001	-4.096445e-003	3.119383e-005	-2.487020e-004
312700.419	2.219600e-005	-3.686598e-004	1.000374e+000	-5.257422e-003	9.992855e-001	-4.928065e-003	1.005425e-004	-3.188440e-004
375239.503	7.074462e-005	-3.829467e-004	9.998923e-001	-6.340042e-003	1.000186e+000	-6.258915e-003	9.205032e-007	-4.416264e-004
437778.587	8.070142e-005	-5.173063e-004	9.999634e-001	-7.455204e-003	9.993117e-001	-7.711720e-003	4.726457e-005	-3.309254e-004
500317.670	7.462933e-005	-6.284072e-004	1.000087e+000	-8.505465e-003	9.994112e-001	-8.645774e-003	9.821792e-005	-4.553365e-004
562856.754	1.215497e-004	-5.956891e-004	9.997197e-001	-9.649806e-003	9.995885e-001	-9.157857e-003	6.793328e-005	-6.473241e-004
625395.838	9.358200e-005	-6.985455e-004	9.998814e-001	-1.062302e-002	9.991493e-001	-1.024415e-002	1.127008e-004	-6.602531e-004
687934.922	-1.343109e-005	-8.209527e-004	1.000075e+000	-1.151587e-002	1.000223e+000	-1.160873e-002	-1.709287e-005	-7.630209e-004
750474.006	-8.739937e-005	-9.071446e-004	9.998871e-001	-1.286626e-002	9.996033e-001	-1.189747e-002	-1.022486e-004	-8.952937e-004
813013.089	-7.359385e-005	-9.638588e-004	1.000353e+000	-1.382875e-002	9.991844e-001	-1.323908e-002	-7.759556e-005	-9.984694e-004
875552.173	-7.449654e-005	-1.070943e-003	9.996658e-001	-1.491015e-002	9.999506e-001	-1.465451e-002	-6.454000e-005	-1.071673e-003
938091.257	-1.725907e-004	-1.119278e-003	9.995739e-001	-1.565857e-002	9.996040e-001	-1.513319e-002	-1.436737e-004	-1.127018e-003
1000630.341	-1.086516e-004	-1.138757e-003	9.998024e-001	-1.656214e-002	9.996710e-001	-1.642265e-002	-8.046007e-005	-1.207599e-003
1063169.425	-7.250109e-005	-1.232616e-003	1.000535e+000	-1.784751e-002	1.000320e+000	-1.797691e-002	-3.662217e-005	-1.315194e-003
1125708.508	-7.565140e-005	-1.333134e-003	1.000127e+000	-1.922048e-002	9.994999e-001	-1.874760e-002	-4.915462e-005	-1.348283e-003
1188247.592	-6.862971e-005	-1.427841e-003	9.996152e-001	-1.995441e-002	9.995275e-001	-1.968071e-002	-5.871449e-005	-1.414043e-003
1250786.676	-9.119565e-005	-1.480008e-003	9.997303e-001	-2.128284e-002	9.992361e-001	-2.066313e-002	-4.880282e-005	-1.468793e-003
1313325.760	-7.458098e-005	-1.545993e-003	9.998831e-001	-2.149667e-002	9.991634e-001	-2.182917e-002	-8.038744e-005	-1.599969e-003
1375864.844	-6.442379e-005	-1.649230e-003	1.000292e+000	-2.356054e-002	9.994418e-001	-2.342048e-002	-7.725724e-005	-1.688957e-003
1438403.927	-7.072899e-005	-1.755968e-003	9.997128e-001	-2.455799e-002	9.995141e-001	-2.387049e-002	-7.746936e-005	-1.762061e-003
1500943.011	-6.882883e-005	-1.831971e-003	9.999715e-001	-2.556963e-002	9.990950e-001	-2.515808e-002	-7.094726e-005	-1.802366e-003
1563482.095	-1.414386e-004	-1.892385e-003	9.993705e-001	-2.640711e-002	9.995944e-001	-2.616209e-002	-1.042069e-004	-1.921094e-003
1626021.179	-4.034565e-005	-1.938565e-003	9.996062e-001	-2.772282e-002	9.993586e-001	-2.693890e-002	-3.889364e-005	-1.982084e-003
1688560.263	-4.748376e-005	-2.041928e-003	9.999965e-001	-2.869139e-002	9.996333e-001	-2.811454e-002	-6.145137e-005	-2.041913e-003
1751099.346	-2.906657e-005	-2.036182e-003	9.998935e-001	-2.957548e-002	9.991586e-001	-2.923575e-002	-1.028221e-004	-2.149985e-003
1813638.430	-1.339548e-004	-2.172235e-003	9.999940e-001	-3.032307e-002	9.990704e-001	-3.029878e-002	-1.098653e-004	-2.182141e-003
1876177.514	-8.740285e-005	-2.306350e-003	9.997578e-001	-3.196264e-002	9.994957e-001	-3.118630e-002	-6.528227e-005	-2.270402e-003
1938716.598	-1.007705e-004	-2.349868e-003	9.992627e-001	-3.286342e-002	9.997990e-001	-3.249492e-002	-6.443961e-005	-2.359365e-003
2001255.682	-9.499827e-005	-2.392999e-003	9.998657e-001	-3.366339e-002	9.988485e-001	-3.346284e-002	-1.227987e-004	-2.440743e-003
2063794.765	-1.210391e-004	-2.433632e-003	9.992494e-001	-3.460749e-002	9.995040e-001	-3.447534e-002	-6.582452e-005	-2.512818e-003
2126333.849	-7.187603e-005	-2.624512e-003	9.986483e-001	-3.588128e-002	9.991122e-001	-3.566464e-002	-1.588984e-004	-2.633143e-003
2188872.933	-1.209165e-004	-2.642945e-003	9.993471e-001	-3.666134e-002	9.993602e-001	-3.675213e-002	-1.150955e-004	-2.645694e-003
2251412.017	-3.921465e-005	-2.738956e-003	9.995775e-001	-3.858849e-002	9.991119e-001	-3.738481e-002	-7.224509e-005	-2.754740e-003
2313951.101	-1.149709e-004	-2.823828e-003	9.991790e-001	-3.927118e-002	9.991098e-001	-3.809810e-002	-6.412184e-005	-2.866004e-003
2376490.184	-8.760404e-005	-2.894689e-003	9.997487e-001	-4.016346e-002	9.991832e-001	-3.972765e-002	-8.939762e-005	-2.906740e-003
2439029.268	-1.381817e-004	-3.008212e-003	9.991527e-001	-4.091347e-002	9.984835e-001	-4.075064e-002	-1.632959e-004	-3.028474e-003
2501568.352	-1.340623e-004	-2.973119e-003	9.991050e-001	-4.193458e-002	9.993775e-001	-4.190591e-002	-9.096490e-005	-3.046516e-003
2564107.436	-8.604135e-005	-3.056929e-003	9.988346e-001	-4.316697e-002	9.986311e-001	-4.286341e-002	-1.302550e-004	-3.174386e-003
2626646.520	-1.785730e-004	-3.195646e-003	9.986630e-001	-4.420330e-002	9.993098e-001	-4.345549e-002	-1.129459e-004	-3.199362e-003
2689185.604	-1.544184e-004	-3.251584e-003	9.995143e-001	-4.499730e-002	9.993711e-001	-4.485018e-002	-1.186081e-004	-3.339828e-003
2751724.687	-9.176459e-005	-3.396499e-003	9.990696e-001	-4.607381e-002	9.984027e-001	-4.590246e-002	-1.779359e-004	-3.333281e-003
2814263.771	-1.018917e-004	-3.445351e-003	9.993361e-001	-4.742727e-002	9.991076e-001	-4.739774e-002	-1.804603e-004	-3.437947e-003
2876802.855	-1.730245e-004	-3.512930e-003	9.991002e-001	-4.871893e-002	9.985064e-001	-4.825828e-002	-1.640809e-004	-3.550443e-003
2939341.939	-1.643850e-004	-3.582945e-003	9.988673e-001	-4.939213e-002	9.987543e-001	-4.881883e-002	-2.026944e-004	-3.625224e-003
3001881.023	-2.170666e-004	-3.636782e-003	9.988192e-001	-4.985607e-002	9.990710e-001	-4.957419e-002	-2.371020e-004	-3.642021e-003
3064420.106	-1.551940e-004	-3.760232e-003	9.986039e-001	-5.131572e-002	9.981209e-001	-5.100679e-002	-2.149578e-004	-3.733209e-003
3126959.190	-1.942128e-004	-3.806304e-003	9.986042e-001	-5.256331e-002	9.984051e-001	-5.228128e-002	-1.990816e-004	-3.833019e-003
3189498.274	-1.510068e-004	-3.883044e-003	9.986472e-001	-5.369473e-002	9.982879e-001	-5.336782e-002	-2.263190e-004	-3.912275e-003
3252037.358	-1.527984e-004	-3.978154e-003	9.985019e-001	-5.471404e-002	9.983799e-001	-5.436074e-002	-2.032844e-004	-3.973948e-003
3314576.442	-1.779293e-004	-4.107644e-003	9.985333e-001	-5.576870e-002	9.984657e-001	-5.550297e-002	-2.598007e-004	-4.038474e-003
3377115.525	-2.239075e-004	-4.116344e-003	9.985247e-001	-5.696340e-002	9.982091e-001	-5.652360e-002	-2.603910e-004	-4.141485e-003
3439654.609	-1.988165e-004	-4.170085e-003	9.981739e-001	-5.781497e-002	9.982726e-001	-5.761887e-002	-2.596081e-004	-4.226131e-003
3502193.693	-1.944510e-004	-4.314630e-003	9.982676e-001	-5.889432e-002	9.982154e-001	-5.853887e-002	-2.446109e-004	-4.338512e-003
3564732.777	-2.366864e-004	-4.366883e-003	9.982283e-001	-6.002236e-002	9.981145e-001	-5.963528e-002	-2.488527e-004	-4.388847e-003
3627271.861	-2.279580e-004	-4.454786e-003	9.980867e-001	-6.103258e-002	9.981066e-001	-6.072914e-002	-2.903692e-004	-4.451203e-003
3689810.944	-2.630461e-004	-4.542768e-003	9.981511e-001	-6.201520e-002	9.978576e-001	-6.175320e-002	-3.253208e-004	-4.559408e-003
3752350.028	-3.028005e-004	-4.584735e-003	9.980453e-001	-6.313614e-002	9.979117e-001	-6.275090e-002	-2.629037e-004	-4.595455e-003
3814889.112	-2.569713e-004	-4.674356e-003	9.979320e-001	-6.413603e-002	9.977921e-001	-6.377999e-002	-2.923837e-004	-4.714777e-003
3877428.196	-2.031105e-004	-4.725987e-003	9.979017e-001	-6.520085e-002	9.976528e-001	-6.478704e-002	-3.304204e-004	-4.763154e-003
3939967.280	-2.851870e-004	-4.853960e-003	9.977069e-001	-6.633602e-002	9.976308e-001	-6.593270e-002	-3.141073e-004	-4.792696e-003
4002506.363	-2.680589e-004	-4.909930e-003	9.976624e-001	-6.727611e-002	9.975722e-001	-6.688700e-002	-3.381162e-004	-4.903513e-003
4065045.447	-2.700607e-004	-4.994856e-003	9.977152e-001	-6.838605e-002	9.975929e-001	-6.816283e-002	-3.366728e-004	-5.019837e-003
4127584.531	-3.358251e-004	-5.052489e-003	9.977656e-001	-6.946084e-002	9.974575e-001	-6.908781e-002	-3.431317e-004	-5.080467e-003
4190123.615	-3.157408e-004	-5.127737e-003	9.974383e-001	-7.033527e-002	9.974116e-001	-7.004968e-002	-3.882054e-004	-5.169073e-003
4252662.699	-3.788483e-004	-5.198014e-003	9.974091e-001	-7.140253e-002	9.972227e-001	-7.101445e-002	-4.137898e-004	-5.195716e-003
4315201.782	-3.178894e-004	-5.314944e-003	9.973432e-001	-7.253193e-002	9.971874e-001	-7.203697e-002	-4.298482e-004	-5.307133e-003
4377740.866	-3.581227e-004	-5.386944e-003	9.973539e-001	-7.364632e-002	9.971948e-001	-7.328538e-002	-3.753024e-004	-5.376403e-003
4440279.950	-3.411422e-004	-5.414590e-003	9.972600e-001	-7.441402e-002	9.971708e-001	-7.422112e-002	-4.128020e-004	-5.478213e-003
4502819.034	-3.306254e-004	-5.595095e-003	9.972514e-001	-7.556205e-002	9.969324e-001	-7.531830e-002	-4.159596e-004	-5.537744e-003
4565358.118	-3.676795e-004	-5.591417e-003	9.968168e-001	-7.661495e-002	9.969979e-001	-7.651473e-002	-4.116856e-004	-5.577862e-003
4627897.201	-3.702611e-004	-5.717194e-003	9.969354e-001	-7.766159e-002	9.969340e-001	-7.729389e-002	-4.754338e-004	-5.615896e-003
4690436.285	-3.532590e-004	-5.760456e-003	9.968806e-001	-7.882928e-002	9.967721e-001	-7.839125e-002	-4.720831e-004	-5.729332e-003
4752975.369	-4.322637e-004	-5.900145e-003	9.967297e-001	-7.980359e-002	9.965960e-001	-7.948083e-002	-4.757929e-004	-5.817102e-003
4815514.453	-4.320695e-004	-5.949244e-003	9.967827e-001	-8.094621e-002	9.964982e-001	-8.055862e-002	-4.874606e-004	-5.914788e-003
4878053.537	-4.719410e-004	-5.970985e-003	9.966834e-001	-8.210498e-002	9.964783e-001	-8.148866e-002	-5.197539e-004	-5.944794e-003
4940592.620	-4.448118e-004	-6.063347e-003	9.964790e-001	-8.302158e-002	9.963236e-001	-8.255101e-002	-5.246452e-004	-6.041687e-003
5003131.704	-4.432854e-004	-6.157755e-003	9.964287e-001	-8.405797e-002	9.961716e-001	-8.371281e-002	-6.035759e-004	-6.161487e-003
5065670.788	-5.149732e-004	-6.244679e-003	9.963425e-001	-8.514821e-002	9.961258e-001	-8.475114e-002	-5.566080e-004	-6.204493e-003
5128209.872	-4.680004e-004	-6.279207e-003	9.962591e-001	-8.608430e-002	9.961848e-001	-8.572743e-002	-5.639776e-004	-6.284737e-003
5190748.956	-4.987502e-004	-6.420647e-003	9.961579e-001	-8.724284e-002	9.961415e-001	-8.671917e-002	-5.725678e-004	-6.343223e-003
5253288.039	-5.307357e-004	-6.459627e-003	9.958559e-001	-8.815361e-002	9.960386e-001	-8.781078e-002	-5.443411e-004	-6.434354e-003
5315827.123	-5.256833e-004	-6.546684e-003	9.958953e-001	-8.924365e-002	9.958780e-001	-8.898227e-002	-5.652378e-004	-6.481991e-003
5378366.207	-5.674799e-004	-6.612822e-003	9.957107e-001	-9.035384e-002	9.957937e-001	-8.992107e-002	-6.252476e-004	-6.568821e-003
5440905.291	-5.583757e-004	-6.688401e-003	9.959041e-001	-9.124844e-002	9.957614e-001	-9.103666e-002	-6.196216e-004	-6.656763e-003
5503444.375	-5.772188e-004	-6.776048e-003	9.956900e-001	-9.244501e-002	9.955234e-001	-9.229043e-002	-6.473480e-004	-6.725890e-003
5565983.458	-6.206216e-004	-6.839171e-003	9.956687e-001	-9.343427e-002	9.953687e-001	-9.318060e-002	-5.995801e-004	-6.792017e-003
5628522.542	-6.265598e-004	-6.942454e-003	9.955472e-001	-9.438641e-002	9.955308e-001	-9.406962e-002	-7.195760e-004	-6.913445e-003
5691061.626	-5.760774e-004	-6.992719e-003	9.954028e-001	-9.544280e-002	9.951598e-001	-9.522381e-002	-7.196301e-004	-6.952007e-003
5753600.710	-6.140353e-004	-7.088201e-003	9.952657e-001	-9.662500e-002	9.952186e-001	-9.625037e-002	-6.649708e-004	-7.020426e-003
5816139.794	-5.905805e-004	-7.137966e-003	9.952458e-001	-9.761963e-002	9.950994e-001	-9.743071e-002	-7.598866e-004	-7.111625e-003
5878678.877	-6.643830e-004	-7.236157e-003	9.950414e-001	-9.855369e-002	9.949153e-001	-9.831738e-002	-7.034128e-004	-7.148966e-003
5941217.961	-6.852223e-004	-7.315216e-003	9.950543e-001	-9.962236e-002	9.949886e-001	-9.924741e-002	-7.852516e-004	-7.241088e-003
6003757.045	-6.597250e-004	-7.441126e-003	9.947809e-001	-1.008432e-001	9.948019e-001	-1.003677e-001	-7.742890e-004	-7.377059e-003
6066296.129	-7.183579e-004	-7.464399e-003	9.946598e-001	-1.018426e-001	9.946211e-001	-1.014766e-001	-7.807394e-004	-7.390125e-003
6128835.213	-7.357563e-004	-7.494185e-003	9.946636e-001	-1.029019e-001	9.946611e-001	-1.026598e-001	-7.797510e-004	-7.454594e-003
6191374.296	-7.769937e-004	-7.655503e-003	9.944686e-001	-1.036839e-001	9.943938e-001	-1.035331e-001	-8.450686e-004	-7.576501e-003
6253913.380	-7.470453e-004	-7.712822e-003	9.942892e-001	-1.050160e-001	9.941751e-001	-1.045715e-001	-8.389499e-004	-7.595834e-003
6316452.464	-7.539743e-004	-7.729192e-003	9.942822e-001	-1.058865e-001	9.943081e-001	-1.055394e-001	-8.302602e-004	-7.689624e-003
6378991.548	-7.971607e-004	-7.873098e-003	9.943502e-001	-1.069872e-001	9.940902e-001	-1.065591e-001	-8.385274e-004	-7.747663e-003
6441530.632	-8.242755e-004	-7.906423e-003	9.942018e-001	-1.081072e-001	9.938505e-001	-1.077985e-001	-8.783669e-004	-7.902010e-003
6504069.715	-8.197820e-004	-7.992057e-003	9.940113e-001	-1.090316e-001	9.939377e-001	-1.088345e-001	-8.874165e-004	-7.945982e-003
6566608.799	-8.275738e-004	-8.067165e-003	9.937483e-001	-1.101374e-001	9.937649e-001	-1.097361e-001	-9.606707e-004	-7.990121e-003
6629147.883	-8.632913e-004	-8.149776e-003	9.936656e-001	-1.112403e-001	9.937170e-001	-1.108368e-001	-9.598282e-004	-8.064018e-003
6691686.967	-8.786049e-004	-8.264661e-003	9.936795e-001	-1.121599e-001	9.933128e-001	-1.119860e-001	-9.981719e-004	-8.098222e-003
6754226.051	-9.210395e-004	-8.294852e-003	9.935770e-001	-1.132781e-001	9.934335e-001	-1.129203e-001	-9.550103e-004	-8.252149e-003
6816765.134	-9.589743e-004	-8.403191e-003	9.933519e-001	-1.142939e-001	9.933205e-001	-1.139998e-001	-9.731368e-004	-8.333579e-003
6879304.218	-9.282950e-004	-8.456639e-003	9.932321e-001	-1.153552e-001	9.931132e-001	-1.150106e-001	-9.839365e-004	-8.380328e-003
6941843.302	-9.270586e-004	-8.503649e-003	9.930843e-001	-1.162663e-001	9.931054e-001	-1.161248e-001	-1.032196e-003	-8.420757e-003
7004382.386	-9.873294e-004	-8.573206e-003	9.929069e-001	-1.175413e-001	9.930368e-001	-1.172103e-001	-1.041688e-003	-8.532501e-003
7066921.470	-9.813719e-004	-8.667710e-003	9.927963e-001	-1.184998e-001	9.929220e-001	-1.180888e-001	-1.054665e-003	-8.603298e-003
7129460.553	-9.689361e-004	-8.788001e-003	9.927800e-001	-1.194993e-001	9.927908e-001	-1.193206e-001	-1.088013e-003	-8.674639e-003
7191999.637	-1.021633e-003	-8.832900e-003	9.925674e-001	-1.206125e-001	9.925210e-001	-1.201587e-001	-1.099271e-003	-8.742634e-003
7254538.721	-9.776330e-004	-8.908217e-003	9.925185e-001	-1.216403e-001	9.925191e-001	-1.213090e-001	-1.139888e-003	-8.792013e-003
7317077.805	-1.072935e-003	-8.965822e-003	9.922203e-001	-1.226729e-001	9.924914e-001	-1.223183e-001	-1.140262e-003	-8.863428e-003
7379616.889	-1.049640e-003	-9.043718e-003	9.923474e-001	-1.237326e-001	9.921295e-001	-1.232590e-001	-1.137152e-003	-9.010952e-003
7442155.972	-1.078244e-003	-9.138747e-003	9.920424e-001	-1.247129e-001	9.919464e-001	-1.244781e-001	-1.179219e-003	-9.050056e-003
7504695.056	-1.075062e-003	-9.211736e-003	9.919409e-001	-1.257554e-001	9.919978e-001	-1.253560e-001	-1.157790e-003	-9.091914e-003
7567234.140	-1.125273e-003	-9.259432e-003	9.919428e-001	-1.268850e-001	9.917556e-001	-1.263642e-001	-1.208730e-003	-9.162042e-003
7629773.224	-1.123690e-003	-9.369707e-003	9.916577e-001	-1.279065e-001	9.916452e-001	-1.274788e-001	-1.242508e-003	-9.247474e-003
7692312.308	-1.174510e-003	-9.435383e-003	9.916589e-001	-1.289074e-001	9.915183e-001	-1.285471e-001	-1.213200e-003	-9.257554e-003
7754851.391	-1.177372e-003	-9.524973e-003	9.913456e-001	-1.298721e-001	9.913392e-001	-1.295445e-001	-1.293949e-003	-9.352700e-003
7817390.475	-1.175889e-003	-9.549968e-003	9.914568e-001	-1.309298e-001	9.912740e-001	-1.307139e-001	-1.254852e-003	-9.467749e-003
7879929.559	-1.235243e-003	-9.665523e-003	9.911414e-001	-1.319388e-001	9.910394e-001	-1.316424e-001	-1.289728e-003	-9.532436e-003
7942468.643	-1.256586e-003	-9.706634e-003	9.909661e-001	-1.329761e-001	9.909793e-001	-1.328350e-001	-1.330443e-003	-9.605590e-003
8005007.727	-1.246457e-003	-9.774814e-003	9.908927e-001	-1.342113e-001	9.908434e-001	-1.336963e-001	-1.372224e-003	-9.724074e-003
8067546.811	-1.268528e-003	-9.851439e-003	9.907611e-001	-1.352279e-001	9.907681e-001	-1.348900e-001	-1.310467e-003	-9.765200e-003
8130085.894	-1.288316e-003	-9.917159e-003	9.905973e-001	-1.361892e-001	9.904509e-001	-1.358962e-001	-1.389401e-003	-9.833021e-003
8192624.978	-1.307768e-003	-1.002737e-002	9.904154e-001	-1.371782e-001	9.903490e-001	-1.368965e-001	-1.365409e-003	-9.916898e-003
8255164.062	-1.339004e-003	-1.009253e-002	9.903158e-001	-1.382872e-001	9.902701e-001	-1.379139e-001	-1.416118e-003	-1.000665e-002
8317703.146	-1.329244e-003	-1.021812e-002	9.902299e-001	-1.393535e-001	9.901922e-001	-1.389634e-001	-1.465537e-003	-1.008150e-002
8380242.230	-1.339865e-003	-1.029857e-002	9.900221e-001	-1.401164e-001	9.901755e-001	-1.399608e-001	-1.447928e-003	-1.011811e-002
8442781.313	-1.382297e-003	-1.031318e-002	9.899552e-001	-1.411793e-001	9.897819e-001	-1.409655e-001	-1.494605e-003	-1.017527e-002
8505320.397	-1.448453e-003	-1.039135e-002	9.897256e-001	-1.424426e-001	9.896379e-001	-1.422259e-001	-1.474239e-003	-1.033360e-002
8567859.481	-1.442578e-003	-1.046511e-002	9.895111e-001	-1.434258e-001	9.895681e-001	-1.429638e-001	-1.486574e-003	-1.032625e-002
8630398.565	-1.434210e-003	-1.052240e-002	9.894103e-001	-1.444928e-001	9.893371e-001	-1.441415e-001	-1.511635e-003	-1.046165e-002
8692937.649	-1.489100e-003	-1.059517e-002	9.891538e-001	-1.455086e-001	9.891458e-001	-1.449976e-001	-1.606411e-003	-1.047281e-002
8755476.732	-1.539426e-003	-1.063570e-002	9.889864e-001	-1.466557e-001	9.891211e-001	-1.462347e-001	-1.579393e-003	-1.054118e-002
8818015.816	-1.530374e-003	-1.076855e-002	9.889731e-001	-1.474618e-001	9.890083e-001	-1.471286e-001	-1.598306e-003	-1.063436e-002
8880554.900	-1.581989e-003	-1.087764e-002	9.888085e-001	-1.486934e-001	9.888094e-001	-1.481775e-001	-1.657245e-003	-1.069978e-002
8943093.984	-1.566356e-003	-1.090879e-002	9.886578e-001	-1.497717e-001	9.885891e-001	-1.491964e-001	-1.615896e-003	-1.076278e-002
9005633.068	-1.600576e-003	-1.100927e-002	9.884582e-001	-1.506810e-001	9.883720e-001	-1.504066e-001	-1.672259e-003	-1.088159e-002
9068172.151	-1.599497e-003	-1.106553e-002	9.882706e-001	-1.517572e-001	9.880559e-001	-1.514606e-001	-1.750198e-003	-1.089539e-002
9130711.235	-1.617183e-003	-1.111211e-002	9.881329e-001	-1.527344e-001	9.881126e-001	-1.522572e-001	-1.690236e-003	-1.101542e-002
9193250.319	-1.648932e-003	-1.124099e-002	9.879416e-001	-1.537096e-001	9.879584e-001	-1.534470e-001	-1.699583e-003	-1.109473e-002
9255789.403	-1.655059e-003	-1.129069e-002	9.877807e-001	-1.549049e-001	9.878541e-001	-1.544385e-001	-1.745663e-003	-1.109437e-002
9318328.487	-1.746718e-003	-1.135998e-002	9.875895e-001	-1.559736e-001	9.876918e-001	-1.556657e-001	-1.783433e-003	-1.123399e-002
9380867.570	-1.779820e-003	-1.139681e-002	9.874982e-001	-1.569581e-001	9.873000e-001	-1.564945e-001	-1.805753e-003	-1.126547e-002
9443406.654	-1.781331e-003	-1.152759e-002	9.872786e-001	-1.579314e-001	9.873537e-001	-1.576558e-001	-1.796748e-003	-1.135218e-002
