!Agilent Technologies,E5061B,MY49102235,A.02.00
!Date: Mon Jul 10 17:14:10 2023
!Data & Calibration Information:
!Freq	S11:SOLT2(ON)	S21:SOLT2(ON)	S12:SOLT2(ON)	S22:SOLT2(ON)
# Hz S RI R 50
5.000	-4.003104e-004	4.422105e-004	1.001860e+000	2.311030e-003	1.000568e+000	-3.379818e-005	-1.509740e-004	-6.716422e-005
62544.084	-6.107449e-005	-1.894251e-005	1.000026e+000	-9.268365e-004	1.000230e+000	-7.036650e-004	1.155072e-005	-1.307607e-004
125083.168	-2.113390e-005	-1.195278e-004	1.000072e+000	-2.301631e-003	1.000202e+000	-2.118070e-003	-5.018348e-005	-1.413900e-004
187622.251	1.763608e-004	-2.690303e-004	9.993432e-001	-2.493214e-003	1.000214e+000	-2.900302e-003	2.900011e-005	-1.820710e-004
250161.335	4.403890e-005	-1.968567e-004	9.997800e-001	-4.386242e-003	9.997225e-001	-4.277850e-003	3.593623e-005	-2.235244e-004
312700.419	3.809796e-005	-3.569382e-004	1.000271e+000	-5.291818e-003	9.991899e-001	-4.874512e-003	1.300125e-004	-2.939523e-004
375239.503	6.942749e-005	-3.817207e-004	9.999930e-001	-6.246484e-003	1.000225e+000	-6.159402e-003	9.204512e-006	-4.316655e-004
437778.587	1.073197e-004	-5.169812e-004	9.999660e-001	-7.304207e-003	9.991351e-001	-7.568920e-003	1.009714e-004	-3.138615e-004
500317.670	1.004752e-004	-6.010207e-004	1.000006e+000	-8.421635e-003	9.993452e-001	-8.789864e-003	1.101405e-004	-4.071383e-004
562856.754	1.427881e-004	-5.537455e-004	9.996299e-001	-9.649901e-003	9.996186e-001	-9.215316e-003	7.452790e-005	-6.044548e-004
625395.838	1.058500e-004	-6.447899e-004	9.998307e-001	-1.071940e-002	9.991427e-001	-1.035270e-002	1.287696e-004	-6.143431e-004
687934.922	-2.505722e-006	-8.067887e-004	1.000051e+000	-1.143860e-002	1.000210e+000	-1.161246e-002	1.295334e-005	-7.277292e-004
750474.006	-9.310642e-005	-8.794463e-004	9.997425e-001	-1.281904e-002	9.995861e-001	-1.179155e-002	-1.110465e-004	-8.636246e-004
813013.089	-7.448230e-005	-9.266096e-004	1.000236e+000	-1.393220e-002	9.992094e-001	-1.321041e-002	-8.210295e-005	-9.730971e-004
875552.173	-7.680070e-005	-1.035834e-003	9.998658e-001	-1.485031e-002	9.999265e-001	-1.467242e-002	-7.155080e-005	-1.035859e-003
938091.257	-1.586781e-004	-1.079297e-003	9.995362e-001	-1.578027e-002	9.995264e-001	-1.510612e-002	-1.373268e-004	-1.084223e-003
1000630.341	-1.157228e-004	-1.085968e-003	9.997862e-001	-1.643680e-002	9.998352e-001	-1.645115e-002	-7.993981e-005	-1.172500e-003
1063169.425	-8.302035e-005	-1.199145e-003	1.000425e+000	-1.781930e-002	1.000343e+000	-1.793521e-002	-4.552690e-005	-1.263558e-003
1125708.508	-7.911439e-005	-1.270509e-003	1.000153e+000	-1.912312e-002	9.994447e-001	-1.864325e-002	-5.853048e-005	-1.296416e-003
1188247.592	-7.621201e-005	-1.390765e-003	9.995831e-001	-1.980104e-002	9.995589e-001	-1.964505e-002	-3.588860e-005	-1.373437e-003
1250786.676	-8.781789e-005	-1.455867e-003	9.996773e-001	-2.133599e-002	9.991991e-001	-2.057068e-002	-3.439980e-005	-1.426672e-003
1313325.760	-6.847661e-005	-1.496930e-003	9.998947e-001	-2.147943e-002	9.990796e-001	-2.187731e-002	-9.533091e-005	-1.565647e-003
1375864.844	-7.017408e-005	-1.625133e-003	1.000027e+000	-2.362541e-002	9.994316e-001	-2.341321e-002	-5.857609e-005	-1.631355e-003
1438403.927	-7.518209e-005	-1.706758e-003	9.995806e-001	-2.458955e-002	9.995318e-001	-2.389912e-002	-6.519689e-005	-1.716774e-003
1500943.011	-7.048742e-005	-1.764594e-003	9.998936e-001	-2.558914e-002	9.992397e-001	-2.520782e-002	-7.236447e-005	-1.740676e-003
1563482.095	-1.332246e-004	-1.833770e-003	9.992646e-001	-2.637399e-002	9.996227e-001	-2.607569e-002	-9.725591e-005	-1.848700e-003
1626021.179	-4.766568e-005	-1.880438e-003	9.995662e-001	-2.758386e-002	9.993987e-001	-2.689124e-002	-3.697183e-005	-1.934743e-003
1688560.263	-2.495086e-005	-1.985436e-003	1.000008e+000	-2.874759e-002	9.996046e-001	-2.806994e-002	-5.224852e-005	-1.982641e-003
1751099.346	-3.295615e-005	-1.976904e-003	9.998469e-001	-2.952883e-002	9.991933e-001	-2.921733e-002	-7.876539e-005	-2.072511e-003
1813638.430	-1.256345e-004	-2.100959e-003	9.999422e-001	-3.035250e-002	9.991397e-001	-3.031276e-002	-9.763929e-005	-2.115316e-003
1876177.514	-1.008665e-004	-2.224342e-003	9.997522e-001	-3.181001e-002	9.995007e-001	-3.116835e-002	-6.344589e-005	-2.224660e-003
1938716.598	-1.035167e-004	-2.274927e-003	9.992967e-001	-3.280686e-002	9.996503e-001	-3.243839e-002	-6.071292e-005	-2.283597e-003
2001255.682	-8.374781e-005	-2.313155e-003	9.998918e-001	-3.363122e-002	9.989166e-001	-3.346669e-002	-9.235038e-005	-2.373248e-003
2063794.765	-1.082534e-004	-2.361374e-003	9.992376e-001	-3.454458e-002	9.996041e-001	-3.447514e-002	-5.861734e-005	-2.443073e-003
2126333.849	-5.406911e-005	-2.541239e-003	9.987150e-001	-3.591142e-002	9.990684e-001	-3.574554e-002	-1.538032e-004	-2.554735e-003
2188872.933	-1.053441e-004	-2.564031e-003	9.993440e-001	-3.667268e-002	9.992250e-001	-3.672153e-002	-1.048455e-004	-2.559162e-003
2251412.017	-3.493821e-005	-2.657240e-003	9.994998e-001	-3.861961e-002	9.992349e-001	-3.741660e-002	-3.647813e-005	-2.672291e-003
2313951.101	-1.172209e-004	-2.743983e-003	9.990093e-001	-3.921239e-002	9.990633e-001	-3.829503e-002	-4.556774e-005	-2.792635e-003
2376490.184	-8.434559e-005	-2.825853e-003	9.998185e-001	-4.020941e-002	9.991331e-001	-3.977003e-002	-8.187109e-005	-2.816702e-003
2439029.268	-1.322641e-004	-2.921338e-003	9.991531e-001	-4.096784e-002	9.984368e-001	-4.074119e-002	-1.470787e-004	-2.948618e-003
2501568.352	-1.301035e-004	-2.893324e-003	9.990844e-001	-4.190402e-002	9.993917e-001	-4.184418e-002	-8.243964e-005	-2.951403e-003
2564107.436	-8.071668e-005	-2.967042e-003	9.987766e-001	-4.297672e-002	9.987760e-001	-4.297624e-002	-1.162162e-004	-3.091867e-003
2626646.520	-1.513666e-004	-3.086483e-003	9.987323e-001	-4.412246e-002	9.992524e-001	-4.347758e-002	-1.017112e-004	-3.102230e-003
2689185.604	-1.544784e-004	-3.169126e-003	9.993661e-001	-4.499085e-002	9.992992e-001	-4.477107e-002	-1.097753e-004	-3.262396e-003
2751724.687	-8.619498e-005	-3.303803e-003	9.990741e-001	-4.599272e-002	9.984621e-001	-4.583675e-002	-1.551537e-004	-3.242044e-003
2814263.771	-8.409418e-005	-3.347655e-003	9.992576e-001	-4.742083e-002	9.990771e-001	-4.740299e-002	-1.446428e-004	-3.348945e-003
2876802.855	-1.524507e-004	-3.429673e-003	9.989981e-001	-4.888725e-002	9.984914e-001	-4.808636e-002	-1.461490e-004	-3.459058e-003
2939341.939	-1.479519e-004	-3.481893e-003	9.987873e-001	-4.929652e-002	9.987538e-001	-4.877418e-002	-1.721490e-004	-3.523380e-003
3001881.023	-2.004499e-004	-3.544027e-003	9.989161e-001	-4.989237e-002	9.987898e-001	-4.955764e-002	-2.206046e-004	-3.543917e-003
3064420.106	-1.425583e-004	-3.657777e-003	9.984205e-001	-5.135884e-002	9.981845e-001	-5.088127e-002	-1.834665e-004	-3.618899e-003
3126959.190	-1.805935e-004	-3.707103e-003	9.985580e-001	-5.255123e-002	9.984148e-001	-5.235085e-002	-1.721621e-004	-3.731925e-003
3189498.274	-1.506578e-004	-3.768771e-003	9.986367e-001	-5.370738e-002	9.982577e-001	-5.339049e-002	-2.053596e-004	-3.804356e-003
3252037.358	-1.397317e-004	-3.869828e-003	9.984553e-001	-5.475392e-002	9.983703e-001	-5.434175e-002	-1.705282e-004	-3.876314e-003
3314576.442	-1.681377e-004	-3.994062e-003	9.984509e-001	-5.575909e-002	9.983897e-001	-5.552488e-002	-2.397121e-004	-3.922607e-003
3377115.525	-2.206928e-004	-3.999679e-003	9.985061e-001	-5.693695e-002	9.981456e-001	-5.652107e-002	-2.276552e-004	-4.033488e-003
3439654.609	-1.795345e-004	-4.048763e-003	9.981537e-001	-5.780821e-002	9.982710e-001	-5.759108e-002	-2.317208e-004	-4.109569e-003
3502193.693	-1.804352e-004	-4.195799e-003	9.982303e-001	-5.888497e-002	9.982075e-001	-5.852703e-002	-2.194133e-004	-4.231619e-003
3564732.777	-2.198357e-004	-4.242173e-003	9.982245e-001	-6.003246e-002	9.981067e-001	-5.964406e-002	-2.173062e-004	-4.275879e-003
3627271.861	-2.268116e-004	-4.329446e-003	9.980424e-001	-6.100482e-002	9.980968e-001	-6.074548e-002	-2.414443e-004	-4.346895e-003
3689810.944	-2.407168e-004	-4.406461e-003	9.980710e-001	-6.202672e-002	9.978382e-001	-6.175705e-002	-2.975814e-004	-4.434224e-003
3752350.028	-2.786819e-004	-4.444952e-003	9.980046e-001	-6.311395e-002	9.979261e-001	-6.276156e-002	-2.422449e-004	-4.479182e-003
3814889.112	-2.415976e-004	-4.552693e-003	9.978838e-001	-6.416961e-002	9.977857e-001	-6.381465e-002	-2.694548e-004	-4.597985e-003
3877428.196	-1.896581e-004	-4.605741e-003	9.979060e-001	-6.517765e-002	9.976584e-001	-6.479825e-002	-3.040523e-004	-4.645304e-003
3939967.280	-2.774661e-004	-4.717334e-003	9.976618e-001	-6.631638e-002	9.975842e-001	-6.593906e-002	-2.813552e-004	-4.679094e-003
4002506.363	-2.397044e-004	-4.781628e-003	9.976326e-001	-6.726348e-002	9.975632e-001	-6.688886e-002	-3.050072e-004	-4.761546e-003
4065045.447	-2.502539e-004	-4.864228e-003	9.977084e-001	-6.839447e-002	9.975950e-001	-6.822517e-002	-2.820341e-004	-4.888795e-003
4127584.531	-3.154522e-004	-4.915756e-003	9.977063e-001	-6.948272e-002	9.974447e-001	-6.909397e-002	-3.190553e-004	-4.946533e-003
4190123.615	-3.007713e-004	-4.984227e-003	9.973993e-001	-7.035890e-002	9.973865e-001	-7.008264e-002	-3.567657e-004	-5.033619e-003
4252662.699	-3.703549e-004	-5.051618e-003	9.973854e-001	-7.140098e-002	9.971609e-001	-7.101804e-002	-3.723243e-004	-5.067681e-003
4315201.782	-3.051918e-004	-5.171505e-003	9.973041e-001	-7.256659e-002	9.971808e-001	-7.203184e-002	-4.028015e-004	-5.172796e-003
4377740.866	-3.335925e-004	-5.247463e-003	9.972968e-001	-7.361657e-002	9.971568e-001	-7.329802e-002	-3.423704e-004	-5.245976e-003
4440279.950	-3.209583e-004	-5.268750e-003	9.972242e-001	-7.444824e-002	9.971213e-001	-7.424196e-002	-3.767086e-004	-5.340773e-003
4502819.034	-3.131751e-004	-5.436416e-003	9.972358e-001	-7.556859e-002	9.969148e-001	-7.532320e-002	-3.831335e-004	-5.391770e-003
4565358.118	-3.533447e-004	-5.436992e-003	9.967821e-001	-7.659360e-002	9.969672e-001	-7.653316e-002	-3.817026e-004	-5.434382e-003
4627897.201	-3.559587e-004	-5.557156e-003	9.969091e-001	-7.765850e-002	9.969101e-001	-7.733361e-002	-4.212637e-004	-5.475624e-003
4690436.285	-3.310995e-004	-5.607925e-003	9.968350e-001	-7.881481e-002	9.967637e-001	-7.841936e-002	-4.135441e-004	-5.588072e-003
4752975.369	-4.030148e-004	-5.741499e-003	9.967341e-001	-7.981161e-002	9.965831e-001	-7.950579e-002	-4.203328e-004	-5.675816e-003
4815514.453	-4.049690e-004	-5.787803e-003	9.967308e-001	-8.094727e-002	9.964279e-001	-8.057967e-002	-4.288145e-004	-5.760962e-003
4878053.537	-4.323449e-004	-5.797053e-003	9.966545e-001	-8.209618e-002	9.964507e-001	-8.148203e-002	-4.657929e-004	-5.800503e-003
4940592.620	-4.218790e-004	-5.901129e-003	9.963794e-001	-8.299577e-002	9.962784e-001	-8.260259e-002	-4.850299e-004	-5.892341e-003
5003131.704	-4.190377e-004	-5.991773e-003	9.963656e-001	-8.407639e-002	9.961145e-001	-8.371456e-002	-5.632905e-004	-6.017610e-003
5065670.788	-4.876909e-004	-6.071380e-003	9.963058e-001	-8.511800e-002	9.961103e-001	-8.475925e-002	-5.086085e-004	-6.051282e-003
5128209.872	-4.463961e-004	-6.111569e-003	9.961964e-001	-8.606228e-002	9.961522e-001	-8.570914e-002	-5.188917e-004	-6.132868e-003
5190748.956	-4.624643e-004	-6.251273e-003	9.961214e-001	-8.722249e-002	9.961120e-001	-8.671876e-002	-5.268676e-004	-6.196292e-003
5253288.039	-4.984892e-004	-6.281657e-003	9.958259e-001	-8.818354e-002	9.960005e-001	-8.780747e-002	-4.946803e-004	-6.274443e-003
5315827.123	-5.112213e-004	-6.362346e-003	9.958275e-001	-8.925578e-002	9.958334e-001	-8.899611e-002	-5.193144e-004	-6.320286e-003
5378366.207	-5.362136e-004	-6.431748e-003	9.957030e-001	-9.032669e-002	9.957012e-001	-8.989935e-002	-5.700513e-004	-6.420543e-003
5440905.291	-5.217474e-004	-6.515418e-003	9.958365e-001	-9.124349e-002	9.957612e-001	-9.106285e-002	-5.575582e-004	-6.510549e-003
5503444.375	-5.463850e-004	-6.588850e-003	9.956202e-001	-9.244351e-002	9.954890e-001	-9.231032e-002	-5.809205e-004	-6.567878e-003
5565983.458	-5.864103e-004	-6.639775e-003	9.956351e-001	-9.347502e-002	9.953441e-001	-9.322326e-002	-5.370330e-004	-6.621817e-003
5628522.542	-5.883414e-004	-6.759721e-003	9.955073e-001	-9.438897e-002	9.955234e-001	-9.407810e-002	-6.727410e-004	-6.761827e-003
5691061.626	-5.435507e-004	-6.800672e-003	9.953761e-001	-9.548379e-002	9.951669e-001	-9.525058e-002	-6.677891e-004	-6.778108e-003
5753600.710	-5.720162e-004	-6.902667e-003	9.951986e-001	-9.663463e-002	9.951770e-001	-9.625341e-002	-6.030101e-004	-6.854825e-003
5816139.794	-5.565577e-004	-6.950347e-003	9.952321e-001	-9.761582e-002	9.950488e-001	-9.747496e-002	-6.971812e-004	-6.941972e-003
5878678.877	-6.236790e-004	-7.035710e-003	9.949485e-001	-9.856668e-002	9.949121e-001	-9.833656e-002	-6.460171e-004	-6.975711e-003
5941217.961	-6.598727e-004	-7.109576e-003	9.950240e-001	-9.959234e-002	9.949543e-001	-9.921822e-002	-7.365762e-004	-7.066021e-003
6003757.045	-6.266281e-004	-7.235658e-003	9.947797e-001	-1.007978e-001	9.947507e-001	-1.003212e-001	-7.266213e-004	-7.210055e-003
6066296.129	-6.966124e-004	-7.252337e-003	9.945807e-001	-1.018715e-001	9.945605e-001	-1.014885e-001	-7.285079e-004	-7.213048e-003
6128835.213	-6.932629e-004	-7.290944e-003	9.946231e-001	-1.028973e-001	9.946393e-001	-1.026931e-001	-7.298911e-004	-7.266810e-003
6191374.296	-7.343814e-004	-7.443505e-003	9.944405e-001	-1.036776e-001	9.944151e-001	-1.035155e-001	-7.772612e-004	-7.399555e-003
6253913.380	-7.000519e-004	-7.515633e-003	9.942499e-001	-1.049888e-001	9.941098e-001	-1.045493e-001	-7.928410e-004	-7.412977e-003
6316452.464	-7.177989e-004	-7.519336e-003	9.942328e-001	-1.058439e-001	9.942696e-001	-1.055719e-001	-7.620177e-004	-7.505344e-003
6378991.548	-7.432221e-004	-7.666667e-003	9.942854e-001	-1.069732e-001	9.940532e-001	-1.065576e-001	-7.626839e-004	-7.558887e-003
6441530.632	-7.724037e-004	-7.701573e-003	9.941526e-001	-1.080590e-001	9.938479e-001	-1.078109e-001	-8.040058e-004	-7.723008e-003
6504069.715	-7.778626e-004	-7.783963e-003	9.939380e-001	-1.090676e-001	9.939218e-001	-1.088432e-001	-8.242652e-004	-7.753077e-003
6566608.799	-7.786199e-004	-7.854615e-003	9.937520e-001	-1.100969e-001	9.937483e-001	-1.097435e-001	-8.862925e-004	-7.806674e-003
6629147.883	-8.143234e-004	-7.929135e-003	9.935805e-001	-1.112137e-001	9.936893e-001	-1.108440e-001	-9.005859e-004	-7.876797e-003
6691686.967	-8.400824e-004	-8.040709e-003	9.936178e-001	-1.121307e-001	9.932303e-001	-1.119746e-001	-9.214739e-004	-7.912021e-003
6754226.051	-8.734725e-004	-8.070835e-003	9.935699e-001	-1.132365e-001	9.934349e-001	-1.129200e-001	-8.798269e-004	-8.052681e-003
6816765.134	-9.158449e-004	-8.179970e-003	9.932969e-001	-1.142652e-001	9.932888e-001	-1.140159e-001	-9.059660e-004	-8.136299e-003
6879304.218	-8.703224e-004	-8.232305e-003	9.932005e-001	-1.153416e-001	9.930744e-001	-1.150476e-001	-9.070689e-004	-8.174269e-003
6941843.302	-8.826588e-004	-8.271175e-003	9.930275e-001	-1.162229e-001	9.930981e-001	-1.161242e-001	-9.501999e-004	-8.225488e-003
7004382.386	-9.330518e-004	-8.356118e-003	9.928026e-001	-1.174761e-001	9.929733e-001	-1.172215e-001	-9.678204e-004	-8.343004e-003
7066921.470	-9.338199e-004	-8.445933e-003	9.927438e-001	-1.184825e-001	9.928599e-001	-1.181022e-001	-9.832028e-004	-8.409185e-003
7129460.553	-9.299098e-004	-8.559419e-003	9.927778e-001	-1.194749e-001	9.927498e-001	-1.193418e-001	-1.011019e-003	-8.481954e-003
7191999.637	-9.718322e-004	-8.607355e-003	9.925197e-001	-1.205953e-001	9.924988e-001	-1.201691e-001	-1.015420e-003	-8.553692e-003
7254538.721	-9.232968e-004	-8.671853e-003	9.924581e-001	-1.216083e-001	9.924610e-001	-1.212843e-001	-1.061445e-003	-8.597237e-003
7317077.805	-1.021753e-003	-8.719303e-003	9.922090e-001	-1.226908e-001	9.924479e-001	-1.223022e-001	-1.063914e-003	-8.652035e-003
7379616.889	-9.959176e-004	-8.805549e-003	9.923247e-001	-1.236884e-001	9.920774e-001	-1.232833e-001	-1.070212e-003	-8.804837e-003
7442155.972	-1.019790e-003	-8.886972e-003	9.920200e-001	-1.246927e-001	9.919034e-001	-1.244919e-001	-1.115575e-003	-8.858569e-003
7504695.056	-1.022269e-003	-8.970226e-003	9.918838e-001	-1.257396e-001	9.919905e-001	-1.253703e-001	-1.079497e-003	-8.892417e-003
7567234.140	-1.078120e-003	-9.009864e-003	9.918676e-001	-1.268702e-001	9.917368e-001	-1.264004e-001	-1.122436e-003	-8.945139e-003
7629773.224	-1.068658e-003	-9.125499e-003	9.916135e-001	-1.278880e-001	9.916102e-001	-1.275026e-001	-1.153191e-003	-9.025752e-003
7692312.308	-1.113756e-003	-9.175414e-003	9.915916e-001	-1.288624e-001	9.914660e-001	-1.285347e-001	-1.143141e-003	-9.045494e-003
7754851.391	-1.114843e-003	-9.276944e-003	9.912579e-001	-1.298301e-001	9.913042e-001	-1.295408e-001	-1.207155e-003	-9.131675e-003
7817390.475	-1.126632e-003	-9.302905e-003	9.913848e-001	-1.309151e-001	9.911944e-001	-1.307152e-001	-1.163755e-003	-9.259635e-003
7879929.559	-1.179069e-003	-9.419930e-003	9.910868e-001	-1.319145e-001	9.910231e-001	-1.316711e-001	-1.213921e-003	-9.319726e-003
7942468.643	-1.213327e-003	-9.448692e-003	9.909158e-001	-1.329697e-001	9.909031e-001	-1.328146e-001	-1.257522e-003	-9.390106e-003
8005007.727	-1.185969e-003	-9.525164e-003	9.908394e-001	-1.341878e-001	9.907610e-001	-1.336941e-001	-1.276509e-003	-9.502634e-003
8067546.811	-1.183004e-003	-9.595847e-003	9.906805e-001	-1.352395e-001	9.907154e-001	-1.348817e-001	-1.230279e-003	-9.545801e-003
8130085.894	-1.215476e-003	-9.658090e-003	9.905081e-001	-1.361966e-001	9.903840e-001	-1.358977e-001	-1.307098e-003	-9.628301e-003
8192624.978	-1.243465e-003	-9.755805e-003	9.903529e-001	-1.372039e-001	9.902526e-001	-1.369382e-001	-1.281754e-003	-9.692594e-003
8255164.062	-1.271701e-003	-9.831053e-003	9.902716e-001	-1.382652e-001	9.901976e-001	-1.378843e-001	-1.322411e-003	-9.784295e-003
8317703.146	-1.263800e-003	-9.946289e-003	9.901665e-001	-1.393395e-001	9.901272e-001	-1.389630e-001	-1.367258e-003	-9.861134e-003
8380242.230	-1.267979e-003	-1.002684e-002	9.899658e-001	-1.401002e-001	9.901154e-001	-1.399735e-001	-1.349650e-003	-9.896461e-003
8442781.313	-1.324006e-003	-1.003169e-002	9.898832e-001	-1.411369e-001	9.897533e-001	-1.410050e-001	-1.407985e-003	-9.947787e-003
8505320.397	-1.377770e-003	-1.011717e-002	9.896773e-001	-1.423893e-001	9.895871e-001	-1.422239e-001	-1.373712e-003	-1.010270e-002
8567859.481	-1.373200e-003	-1.018990e-002	9.895008e-001	-1.434247e-001	9.894968e-001	-1.429701e-001	-1.395910e-003	-1.011099e-002
8630398.565	-1.352455e-003	-1.026126e-002	9.893244e-001	-1.445079e-001	9.892777e-001	-1.441874e-001	-1.423258e-003	-1.023316e-002
8692937.649	-1.407787e-003	-1.032151e-002	9.890478e-001	-1.454824e-001	9.891145e-001	-1.450393e-001	-1.513687e-003	-1.025088e-002
8755476.732	-1.460202e-003	-1.035385e-002	9.889409e-001	-1.466037e-001	9.890544e-001	-1.462309e-001	-1.478822e-003	-1.031866e-002
8818015.816	-1.463169e-003	-1.048691e-002	9.889080e-001	-1.474633e-001	9.889150e-001	-1.471514e-001	-1.498980e-003	-1.041230e-002
8880554.900	-1.513035e-003	-1.059611e-002	9.887353e-001	-1.486652e-001	9.887410e-001	-1.481837e-001	-1.560605e-003	-1.046452e-002
8943093.984	-1.495191e-003	-1.062091e-002	9.885840e-001	-1.497503e-001	9.885388e-001	-1.491584e-001	-1.526012e-003	-1.052878e-002
9005633.068	-1.529513e-003	-1.071468e-002	9.883767e-001	-1.506684e-001	9.883330e-001	-1.504380e-001	-1.575824e-003	-1.065264e-002
9068172.151	-1.521132e-003	-1.076229e-002	9.882031e-001	-1.516938e-001	9.880101e-001	-1.514787e-001	-1.644178e-003	-1.066666e-002
9130711.235	-1.548960e-003	-1.081694e-002	9.880814e-001	-1.527165e-001	9.880544e-001	-1.522422e-001	-1.589568e-003	-1.077914e-002
9193250.319	-1.575658e-003	-1.093511e-002	9.878602e-001	-1.537005e-001	9.878995e-001	-1.534927e-001	-1.592622e-003	-1.084853e-002
9255789.403	-1.581364e-003	-1.100043e-002	9.876696e-001	-1.548696e-001	9.878224e-001	-1.544093e-001	-1.635575e-003	-1.085222e-002
9318328.487	-1.672344e-003	-1.106465e-002	9.875336e-001	-1.559073e-001	9.876622e-001	-1.557011e-001	-1.680599e-003	-1.100103e-002
9380867.570	-1.701640e-003	-1.110318e-002	9.874423e-001	-1.569077e-001	9.872747e-001	-1.565092e-001	-1.705444e-003	-1.102064e-002
9443406.654	-1.698457e-003	-1.121944e-002	9.871951e-001	-1.579059e-001	9.872840e-001	-1.576732e-001	-1.682573e-003	-1.110298e-002
