!Agilent Technologies,E5061B,MY49102235,A.02.00
!Date: Mon Jul 10 16:26:42 2023
!Data & Calibration Information:
!Freq	S11:SOLT2(ON)	S21:SOLT2(ON)	S12:SOLT2(ON)	S22:SOLT2(ON)
# Hz S RI R 50
5.000	-4.288545e-004	4.313744e-004	1.001654e+000	2.279464e-003	1.000475e+000	-4.039700e-005	-1.028594e-004	-6.151037e-005
62544.084	-4.265849e-005	3.258220e-005	9.998317e-001	-8.761129e-004	1.000138e+000	-7.606017e-004	1.608280e-005	-6.079108e-005
125083.168	-2.602009e-005	-1.111278e-005	1.000151e+000	-2.435899e-003	1.000114e+000	-2.155759e-003	-2.986239e-005	-4.017529e-005
187622.251	1.717323e-004	-1.081093e-004	9.993620e-001	-2.632227e-003	1.000149e+000	-3.013459e-003	4.020051e-005	-3.767331e-005
250161.335	3.142505e-005	-1.095898e-006	9.998396e-001	-4.617391e-003	9.997949e-001	-4.491674e-003	2.334980e-005	-6.792382e-006
312700.419	3.301517e-005	-6.646455e-005	1.000222e+000	-5.609057e-003	9.992319e-001	-5.235882e-003	1.294327e-004	-2.517687e-005
375239.503	5.740566e-005	-4.423149e-005	9.999874e-001	-6.598237e-003	1.000161e+000	-6.590344e-003	1.412030e-005	-9.476635e-005
437778.587	8.486558e-005	-1.445709e-004	1.000043e+000	-7.670710e-003	9.990594e-001	-8.060815e-003	9.789696e-005	6.914507e-005
500317.670	1.038132e-004	-1.543474e-004	9.999593e-001	-8.910292e-003	9.993772e-001	-9.309715e-003	9.457002e-005	2.875426e-005
562856.754	1.293407e-004	-7.585877e-005	9.997047e-001	-1.017131e-002	9.996984e-001	-9.738483e-003	5.488722e-005	-1.388613e-004
625395.838	1.026326e-004	-1.109885e-004	9.998644e-001	-1.125850e-002	9.992540e-001	-1.087186e-002	1.261305e-004	-8.213031e-005
687934.922	-2.078119e-005	-2.257984e-004	1.000206e+000	-1.204594e-002	1.000230e+000	-1.218481e-002	-2.196689e-006	-1.424543e-004
750474.006	-7.581253e-005	-2.268181e-004	9.997387e-001	-1.339702e-002	9.996241e-001	-1.251323e-002	-9.042908e-005	-2.226322e-004
813013.089	-6.459034e-005	-2.225086e-004	1.000241e+000	-1.470630e-002	9.991982e-001	-1.398830e-002	-6.421184e-005	-2.639776e-004
875552.173	-5.047951e-005	-2.718661e-004	9.997598e-001	-1.574958e-002	9.998742e-001	-1.551155e-002	-5.697959e-005	-2.799047e-004
938091.257	-1.551936e-004	-2.616370e-004	9.995470e-001	-1.654152e-002	9.994084e-001	-1.596745e-002	-1.350600e-004	-2.795299e-004
1000630.341	-8.947262e-005	-2.148158e-004	9.998326e-001	-1.738500e-002	9.996574e-001	-1.751924e-002	-6.137239e-005	-2.997049e-004
1063169.425	-5.437759e-005	-2.726370e-004	1.000384e+000	-1.870899e-002	1.000249e+000	-1.890767e-002	-2.930821e-005	-3.465198e-004
1125708.508	-5.666401e-005	-3.013026e-004	1.000080e+000	-2.023297e-002	9.994921e-001	-1.973031e-002	-3.037850e-005	-3.049527e-004
1188247.592	-4.918589e-005	-3.370347e-004	9.996354e-001	-2.095185e-002	9.995649e-001	-2.073396e-002	-1.880936e-005	-3.297614e-004
1250786.676	-6.349955e-005	-3.513709e-004	9.996790e-001	-2.233398e-002	9.991897e-001	-2.175569e-002	-3.184803e-005	-3.365589e-004
1313325.760	-4.388373e-005	-3.512553e-004	9.999191e-001	-2.266905e-002	9.990650e-001	-2.313249e-002	-6.923382e-005	-4.030642e-004
1375864.844	-2.033007e-005	-4.057700e-004	1.000216e+000	-2.489188e-002	9.992728e-001	-2.454372e-002	-4.867711e-005	-4.243067e-004
1438403.927	-3.642329e-005	-4.325732e-004	9.997107e-001	-2.595486e-002	9.993861e-001	-2.525426e-002	-4.780692e-005	-4.498766e-004
1500943.011	-3.508063e-005	-4.461106e-004	9.998903e-001	-2.695477e-002	9.990540e-001	-2.661843e-002	-3.246129e-005	-4.305526e-004
1563482.095	-1.042577e-004	-4.663050e-004	9.991770e-001	-2.781746e-002	9.994985e-001	-2.759820e-002	-7.362259e-005	-4.916358e-004
1626021.179	-3.804883e-006	-4.591617e-004	9.995384e-001	-2.916190e-002	9.994570e-001	-2.839293e-002	1.482270e-006	-4.982649e-004
1688560.263	1.029793e-005	-4.999612e-004	1.000021e+000	-3.015426e-002	9.995161e-001	-2.959989e-002	-2.068960e-005	-5.013762e-004
1751099.346	3.090711e-005	-4.448627e-004	9.999467e-001	-3.117477e-002	9.990968e-001	-3.085408e-002	-4.897644e-005	-5.442584e-004
1813638.430	-6.618758e-005	-5.047921e-004	9.999964e-001	-3.199122e-002	9.991452e-001	-3.193318e-002	-6.379604e-005	-5.152429e-004
1876177.514	-4.581215e-005	-5.884542e-004	9.996908e-001	-3.350039e-002	9.994675e-001	-3.295299e-002	-2.458241e-005	-5.792229e-004
1938716.598	-4.298478e-005	-5.644701e-004	9.992356e-001	-3.458325e-002	9.996309e-001	-3.429197e-002	-1.245628e-005	-5.826234e-004
2001255.682	-2.836274e-005	-5.582995e-004	9.997510e-001	-3.536962e-002	9.987718e-001	-3.528753e-002	-5.206655e-005	-6.051280e-004
2063794.765	-5.538138e-005	-5.486312e-004	9.992512e-001	-3.642932e-002	9.995435e-001	-3.636670e-002	1.450267e-006	-6.199034e-004
2126333.849	-3.018742e-006	-6.724447e-004	9.986416e-001	-3.764187e-002	9.991258e-001	-3.776854e-002	-1.005495e-004	-6.923720e-004
2188872.933	-3.265178e-005	-6.381214e-004	9.992633e-001	-3.859958e-002	9.992903e-001	-3.889804e-002	-4.906335e-005	-6.385575e-004
2251412.017	2.891335e-005	-6.703755e-004	9.994748e-001	-4.049951e-002	9.991161e-001	-3.951768e-002	9.010909e-006	-7.003544e-004
2313951.101	-2.014727e-005	-7.099444e-004	9.989666e-001	-4.127159e-002	9.988740e-001	-4.043656e-002	1.149410e-005	-7.591227e-004
2376490.184	-1.201755e-005	-7.432063e-004	9.996969e-001	-4.231194e-002	9.990376e-001	-4.193754e-002	-1.901567e-005	-7.311752e-004
2439029.268	-4.963017e-005	-7.709165e-004	9.989659e-001	-4.322936e-002	9.984796e-001	-4.309108e-002	-5.771533e-005	-7.960450e-004
2501568.352	-4.417793e-005	-6.833263e-004	9.990489e-001	-4.417325e-002	9.993702e-001	-4.410863e-002	6.244953e-006	-7.470203e-004
2564107.436	1.895619e-005	-6.992620e-004	9.988037e-001	-4.548373e-002	9.985542e-001	-4.531405e-002	-4.306264e-005	-8.321366e-004
2626646.520	-4.616191e-005	-7.813827e-004	9.986365e-001	-4.658112e-002	9.991165e-001	-4.579492e-002	-1.979705e-005	-7.955929e-004
2689185.604	-4.447200e-005	-7.944369e-004	9.993571e-001	-4.747923e-002	9.992302e-001	-4.728382e-002	-1.470011e-005	-8.848425e-004
2751724.687	2.364403e-005	-8.959276e-004	9.990130e-001	-4.859039e-002	9.983074e-001	-4.832941e-002	-5.548466e-005	-8.077944e-004
2814263.771	2.812191e-005	-8.865778e-004	9.990703e-001	-4.997718e-002	9.989273e-001	-4.996023e-002	-4.520475e-005	-8.766300e-004
2876802.855	-1.761615e-005	-8.971644e-004	9.989799e-001	-5.136623e-002	9.982366e-001	-5.081141e-002	-3.588302e-005	-9.231007e-004
2939341.939	-3.428854e-005	-8.946123e-004	9.986553e-001	-5.198839e-002	9.986540e-001	-5.156018e-002	-6.123583e-005	-9.427988e-004
3001881.023	-6.541601e-005	-9.001714e-004	9.987982e-001	-5.259728e-002	9.988452e-001	-5.229646e-002	-9.111103e-005	-8.987430e-004
3064420.106	-6.819146e-006	-9.691810e-004	9.981305e-001	-5.412071e-002	9.978572e-001	-5.384858e-002	-6.154905e-005	-9.410095e-004
3126959.190	-3.334250e-005	-9.736303e-004	9.984289e-001	-5.536866e-002	9.982660e-001	-5.517449e-002	-4.505920e-005	-9.736669e-004
3189498.274	9.449734e-006	-9.631440e-004	9.985004e-001	-5.656560e-002	9.981292e-001	-5.631322e-002	-7.385791e-005	-9.954709e-004
3252037.358	1.419157e-005	-9.996471e-004	9.983020e-001	-5.770071e-002	9.981944e-001	-5.732726e-002	-3.451064e-005	-1.003000e-003
3314576.442	-4.954320e-006	-1.081057e-003	9.983251e-001	-5.877920e-002	9.982526e-001	-5.857383e-002	-7.987884e-005	-1.000312e-003
3377115.525	-4.439119e-005	-1.031282e-003	9.983341e-001	-5.996229e-002	9.979861e-001	-5.964359e-002	-8.492327e-005	-1.047464e-003
3439654.609	-9.654699e-006	-1.026468e-003	9.979975e-001	-6.092971e-002	9.981105e-001	-6.076677e-002	-7.649359e-005	-1.084822e-003
3502193.693	-1.215716e-006	-1.118529e-003	9.980769e-001	-6.205413e-002	9.979996e-001	-6.177475e-002	-4.653849e-005	-1.143680e-003
3564732.777	-3.984738e-005	-1.123344e-003	9.980413e-001	-6.322830e-002	9.979062e-001	-6.292969e-002	-3.938073e-005	-1.121877e-003
3627271.861	-2.340812e-005	-1.142307e-003	9.979131e-001	-6.430327e-002	9.979169e-001	-6.407037e-002	-7.102180e-005	-1.129323e-003
3689810.944	-4.880694e-005	-1.172472e-003	9.979193e-001	-6.534618e-002	9.976277e-001	-6.514462e-002	-1.147315e-004	-1.185969e-003
3752350.028	-7.549356e-005	-1.154845e-003	9.978582e-001	-6.654273e-002	9.977207e-001	-6.619228e-002	-4.550565e-005	-1.164540e-003
3814889.112	-2.039996e-005	-1.195748e-003	9.977115e-001	-6.755346e-002	9.975611e-001	-6.732368e-002	-6.735467e-005	-1.227364e-003
3877428.196	3.595406e-005	-1.189055e-003	9.977074e-001	-6.868710e-002	9.974109e-001	-6.835956e-002	-9.929367e-005	-1.233553e-003
3939967.280	-4.087050e-005	-1.254419e-003	9.974255e-001	-6.988736e-002	9.973986e-001	-6.953386e-002	-7.265393e-005	-1.202645e-003
4002506.363	-6.819929e-006	-1.275078e-003	9.974350e-001	-7.085538e-002	9.973770e-001	-7.056041e-002	-8.114531e-005	-1.234715e-003
4065045.447	-6.291171e-006	-1.284471e-003	9.974639e-001	-7.211895e-002	9.973714e-001	-7.190120e-002	-7.660004e-005	-1.301947e-003
4127584.531	-6.478304e-005	-1.293076e-003	9.974539e-001	-7.319558e-002	9.972168e-001	-7.287199e-002	-7.877134e-005	-1.310509e-003
4190123.615	-3.458068e-005	-1.301867e-003	9.971521e-001	-7.414239e-002	9.971664e-001	-7.386871e-002	-1.221943e-004	-1.341470e-003
4252662.699	-8.966539e-005	-1.323438e-003	9.971406e-001	-7.528719e-002	9.969148e-001	-7.494395e-002	-1.272252e-004	-1.314108e-003
4315201.782	-2.777497e-005	-1.375798e-003	9.970460e-001	-7.644389e-002	9.969089e-001	-7.599060e-002	-1.375761e-004	-1.373041e-003
4377740.866	-5.746811e-005	-1.396414e-003	9.970426e-001	-7.764711e-002	9.969305e-001	-7.726600e-002	-7.042921e-005	-1.371792e-003
4440279.950	-1.946180e-005	-1.375090e-003	9.969419e-001	-7.843531e-002	9.968517e-001	-7.828729e-002	-1.001041e-004	-1.425015e-003
4502819.034	-6.199396e-008	-1.485193e-003	9.969553e-001	-7.965438e-002	9.966439e-001	-7.943670e-002	-9.754325e-005	-1.423513e-003
4565358.118	-3.251716e-005	-1.432617e-003	9.964890e-001	-8.069571e-002	9.966966e-001	-8.069573e-002	-8.283004e-005	-1.419109e-003
4627897.201	-2.316827e-005	-1.498547e-003	9.966086e-001	-8.178767e-002	9.966381e-001	-8.156923e-002	-1.337386e-004	-1.385287e-003
4690436.285	-3.156194e-006	-1.488328e-003	9.965516e-001	-8.306480e-002	9.964797e-001	-8.268682e-002	-1.129278e-004	-1.457149e-003
4752975.369	-7.622704e-005	-1.564435e-003	9.964150e-001	-8.413668e-002	9.962936e-001	-8.379329e-002	-1.079476e-004	-1.478910e-003
4815514.453	-5.761232e-005	-1.573961e-003	9.964041e-001	-8.531605e-002	9.961536e-001	-8.498567e-002	-1.066558e-004	-1.509518e-003
4878053.537	-7.763492e-005	-1.519334e-003	9.963158e-001	-8.651822e-002	9.961377e-001	-8.594389e-002	-1.330381e-004	-1.503588e-003
4940592.620	-5.418423e-005	-1.553981e-003	9.960723e-001	-8.747261e-002	9.959631e-001	-8.708699e-002	-1.400414e-004	-1.539603e-003
5003131.704	-3.173406e-005	-1.590493e-003	9.960478e-001	-8.858882e-002	9.957841e-001	-8.831258e-002	-2.127599e-004	-1.600466e-003
5065670.788	-1.009627e-004	-1.625290e-003	9.959676e-001	-8.972294e-002	9.957400e-001	-8.937745e-002	-1.466884e-004	-1.580269e-003
5128209.872	-5.183386e-005	-1.612055e-003	9.958496e-001	-9.069708e-002	9.958179e-001	-9.039566e-002	-1.592786e-004	-1.603258e-003
5190748.956	-7.026699e-005	-1.697129e-003	9.957245e-001	-9.191229e-002	9.957743e-001	-9.150689e-002	-1.558342e-004	-1.601391e-003
5253288.039	-8.461499e-005	-1.683252e-003	9.954406e-001	-9.294443e-002	9.956428e-001	-9.262053e-002	-1.009123e-004	-1.644423e-003
5315827.123	-7.786714e-005	-1.682915e-003	9.954287e-001	-9.403892e-002	9.954693e-001	-9.384241e-002	-1.256642e-004	-1.626998e-003
5378366.207	-9.268192e-005	-1.702916e-003	9.952829e-001	-9.520608e-002	9.953243e-001	-9.482331e-002	-1.562191e-004	-1.665814e-003
5440905.291	-7.695563e-005	-1.737749e-003	9.954263e-001	-9.618593e-002	9.953319e-001	-9.601602e-002	-1.470275e-004	-1.695038e-003
5503444.375	-9.326505e-005	-1.769607e-003	9.952126e-001	-9.741021e-002	9.950613e-001	-9.737292e-002	-1.544614e-004	-1.705484e-003
5565983.458	-1.229187e-004	-1.761055e-003	9.951944e-001	-9.852775e-002	9.949002e-001	-9.831392e-002	-1.010513e-004	-1.713987e-003
5628522.542	-1.292108e-004	-1.818304e-003	9.950550e-001	-9.953048e-002	9.950515e-001	-9.921100e-002	-2.170618e-004	-1.790105e-003
5691061.626	-5.184905e-005	-1.800338e-003	9.948995e-001	-1.005984e-001	9.947231e-001	-1.004575e-001	-2.017877e-004	-1.763349e-003
5753600.710	-7.501372e-005	-1.848815e-003	9.947222e-001	-1.018294e-001	9.946882e-001	-1.014855e-001	-1.461332e-004	-1.786178e-003
5816139.794	-4.417425e-005	-1.841486e-003	9.947347e-001	-1.028589e-001	9.946020e-001	-1.027662e-001	-2.154605e-004	-1.821061e-003
5878678.877	-9.914210e-005	-1.875053e-003	9.945221e-001	-1.039018e-001	9.944532e-001	-1.036882e-001	-1.543565e-004	-1.784707e-003
5941217.961	-1.283653e-004	-1.904503e-003	9.944937e-001	-1.050236e-001	9.944509e-001	-1.046582e-001	-2.231255e-004	-1.808831e-003
6003757.045	-9.227409e-005	-1.972552e-003	9.942398e-001	-1.062504e-001	9.942245e-001	-1.058544e-001	-2.158466e-004	-1.913775e-003
6066296.129	-1.203101e-004	-1.930835e-003	9.940916e-001	-1.073820e-001	9.940400e-001	-1.070118e-001	-1.967226e-004	-1.862668e-003
6128835.213	-1.153361e-004	-1.909619e-003	9.941126e-001	-1.084525e-001	9.940785e-001	-1.082391e-001	-1.739008e-004	-1.864231e-003
6191374.296	-1.700464e-004	-2.016432e-003	9.939594e-001	-1.092878e-001	9.938589e-001	-1.092231e-001	-2.295610e-004	-1.946469e-003
6253913.380	-1.326260e-004	-2.025626e-003	9.937053e-001	-1.106503e-001	9.935687e-001	-1.102439e-001	-2.269557e-004	-1.896544e-003
6316452.464	-1.066805e-004	-1.982430e-003	9.936427e-001	-1.115687e-001	9.937047e-001	-1.112980e-001	-1.988969e-004	-1.932333e-003
6378991.548	-1.292323e-004	-2.069206e-003	9.937325e-001	-1.127521e-001	9.934829e-001	-1.123808e-001	-1.818917e-004	-1.939259e-003
6441530.632	-1.549866e-004	-2.054515e-003	9.935567e-001	-1.138860e-001	9.932562e-001	-1.136605e-001	-2.186256e-004	-2.011537e-003
6504069.715	-1.380038e-004	-2.080243e-003	9.933407e-001	-1.149336e-001	9.933181e-001	-1.147536e-001	-2.230905e-004	-2.015747e-003
6566608.799	-1.262954e-004	-2.092085e-003	9.931403e-001	-1.161064e-001	9.931233e-001	-1.157414e-001	-2.683904e-004	-2.012612e-003
6629147.883	-1.507114e-004	-2.116463e-003	9.929933e-001	-1.172698e-001	9.930463e-001	-1.168844e-001	-2.608795e-004	-2.025981e-003
6691686.967	-1.644334e-004	-2.178181e-003	9.930178e-001	-1.181992e-001	9.926117e-001	-1.180797e-001	-2.822592e-004	-2.000690e-003
6754226.051	-1.853335e-004	-2.156831e-003	9.928874e-001	-1.193739e-001	9.927668e-001	-1.190886e-001	-2.294532e-004	-2.096024e-003
6816765.134	-2.104496e-004	-2.202721e-003	9.926312e-001	-1.204411e-001	9.926534e-001	-1.202180e-001	-2.304514e-004	-2.125108e-003
6879304.218	-1.589452e-004	-2.206620e-003	9.925423e-001	-1.215815e-001	9.924043e-001	-1.213008e-001	-2.269962e-004	-2.108500e-003
6941843.302	-1.601132e-004	-2.197297e-003	9.923459e-001	-1.225390e-001	9.923910e-001	-1.224316e-001	-2.654771e-004	-2.105449e-003
7004382.386	-1.880124e-004	-2.211941e-003	9.921207e-001	-1.238350e-001	9.923020e-001	-1.235849e-001	-2.551923e-004	-2.160751e-003
7066921.470	-1.800670e-004	-2.253773e-003	9.920395e-001	-1.248875e-001	9.921451e-001	-1.245526e-001	-2.647173e-004	-2.177550e-003
7129460.553	-1.547060e-004	-2.316604e-003	9.920561e-001	-1.259605e-001	9.919972e-001	-1.258232e-001	-2.757755e-004	-2.179669e-003
7191999.637	-2.079313e-004	-2.297341e-003	9.918029e-001	-1.270930e-001	9.917584e-001	-1.267324e-001	-2.577827e-004	-2.208327e-003
7254538.721	-1.302582e-004	-2.317484e-003	9.916907e-001	-1.281740e-001	9.917299e-001	-1.279050e-001	-3.032983e-004	-2.194908e-003
7317077.805	-2.063589e-004	-2.325551e-003	9.914194e-001	-1.293291e-001	9.916786e-001	-1.289796e-001	-2.745903e-004	-2.212203e-003
7379616.889	-1.778293e-004	-2.342575e-003	9.915118e-001	-1.303630e-001	9.913075e-001	-1.299764e-001	-2.748493e-004	-2.295147e-003
7442155.972	-1.830571e-004	-2.376472e-003	9.911942e-001	-1.314505e-001	9.911286e-001	-1.312869e-001	-3.012240e-004	-2.290517e-003
7504695.056	-1.727677e-004	-2.399660e-003	9.910385e-001	-1.325145e-001	9.911701e-001	-1.322103e-001	-2.586359e-004	-2.264084e-003
7567234.140	-1.986590e-004	-2.380100e-003	9.910579e-001	-1.337558e-001	9.909061e-001	-1.332495e-001	-2.957264e-004	-2.293127e-003
7629773.224	-1.912998e-004	-2.438117e-003	9.907810e-001	-1.348035e-001	9.907352e-001	-1.344290e-001	-3.105730e-004	-2.304767e-003
7692312.308	-2.237689e-004	-2.444005e-003	9.907583e-001	-1.358366e-001	9.906457e-001	-1.355344e-001	-2.874614e-004	-2.262582e-003
7754851.391	-2.086723e-004	-2.495062e-003	9.904711e-001	-1.368767e-001	9.904181e-001	-1.366084e-001	-3.287772e-004	-2.305173e-003
7817390.475	-1.997294e-004	-2.467739e-003	9.905093e-001	-1.379847e-001	9.903327e-001	-1.378359e-001	-2.767803e-004	-2.376247e-003
7879929.559	-2.360916e-004	-2.507917e-003	9.902080e-001	-1.390365e-001	9.901313e-001	-1.387836e-001	-3.117075e-004	-2.374496e-003
7942468.643	-2.447804e-004	-2.494040e-003	9.900394e-001	-1.401596e-001	9.900222e-001	-1.400269e-001	-3.336396e-004	-2.396521e-003
8005007.727	-2.267751e-004	-2.512743e-003	9.899394e-001	-1.414132e-001	9.898839e-001	-1.409526e-001	-3.504176e-004	-2.438578e-003
8067546.811	-1.957514e-004	-2.540291e-003	9.897618e-001	-1.425196e-001	9.897688e-001	-1.422203e-001	-2.773342e-004	-2.433044e-003
8130085.894	-2.300181e-004	-2.531629e-003	9.896268e-001	-1.435340e-001	9.894540e-001	-1.433134e-001	-3.477403e-004	-2.461652e-003
8192624.978	-2.332433e-004	-2.596677e-003	9.894114e-001	-1.446228e-001	9.892876e-001	-1.443562e-001	-2.957581e-004	-2.469339e-003
8255164.062	-2.377182e-004	-2.614470e-003	9.892824e-001	-1.457377e-001	9.891963e-001	-1.454026e-001	-3.235594e-004	-2.517952e-003
8317703.146	-2.122412e-004	-2.666631e-003	9.892147e-001	-1.468434e-001	9.891645e-001	-1.465562e-001	-3.620963e-004	-2.532718e-003
8380242.230	-2.051147e-004	-2.692715e-003	9.889784e-001	-1.476892e-001	9.891360e-001	-1.476164e-001	-3.238099e-004	-2.519780e-003
8442781.313	-2.508560e-004	-2.654942e-003	9.888756e-001	-1.488134e-001	9.887487e-001	-1.486571e-001	-3.730983e-004	-2.512186e-003
8505320.397	-2.897158e-004	-2.685717e-003	9.886640e-001	-1.501022e-001	9.885326e-001	-1.499230e-001	-3.207589e-004	-2.614927e-003
8567859.481	-2.666878e-004	-2.699111e-003	9.884033e-001	-1.511484e-001	9.884694e-001	-1.507619e-001	-3.163132e-004	-2.572012e-003
8630398.565	-2.289877e-004	-2.715044e-003	9.882686e-001	-1.522881e-001	9.882178e-001	-1.520087e-001	-3.249035e-004	-2.628428e-003
8692937.649	-2.684255e-004	-2.716982e-003	9.880057e-001	-1.533529e-001	9.880285e-001	-1.529051e-001	-3.995213e-004	-2.593540e-003
8755476.732	-3.073376e-004	-2.706464e-003	9.878182e-001	-1.545340e-001	9.879328e-001	-1.541802e-001	-3.653414e-004	-2.608190e-003
8818015.816	-2.813880e-004	-2.767921e-003	9.878053e-001	-1.554216e-001	9.878064e-001	-1.551887e-001	-3.566681e-004	-2.646467e-003
8880554.900	-3.193552e-004	-2.834264e-003	9.876219e-001	-1.566804e-001	9.876066e-001	-1.562805e-001	-4.016418e-004	-2.650203e-003
8943093.984	-2.781127e-004	-2.820276e-003	9.874362e-001	-1.578564e-001	9.873590e-001	-1.572986e-001	-3.433222e-004	-2.662799e-003
9005633.068	-3.008114e-004	-2.849243e-003	9.871964e-001	-1.587797e-001	9.871654e-001	-1.586066e-001	-3.785361e-004	-2.717189e-003
9068172.151	-2.741937e-004	-2.858349e-003	9.870257e-001	-1.599259e-001	9.868001e-001	-1.597223e-001	-4.218869e-004	-2.682258e-003
9130711.235	-2.777936e-004	-2.853958e-003	9.868447e-001	-1.609762e-001	9.868473e-001	-1.605399e-001	-3.743707e-004	-2.743530e-003
9193250.319	-2.861842e-004	-2.917705e-003	9.866514e-001	-1.620048e-001	9.866746e-001	-1.618065e-001	-3.431753e-004	-2.760735e-003
9255789.403	-2.798871e-004	-2.918639e-003	9.864399e-001	-1.632508e-001	9.865731e-001	-1.628422e-001	-3.743756e-004	-2.709705e-003
9318328.487	-3.577861e-004	-2.927931e-003	9.862764e-001	-1.643407e-001	9.863947e-001	-1.641422e-001	-3.903203e-004	-2.799778e-003
9380867.570	-3.647127e-004	-2.918969e-003	9.861730e-001	-1.654033e-001	9.859667e-001	-1.650176e-001	-4.091892e-004	-2.765865e-003
9443406.654	-3.443545e-004	-2.983874e-003	9.859282e-001	-1.664485e-001	9.859847e-001	-1.662559e-001	-3.700121e-004	-2.806037e-003
