!Agilent Technologies,E5061B,MY49102235,A.02.00
!Date: Mon Jul 10 17:14:37 2023
!Data & Calibration Information:
!Freq	S11:SOLT2(ON)	S21:SOLT2(ON)	S12:SOLT2(ON)	S22:SOLT2(ON)
# Hz S RI R 50
5.000	-4.222752e-004	4.416478e-004	1.001877e+000	2.297103e-003	1.000733e+000	-6.039460e-006	-2.799866e-004	-5.482420e-005
62544.084	-6.104182e-005	-3.050018e-005	1.000091e+000	-8.519742e-004	1.000121e+000	-6.364310e-004	7.844766e-006	-1.234398e-004
125083.168	-1.600284e-005	-1.166790e-004	1.000095e+000	-2.383926e-003	1.000173e+000	-1.999771e-003	-2.033178e-005	-1.476245e-004
187622.251	1.750989e-004	-2.816851e-004	9.994323e-001	-2.510070e-003	1.000165e+000	-2.759353e-003	4.058228e-005	-2.091318e-004
250161.335	5.566968e-005	-2.008831e-004	9.996811e-001	-4.440705e-003	9.998720e-001	-4.168683e-003	2.485764e-005	-2.395881e-004
312700.419	3.537324e-005	-3.639893e-004	1.000240e+000	-5.301119e-003	9.992742e-001	-4.888112e-003	1.113976e-004	-3.232719e-004
375239.503	8.995632e-005	-4.068657e-004	9.999621e-001	-6.131639e-003	1.000153e+000	-6.328577e-003	1.379632e-006	-4.236716e-004
437778.587	9.765066e-005	-5.320890e-004	1.000009e+000	-7.352474e-003	9.991613e-001	-7.504448e-003	9.344325e-005	-3.396440e-004
500317.670	9.489175e-005	-6.287753e-004	1.000065e+000	-8.461677e-003	9.993603e-001	-8.664156e-003	1.043161e-004	-4.493682e-004
562856.754	1.363550e-004	-5.772767e-004	9.996833e-001	-9.646874e-003	9.996206e-001	-9.071642e-003	8.044236e-005	-6.479290e-004
625395.838	1.214465e-004	-7.009039e-004	9.997081e-001	-1.050456e-002	9.992188e-001	-1.029856e-002	1.219776e-004	-6.559566e-004
687934.922	-1.342216e-005	-8.488930e-004	1.000129e+000	-1.141174e-002	1.000249e+000	-1.152333e-002	-1.151738e-005	-7.678586e-004
750474.006	-1.030098e-004	-9.222778e-004	9.997691e-001	-1.260612e-002	9.995635e-001	-1.171818e-002	-1.131027e-004	-9.039701e-004
813013.089	-7.473323e-005	-9.717059e-004	1.000319e+000	-1.391712e-002	9.991607e-001	-1.318282e-002	-8.862414e-005	-1.003083e-003
875552.173	-7.886237e-005	-1.086143e-003	9.997399e-001	-1.484863e-002	1.000023e+000	-1.454571e-002	-7.065023e-005	-1.066850e-003
938091.257	-1.681832e-004	-1.134452e-003	9.995868e-001	-1.566107e-002	9.993806e-001	-1.508590e-002	-1.542704e-004	-1.143589e-003
1000630.341	-1.225212e-004	-1.155781e-003	9.996701e-001	-1.652394e-002	9.996790e-001	-1.633981e-002	-7.351286e-005	-1.228301e-003
1063169.425	-7.086154e-005	-1.245262e-003	1.000379e+000	-1.774138e-002	1.000301e+000	-1.786433e-002	-5.312756e-005	-1.330327e-003
1125708.508	-6.609209e-005	-1.338286e-003	1.000043e+000	-1.904152e-002	9.994518e-001	-1.857222e-002	-4.532514e-005	-1.355284e-003
1188247.592	-8.048190e-005	-1.441554e-003	9.995180e-001	-1.969350e-002	9.995694e-001	-1.945793e-002	-3.689457e-005	-1.430364e-003
1250786.676	-9.768037e-005	-1.500857e-003	9.997388e-001	-2.114967e-002	9.991663e-001	-2.051737e-002	-4.246751e-005	-1.502850e-003
1313325.760	-7.327064e-005	-1.564822e-003	9.998460e-001	-2.151795e-002	9.990484e-001	-2.171472e-002	-9.979415e-005	-1.625689e-003
1375864.844	-5.935030e-005	-1.696757e-003	1.000190e+000	-2.357432e-002	9.993305e-001	-2.330093e-002	-8.232157e-005	-1.699047e-003
1438403.927	-7.463166e-005	-1.781598e-003	9.995602e-001	-2.452327e-002	9.994302e-001	-2.376546e-002	-7.186756e-005	-1.786572e-003
1500943.011	-6.539265e-005	-1.845441e-003	9.999027e-001	-2.544637e-002	9.991674e-001	-2.506512e-002	-6.716854e-005	-1.828884e-003
1563482.095	-1.375059e-004	-1.928250e-003	9.992199e-001	-2.635084e-002	9.994753e-001	-2.593227e-002	-1.140671e-004	-1.935891e-003
1626021.179	-5.016622e-005	-1.967999e-003	9.996399e-001	-2.749638e-002	9.994054e-001	-2.672376e-002	-3.486316e-005	-2.008354e-003
1688560.263	-3.422486e-005	-2.063674e-003	9.999161e-001	-2.861817e-002	9.995474e-001	-2.803462e-002	-5.584159e-005	-2.069468e-003
1751099.346	-2.780391e-005	-2.062896e-003	9.997755e-001	-2.953037e-002	9.991925e-001	-2.908302e-002	-7.922619e-005	-2.172560e-003
1813638.430	-1.234578e-004	-2.191683e-003	9.998338e-001	-3.014790e-002	9.991856e-001	-3.019280e-002	-9.288895e-005	-2.211303e-003
1876177.514	-9.472664e-005	-2.334507e-003	9.996969e-001	-3.161524e-002	9.993945e-001	-3.103576e-002	-7.429091e-005	-2.306528e-003
1938716.598	-9.753036e-005	-2.365482e-003	9.992274e-001	-3.285616e-002	9.998940e-001	-3.241531e-002	-6.010209e-005	-2.374182e-003
2001255.682	-8.596466e-005	-2.415202e-003	9.998081e-001	-3.356046e-002	9.989071e-001	-3.333003e-002	-1.019011e-004	-2.469287e-003
2063794.765	-1.074044e-004	-2.456062e-003	9.994234e-001	-3.436386e-002	9.995432e-001	-3.433886e-002	-5.949306e-005	-2.547124e-003
2126333.849	-7.187114e-005	-2.649454e-003	9.987093e-001	-3.560799e-002	9.991495e-001	-3.557920e-002	-1.657183e-004	-2.654255e-003
2188872.933	-1.021333e-004	-2.671703e-003	9.993694e-001	-3.652044e-002	9.993031e-001	-3.675083e-002	-1.149009e-004	-2.683191e-003
2251412.017	-3.601763e-005	-2.770034e-003	9.996107e-001	-3.843499e-002	9.992262e-001	-3.724445e-002	-5.617763e-005	-2.784591e-003
2313951.101	-1.220043e-004	-2.854060e-003	9.989743e-001	-3.909197e-002	9.990943e-001	-3.803241e-002	-5.828169e-005	-2.894864e-003
2376490.184	-8.676009e-005	-2.935732e-003	9.998610e-001	-4.005882e-002	9.990938e-001	-3.976448e-002	-8.412746e-005	-2.947802e-003
2439029.268	-1.451127e-004	-3.042615e-003	9.991137e-001	-4.087794e-002	9.985320e-001	-4.072986e-002	-1.369720e-004	-3.078651e-003
2501568.352	-1.333365e-004	-3.012344e-003	9.993168e-001	-4.183692e-002	9.993786e-001	-4.179531e-002	-1.009577e-004	-3.081824e-003
2564107.436	-9.130371e-005	-3.099267e-003	9.988193e-001	-4.292057e-002	9.986057e-001	-4.286660e-002	-1.221016e-004	-3.220778e-003
2626646.520	-1.598365e-004	-3.233520e-003	9.986044e-001	-4.411323e-002	9.991734e-001	-4.338301e-002	-1.029999e-004	-3.242821e-003
2689185.604	-1.673214e-004	-3.301393e-003	9.993603e-001	-4.489646e-002	9.993875e-001	-4.470411e-002	-1.076230e-004	-3.386242e-003
2751724.687	-8.844585e-005	-3.440676e-003	9.991388e-001	-4.593057e-002	9.984657e-001	-4.572790e-002	-1.568529e-004	-3.371850e-003
2814263.771	-1.011098e-004	-3.492860e-003	9.992834e-001	-4.731935e-002	9.991591e-001	-4.730255e-002	-1.588094e-004	-3.493185e-003
2876802.855	-1.622054e-004	-3.567733e-003	9.990688e-001	-4.864335e-002	9.983951e-001	-4.811071e-002	-1.549075e-004	-3.601420e-003
2939341.939	-1.652909e-004	-3.633137e-003	9.987708e-001	-4.930857e-002	9.986892e-001	-4.865272e-002	-1.889108e-004	-3.674558e-003
3001881.023	-2.133121e-004	-3.690575e-003	9.987458e-001	-4.977859e-002	9.989463e-001	-4.946757e-002	-2.257892e-004	-3.691987e-003
3064420.106	-1.467356e-004	-3.817084e-003	9.983827e-001	-5.114763e-002	9.980625e-001	-5.093526e-002	-2.014926e-004	-3.787047e-003
3126959.190	-1.812807e-004	-3.862192e-003	9.985826e-001	-5.234338e-002	9.984401e-001	-5.215396e-002	-1.848892e-004	-3.886366e-003
3189498.274	-1.361859e-004	-3.928505e-003	9.986367e-001	-5.354966e-002	9.982781e-001	-5.324210e-002	-2.124711e-004	-3.962759e-003
3252037.358	-1.471139e-004	-4.010641e-003	9.984468e-001	-5.457077e-002	9.983919e-001	-5.420749e-002	-1.782526e-004	-4.032232e-003
3314576.442	-1.750099e-004	-4.172114e-003	9.984480e-001	-5.560322e-002	9.984391e-001	-5.535167e-002	-2.458784e-004	-4.101786e-003
3377115.525	-2.145978e-004	-4.172139e-003	9.984494e-001	-5.674216e-002	9.981563e-001	-5.634875e-002	-2.455431e-004	-4.192700e-003
3439654.609	-1.964412e-004	-4.219628e-003	9.981556e-001	-5.762977e-002	9.983000e-001	-5.743519e-002	-2.461870e-004	-4.283234e-003
3502193.693	-1.906918e-004	-4.382812e-003	9.982639e-001	-5.872241e-002	9.981878e-001	-5.836743e-002	-2.442729e-004	-4.399893e-003
3564732.777	-2.240137e-004	-4.433128e-003	9.982328e-001	-5.983603e-002	9.981118e-001	-5.946169e-002	-2.359563e-004	-4.461984e-003
3627271.861	-2.370355e-004	-4.505518e-003	9.980822e-001	-6.085526e-002	9.981412e-001	-6.055118e-002	-2.696209e-004	-4.522632e-003
3689810.944	-2.614769e-004	-4.604899e-003	9.980825e-001	-6.183409e-002	9.978780e-001	-6.157525e-002	-3.157106e-004	-4.621832e-003
3752350.028	-2.933647e-004	-4.636067e-003	9.980131e-001	-6.291063e-002	9.979308e-001	-6.259301e-002	-2.614249e-004	-4.677992e-003
3814889.112	-2.623777e-004	-4.733484e-003	9.979511e-001	-6.393882e-002	9.977968e-001	-6.363154e-002	-2.820703e-004	-4.784071e-003
3877428.196	-1.988269e-004	-4.801260e-003	9.979265e-001	-6.499179e-002	9.976365e-001	-6.460370e-002	-3.109893e-004	-4.838281e-003
3939967.280	-2.906409e-004	-4.924046e-003	9.976369e-001	-6.610916e-002	9.976073e-001	-6.572436e-002	-3.059739e-004	-4.872526e-003
4002506.363	-2.651743e-004	-4.977280e-003	9.976895e-001	-6.704827e-002	9.975870e-001	-6.669979e-002	-3.107331e-004	-4.963516e-003
4065045.447	-2.654589e-004	-5.064507e-003	9.977379e-001	-6.821685e-002	9.976325e-001	-6.796287e-002	-3.095082e-004	-5.090027e-003
4127584.531	-3.331260e-004	-5.118977e-003	9.977556e-001	-6.924774e-002	9.974939e-001	-6.888946e-002	-3.229932e-004	-5.153355e-003
4190123.615	-3.086120e-004	-5.197234e-003	9.974252e-001	-7.013758e-002	9.974471e-001	-6.987039e-002	-3.809366e-004	-5.251901e-003
4252662.699	-3.868526e-004	-5.269539e-003	9.973751e-001	-7.117618e-002	9.971763e-001	-7.082603e-002	-3.942508e-004	-5.276608e-003
4315201.782	-3.158192e-004	-5.392908e-003	9.973241e-001	-7.233647e-002	9.971996e-001	-7.181853e-002	-4.128650e-004	-5.393460e-003
4377740.866	-3.506650e-004	-5.460181e-003	9.973323e-001	-7.340669e-002	9.971987e-001	-7.304849e-002	-3.658071e-004	-5.454833e-003
4440279.950	-3.284464e-004	-5.488901e-003	9.972234e-001	-7.423945e-002	9.971519e-001	-7.400237e-002	-3.957014e-004	-5.556618e-003
4502819.034	-3.251402e-004	-5.668841e-003	9.972380e-001	-7.534078e-002	9.969040e-001	-7.509026e-002	-4.015435e-004	-5.632617e-003
4565358.118	-3.647834e-004	-5.664517e-003	9.968221e-001	-7.635649e-002	9.969908e-001	-7.627722e-002	-3.869655e-004	-5.665800e-003
4627897.201	-3.747163e-004	-5.799091e-003	9.969109e-001	-7.738924e-002	9.969494e-001	-7.710804e-002	-4.587156e-004	-5.705189e-003
4690436.285	-3.638195e-004	-5.835348e-003	9.968366e-001	-7.856994e-002	9.968070e-001	-7.815537e-002	-4.516020e-004	-5.824304e-003
4752975.369	-4.338511e-004	-5.973065e-003	9.967357e-001	-7.956130e-002	9.966029e-001	-7.921032e-002	-4.640085e-004	-5.906118e-003
4815514.453	-4.295839e-004	-6.030111e-003	9.967365e-001	-8.068848e-002	9.965234e-001	-8.033918e-002	-4.631516e-004	-5.996793e-003
4878053.537	-4.626521e-004	-6.045685e-003	9.966977e-001	-8.184918e-002	9.965085e-001	-8.126372e-002	-4.999516e-004	-6.037210e-003
4940592.620	-4.453237e-004	-6.143645e-003	9.964406e-001	-8.271765e-002	9.963351e-001	-8.229403e-002	-5.058700e-004	-6.137960e-003
5003131.704	-4.473983e-004	-6.237662e-003	9.964035e-001	-8.380458e-002	9.961695e-001	-8.344828e-002	-5.806522e-004	-6.268020e-003
5065670.788	-5.137826e-004	-6.331042e-003	9.963339e-001	-8.487002e-002	9.961349e-001	-8.448480e-002	-5.348075e-004	-6.303153e-003
5128209.872	-4.664104e-004	-6.372595e-003	9.962394e-001	-8.582065e-002	9.962211e-001	-8.540845e-002	-5.575663e-004	-6.394671e-003
5190748.956	-5.048837e-004	-6.507914e-003	9.961597e-001	-8.697346e-002	9.961451e-001	-8.644882e-002	-5.540249e-004	-6.445901e-003
5253288.039	-5.323781e-004	-6.556620e-003	9.958289e-001	-8.788420e-002	9.960242e-001	-8.757838e-002	-5.104657e-004	-6.546824e-003
5315827.123	-5.287077e-004	-6.614726e-003	9.958651e-001	-8.896025e-002	9.958961e-001	-8.875291e-002	-5.439789e-004	-6.582148e-003
5378366.207	-5.592306e-004	-6.698452e-003	9.956675e-001	-9.005297e-002	9.957686e-001	-8.963435e-002	-5.931845e-004	-6.675982e-003
5440905.291	-5.520732e-004	-6.785991e-003	9.958705e-001	-9.097121e-002	9.958191e-001	-9.078819e-002	-5.938360e-004	-6.767434e-003
5503444.375	-5.767859e-004	-6.867148e-003	9.956348e-001	-9.214425e-002	9.955030e-001	-9.199710e-002	-6.242895e-004	-6.834677e-003
5565983.458	-6.064007e-004	-6.917153e-003	9.956614e-001	-9.320831e-002	9.953802e-001	-9.292649e-002	-5.704609e-004	-6.907733e-003
5628522.542	-6.266444e-004	-7.039351e-003	9.955374e-001	-9.410559e-002	9.955342e-001	-9.378864e-002	-7.007896e-004	-7.033463e-003
5691061.626	-5.709370e-004	-7.085638e-003	9.954034e-001	-9.518267e-002	9.951840e-001	-9.492480e-002	-7.011284e-004	-7.061129e-003
5753600.710	-5.977775e-004	-7.191837e-003	9.952055e-001	-9.633902e-002	9.952127e-001	-9.598763e-002	-6.482841e-004	-7.132698e-003
5816139.794	-5.870008e-004	-7.241611e-003	9.952196e-001	-9.733130e-002	9.950290e-001	-9.713352e-002	-7.333752e-004	-7.237269e-003
5878678.877	-6.489899e-004	-7.324596e-003	9.950082e-001	-9.825461e-002	9.949776e-001	-9.803751e-002	-6.781263e-004	-7.276930e-003
5941217.961	-6.903089e-004	-7.414662e-003	9.950332e-001	-9.932655e-002	9.949820e-001	-9.888867e-002	-7.682845e-004	-7.360207e-003
6003757.045	-6.624054e-004	-7.542097e-003	9.947863e-001	-1.005270e-001	9.947722e-001	-1.000630e-001	-7.616185e-004	-7.505150e-003
6066296.129	-7.200975e-004	-7.554137e-003	9.945893e-001	-1.015634e-001	9.945808e-001	-1.011890e-001	-7.571324e-004	-7.505652e-003
6128835.213	-7.210777e-004	-7.599788e-003	9.946622e-001	-1.026063e-001	9.946571e-001	-1.023940e-001	-7.470135e-004	-7.577239e-003
6191374.296	-7.768449e-004	-7.745018e-003	9.945392e-001	-1.033867e-001	9.944153e-001	-1.032217e-001	-8.174760e-004	-7.697078e-003
6253913.380	-7.431735e-004	-7.818639e-003	9.942673e-001	-1.046640e-001	9.941869e-001	-1.042857e-001	-8.324802e-004	-7.725838e-003
6316452.464	-7.420652e-004	-7.829566e-003	9.942489e-001	-1.055359e-001	9.943012e-001	-1.052270e-001	-8.111743e-004	-7.827004e-003
6378991.548	-7.940053e-004	-7.979210e-003	9.943729e-001	-1.066565e-001	9.941413e-001	-1.062489e-001	-8.089210e-004	-7.875205e-003
6441530.632	-8.008862e-004	-8.020190e-003	9.941968e-001	-1.077291e-001	9.938827e-001	-1.074618e-001	-8.547034e-004	-8.027587e-003
6504069.715	-8.204970e-004	-8.105108e-003	9.939799e-001	-1.087370e-001	9.939459e-001	-1.085159e-001	-8.708342e-004	-8.070261e-003
6566608.799	-8.251951e-004	-8.177321e-003	9.937792e-001	-1.098121e-001	9.938036e-001	-1.094094e-001	-9.253461e-004	-8.132065e-003
6629147.883	-8.497379e-004	-8.260712e-003	9.936125e-001	-1.109191e-001	9.937407e-001	-1.105081e-001	-9.336991e-004	-8.211218e-003
6691686.967	-8.669906e-004	-8.374589e-003	9.936658e-001	-1.118103e-001	9.932790e-001	-1.116427e-001	-9.757052e-004	-8.250636e-003
6754226.051	-9.117931e-004	-8.409653e-003	9.935607e-001	-1.129331e-001	9.934953e-001	-1.125771e-001	-9.324882e-004	-8.394155e-003
6816765.134	-9.480270e-004	-8.511511e-003	9.933752e-001	-1.139328e-001	9.933297e-001	-1.136648e-001	-9.471232e-004	-8.471498e-003
6879304.218	-9.175501e-004	-8.576218e-003	9.932493e-001	-1.149944e-001	9.931105e-001	-1.146915e-001	-9.622509e-004	-8.514624e-003
6941843.302	-9.219116e-004	-8.614151e-003	9.930896e-001	-1.158861e-001	9.930967e-001	-1.157523e-001	-1.005296e-003	-8.568064e-003
7004382.386	-9.898762e-004	-8.691536e-003	9.928364e-001	-1.171475e-001	9.930566e-001	-1.168433e-001	-1.006692e-003	-8.675434e-003
7066921.470	-9.771929e-004	-8.787927e-003	9.927850e-001	-1.181450e-001	9.929487e-001	-1.177381e-001	-1.035028e-003	-8.758703e-003
7129460.553	-9.675452e-004	-8.915364e-003	9.927979e-001	-1.191283e-001	9.927812e-001	-1.189727e-001	-1.055427e-003	-8.825153e-003
7191999.637	-1.021662e-003	-8.960572e-003	9.925521e-001	-1.202377e-001	9.925083e-001	-1.197966e-001	-1.074794e-003	-8.906546e-003
7254538.721	-9.615322e-004	-9.037556e-003	9.924853e-001	-1.212444e-001	9.925496e-001	-1.209430e-001	-1.114453e-003	-8.949986e-003
7317077.805	-1.063668e-003	-9.084749e-003	9.921983e-001	-1.223223e-001	9.925113e-001	-1.219417e-001	-1.117477e-003	-9.028988e-003
7379616.889	-1.046603e-003	-9.162724e-003	9.923419e-001	-1.233355e-001	9.921206e-001	-1.228962e-001	-1.119857e-003	-9.171589e-003
7442155.972	-1.074136e-003	-9.258039e-003	9.920498e-001	-1.243199e-001	9.919457e-001	-1.241518e-001	-1.154720e-003	-9.217033e-003
7504695.056	-1.064994e-003	-9.347533e-003	9.919214e-001	-1.253723e-001	9.920085e-001	-1.249574e-001	-1.126678e-003	-9.250629e-003
7567234.140	-1.118901e-003	-9.390924e-003	9.919081e-001	-1.264943e-001	9.918121e-001	-1.259790e-001	-1.183569e-003	-9.326771e-003
7629773.224	-1.129215e-003	-9.497019e-003	9.916659e-001	-1.275059e-001	9.916374e-001	-1.271312e-001	-1.217787e-003	-9.407633e-003
7692312.308	-1.162243e-003	-9.551834e-003	9.916367e-001	-1.284921e-001	9.915647e-001	-1.281643e-001	-1.197814e-003	-9.420005e-003
7754851.391	-1.162204e-003	-9.665249e-003	9.913341e-001	-1.294599e-001	9.913691e-001	-1.291583e-001	-1.276184e-003	-9.518710e-003
7817390.475	-1.179793e-003	-9.687187e-003	9.914464e-001	-1.305278e-001	9.912634e-001	-1.303110e-001	-1.227017e-003	-9.646829e-003
7879929.559	-1.230739e-003	-9.800749e-003	9.911077e-001	-1.315371e-001	9.910906e-001	-1.312545e-001	-1.275888e-003	-9.710008e-003
7942468.643	-1.253261e-003	-9.834234e-003	9.909507e-001	-1.325785e-001	9.910058e-001	-1.324093e-001	-1.315063e-003	-9.771773e-003
8005007.727	-1.246630e-003	-9.901306e-003	9.909206e-001	-1.337670e-001	9.908567e-001	-1.332710e-001	-1.348652e-003	-9.898104e-003
8067546.811	-1.243176e-003	-9.997148e-003	9.907386e-001	-1.348328e-001	9.907787e-001	-1.344809e-001	-1.284431e-003	-9.946794e-003
8130085.894	-1.278001e-003	-1.004999e-002	9.905940e-001	-1.357667e-001	9.904446e-001	-1.354959e-001	-1.375955e-003	-1.002703e-002
8192624.978	-1.297914e-003	-1.016985e-002	9.903940e-001	-1.367854e-001	9.903202e-001	-1.365113e-001	-1.341453e-003	-1.009177e-002
8255164.062	-1.332281e-003	-1.023709e-002	9.903007e-001	-1.378657e-001	9.902411e-001	-1.374873e-001	-1.391588e-003	-1.020766e-002
8317703.146	-1.313536e-003	-1.037127e-002	9.901979e-001	-1.389209e-001	9.902780e-001	-1.385195e-001	-1.433901e-003	-1.026249e-002
8380242.230	-1.326944e-003	-1.043718e-002	9.900121e-001	-1.397041e-001	9.901787e-001	-1.395918e-001	-1.416634e-003	-1.030958e-002
8442781.313	-1.392096e-003	-1.045465e-002	9.899450e-001	-1.407140e-001	9.898220e-001	-1.405618e-001	-1.477090e-003	-1.036850e-002
8505320.397	-1.443451e-003	-1.053838e-002	9.897455e-001	-1.419777e-001	9.896349e-001	-1.417961e-001	-1.446485e-003	-1.052290e-002
8567859.481	-1.438552e-003	-1.061298e-002	9.895577e-001	-1.429919e-001	9.895927e-001	-1.425493e-001	-1.468636e-003	-1.053112e-002
8630398.565	-1.427000e-003	-1.067102e-002	9.894019e-001	-1.440877e-001	9.894090e-001	-1.437090e-001	-1.473597e-003	-1.064579e-002
8692937.649	-1.475510e-003	-1.074921e-002	9.891604e-001	-1.450556e-001	9.891592e-001	-1.445783e-001	-1.585742e-003	-1.067310e-002
8755476.732	-1.530529e-003	-1.079282e-002	9.890072e-001	-1.461834e-001	9.891063e-001	-1.457744e-001	-1.560315e-003	-1.074613e-002
8818015.816	-1.530022e-003	-1.091178e-002	9.889692e-001	-1.470452e-001	9.889669e-001	-1.467046e-001	-1.572344e-003	-1.083823e-002
8880554.900	-1.586687e-003	-1.102564e-002	9.887823e-001	-1.482201e-001	9.888055e-001	-1.477258e-001	-1.634947e-003	-1.089445e-002
8943093.984	-1.565122e-003	-1.107318e-002	9.886358e-001	-1.492938e-001	9.886191e-001	-1.487171e-001	-1.591256e-003	-1.096490e-002
9005633.068	-1.600227e-003	-1.116623e-002	9.884416e-001	-1.502057e-001	9.884168e-001	-1.500050e-001	-1.649709e-003	-1.108850e-002
9068172.151	-1.603724e-003	-1.122251e-002	9.882737e-001	-1.512716e-001	9.880706e-001	-1.510423e-001	-1.714482e-003	-1.110474e-002
9130711.235	-1.612669e-003	-1.127421e-002	9.881178e-001	-1.522787e-001	9.881346e-001	-1.518227e-001	-1.669760e-003	-1.121183e-002
9193250.319	-1.646906e-003	-1.139909e-002	9.879338e-001	-1.532264e-001	9.879727e-001	-1.530043e-001	-1.673817e-003	-1.130354e-002
9255789.403	-1.641191e-003	-1.145960e-002	9.877769e-001	-1.544133e-001	9.879286e-001	-1.539758e-001	-1.718255e-003	-1.130078e-002
9318328.487	-1.741530e-003	-1.152147e-002	9.875889e-001	-1.554721e-001	9.877641e-001	-1.551999e-001	-1.764657e-003	-1.144256e-002
9380867.570	-1.765958e-003	-1.156482e-002	9.875051e-001	-1.564877e-001	9.873616e-001	-1.560148e-001	-1.793010e-003	-1.148553e-002
9443406.654	-1.771217e-003	-1.169061e-002	9.872921e-001	-1.574530e-001	9.873960e-001	-1.571991e-001	-1.766194e-003	-1.157319e-002
