!Agilent Technologies,E5061B,MY49102235,A.02.00
!Date: Mon Jul 10 17:13:43 2023
!Data & Calibration Information:
!Freq	S11:SOLT2(ON)	S21:SOLT2(ON)	S12:SOLT2(ON)	S22:SOLT2(ON)
# Hz S RI R 50
5.000	-4.282229e-004	4.260639e-004	1.001910e+000	2.258396e-003	1.000598e+000	-3.057029e-005	-1.500918e-004	-7.909714e-005
62544.084	-5.348306e-005	-2.575035e-005	1.000056e+000	-8.598898e-004	1.000095e+000	-6.648415e-004	2.548868e-006	-1.087923e-004
125083.168	-3.089694e-005	-1.177946e-004	1.000256e+000	-2.361195e-003	1.000196e+000	-2.159023e-003	-5.610109e-005	-1.137342e-004
187622.251	1.720854e-004	-2.450244e-004	9.994905e-001	-2.483214e-003	1.000214e+000	-2.897636e-003	2.715864e-005	-1.611750e-004
250161.335	5.502664e-005	-1.620229e-004	9.996681e-001	-4.435602e-003	9.997931e-001	-4.174555e-003	3.678642e-005	-1.920892e-004
312700.419	3.320410e-005	-3.001813e-004	1.000306e+000	-5.374946e-003	9.992078e-001	-4.989712e-003	1.233013e-004	-2.589076e-004
375239.503	8.462584e-005	-3.261398e-004	9.999571e-001	-6.252635e-003	1.000138e+000	-6.209818e-003	1.198316e-005	-3.821073e-004
437778.587	1.038661e-004	-4.684830e-004	1.000028e+000	-7.375842e-003	9.991476e-001	-7.706672e-003	8.360122e-005	-2.463695e-004
500317.670	1.027488e-004	-5.151890e-004	9.999728e-001	-8.554427e-003	9.993587e-001	-8.930827e-003	9.832536e-005	-3.299909e-004
562856.754	1.328689e-004	-4.783271e-004	9.996871e-001	-9.754043e-003	9.995922e-001	-9.166624e-003	8.129114e-005	-5.389128e-004
625395.838	1.222991e-004	-5.774938e-004	9.997661e-001	-1.068259e-002	9.992343e-001	-1.039713e-002	1.321980e-004	-5.495917e-004
687934.922	-2.012257e-006	-7.188175e-004	1.000109e+000	-1.154871e-002	1.000260e+000	-1.168168e-002	-5.690675e-006	-6.298831e-004
750474.006	-9.120254e-005	-7.777639e-004	9.998349e-001	-1.282060e-002	9.996335e-001	-1.192164e-002	-1.215949e-004	-7.646957e-004
813013.089	-8.419926e-005	-8.272833e-004	1.000255e+000	-1.394201e-002	9.992639e-001	-1.341873e-002	-8.236080e-005	-8.707125e-004
875552.173	-7.849646e-005	-9.295334e-004	9.997724e-001	-1.498636e-002	9.999253e-001	-1.478718e-002	-6.658349e-005	-9.231094e-004
938091.257	-1.756615e-004	-9.593259e-004	9.995622e-001	-1.574323e-002	9.994757e-001	-1.522382e-002	-1.387318e-004	-9.700595e-004
1000630.341	-1.145019e-004	-9.625675e-004	9.998145e-001	-1.653342e-002	9.996904e-001	-1.652805e-002	-8.046925e-005	-1.044938e-003
1063169.425	-6.951361e-005	-1.049843e-003	1.000482e+000	-1.797553e-002	1.000466e+000	-1.801393e-002	-5.187482e-005	-1.121878e-003
1125708.508	-7.545060e-005	-1.138918e-003	1.000137e+000	-1.925704e-002	9.994947e-001	-1.887916e-002	-6.128453e-005	-1.143565e-003
1188247.592	-7.316128e-005	-1.241247e-003	9.996641e-001	-2.011180e-002	9.994786e-001	-1.983686e-002	-4.447369e-005	-1.220176e-003
1250786.676	-8.879327e-005	-1.288670e-003	9.996699e-001	-2.148958e-002	9.991248e-001	-2.079215e-002	-5.702914e-005	-1.268916e-003
1313325.760	-6.928190e-005	-1.340796e-003	9.998190e-001	-2.173730e-002	9.990621e-001	-2.195336e-002	-7.947070e-005	-1.389383e-003
1375864.844	-5.321302e-005	-1.445596e-003	1.000158e+000	-2.378845e-002	9.994045e-001	-2.359310e-002	-7.460006e-005	-1.464847e-003
1438403.927	-6.808768e-005	-1.513355e-003	9.995615e-001	-2.478789e-002	9.994905e-001	-2.421553e-002	-5.923748e-005	-1.535638e-003
1500943.011	-6.145129e-005	-1.571516e-003	9.999837e-001	-2.569270e-002	9.990066e-001	-2.540921e-002	-6.865557e-005	-1.561825e-003
1563482.095	-1.309843e-004	-1.646066e-003	9.991340e-001	-2.666711e-002	9.995604e-001	-2.631689e-002	-9.685011e-005	-1.663884e-003
1626021.179	-3.228599e-005	-1.676878e-003	9.994437e-001	-2.790868e-002	9.994622e-001	-2.708150e-002	-2.340449e-005	-1.723373e-003
1688560.263	-2.591732e-005	-1.759344e-003	1.000078e+000	-2.886735e-002	9.996220e-001	-2.826319e-002	-4.919407e-005	-1.758968e-003
1751099.346	-1.728243e-005	-1.747958e-003	9.998267e-001	-2.976212e-002	9.992701e-001	-2.937416e-002	-6.949927e-005	-1.846019e-003
1813638.430	-1.109264e-004	-1.877986e-003	1.000042e+000	-3.049146e-002	9.990935e-001	-3.043735e-002	-1.025151e-004	-1.883186e-003
1876177.514	-8.947313e-005	-2.002080e-003	9.996852e-001	-3.205549e-002	9.993936e-001	-3.143804e-002	-6.269264e-005	-1.975340e-003
1938716.598	-8.215960e-005	-2.030788e-003	9.992481e-001	-3.315898e-002	9.997459e-001	-3.270295e-002	-4.909334e-005	-2.036947e-003
2001255.682	-8.930701e-005	-2.061340e-003	9.998850e-001	-3.392675e-002	9.989456e-001	-3.376345e-002	-9.213782e-005	-2.099690e-003
2063794.765	-1.118178e-004	-2.098991e-003	9.992707e-001	-3.477307e-002	9.995283e-001	-3.467642e-002	-4.212737e-005	-2.180773e-003
2126333.849	-6.382392e-005	-2.263569e-003	9.987231e-001	-3.605543e-002	9.991579e-001	-3.595729e-002	-1.271325e-004	-2.285585e-003
2188872.933	-9.240307e-005	-2.283455e-003	9.993919e-001	-3.698968e-002	9.992149e-001	-3.710742e-002	-9.775691e-005	-2.284703e-003
2251412.017	-1.943695e-005	-2.368796e-003	9.996299e-001	-3.883446e-002	9.992030e-001	-3.767074e-002	-4.779951e-005	-2.381640e-003
2313951.101	-9.990520e-005	-2.449896e-003	9.990738e-001	-3.949638e-002	9.989370e-001	-3.856144e-002	-3.945668e-005	-2.495617e-003
2376490.184	-7.885177e-005	-2.526309e-003	9.998114e-001	-4.044326e-002	9.991334e-001	-4.010489e-002	-7.453792e-005	-2.520023e-003
2439029.268	-1.180613e-004	-2.606806e-003	9.990967e-001	-4.120555e-002	9.985424e-001	-4.114740e-002	-1.300760e-004	-2.652456e-003
2501568.352	-1.203284e-004	-2.560004e-003	9.990942e-001	-4.218089e-002	9.995458e-001	-4.231016e-002	-5.897840e-005	-2.635354e-003
2564107.436	-6.639745e-005	-2.638276e-003	9.987909e-001	-4.343527e-002	9.986541e-001	-4.330765e-002	-1.140328e-004	-2.766530e-003
2626646.520	-1.348529e-004	-2.764349e-003	9.985839e-001	-4.451571e-002	9.991459e-001	-4.388735e-002	-8.632412e-005	-2.784217e-003
2689185.604	-1.271263e-004	-2.826830e-003	9.993668e-001	-4.531463e-002	9.992580e-001	-4.519139e-002	-9.958930e-005	-2.917820e-003
2751724.687	-8.310007e-005	-2.951547e-003	9.991496e-001	-4.635147e-002	9.984524e-001	-4.611329e-002	-1.408554e-004	-2.896439e-003
2814263.771	-8.157265e-005	-3.004596e-003	9.992677e-001	-4.779738e-002	9.990077e-001	-4.767053e-002	-1.454004e-004	-2.986775e-003
2876802.855	-1.366284e-004	-3.057030e-003	9.989420e-001	-4.909259e-002	9.984827e-001	-4.861535e-002	-1.249202e-004	-3.098279e-003
2939341.939	-1.358656e-004	-3.107858e-003	9.988418e-001	-4.976500e-002	9.987375e-001	-4.922037e-002	-1.645265e-004	-3.149943e-003
3001881.023	-1.840918e-004	-3.159438e-003	9.987723e-001	-5.025979e-002	9.989559e-001	-5.002783e-002	-1.974619e-004	-3.159228e-003
3064420.106	-1.286092e-004	-3.270116e-003	9.983964e-001	-5.158791e-002	9.981201e-001	-5.135523e-002	-1.673813e-004	-3.246720e-003
3126959.190	-1.445719e-004	-3.312817e-003	9.985450e-001	-5.290740e-002	9.983772e-001	-5.272688e-002	-1.542215e-004	-3.344726e-003
3189498.274	-1.286452e-004	-3.366283e-003	9.985766e-001	-5.409192e-002	9.982322e-001	-5.382049e-002	-1.865285e-004	-3.406418e-003
3252037.358	-1.132080e-004	-3.451821e-003	9.984527e-001	-5.512256e-002	9.983465e-001	-5.476015e-002	-1.547410e-004	-3.448073e-003
3314576.442	-1.460004e-004	-3.577769e-003	9.984242e-001	-5.615628e-002	9.983997e-001	-5.594109e-002	-2.131285e-004	-3.507186e-003
3377115.525	-1.893954e-004	-3.572916e-003	9.984396e-001	-5.733831e-002	9.981540e-001	-5.699019e-002	-2.143609e-004	-3.594439e-003
3439654.609	-1.563633e-004	-3.618125e-003	9.981184e-001	-5.823178e-002	9.982212e-001	-5.805189e-002	-2.152841e-004	-3.680612e-003
3502193.693	-1.499940e-004	-3.755480e-003	9.982142e-001	-5.934316e-002	9.981806e-001	-5.900178e-002	-1.953427e-004	-3.777149e-003
3564732.777	-1.901981e-004	-3.790098e-003	9.981952e-001	-6.040977e-002	9.980901e-001	-6.009013e-002	-1.906967e-004	-3.818729e-003
3627271.861	-1.857703e-004	-3.864971e-003	9.980674e-001	-6.147869e-002	9.980743e-001	-6.121707e-002	-2.320660e-004	-3.876207e-003
3689810.944	-2.143358e-004	-3.958580e-003	9.980709e-001	-6.253182e-002	9.978454e-001	-6.222925e-002	-2.649126e-004	-3.976124e-003
3752350.028	-2.561986e-004	-3.977371e-003	9.979957e-001	-6.360573e-002	9.978934e-001	-6.326434e-002	-2.087002e-004	-4.001263e-003
3814889.112	-2.143524e-004	-4.048528e-003	9.978966e-001	-6.463668e-002	9.977380e-001	-6.429455e-002	-2.396728e-004	-4.105390e-003
3877428.196	-1.560219e-004	-4.101813e-003	9.978533e-001	-6.563902e-002	9.976051e-001	-6.529036e-002	-2.773538e-004	-4.147864e-003
3939967.280	-2.384587e-004	-4.220608e-003	9.976275e-001	-6.679749e-002	9.975812e-001	-6.645396e-002	-2.525997e-004	-4.177273e-003
4002506.363	-2.166279e-004	-4.269388e-003	9.976201e-001	-6.777239e-002	9.975714e-001	-6.742999e-002	-2.675174e-004	-4.253490e-003
4065045.447	-2.055829e-004	-4.343536e-003	9.976667e-001	-6.891053e-002	9.975946e-001	-6.869916e-002	-2.589382e-004	-4.368306e-003
4127584.531	-2.813778e-004	-4.389114e-003	9.977142e-001	-6.992986e-002	9.973949e-001	-6.961864e-002	-2.746717e-004	-4.424706e-003
4190123.615	-2.560498e-004	-4.452284e-003	9.973903e-001	-7.084306e-002	9.973432e-001	-7.059636e-002	-3.227685e-004	-4.510401e-003
4252662.699	-3.257647e-004	-4.514553e-003	9.973512e-001	-7.192494e-002	9.971065e-001	-7.164722e-002	-3.473732e-004	-4.531804e-003
4315201.782	-2.580956e-004	-4.616402e-003	9.972778e-001	-7.309582e-002	9.971129e-001	-7.261940e-002	-3.604806e-004	-4.627431e-003
4377740.866	-2.906159e-004	-4.679474e-003	9.972752e-001	-7.419619e-002	9.971426e-001	-7.384014e-002	-3.010570e-004	-4.684912e-003
4440279.950	-2.822450e-004	-4.706362e-003	9.971968e-001	-7.500285e-002	9.970821e-001	-7.481136e-002	-3.281402e-004	-4.778261e-003
4502819.034	-2.576240e-004	-4.877064e-003	9.971714e-001	-7.614965e-002	9.968791e-001	-7.587673e-002	-3.407853e-004	-4.821971e-003
4565358.118	-3.146020e-004	-4.867515e-003	9.967350e-001	-7.712713e-002	9.969150e-001	-7.711783e-002	-3.286112e-004	-4.867709e-003
4627897.201	-3.159953e-004	-4.977292e-003	9.968324e-001	-7.821242e-002	9.968545e-001	-7.791998e-002	-3.881975e-004	-4.891260e-003
4690436.285	-2.853418e-004	-5.016643e-003	9.967888e-001	-7.938548e-002	9.967189e-001	-7.898652e-002	-3.789337e-004	-4.999675e-003
4752975.369	-3.669385e-004	-5.138363e-003	9.966613e-001	-8.038566e-002	9.965173e-001	-8.011665e-002	-3.887731e-004	-5.069205e-003
4815514.453	-3.551252e-004	-5.185989e-003	9.966893e-001	-8.150870e-002	9.964440e-001	-8.122093e-002	-3.891008e-004	-5.144848e-003
4878053.537	-3.777731e-004	-5.182968e-003	9.965667e-001	-8.270908e-002	9.964168e-001	-8.210312e-002	-4.217681e-004	-5.192728e-003
4940592.620	-3.736263e-004	-5.273217e-003	9.963711e-001	-8.361317e-002	9.962488e-001	-8.321437e-002	-4.371232e-004	-5.269325e-003
5003131.704	-3.668477e-004	-5.360527e-003	9.963210e-001	-8.469889e-002	9.960676e-001	-8.435175e-002	-5.049595e-004	-5.382898e-003
5065670.788	-4.267621e-004	-5.428320e-003	9.962609e-001	-8.575597e-002	9.960898e-001	-8.541752e-002	-4.547983e-004	-5.403143e-003
5128209.872	-3.924544e-004	-5.464742e-003	9.961254e-001	-8.670560e-002	9.961154e-001	-8.639525e-002	-4.667266e-004	-5.483189e-003
5190748.956	-4.170864e-004	-5.590219e-003	9.960227e-001	-8.786382e-002	9.960694e-001	-8.743162e-002	-4.784610e-004	-5.526142e-003
5253288.039	-4.544806e-004	-5.630571e-003	9.957691e-001	-8.880547e-002	9.959254e-001	-8.850637e-002	-4.288962e-004	-5.617216e-003
5315827.123	-4.364661e-004	-5.688689e-003	9.957614e-001	-8.992927e-002	9.957889e-001	-8.967258e-002	-4.610523e-004	-5.651364e-003
5378366.207	-4.642309e-004	-5.740547e-003	9.956111e-001	-9.101068e-002	9.956908e-001	-9.063632e-002	-5.049004e-004	-5.739656e-003
5440905.291	-4.548232e-004	-5.822281e-003	9.957649e-001	-9.193310e-002	9.956978e-001	-9.176600e-002	-4.923370e-004	-5.812819e-003
5503444.375	-4.895395e-004	-5.896227e-003	9.955609e-001	-9.312724e-002	9.954430e-001	-9.302788e-002	-5.305641e-004	-5.870956e-003
5565983.458	-5.304276e-004	-5.945628e-003	9.955717e-001	-9.413198e-002	9.953076e-001	-9.393973e-002	-4.774802e-004	-5.924513e-003
5628522.542	-5.343728e-004	-6.045862e-003	9.954740e-001	-9.509260e-002	9.954436e-001	-9.477330e-002	-6.106909e-004	-6.040467e-003
5691061.626	-4.748115e-004	-6.066544e-003	9.953049e-001	-9.618854e-002	9.951010e-001	-9.600459e-002	-5.879903e-004	-6.066608e-003
5753600.710	-5.086113e-004	-6.174707e-003	9.951027e-001	-9.734069e-002	9.950728e-001	-9.698422e-002	-5.433284e-004	-6.127676e-003
5816139.794	-4.907278e-004	-6.210061e-003	9.951316e-001	-9.832938e-002	9.949950e-001	-9.823765e-002	-6.270042e-004	-6.218381e-003
5878678.877	-5.450789e-004	-6.290028e-003	9.949041e-001	-9.927646e-002	9.948455e-001	-9.908115e-002	-5.739713e-004	-6.231951e-003
5941217.961	-5.818200e-004	-6.363449e-003	9.949147e-001	-1.003176e-001	9.948770e-001	-9.996444e-002	-6.515234e-004	-6.314938e-003
6003757.045	-5.556354e-004	-6.483397e-003	9.946682e-001	-1.015659e-001	9.946521e-001	-1.011142e-001	-6.551676e-004	-6.453100e-003
6066296.129	-6.027362e-004	-6.497196e-003	9.945194e-001	-1.025714e-001	9.945064e-001	-1.022728e-001	-6.416603e-004	-6.446115e-003
6128835.213	-6.123627e-004	-6.525254e-003	9.945767e-001	-1.036523e-001	9.945531e-001	-1.034606e-001	-6.483792e-004	-6.490857e-003
6191374.296	-6.554778e-004	-6.642120e-003	9.943847e-001	-1.045088e-001	9.942784e-001	-1.043207e-001	-6.954704e-004	-6.620660e-003
6253913.380	-6.288240e-004	-6.724217e-003	9.941640e-001	-1.057777e-001	9.940557e-001	-1.053468e-001	-7.149315e-004	-6.620095e-003
6316452.464	-6.326512e-004	-6.710712e-003	9.941403e-001	-1.066574e-001	9.942044e-001	-1.063326e-001	-6.824298e-004	-6.711644e-003
6378991.548	-6.654108e-004	-6.839939e-003	9.941831e-001	-1.077674e-001	9.940324e-001	-1.073747e-001	-6.946518e-004	-6.741457e-003
6441530.632	-6.872266e-004	-6.882867e-003	9.940868e-001	-1.088398e-001	9.938186e-001	-1.086274e-001	-7.308557e-004	-6.899271e-003
6504069.715	-6.957936e-004	-6.956118e-003	9.938457e-001	-1.098473e-001	9.938219e-001	-1.096710e-001	-7.451560e-004	-6.927664e-003
6566608.799	-6.966892e-004	-7.015878e-003	9.936373e-001	-1.109275e-001	9.936496e-001	-1.106173e-001	-8.116598e-004	-6.970973e-003
6629147.883	-7.226194e-004	-7.090927e-003	9.935169e-001	-1.120503e-001	9.935864e-001	-1.116860e-001	-8.013351e-004	-7.036996e-003
6691686.967	-7.394007e-004	-7.194193e-003	9.935382e-001	-1.129706e-001	9.931804e-001	-1.128642e-001	-8.321089e-004	-7.074597e-003
6754226.051	-7.755482e-004	-7.215330e-003	9.934427e-001	-1.140853e-001	9.933597e-001	-1.138146e-001	-7.902797e-004	-7.197381e-003
6816765.134	-8.204130e-004	-7.312608e-003	9.932270e-001	-1.150906e-001	9.931760e-001	-1.148945e-001	-8.061183e-004	-7.273157e-003
6879304.218	-7.744008e-004	-7.369330e-003	9.931144e-001	-1.162425e-001	9.929816e-001	-1.159009e-001	-8.154018e-004	-7.309203e-003
6941843.302	-7.733978e-004	-7.387839e-003	9.929086e-001	-1.171234e-001	9.929805e-001	-1.170143e-001	-8.594786e-004	-7.347138e-003
7004382.386	-8.308918e-004	-7.467511e-003	9.927047e-001	-1.183655e-001	9.929144e-001	-1.181177e-001	-8.637590e-004	-7.462948e-003
7066921.470	-8.251726e-004	-7.551194e-003	9.926651e-001	-1.193539e-001	9.927798e-001	-1.190285e-001	-8.783815e-004	-7.530358e-003
7129460.553	-8.248233e-004	-7.653651e-003	9.926643e-001	-1.203699e-001	9.926306e-001	-1.202245e-001	-9.014556e-004	-7.577513e-003
7191999.637	-8.600344e-004	-7.691747e-003	9.924276e-001	-1.215069e-001	9.924006e-001	-1.210925e-001	-9.112314e-004	-7.643039e-003
7254538.721	-8.111309e-004	-7.755287e-003	9.923296e-001	-1.225095e-001	9.923661e-001	-1.222434e-001	-9.585139e-004	-7.673125e-003
7317077.805	-9.135954e-004	-7.801390e-003	9.920846e-001	-1.236071e-001	9.923404e-001	-1.232558e-001	-9.492784e-004	-7.730438e-003
7379616.889	-8.675297e-004	-7.859885e-003	9.922011e-001	-1.246158e-001	9.919954e-001	-1.242184e-001	-9.450537e-004	-7.871171e-003
7442155.972	-9.067990e-004	-7.941176e-003	9.919028e-001	-1.256107e-001	9.917714e-001	-1.254322e-001	-9.964267e-004	-7.908759e-003
7504695.056	-9.022937e-004	-8.022116e-003	9.917346e-001	-1.266689e-001	9.918686e-001	-1.263228e-001	-9.637316e-004	-7.933891e-003
7567234.140	-9.478161e-004	-8.058314e-003	9.917752e-001	-1.278108e-001	9.916347e-001	-1.273787e-001	-1.005785e-003	-7.992919e-003
7629773.224	-9.440875e-004	-8.159994e-003	9.915168e-001	-1.288063e-001	9.914732e-001	-1.284627e-001	-1.033581e-003	-8.072591e-003
7692312.308	-9.929839e-004	-8.198522e-003	9.914511e-001	-1.298318e-001	9.913384e-001	-1.295246e-001	-1.012392e-003	-8.073341e-003
7754851.391	-9.895453e-004	-8.299043e-003	9.911501e-001	-1.307951e-001	9.911916e-001	-1.305603e-001	-1.087416e-003	-8.152180e-003
7817390.475	-9.924608e-004	-8.305922e-003	9.912874e-001	-1.318738e-001	9.910651e-001	-1.317317e-001	-1.032879e-003	-8.287694e-003
7879929.559	-1.040418e-003	-8.423326e-003	9.909487e-001	-1.329132e-001	9.909209e-001	-1.326454e-001	-1.079356e-003	-8.321882e-003
7942468.643	-1.075770e-003	-8.454782e-003	9.907830e-001	-1.339446e-001	9.908168e-001	-1.338575e-001	-1.123222e-003	-8.381802e-003
8005007.727	-1.045730e-003	-8.504221e-003	9.907276e-001	-1.351783e-001	9.906690e-001	-1.347438e-001	-1.150596e-003	-8.490987e-003
8067546.811	-1.065459e-003	-8.575577e-003	9.905587e-001	-1.362125e-001	9.905697e-001	-1.359165e-001	-1.095184e-003	-8.526482e-003
8130085.894	-1.089561e-003	-8.626901e-003	9.904139e-001	-1.371572e-001	9.902684e-001	-1.369419e-001	-1.172258e-003	-8.589072e-003
8192624.978	-1.109235e-003	-8.723937e-003	9.902088e-001	-1.382048e-001	9.901850e-001	-1.379363e-001	-1.134848e-003	-8.650775e-003
8255164.062	-1.123037e-003	-8.785914e-003	9.901142e-001	-1.393045e-001	9.900847e-001	-1.389281e-001	-1.179011e-003	-8.754635e-003
8317703.146	-1.115088e-003	-8.895471e-003	9.900202e-001	-1.403502e-001	9.899945e-001	-1.400310e-001	-1.222132e-003	-8.804836e-003
8380242.230	-1.125650e-003	-8.966145e-003	9.898270e-001	-1.411698e-001	9.899601e-001	-1.410803e-001	-1.212054e-003	-8.846758e-003
8442781.313	-1.181521e-003	-8.965671e-003	9.897502e-001	-1.421962e-001	9.896487e-001	-1.420331e-001	-1.261896e-003	-8.887037e-003
8505320.397	-1.216959e-003	-9.056077e-003	9.895268e-001	-1.434573e-001	9.894606e-001	-1.432962e-001	-1.232905e-003	-9.033493e-003
8567859.481	-1.214942e-003	-9.108900e-003	9.893270e-001	-1.445034e-001	9.893650e-001	-1.440686e-001	-1.245589e-003	-9.022703e-003
8630398.565	-1.210444e-003	-9.160994e-003	9.891390e-001	-1.455604e-001	9.891379e-001	-1.452560e-001	-1.250048e-003	-9.128812e-003
8692937.649	-1.246938e-003	-9.216407e-003	9.889217e-001	-1.465757e-001	9.889527e-001	-1.461271e-001	-1.358845e-003	-9.148393e-003
8755476.732	-1.301448e-003	-9.254021e-003	9.887887e-001	-1.477187e-001	9.888958e-001	-1.473251e-001	-1.330091e-003	-9.201298e-003
8818015.816	-1.290907e-003	-9.361085e-003	9.887719e-001	-1.485382e-001	9.887520e-001	-1.482776e-001	-1.336207e-003	-9.299237e-003
8880554.900	-1.345689e-003	-9.472705e-003	9.885762e-001	-1.497696e-001	9.886069e-001	-1.493377e-001	-1.392572e-003	-9.340813e-003
8943093.984	-1.323077e-003	-9.504344e-003	9.884347e-001	-1.508925e-001	9.883680e-001	-1.503224e-001	-1.353764e-003	-9.397318e-003
9005633.068	-1.355565e-003	-9.578501e-003	9.882195e-001	-1.517795e-001	9.881915e-001	-1.515549e-001	-1.411401e-003	-9.507518e-003
9068172.151	-1.338416e-003	-9.626462e-003	9.880279e-001	-1.528712e-001	9.878565e-001	-1.526526e-001	-1.479107e-003	-9.515488e-003
9130711.235	-1.372813e-003	-9.671932e-003	9.878966e-001	-1.538595e-001	9.878978e-001	-1.534071e-001	-1.413235e-003	-9.616087e-003
9193250.319	-1.404508e-003	-9.772941e-003	9.877051e-001	-1.548242e-001	9.877384e-001	-1.546331e-001	-1.417709e-003	-9.696717e-003
9255789.403	-1.399332e-003	-9.836217e-003	9.875105e-001	-1.560430e-001	9.876459e-001	-1.556098e-001	-1.461131e-003	-9.680868e-003
9318328.487	-1.495708e-003	-9.881042e-003	9.873607e-001	-1.570830e-001	9.874695e-001	-1.568580e-001	-1.503361e-003	-9.816788e-003
9380867.570	-1.513966e-003	-9.916059e-003	9.872362e-001	-1.580876e-001	9.871039e-001	-1.576686e-001	-1.527108e-003	-9.838942e-003
9443406.654	-1.511340e-003	-1.004384e-002	9.870241e-001	-1.590752e-001	9.870971e-001	-1.588740e-001	-1.499055e-003	-9.920254e-003
