!Agilent Technologies,E5061B,MY49102235,A.02.00
!Date: Mon Jul 10 17:12:39 2023
!Data & Calibration Information:
!Freq	S11:SOLT2(ON)	S21:SOLT2(ON)	S12:SOLT2(ON)	S22:SOLT2(ON)
# Hz S RI R 50
5.000	-4.184765e-004	4.431208e-004	1.001945e+000	2.320874e-003	1.000673e+000	-4.217879e-005	-1.276744e-004	-4.609798e-005
62544.084	-5.607858e-005	4.256445e-004	1.000093e+000	-1.356654e-003	1.000155e+000	-1.099495e-003	1.248238e-005	3.393714e-004
125083.168	-7.997597e-006	7.842009e-004	1.000184e+000	-3.156342e-003	1.000082e+000	-3.038673e-003	-3.306240e-005	7.804702e-004
187622.251	1.971911e-004	1.090289e-003	9.994122e-001	-3.836388e-003	1.000160e+000	-4.281039e-003	6.411559e-005	1.179066e-003
250161.335	1.100732e-004	1.611280e-003	9.997295e-001	-6.121746e-003	9.997011e-001	-6.083855e-003	7.109439e-005	1.604404e-003
312700.419	1.053481e-004	1.935073e-003	1.000248e+000	-7.611891e-003	9.991299e-001	-7.337809e-003	1.858765e-004	1.984890e-003
375239.503	1.782418e-004	2.342641e-003	9.998449e-001	-8.893965e-003	9.999564e-001	-9.006408e-003	1.072348e-004	2.304276e-003
437778.587	2.250087e-004	2.630997e-003	9.997805e-001	-1.044858e-002	9.991021e-001	-1.062674e-002	1.991915e-004	2.825625e-003
500317.670	2.253539e-004	3.038103e-003	9.998506e-001	-1.220289e-002	9.991671e-001	-1.242392e-002	2.443407e-004	3.205002e-003
562856.754	2.769057e-004	3.489710e-003	9.995926e-001	-1.364162e-002	9.994002e-001	-1.322129e-002	2.351849e-004	3.444139e-003
625395.838	2.847760e-004	3.834551e-003	9.997369e-001	-1.511850e-002	9.989634e-001	-1.483572e-002	3.102049e-004	3.879739e-003
687934.922	2.148247e-004	4.140344e-003	9.998884e-001	-1.638831e-002	1.000048e+000	-1.657324e-002	2.020723e-004	4.226563e-003
750474.006	1.640357e-004	4.496109e-003	9.996095e-001	-1.816387e-002	9.992327e-001	-1.715848e-002	1.479749e-004	4.512587e-003
813013.089	2.124552e-004	4.914780e-003	1.000085e+000	-1.959800e-002	9.988199e-001	-1.911791e-002	1.911478e-004	4.849213e-003
875552.173	2.477988e-004	5.236433e-003	9.995754e-001	-2.123415e-002	9.996520e-001	-2.107397e-002	2.549461e-004	5.242683e-003
938091.257	1.663775e-004	5.634547e-003	9.992819e-001	-2.246946e-002	9.990963e-001	-2.183888e-002	2.082694e-004	5.623608e-003
1000630.341	2.729990e-004	6.060600e-003	9.995029e-001	-2.371002e-002	9.993820e-001	-2.350299e-002	2.969867e-004	5.994625e-003
1063169.425	3.523070e-004	6.404381e-003	1.000110e+000	-2.548805e-002	9.998060e-001	-2.560112e-002	3.632496e-004	6.342526e-003
1125708.508	3.776174e-004	6.775926e-003	9.997162e-001	-2.713762e-002	9.989232e-001	-2.667685e-002	3.904514e-004	6.747651e-003
1188247.592	4.136562e-004	7.113722e-003	9.991843e-001	-2.841387e-002	9.990864e-001	-2.812161e-002	4.402950e-004	7.136595e-003
1250786.676	4.366749e-004	7.506923e-003	9.992328e-001	-3.017148e-002	9.986203e-001	-2.960148e-002	4.712251e-004	7.516594e-003
1313325.760	4.915062e-004	7.890837e-003	9.992987e-001	-3.089562e-002	9.984377e-001	-3.128730e-002	4.817872e-004	7.832830e-003
1375864.844	5.587965e-004	8.241483e-003	9.995553e-001	-3.348406e-002	9.987981e-001	-3.314480e-002	5.354366e-004	8.211883e-003
1438403.927	5.812342e-004	8.585735e-003	9.991367e-001	-3.493199e-002	9.988976e-001	-3.418810e-002	5.882399e-004	8.584439e-003
1500943.011	6.268381e-004	8.982877e-003	9.992610e-001	-3.623544e-002	9.984689e-001	-3.594853e-002	6.359425e-004	9.012716e-003
1563482.095	6.137416e-004	9.386027e-003	9.985606e-001	-3.762326e-002	9.987850e-001	-3.734799e-002	6.661172e-004	9.350270e-003
1626021.179	7.538509e-004	9.779400e-003	9.988172e-001	-3.933021e-002	9.986348e-001	-3.866345e-002	7.772651e-004	9.732086e-003
1688560.263	8.115583e-004	1.014344e-002	9.991772e-001	-4.080158e-002	9.987574e-001	-4.020847e-002	8.007179e-004	1.013380e-002
1751099.346	8.764127e-004	1.060322e-002	9.990512e-001	-4.218277e-002	9.982572e-001	-4.178404e-002	8.210909e-004	1.049562e-002
1813638.430	8.215661e-004	1.095810e-002	9.991010e-001	-4.340112e-002	9.982520e-001	-4.331642e-002	8.617999e-004	1.094176e-002
1876177.514	9.115809e-004	1.127856e-002	9.987011e-001	-4.528834e-002	9.985324e-001	-4.468305e-002	9.419996e-004	1.130357e-002
1938716.598	9.835237e-004	1.170576e-002	9.982854e-001	-4.681851e-002	9.988076e-001	-4.647014e-002	1.014075e-003	1.168833e-002
2001255.682	1.050036e-003	1.212284e-002	9.988128e-001	-4.811464e-002	9.977891e-001	-4.790747e-002	1.031420e-003	1.208150e-002
2063794.765	1.081775e-003	1.255856e-002	9.981684e-001	-4.944595e-002	9.985068e-001	-4.935271e-002	1.149271e-003	1.248256e-002
2126333.849	1.207048e-003	1.284649e-002	9.974619e-001	-5.124466e-002	9.979512e-001	-5.100133e-002	1.117372e-003	1.284928e-002
2188872.933	1.225355e-003	1.331926e-002	9.980537e-001	-5.253213e-002	9.980556e-001	-5.263500e-002	1.242937e-003	1.331189e-002
2251412.017	1.377771e-003	1.368730e-002	9.982131e-001	-5.491493e-002	9.978142e-001	-5.379638e-002	1.365527e-003	1.367103e-002
2313951.101	1.377491e-003	1.410156e-002	9.977121e-001	-5.602643e-002	9.975659e-001	-5.503869e-002	1.441355e-003	1.404307e-002
2376490.184	1.477875e-003	1.451563e-002	9.983123e-001	-5.748547e-002	9.976478e-001	-5.708606e-002	1.502930e-003	1.449887e-002
2439029.268	1.538774e-003	1.490596e-002	9.975561e-001	-5.875176e-002	9.969975e-001	-5.864485e-002	1.519420e-003	1.485848e-002
2501568.352	1.625567e-003	1.542222e-002	9.974127e-001	-6.028048e-002	9.977414e-001	-6.020833e-002	1.673146e-003	1.535593e-002
2564107.436	1.770736e-003	1.584814e-002	9.970561e-001	-6.186827e-002	9.968379e-001	-6.167186e-002	1.742748e-003	1.571067e-002
2626646.520	1.795713e-003	1.620256e-002	9.968501e-001	-6.349816e-002	9.973564e-001	-6.283181e-002	1.864021e-003	1.618937e-002
2689185.604	1.912165e-003	1.663443e-002	9.975365e-001	-6.479654e-002	9.972869e-001	-6.454553e-002	1.949689e-003	1.654090e-002
2751724.687	2.077904e-003	1.699958e-002	9.970202e-001	-6.631638e-002	9.962286e-001	-6.620653e-002	2.022736e-003	1.707436e-002
2814263.771	2.181681e-003	1.745720e-002	9.970012e-001	-6.821855e-002	9.968989e-001	-6.823991e-002	2.137478e-003	1.745326e-002
2876802.855	2.250370e-003	1.788987e-002	9.966374e-001	-7.009390e-002	9.960301e-001	-6.936024e-002	2.272965e-003	1.785747e-002
2939341.939	2.373032e-003	1.836306e-002	9.965255e-001	-7.113519e-002	9.962482e-001	-7.061431e-002	2.351540e-003	1.831726e-002
3001881.023	2.481229e-003	1.880774e-002	9.962515e-001	-7.229886e-002	9.964670e-001	-7.190863e-002	2.463497e-003	1.879899e-002
3064420.106	2.660460e-003	1.919328e-002	9.956719e-001	-7.410238e-002	9.952673e-001	-7.382101e-002	2.627887e-003	1.921396e-002
3126959.190	2.784775e-003	1.966054e-002	9.957511e-001	-7.593220e-002	9.955391e-001	-7.569415e-002	2.790713e-003	1.964095e-002
3189498.274	2.957894e-003	2.012325e-002	9.956178e-001	-7.762786e-002	9.952346e-001	-7.724213e-002	2.905572e-003	2.008591e-002
3252037.358	3.142838e-003	2.056020e-002	9.952948e-001	-7.911110e-002	9.951722e-001	-7.877295e-002	3.099063e-003	2.055100e-002
3314576.442	3.266350e-003	2.094384e-002	9.951297e-001	-8.067116e-002	9.950455e-001	-8.045038e-002	3.213897e-003	2.101451e-002
3377115.525	3.408266e-003	2.147282e-002	9.949778e-001	-8.241210e-002	9.946325e-001	-8.202363e-002	3.385637e-003	2.145008e-002
3439654.609	3.606025e-003	2.194834e-002	9.944749e-001	-8.378593e-002	9.945895e-001	-8.361690e-002	3.569735e-003	2.189618e-002
3502193.693	3.801413e-003	2.232579e-002	9.944092e-001	-8.541036e-002	9.942805e-001	-8.507173e-002	3.759664e-003	2.230669e-002
3564732.777	3.961218e-003	2.282374e-002	9.941840e-001	-8.706734e-002	9.940312e-001	-8.674753e-002	3.985127e-003	2.278652e-002
3627271.861	4.161663e-003	2.326163e-002	9.937938e-001	-8.863609e-002	9.938162e-001	-8.833496e-002	4.138733e-003	2.325466e-002
3689810.944	4.361361e-003	2.371833e-002	9.936490e-001	-9.012708e-002	9.933227e-001	-8.992957e-002	4.323118e-003	2.369360e-002
3752350.028	4.537620e-003	2.421281e-002	9.933061e-001	-9.183175e-002	9.931897e-001	-9.145244e-002	4.605713e-003	2.418752e-002
3814889.112	4.816711e-003	2.466131e-002	9.929859e-001	-9.334676e-002	9.928504e-001	-9.300163e-002	4.813172e-003	2.461718e-002
3877428.196	5.128920e-003	2.514588e-002	9.927398e-001	-9.494788e-002	9.924487e-001	-9.457641e-002	5.015903e-003	2.509946e-002
3939967.280	5.282670e-003	2.556429e-002	9.922698e-001	-9.655765e-002	9.921296e-001	-9.623024e-002	5.283039e-003	2.561079e-002
4002506.363	5.575736e-003	2.603064e-002	9.919745e-001	-9.808384e-002	9.918866e-001	-9.775056e-002	5.540348e-003	2.605002e-002
4065045.447	5.849012e-003	2.648539e-002	9.917424e-001	-9.976344e-002	9.916043e-001	-9.952521e-002	5.815167e-003	2.646811e-002
4127584.531	6.061144e-003	2.696962e-002	9.914974e-001	-1.013504e-001	9.912093e-001	-1.010259e-001	6.075645e-003	2.693479e-002
4190123.615	6.373165e-003	2.744571e-002	9.909216e-001	-1.027771e-001	9.908645e-001	-1.025275e-001	6.315395e-003	2.738540e-002
4252662.699	6.617802e-003	2.788477e-002	9.905928e-001	-1.043887e-001	9.902979e-001	-1.040284e-001	6.608242e-003	2.788174e-002
4315201.782	6.987157e-003	2.829944e-002	9.901886e-001	-1.060433e-001	9.900567e-001	-1.055596e-001	6.889207e-003	2.831389e-002
4377740.866	7.267056e-003	2.876509e-002	9.898726e-001	-1.076746e-001	9.897611e-001	-1.073083e-001	7.272552e-003	2.876325e-002
4440279.950	7.627897e-003	2.925211e-002	9.894632e-001	-1.090014e-001	9.893592e-001	-1.087926e-001	7.587891e-003	2.918928e-002
4502819.034	7.993076e-003	2.959491e-002	9.891168e-001	-1.106694e-001	9.887796e-001	-1.103726e-001	7.919317e-003	2.963890e-002
4565358.118	8.312281e-003	3.011050e-002	9.883540e-001	-1.121602e-001	9.884572e-001	-1.120932e-001	8.284687e-003	3.011456e-002
4627897.201	8.667982e-003	3.050044e-002	9.880748e-001	-1.137284e-001	9.881017e-001	-1.134398e-001	8.589611e-003	3.059195e-002
4690436.285	9.042918e-003	3.096686e-002	9.876310e-001	-1.153902e-001	9.875373e-001	-1.150220e-001	8.968974e-003	3.097992e-002
4752975.369	9.354197e-003	3.134125e-002	9.871288e-001	-1.169192e-001	9.869945e-001	-1.165837e-001	9.347848e-003	3.139668e-002
4815514.453	9.759274e-003	3.177639e-002	9.867667e-001	-1.185567e-001	9.865300e-001	-1.182043e-001	9.746768e-003	3.179347e-002
4878053.537	1.012959e-002	3.224830e-002	9.862997e-001	-1.201657e-001	9.860714e-001	-1.195834e-001	1.011546e-002	3.224442e-002
4940592.620	1.056857e-002	3.263320e-002	9.856558e-001	-1.215758e-001	9.854781e-001	-1.211792e-001	1.051325e-002	3.264755e-002
5003131.704	1.099160e-002	3.302139e-002	9.852182e-001	-1.231191e-001	9.849071e-001	-1.227970e-001	1.086000e-002	3.300942e-002
5065670.788	1.137846e-002	3.338735e-002	9.846865e-001	-1.246913e-001	9.844566e-001	-1.243006e-001	1.135387e-002	3.341959e-002
5128209.872	1.184142e-002	3.381851e-002	9.841639e-001	-1.260578e-001	9.840840e-001	-1.257211e-001	1.178012e-002	3.379542e-002
5190748.956	1.227853e-002	3.413539e-002	9.836287e-001	-1.276762e-001	9.836032e-001	-1.272115e-001	1.224195e-002	3.420686e-002
5253288.039	1.270023e-002	3.455466e-002	9.828578e-001	-1.290510e-001	9.830151e-001	-1.287271e-001	1.273290e-002	3.454908e-002
5315827.123	1.316606e-002	3.491219e-002	9.824115e-001	-1.305861e-001	9.824003e-001	-1.303266e-001	1.316826e-002	3.495128e-002
5378366.207	1.362412e-002	3.527080e-002	9.818056e-001	-1.320986e-001	9.818199e-001	-1.316960e-001	1.360266e-002	3.528458e-002
5440905.291	1.411918e-002	3.560025e-002	9.814951e-001	-1.334597e-001	9.813713e-001	-1.332560e-001	1.408646e-002	3.561516e-002
5503444.375	1.459288e-002	3.592990e-002	9.807502e-001	-1.350607e-001	9.805968e-001	-1.349216e-001	1.457163e-002	3.595396e-002
5565983.458	1.505444e-002	3.626431e-002	9.802599e-001	-1.365006e-001	9.799180e-001	-1.361889e-001	1.511872e-002	3.629250e-002
5628522.542	1.556321e-002	3.654066e-002	9.796539e-001	-1.378113e-001	9.796166e-001	-1.374732e-001	1.550635e-002	3.655607e-002
5691061.626	1.612190e-002	3.687276e-002	9.789852e-001	-1.392451e-001	9.787143e-001	-1.390165e-001	1.602750e-002	3.690638e-002
5753600.710	1.661993e-002	3.714194e-002	9.782730e-001	-1.407551e-001	9.782695e-001	-1.404372e-001	1.660256e-002	3.719662e-002
5816139.794	1.716597e-002	3.744723e-002	9.777310e-001	-1.420857e-001	9.775344e-001	-1.419560e-001	1.704120e-002	3.745745e-002
5878678.877	1.765438e-002	3.770388e-002	9.770181e-001	-1.433959e-001	9.768925e-001	-1.431672e-001	1.764220e-002	3.776706e-002
5941217.961	1.816531e-002	3.796152e-002	9.765266e-001	-1.448143e-001	9.764542e-001	-1.444142e-001	1.810870e-002	3.801795e-002
6003757.045	1.872293e-002	3.815355e-002	9.757277e-001	-1.463055e-001	9.757045e-001	-1.458828e-001	1.864256e-002	3.818753e-002
6066296.129	1.922646e-002	3.843843e-002	9.750081e-001	-1.476404e-001	9.748867e-001	-1.472903e-001	1.920160e-002	3.848114e-002
6128835.213	1.976857e-002	3.869806e-002	9.744845e-001	-1.489766e-001	9.743989e-001	-1.487826e-001	1.974642e-002	3.871181e-002
6191374.296	2.025458e-002	3.883683e-002	9.738125e-001	-1.501737e-001	9.737138e-001	-1.499478e-001	2.025498e-002	3.888100e-002
6253913.380	2.085581e-002	3.904297e-002	9.729968e-001	-1.516496e-001	9.728823e-001	-1.512728e-001	2.079237e-002	3.913965e-002
6316452.464	2.140748e-002	3.930139e-002	9.724380e-001	-1.527607e-001	9.724595e-001	-1.524948e-001	2.137509e-002	3.929535e-002
6378991.548	2.193482e-002	3.938051e-002	9.719520e-001	-1.541860e-001	9.716770e-001	-1.537913e-001	2.192458e-002	3.949776e-002
6441530.632	2.246385e-002	3.957459e-002	9.712643e-001	-1.554877e-001	9.709240e-001	-1.552218e-001	2.244236e-002	3.957550e-002
6504069.715	2.302126e-002	3.971953e-002	9.704857e-001	-1.567308e-001	9.704317e-001	-1.565178e-001	2.299862e-002	3.975463e-002
6566608.799	2.358189e-002	3.986947e-002	9.697083e-001	-1.580343e-001	9.697104e-001	-1.576300e-001	2.347978e-002	3.992197e-002
6629147.883	2.411403e-002	3.998860e-002	9.690088e-001	-1.592883e-001	9.690615e-001	-1.589364e-001	2.404437e-002	4.003562e-002
6691686.967	2.463672e-002	4.006283e-002	9.685199e-001	-1.603601e-001	9.681123e-001	-1.602386e-001	2.457340e-002	4.019646e-002
6754226.051	2.516279e-002	4.021353e-002	9.678818e-001	-1.616969e-001	9.677113e-001	-1.613867e-001	2.518285e-002	4.021822e-002
6816765.134	2.567767e-002	4.026826e-002	9.670948e-001	-1.629138e-001	9.670108e-001	-1.626340e-001	2.570646e-002	4.029482e-002
6879304.218	2.626402e-002	4.036640e-002	9.664356e-001	-1.641497e-001	9.662645e-001	-1.638282e-001	2.625137e-002	4.042474e-002
6941843.302	2.681444e-002	4.046743e-002	9.656939e-001	-1.651792e-001	9.656995e-001	-1.650293e-001	2.675360e-002	4.053046e-002
7004382.386	2.732374e-002	4.051881e-002	9.649560e-001	-1.665941e-001	9.650807e-001	-1.663217e-001	2.730696e-002	4.054419e-002
7066921.470	2.784162e-002	4.056704e-002	9.643710e-001	-1.676866e-001	9.644418e-001	-1.673035e-001	2.784673e-002	4.058885e-002
7129460.553	2.838525e-002	4.056767e-002	9.638046e-001	-1.688207e-001	9.637503e-001	-1.686902e-001	2.832596e-002	4.064842e-002
7191999.637	2.888830e-002	4.063037e-002	9.630438e-001	-1.700319e-001	9.629827e-001	-1.696367e-001	2.887603e-002	4.066547e-002
7254538.721	2.946604e-002	4.064320e-002	9.624369e-001	-1.711806e-001	9.624149e-001	-1.708826e-001	2.935622e-002	4.073449e-002
7317077.805	2.990079e-002	4.069399e-002	9.616575e-001	-1.723438e-001	9.618735e-001	-1.719759e-001	2.991050e-002	4.076884e-002
7379616.889	3.044538e-002	4.068294e-002	9.612237e-001	-1.734323e-001	9.610158e-001	-1.730279e-001	3.040188e-002	4.070473e-002
7442155.972	3.094403e-002	4.067573e-002	9.604285e-001	-1.745019e-001	9.603350e-001	-1.742968e-001	3.089491e-002	4.072747e-002
7504695.056	3.146566e-002	4.066658e-002	9.598057e-001	-1.756254e-001	9.598704e-001	-1.752794e-001	3.142892e-002	4.076440e-002
7567234.140	3.192456e-002	4.068857e-002	9.592729e-001	-1.768512e-001	9.591338e-001	-1.763628e-001	3.191767e-002	4.073888e-002
7629773.224	3.242641e-002	4.063692e-002	9.585245e-001	-1.778898e-001	9.585211e-001	-1.775276e-001	3.237484e-002	4.073393e-002
7692312.308	3.288256e-002	4.062453e-002	9.580241e-001	-1.789439e-001	9.578527e-001	-1.785906e-001	3.290304e-002	4.075190e-002
7754851.391	3.338306e-002	4.057671e-002	9.572194e-001	-1.799328e-001	9.571753e-001	-1.796805e-001	3.331909e-002	4.070187e-002
7817390.475	3.385663e-002	4.058102e-002	9.568300e-001	-1.810985e-001	9.566026e-001	-1.808784e-001	3.385447e-002	4.061338e-002
7879929.559	3.431086e-002	4.048952e-002	9.560308e-001	-1.821555e-001	9.559476e-001	-1.818488e-001	3.429289e-002	4.059412e-002
7942468.643	3.476092e-002	4.048622e-002	9.554248e-001	-1.831647e-001	9.553142e-001	-1.830609e-001	3.473997e-002	4.053841e-002
8005007.727	3.524540e-002	4.043767e-002	9.548320e-001	-1.844266e-001	9.547354e-001	-1.839212e-001	3.518289e-002	4.045579e-002
8067546.811	3.573357e-002	4.035529e-002	9.541985e-001	-1.854375e-001	9.541788e-001	-1.851584e-001	3.571867e-002	4.041144e-002
8130085.894	3.616188e-002	4.030062e-002	9.535690e-001	-1.864359e-001	9.534432e-001	-1.862124e-001	3.610278e-002	4.035436e-002
8192624.978	3.659866e-002	4.020879e-002	9.529429e-001	-1.874804e-001	9.528083e-001	-1.871893e-001	3.661500e-002	4.027899e-002
8255164.062	3.703783e-002	4.013323e-002	9.523631e-001	-1.885690e-001	9.523134e-001	-1.881703e-001	3.702691e-002	4.018123e-002
8317703.146	3.747739e-002	4.000759e-002	9.518613e-001	-1.895818e-001	9.517608e-001	-1.892791e-001	3.743381e-002	4.013080e-002
8380242.230	3.793627e-002	3.991845e-002	9.511918e-001	-1.904205e-001	9.513417e-001	-1.903097e-001	3.790162e-002	4.004159e-002
8442781.313	3.832603e-002	3.990537e-002	9.506714e-001	-1.914100e-001	9.505060e-001	-1.912791e-001	3.830016e-002	3.999764e-002
8505320.397	3.873377e-002	3.980763e-002	9.500239e-001	-1.926965e-001	9.498541e-001	-1.924428e-001	3.874999e-002	3.981111e-002
8567859.481	3.918881e-002	3.970412e-002	9.493918e-001	-1.936784e-001	9.493514e-001	-1.932312e-001	3.920012e-002	3.978969e-002
8630398.565	3.962491e-002	3.960054e-002	9.487740e-001	-1.947180e-001	9.487635e-001	-1.944106e-001	3.960610e-002	3.963545e-002
8692937.649	4.001458e-002	3.953593e-002	9.481624e-001	-1.957194e-001	9.480890e-001	-1.952384e-001	3.995650e-002	3.960312e-002
8755476.732	4.039491e-002	3.945049e-002	9.475218e-001	-1.967969e-001	9.476264e-001	-1.964171e-001	4.039785e-002	3.950445e-002
8818015.816	4.081439e-002	3.930517e-002	9.471346e-001	-1.976037e-001	9.471018e-001	-1.973143e-001	4.080398e-002	3.936525e-002
8880554.900	4.116759e-002	3.914774e-002	9.465108e-001	-1.987825e-001	9.465335e-001	-1.983169e-001	4.117136e-002	3.926479e-002
8943093.984	4.160157e-002	3.907644e-002	9.459895e-001	-1.998651e-001	9.458535e-001	-1.992987e-001	4.162318e-002	3.916338e-002
9005633.068	4.197491e-002	3.894064e-002	9.453456e-001	-2.006886e-001	9.452572e-001	-2.004697e-001	4.197066e-002	3.899227e-002
9068172.151	4.239179e-002	3.882884e-002	9.448050e-001	-2.017311e-001	9.445110e-001	-2.014997e-001	4.231440e-002	3.893604e-002
9130711.235	4.277470e-002	3.871920e-002	9.442211e-001	-2.026525e-001	9.441774e-001	-2.022309e-001	4.276429e-002	3.877496e-002
9193250.319	4.313360e-002	3.855878e-002	9.436856e-001	-2.036027e-001	9.436231e-001	-2.033955e-001	4.316853e-002	3.862907e-002
9255789.403	4.352258e-002	3.844284e-002	9.431067e-001	-2.047435e-001	9.431662e-001	-2.043292e-001	4.352433e-002	3.859033e-002
9318328.487	4.381965e-002	3.833374e-002	9.425269e-001	-2.057456e-001	9.425884e-001	-2.054905e-001	4.386794e-002	3.839946e-002
9380867.570	4.419747e-002	3.821583e-002	9.420293e-001	-2.066881e-001	9.418275e-001	-2.062441e-001	4.422397e-002	3.828795e-002
9443406.654	4.454851e-002	3.804487e-002	9.414051e-001	-2.075969e-001	9.414809e-001	-2.073940e-001	4.461586e-002	3.813870e-002
9505945.738	4.492365e-002	3.789687e-002	9.410052e-001	-2.085426e-001	9.408028e-001	-2.082335e-001	4.492410e-002	3.800253e-002
9568484.822	4.528775e-002	3.775634e-002	9.405007e-001	-2.097156e-001	9.403391e-001	-2.091762e-001	4.531981e-002	3.787514e-002
9631023.906	4.564528e-002	3.761576e-002	9.398633e-001	-2.106129e-001	9.397210e-001	-2.102154e-001	4.564731e-002	3.775317e-002
9693562.989	4.597889e-002	3.750556e-002	9.391998e-001	-2.114627e-001	9.392732e-001	-2.112431e-001	4.596110e-002	3.761214e-002
9756102.073	4.624899e-002	3.734872e-002	9.387654e-001	-2.123368e-001	9.387814e-001	-2.121189e-001	4.633565e-002	3.736727e-002
