!Agilent Technologies,E5061B,MY49102235,A.02.00
!Date: Mon Jul 10 16:27:12 2023
!Data & Calibration Information:
!Freq	S11:SOLT2(ON)	S21:SOLT2(ON)	S12:SOLT2(ON)	S22:SOLT2(ON)
# Hz S RI R 50
5.000	-4.517103e-004	4.469855e-004	1.001784e+000	2.313047e-003	1.000537e+000	-2.038428e-005	-9.783216e-005	-6.368490e-005
62544.084	-4.696147e-005	-2.814778e-005	9.999567e-001	-8.150254e-004	1.000096e+000	-6.775333e-004	1.203320e-005	-1.148137e-004
125083.168	-1.897580e-005	-1.255811e-004	1.000088e+000	-2.291658e-003	1.000183e+000	-2.122327e-003	-4.844665e-005	-1.342761e-004
187622.251	1.597118e-004	-2.625542e-004	9.994561e-001	-2.580657e-003	1.000135e+000	-2.937362e-003	4.950220e-005	-1.666808e-004
250161.335	3.955772e-005	-1.754431e-004	9.997739e-001	-4.478652e-003	9.998821e-001	-4.307978e-003	2.379541e-005	-1.996920e-004
312700.419	2.116708e-005	-3.347805e-004	1.000326e+000	-5.268489e-003	9.992680e-001	-4.892860e-003	1.239103e-004	-2.927484e-004
375239.503	6.457648e-005	-3.669163e-004	9.999560e-001	-6.240410e-003	1.000191e+000	-6.223900e-003	5.998543e-006	-4.150559e-004
437778.587	9.572086e-005	-4.770597e-004	9.999807e-001	-7.407462e-003	9.990804e-001	-7.610963e-003	1.041239e-004	-3.046147e-004
500317.670	8.339289e-005	-5.728901e-004	9.999857e-001	-8.460864e-003	9.993422e-001	-8.815967e-003	1.101631e-004	-3.942423e-004
562856.754	1.256423e-004	-5.383122e-004	9.996996e-001	-9.640188e-003	9.996597e-001	-9.228437e-003	5.310250e-005	-5.845997e-004
625395.838	1.007430e-004	-6.089073e-004	9.997902e-001	-1.067289e-002	9.992995e-001	-1.031285e-002	1.129164e-004	-6.068821e-004
687934.922	-1.101664e-005	-7.689898e-004	1.000115e+000	-1.140762e-002	1.000256e+000	-1.163064e-002	-1.583780e-005	-7.046955e-004
750474.006	-8.404855e-005	-8.336680e-004	9.996212e-001	-1.287562e-002	9.996428e-001	-1.184709e-002	-1.109276e-004	-8.174159e-004
813013.089	-6.497663e-005	-8.671508e-004	1.000364e+000	-1.397873e-002	9.991068e-001	-1.343283e-002	-8.304235e-005	-9.262897e-004
875552.173	-7.949823e-005	-9.880110e-004	9.997376e-001	-1.509958e-002	9.999342e-001	-1.473509e-002	-8.072018e-005	-9.757547e-004
938091.257	-1.801882e-004	-1.016027e-003	9.995892e-001	-1.575590e-002	9.995284e-001	-1.517797e-002	-1.381213e-004	-1.032026e-003
1000630.341	-1.007225e-004	-1.020921e-003	9.997000e-001	-1.665540e-002	9.996414e-001	-1.663115e-002	-8.316476e-005	-1.102248e-003
1063169.425	-6.426291e-005	-1.102074e-003	1.000356e+000	-1.783532e-002	1.000350e+000	-1.816986e-002	-4.386065e-005	-1.197738e-003
1125708.508	-7.614249e-005	-1.189443e-003	1.000068e+000	-1.916737e-002	9.994532e-001	-1.887830e-002	-4.846218e-005	-1.218362e-003
1188247.592	-8.132581e-005	-1.303156e-003	9.996590e-001	-1.994623e-002	9.995747e-001	-1.964047e-002	-4.944629e-005	-1.284341e-003
1250786.676	-8.383299e-005	-1.349393e-003	9.997503e-001	-2.141785e-002	9.992335e-001	-2.079717e-002	-5.027378e-005	-1.339594e-003
1313325.760	-7.069629e-005	-1.408453e-003	9.998284e-001	-2.165729e-002	9.990471e-001	-2.193024e-002	-8.350441e-005	-1.465042e-003
1375864.844	-5.895286e-005	-1.503595e-003	1.000166e+000	-2.366303e-002	9.993051e-001	-2.353895e-002	-7.759525e-005	-1.541026e-003
1438403.927	-7.098640e-005	-1.610045e-003	9.997190e-001	-2.475082e-002	9.995377e-001	-2.406331e-002	-8.113733e-005	-1.611776e-003
1500943.011	-6.876778e-005	-1.663504e-003	9.999181e-001	-2.570177e-002	9.992765e-001	-2.540963e-002	-7.212546e-005	-1.631724e-003
1563482.095	-1.357046e-004	-1.712149e-003	9.992234e-001	-2.664306e-002	9.996018e-001	-2.622457e-002	-1.020742e-004	-1.737523e-003
1626021.179	-4.140322e-005	-1.762956e-003	9.995987e-001	-2.787375e-002	9.994810e-001	-2.716025e-002	-4.005216e-005	-1.801235e-003
1688560.263	-3.589956e-005	-1.848753e-003	9.999996e-001	-2.876480e-002	9.995809e-001	-2.836024e-002	-7.061219e-005	-1.866949e-003
1751099.346	-2.383966e-005	-1.853363e-003	9.997620e-001	-2.973157e-002	9.991557e-001	-2.939385e-002	-9.000745e-005	-1.951019e-003
1813638.430	-1.239744e-004	-1.967316e-003	9.999667e-001	-3.047290e-002	9.991086e-001	-3.040715e-002	-1.119963e-004	-1.980441e-003
1876177.514	-8.759314e-005	-2.086071e-003	9.997624e-001	-3.210241e-002	9.995621e-001	-3.146512e-002	-6.963016e-005	-2.070989e-003
1938716.598	-1.029159e-004	-2.131098e-003	9.992256e-001	-3.305365e-002	9.996500e-001	-3.272547e-002	-6.832855e-005	-2.137485e-003
2001255.682	-7.921813e-005	-2.166065e-003	9.998718e-001	-3.388129e-002	9.988076e-001	-3.369164e-002	-1.104538e-004	-2.210648e-003
2063794.765	-1.267300e-004	-2.214210e-003	9.992367e-001	-3.477182e-002	9.995513e-001	-3.465067e-002	-5.577496e-005	-2.282224e-003
2126333.849	-5.962362e-005	-2.392254e-003	9.987187e-001	-3.610127e-002	9.991463e-001	-3.590762e-002	-1.515758e-004	-2.386776e-003
2188872.933	-1.044759e-004	-2.386172e-003	9.994164e-001	-3.695545e-002	9.993619e-001	-3.708825e-002	-1.164183e-004	-2.392736e-003
2251412.017	-3.402922e-005	-2.489204e-003	9.995100e-001	-3.877840e-002	9.992327e-001	-3.772512e-002	-5.895351e-005	-2.499296e-003
2313951.101	-1.090517e-004	-2.564110e-003	9.991208e-001	-3.954024e-002	9.990476e-001	-3.849676e-002	-6.212182e-005	-2.609482e-003
2376490.184	-9.040041e-005	-2.645827e-003	9.996987e-001	-4.040041e-002	9.991861e-001	-4.004110e-002	-8.846883e-005	-2.645771e-003
2439029.268	-1.244268e-004	-2.723989e-003	9.991229e-001	-4.121791e-002	9.986469e-001	-4.119716e-002	-1.499467e-004	-2.769024e-003
2501568.352	-1.408739e-004	-2.691552e-003	9.991306e-001	-4.212641e-002	9.993850e-001	-4.213626e-002	-1.022051e-004	-2.757160e-003
2564107.436	-7.970362e-005	-2.775252e-003	9.987584e-001	-4.348678e-002	9.986197e-001	-4.318256e-002	-1.290070e-004	-2.883989e-003
2626646.520	-1.536531e-004	-2.899741e-003	9.986941e-001	-4.457421e-002	9.990745e-001	-4.382588e-002	-1.116863e-004	-2.903560e-003
2689185.604	-1.379657e-004	-2.952237e-003	9.994775e-001	-4.529083e-002	9.993174e-001	-4.506656e-002	-1.203259e-004	-3.035536e-003
2751724.687	-8.466381e-005	-3.094078e-003	9.991358e-001	-4.621761e-002	9.984395e-001	-4.618933e-002	-1.645424e-004	-3.017395e-003
2814263.771	-9.383552e-005	-3.136580e-003	9.991829e-001	-4.766528e-002	9.990407e-001	-4.773258e-002	-1.634855e-004	-3.129024e-003
2876802.855	-1.575800e-004	-3.202180e-003	9.989563e-001	-4.898354e-002	9.984596e-001	-4.841430e-002	-1.622177e-004	-3.237050e-003
2939341.939	-1.431333e-004	-3.251193e-003	9.988157e-001	-4.981477e-002	9.987450e-001	-4.909048e-002	-1.790382e-004	-3.285797e-003
3001881.023	-2.001145e-004	-3.300796e-003	9.988330e-001	-5.022613e-002	9.990230e-001	-4.992652e-002	-2.260829e-004	-3.310582e-003
3064420.106	-1.507788e-004	-3.419819e-003	9.984577e-001	-5.155453e-002	9.980387e-001	-5.138190e-002	-2.071508e-004	-3.384657e-003
3126959.190	-1.673817e-004	-3.473434e-003	9.985385e-001	-5.282797e-002	9.984142e-001	-5.269890e-002	-1.861652e-004	-3.485109e-003
3189498.274	-1.347721e-004	-3.516826e-003	9.986552e-001	-5.408785e-002	9.982364e-001	-5.377270e-002	-2.161121e-004	-3.552970e-003
3252037.358	-1.308296e-004	-3.610161e-003	9.984333e-001	-5.505319e-002	9.983621e-001	-5.470590e-002	-1.958404e-004	-3.606205e-003
3314576.442	-1.633023e-004	-3.738019e-003	9.984575e-001	-5.609437e-002	9.984460e-001	-5.588627e-002	-2.376595e-004	-3.647982e-003
3377115.525	-2.131399e-004	-3.738113e-003	9.984695e-001	-5.728110e-002	9.981718e-001	-5.689201e-002	-2.526667e-004	-3.752413e-003
3439654.609	-1.755520e-004	-3.777309e-003	9.981201e-001	-5.818359e-002	9.982598e-001	-5.799384e-002	-2.413085e-004	-3.836886e-003
3502193.693	-1.757164e-004	-3.925196e-003	9.982462e-001	-5.926679e-002	9.982000e-001	-5.896665e-002	-2.329913e-004	-3.930257e-003
3564732.777	-2.099499e-004	-3.979643e-003	9.982230e-001	-6.034933e-002	9.980758e-001	-6.004794e-002	-2.325758e-004	-3.977222e-003
3627271.861	-2.051178e-004	-4.054155e-003	9.980757e-001	-6.141140e-002	9.981121e-001	-6.117764e-002	-2.622778e-004	-4.037782e-003
3689810.944	-2.422605e-004	-4.129384e-003	9.981108e-001	-6.240592e-002	9.978601e-001	-6.219384e-002	-3.136377e-004	-4.141891e-003
3752350.028	-2.855823e-004	-4.162379e-003	9.980327e-001	-6.355492e-002	9.979363e-001	-6.317097e-002	-2.484890e-004	-4.168755e-003
3814889.112	-2.393547e-004	-4.241275e-003	9.979463e-001	-6.454315e-002	9.977864e-001	-6.425445e-002	-2.697598e-004	-4.283677e-003
3877428.196	-1.793835e-004	-4.285685e-003	9.978625e-001	-6.557874e-002	9.976181e-001	-6.524927e-002	-3.256767e-004	-4.325465e-003
3939967.280	-2.685377e-004	-4.415124e-003	9.976879e-001	-6.673920e-002	9.975958e-001	-6.635997e-002	-2.922248e-004	-4.345293e-003
4002506.363	-2.277915e-004	-4.457888e-003	9.976048e-001	-6.767965e-002	9.975568e-001	-6.736905e-002	-3.150944e-004	-4.434339e-003
4065045.447	-2.400082e-004	-4.527175e-003	9.977186e-001	-6.884279e-002	9.976023e-001	-6.866398e-002	-3.127910e-004	-4.546048e-003
4127584.531	-3.108198e-004	-4.602568e-003	9.976961e-001	-6.988633e-002	9.974915e-001	-6.957056e-002	-3.222626e-004	-4.608039e-003
4190123.615	-2.854934e-004	-4.651978e-003	9.974021e-001	-7.081831e-002	9.974038e-001	-7.054154e-002	-3.718792e-004	-4.692985e-003
4252662.699	-3.519609e-004	-4.732420e-003	9.973857e-001	-7.187144e-002	9.971415e-001	-7.153949e-002	-3.940058e-004	-4.710419e-003
4315201.782	-2.853877e-004	-4.833290e-003	9.973214e-001	-7.301756e-002	9.971677e-001	-7.258098e-002	-4.038164e-004	-4.823270e-003
4377740.866	-3.221095e-004	-4.887107e-003	9.973213e-001	-7.413677e-002	9.972018e-001	-7.375291e-002	-3.567795e-004	-4.871113e-003
4440279.950	-3.036527e-004	-4.922359e-003	9.972136e-001	-7.489702e-002	9.971318e-001	-7.476207e-002	-3.755718e-004	-4.967394e-003
4502819.034	-2.939661e-004	-5.086583e-003	9.972010e-001	-7.605841e-002	9.968898e-001	-7.584605e-002	-3.917194e-004	-5.022512e-003
4565358.118	-3.330963e-004	-5.075564e-003	9.967834e-001	-7.705809e-002	9.969432e-001	-7.704028e-002	-3.851838e-004	-5.054796e-003
4627897.201	-3.361705e-004	-5.192623e-003	9.968748e-001	-7.814391e-002	9.968946e-001	-7.784125e-002	-4.464402e-004	-5.090845e-003
4690436.285	-3.162866e-004	-5.230249e-003	9.968208e-001	-7.932689e-002	9.967380e-001	-7.895239e-002	-4.306193e-004	-5.193440e-003
4752975.369	-3.985808e-004	-5.361843e-003	9.966900e-001	-8.033872e-002	9.965808e-001	-8.003710e-002	-4.346690e-004	-5.279590e-003
4815514.453	-3.822496e-004	-5.407570e-003	9.967342e-001	-8.144124e-002	9.964717e-001	-8.115622e-002	-4.538366e-004	-5.357707e-003
4878053.537	-4.249406e-004	-5.419032e-003	9.966056e-001	-8.267373e-002	9.964678e-001	-8.203758e-002	-4.790426e-004	-5.384771e-003
4940592.620	-4.004664e-004	-5.514364e-003	9.964195e-001	-8.350733e-002	9.963132e-001	-8.316555e-002	-4.909349e-004	-5.476184e-003
5003131.704	-4.004967e-004	-5.590843e-003	9.963633e-001	-8.457432e-002	9.960934e-001	-8.429574e-002	-5.755039e-004	-5.588906e-003
5065670.788	-4.690777e-004	-5.664372e-003	9.963039e-001	-8.566345e-002	9.960763e-001	-8.531750e-002	-5.172555e-004	-5.633078e-003
5128209.872	-4.256811e-004	-5.704268e-003	9.961790e-001	-8.661398e-002	9.961247e-001	-8.630862e-002	-5.327533e-004	-5.706817e-003
5190748.956	-4.608161e-004	-5.825975e-003	9.960831e-001	-8.778837e-002	9.961109e-001	-8.733519e-002	-5.443071e-004	-5.748624e-003
5253288.039	-4.775282e-004	-5.867467e-003	9.958208e-001	-8.870592e-002	9.960151e-001	-8.843316e-002	-4.993444e-004	-5.830665e-003
5315827.123	-4.899888e-004	-5.941426e-003	9.958302e-001	-8.979621e-002	9.958503e-001	-8.961440e-002	-5.326800e-004	-5.869469e-003
5378366.207	-4.962646e-004	-5.999165e-003	9.956869e-001	-9.095105e-002	9.957313e-001	-9.052793e-002	-5.685337e-004	-5.960394e-003
5440905.291	-5.050093e-004	-6.081551e-003	9.958290e-001	-9.184188e-002	9.957501e-001	-9.169811e-002	-5.701968e-004	-6.042632e-003
5503444.375	-5.318408e-004	-6.151141e-003	9.956004e-001	-9.305736e-002	9.955169e-001	-9.296224e-002	-5.916779e-004	-6.101976e-003
5565983.458	-5.583180e-004	-6.197651e-003	9.956558e-001	-9.404768e-002	9.953811e-001	-9.384441e-002	-5.429863e-004	-6.163656e-003
5628522.542	-5.690483e-004	-6.314503e-003	9.954884e-001	-9.502516e-002	9.955064e-001	-9.475065e-002	-6.650101e-004	-6.271231e-003
5691061.626	-5.301339e-004	-6.338725e-003	9.953471e-001	-9.608438e-002	9.950732e-001	-9.591353e-002	-6.690853e-004	-6.304476e-003
5753600.710	-5.436106e-004	-6.446307e-003	9.951605e-001	-9.726172e-002	9.951276e-001	-9.692854e-002	-6.130391e-004	-6.365833e-003
5816139.794	-5.227857e-004	-6.481887e-003	9.951934e-001	-9.821168e-002	9.950046e-001	-9.814308e-002	-6.934328e-004	-6.455683e-003
5878678.877	-5.972019e-004	-6.567095e-003	9.949807e-001	-9.920276e-002	9.948979e-001	-9.901517e-002	-6.474704e-004	-6.483095e-003
5941217.961	-6.366241e-004	-6.645970e-003	9.949648e-001	-1.002469e-001	9.949134e-001	-9.992844e-002	-7.339266e-004	-6.550296e-003
6003757.045	-6.087449e-004	-6.765810e-003	9.947457e-001	-1.014687e-001	9.947006e-001	-1.010793e-001	-7.240228e-004	-6.691143e-003
6066296.129	-6.450090e-004	-6.769472e-003	9.945640e-001	-1.025355e-001	9.945585e-001	-1.021541e-001	-7.239763e-004	-6.699674e-003
6128835.213	-6.619687e-004	-6.800408e-003	9.946344e-001	-1.035355e-001	9.945829e-001	-1.033394e-001	-7.177237e-004	-6.751204e-003
6191374.296	-7.030031e-004	-6.951026e-003	9.944548e-001	-1.043580e-001	9.943568e-001	-1.042752e-001	-7.841224e-004	-6.866019e-003
6253913.380	-6.734246e-004	-7.002874e-003	9.942255e-001	-1.056869e-001	9.941292e-001	-1.052997e-001	-7.935278e-004	-6.879125e-003
6316452.464	-6.767579e-004	-7.001924e-003	9.941726e-001	-1.065599e-001	9.942720e-001	-1.062675e-001	-7.635606e-004	-6.970700e-003
6378991.548	-7.160200e-004	-7.155926e-003	9.942575e-001	-1.076437e-001	9.940656e-001	-1.073166e-001	-7.770099e-004	-7.013774e-003
6441530.632	-7.424744e-004	-7.185051e-003	9.941280e-001	-1.087500e-001	9.938256e-001	-1.085385e-001	-8.142321e-004	-7.157090e-003
6504069.715	-7.405303e-004	-7.268668e-003	9.939059e-001	-1.097493e-001	9.938889e-001	-1.095674e-001	-8.293883e-004	-7.189692e-003
6566608.799	-7.465677e-004	-7.318947e-003	9.937186e-001	-1.108424e-001	9.936948e-001	-1.104965e-001	-8.859197e-004	-7.236283e-003
6629147.883	-7.756013e-004	-7.398916e-003	9.935444e-001	-1.119608e-001	9.936712e-001	-1.116139e-001	-8.835377e-004	-7.302563e-003
6691686.967	-8.025702e-004	-7.509672e-003	9.936021e-001	-1.128552e-001	9.932386e-001	-1.127490e-001	-9.222656e-004	-7.340314e-003
6754226.051	-8.348518e-004	-7.528820e-003	9.935411e-001	-1.139937e-001	9.933896e-001	-1.136925e-001	-8.812334e-004	-7.477509e-003
6816765.134	-8.738944e-004	-7.632025e-003	9.932884e-001	-1.150563e-001	9.932658e-001	-1.147964e-001	-8.956234e-004	-7.557889e-003
6879304.218	-8.461249e-004	-7.683778e-003	9.931728e-001	-1.161196e-001	9.930195e-001	-1.157991e-001	-9.099679e-004	-7.585004e-003
6941843.302	-8.372022e-004	-7.717186e-003	9.929939e-001	-1.170186e-001	9.930306e-001	-1.169105e-001	-9.559888e-004	-7.631414e-003
7004382.386	-8.988467e-004	-7.803594e-003	9.927988e-001	-1.182926e-001	9.929963e-001	-1.180197e-001	-9.580985e-004	-7.733284e-003
7066921.470	-8.917779e-004	-7.890617e-003	9.927059e-001	-1.192587e-001	9.928521e-001	-1.188942e-001	-9.748146e-004	-7.802884e-003
7129460.553	-8.780878e-004	-7.983627e-003	9.926745e-001	-1.202492e-001	9.927072e-001	-1.201587e-001	-1.002181e-003	-7.864453e-003
7191999.637	-9.229075e-004	-8.017223e-003	9.924629e-001	-1.213692e-001	9.924297e-001	-1.209703e-001	-9.965512e-004	-7.916949e-003
7254538.721	-8.799546e-004	-8.088409e-003	9.923901e-001	-1.224058e-001	9.924419e-001	-1.221230e-001	-1.057818e-003	-7.975376e-003
7317077.805	-9.902961e-004	-8.134559e-003	9.921433e-001	-1.234869e-001	9.924128e-001	-1.231544e-001	-1.047149e-003	-8.023242e-003
7379616.889	-9.493320e-004	-8.210061e-003	9.922512e-001	-1.245205e-001	9.920420e-001	-1.241195e-001	-1.042949e-003	-8.162413e-003
7442155.972	-9.727368e-004	-8.290935e-003	9.919398e-001	-1.255486e-001	9.918541e-001	-1.253181e-001	-1.089616e-003	-8.198206e-003
7504695.056	-9.688251e-004	-8.373350e-003	9.918261e-001	-1.265851e-001	9.919083e-001	-1.262110e-001	-1.072551e-003	-8.232330e-003
7567234.140	-1.028394e-003	-8.410936e-003	9.918163e-001	-1.277283e-001	9.916955e-001	-1.272319e-001	-1.103886e-003	-8.292473e-003
7629773.224	-1.021923e-003	-8.513015e-003	9.915597e-001	-1.287276e-001	9.915501e-001	-1.283726e-001	-1.140465e-003	-8.372467e-003
7692312.308	-1.069011e-003	-8.565813e-003	9.915686e-001	-1.297256e-001	9.914358e-001	-1.294043e-001	-1.111103e-003	-8.374981e-003
7754851.391	-1.062096e-003	-8.650694e-003	9.912088e-001	-1.307154e-001	9.912506e-001	-1.304344e-001	-1.191624e-003	-8.463750e-003
7817390.475	-1.071824e-003	-8.662245e-003	9.913839e-001	-1.317778e-001	9.911530e-001	-1.316198e-001	-1.135555e-003	-8.569618e-003
7879929.559	-1.115851e-003	-8.777489e-003	9.910204e-001	-1.328361e-001	9.909851e-001	-1.325582e-001	-1.192771e-003	-8.628678e-003
7942468.643	-1.146184e-003	-8.812728e-003	9.908687e-001	-1.338422e-001	9.908637e-001	-1.337319e-001	-1.231231e-003	-8.693272e-003
8005007.727	-1.136235e-003	-8.876011e-003	9.908247e-001	-1.350837e-001	9.907178e-001	-1.346069e-001	-1.267745e-003	-8.806474e-003
8067546.811	-1.132305e-003	-8.938688e-003	9.906512e-001	-1.361265e-001	9.906921e-001	-1.358033e-001	-1.201336e-003	-8.850943e-003
8130085.894	-1.168786e-003	-8.990019e-003	9.904709e-001	-1.370664e-001	9.903544e-001	-1.368531e-001	-1.287282e-003	-8.913253e-003
8192624.978	-1.190377e-003	-9.097909e-003	9.903080e-001	-1.381211e-001	9.902099e-001	-1.378693e-001	-1.248873e-003	-8.975872e-003
8255164.062	-1.197617e-003	-9.161827e-003	9.901694e-001	-1.391695e-001	9.901507e-001	-1.388568e-001	-1.288442e-003	-9.064592e-003
8317703.146	-1.187089e-003	-9.276937e-003	9.900964e-001	-1.402852e-001	9.900923e-001	-1.399295e-001	-1.339618e-003	-9.143169e-003
8380242.230	-1.201695e-003	-9.339693e-003	9.899133e-001	-1.410657e-001	9.900815e-001	-1.409611e-001	-1.317867e-003	-9.163633e-003
8442781.313	-1.256243e-003	-9.353592e-003	9.898256e-001	-1.421088e-001	9.897109e-001	-1.419331e-001	-1.382314e-003	-9.208078e-003
8505320.397	-1.301057e-003	-9.432804e-003	9.896142e-001	-1.433442e-001	9.895325e-001	-1.431963e-001	-1.348264e-003	-9.358283e-003
8567859.481	-1.303232e-003	-9.499948e-003	9.894340e-001	-1.443685e-001	9.894658e-001	-1.439483e-001	-1.369638e-003	-9.356777e-003
8630398.565	-1.287776e-003	-9.547117e-003	9.892570e-001	-1.454604e-001	9.892167e-001	-1.451580e-001	-1.377150e-003	-9.478253e-003
8692937.649	-1.335433e-003	-9.617754e-003	9.890175e-001	-1.464455e-001	9.890618e-001	-1.460372e-001	-1.479190e-003	-9.474247e-003
8755476.732	-1.392430e-003	-9.645145e-003	9.888593e-001	-1.475956e-001	9.889933e-001	-1.472218e-001	-1.451962e-003	-9.544168e-003
8818015.816	-1.376673e-003	-9.768091e-003	9.888242e-001	-1.484352e-001	9.888517e-001	-1.481789e-001	-1.467486e-003	-9.643388e-003
8880554.900	-1.428846e-003	-9.867799e-003	9.886578e-001	-1.496599e-001	9.886735e-001	-1.492181e-001	-1.519732e-003	-9.679386e-003
8943093.984	-1.418235e-003	-9.900037e-003	9.885093e-001	-1.507611e-001	9.884501e-001	-1.502160e-001	-1.478474e-003	-9.737996e-003
9005633.068	-1.449962e-003	-9.982024e-003	9.883164e-001	-1.516552e-001	9.882323e-001	-1.514523e-001	-1.536782e-003	-9.855964e-003
9068172.151	-1.446004e-003	-1.003473e-002	9.881288e-001	-1.527175e-001	9.879191e-001	-1.525190e-001	-1.601276e-003	-9.865686e-003
9130711.235	-1.467525e-003	-1.008565e-002	9.879758e-001	-1.537362e-001	9.879395e-001	-1.532911e-001	-1.545649e-003	-9.967875e-003
9193250.319	-1.495935e-003	-1.020042e-002	9.877925e-001	-1.547314e-001	9.878505e-001	-1.545386e-001	-1.554778e-003	-1.003798e-002
9255789.403	-1.495468e-003	-1.025351e-002	9.876119e-001	-1.559403e-001	9.877263e-001	-1.554962e-001	-1.594053e-003	-1.003555e-002
9318328.487	-1.585495e-003	-1.030198e-002	9.874392e-001	-1.569674e-001	9.875972e-001	-1.567542e-001	-1.640401e-003	-1.016889e-002
9380867.570	-1.608356e-003	-1.034157e-002	9.873483e-001	-1.579975e-001	9.871630e-001	-1.575998e-001	-1.657187e-003	-1.018755e-002
9443406.654	-1.609655e-003	-1.045985e-002	9.870765e-001	-1.589667e-001	9.872005e-001	-1.587404e-001	-1.637472e-003	-1.027457e-002
