!Agilent Technologies,E5061B,MY49102235,A.02.00
!Date: Mon Jul 10 16:28:10 2023
!Data & Calibration Information:
!Freq	S11:SOLT2(ON)	S21:SOLT2(ON)	S12:SOLT2(ON)	S22:SOLT2(ON)
# Hz S RI R 50
5.000	-4.284515e-004	4.346842e-004	1.001869e+000	2.267170e-003	1.000624e+000	-3.471715e-005	-1.698882e-004	-5.483309e-005
62544.084	-6.229899e-005	-3.308265e-005	9.999400e-001	-9.147065e-004	1.000087e+000	-6.036607e-004	2.507752e-005	-1.226466e-004
125083.168	-4.809225e-005	-1.383696e-004	1.000192e+000	-2.404901e-003	1.000112e+000	-2.110506e-003	-5.923957e-005	-1.447304e-004
187622.251	1.813962e-004	-2.755870e-004	9.993257e-001	-2.556272e-003	1.000117e+000	-2.790452e-003	4.587248e-005	-2.135853e-004
250161.335	5.255315e-005	-2.334357e-004	9.997630e-001	-4.399817e-003	9.997548e-001	-4.134933e-003	2.976172e-005	-2.469641e-004
312700.419	3.602926e-005	-3.865135e-004	1.000283e+000	-5.269140e-003	9.991519e-001	-4.858158e-003	1.264460e-004	-3.298839e-004
375239.503	6.937587e-005	-4.171841e-004	9.999494e-001	-6.299387e-003	1.000132e+000	-6.003676e-003	1.319697e-005	-4.737684e-004
437778.587	7.424387e-005	-5.672431e-004	1.000097e+000	-7.373893e-003	9.991095e-001	-7.489950e-003	9.154548e-005	-3.717934e-004
500317.670	8.260092e-005	-6.532855e-004	1.000070e+000	-8.402657e-003	9.994107e-001	-8.816158e-003	9.334096e-005	-4.630637e-004
562856.754	9.585043e-005	-6.191893e-004	9.997898e-001	-9.686207e-003	9.996320e-001	-9.126260e-003	5.953679e-005	-6.666470e-004
625395.838	9.678486e-005	-7.107557e-004	9.998445e-001	-1.068283e-002	9.991689e-001	-1.023827e-002	1.211795e-004	-7.103763e-004
687934.922	-1.625199e-005	-8.758846e-004	1.000046e+000	-1.143778e-002	1.000241e+000	-1.144733e-002	-1.004979e-005	-8.117377e-004
750474.006	-8.031578e-005	-9.368913e-004	9.998783e-001	-1.262810e-002	9.995812e-001	-1.184290e-002	-1.031048e-004	-9.371391e-004
813013.089	-6.999457e-005	-9.971645e-004	1.000392e+000	-1.387732e-002	9.992237e-001	-1.322909e-002	-7.186868e-005	-1.045112e-003
875552.173	-8.134999e-005	-1.113688e-003	9.998862e-001	-1.484084e-002	1.000068e+000	-1.459262e-002	-6.940078e-005	-1.113557e-003
938091.257	-1.682361e-004	-1.175409e-003	9.996066e-001	-1.563170e-002	9.994319e-001	-1.505913e-002	-1.424088e-004	-1.176038e-003
1000630.341	-1.115952e-004	-1.173415e-003	9.998933e-001	-1.630212e-002	9.996356e-001	-1.645370e-002	-8.535665e-005	-1.274533e-003
1063169.425	-7.405251e-005	-1.282966e-003	1.000516e+000	-1.782067e-002	1.000431e+000	-1.789457e-002	-3.747784e-005	-1.364797e-003
1125708.508	-7.505774e-005	-1.381765e-003	1.000155e+000	-1.914304e-002	9.994306e-001	-1.861184e-002	-4.704465e-005	-1.410850e-003
1188247.592	-7.667770e-005	-1.483194e-003	9.998296e-001	-1.988720e-002	9.994363e-001	-1.949959e-002	-5.109602e-005	-1.471008e-003
1250786.676	-9.600106e-005	-1.556972e-003	9.996827e-001	-2.130124e-002	9.992543e-001	-2.060589e-002	-5.072959e-005	-1.545860e-003
1313325.760	-8.304911e-005	-1.611245e-003	1.000004e+000	-2.146364e-002	9.990324e-001	-2.181326e-002	-9.795834e-005	-1.677156e-003
1375864.844	-5.860094e-005	-1.730747e-003	1.000184e+000	-2.359812e-002	9.994720e-001	-2.312897e-002	-7.299128e-005	-1.752893e-003
1438403.927	-8.026956e-005	-1.838476e-003	9.996321e-001	-2.464862e-002	9.996676e-001	-2.371311e-002	-7.451118e-005	-1.833164e-003
1500943.011	-7.240574e-005	-1.891606e-003	1.000043e+000	-2.555991e-002	9.992978e-001	-2.507523e-002	-8.073725e-005	-1.873971e-003
1563482.095	-1.394399e-004	-1.965838e-003	9.992391e-001	-2.633056e-002	9.996469e-001	-2.608440e-002	-1.043621e-004	-1.991478e-003
1626021.179	-4.298878e-005	-2.021410e-003	9.995994e-001	-2.754482e-002	9.994056e-001	-2.680054e-002	-4.413335e-005	-2.075369e-003
1688560.263	-3.536478e-005	-2.127132e-003	1.000089e+000	-2.869017e-002	9.995257e-001	-2.801131e-002	-7.247932e-005	-2.119643e-003
1751099.346	-3.280702e-005	-2.132792e-003	9.997889e-001	-2.948278e-002	9.991409e-001	-2.902049e-002	-1.003286e-004	-2.229912e-003
1813638.430	-1.319837e-004	-2.252030e-003	1.000032e+000	-3.036738e-002	9.991994e-001	-3.001361e-002	-1.158079e-004	-2.260635e-003
1876177.514	-1.026731e-004	-2.378831e-003	9.997881e-001	-3.175910e-002	9.995494e-001	-3.107096e-002	-8.224238e-005	-2.368939e-003
1938716.598	-9.814997e-005	-2.438242e-003	9.993977e-001	-3.286664e-002	9.996649e-001	-3.229568e-002	-6.877518e-005	-2.446080e-003
2001255.682	-9.147584e-005	-2.492494e-003	9.998835e-001	-3.374445e-002	9.990136e-001	-3.335526e-002	-1.083653e-004	-2.526154e-003
2063794.765	-1.285655e-004	-2.529364e-003	9.993678e-001	-3.446613e-002	9.994935e-001	-3.437069e-002	-7.373377e-005	-2.620772e-003
2126333.849	-7.612988e-005	-2.719292e-003	9.987632e-001	-3.578539e-002	9.991859e-001	-3.548113e-002	-1.649688e-004	-2.718051e-003
2188872.933	-1.140499e-004	-2.754477e-003	9.993445e-001	-3.658830e-002	9.992488e-001	-3.675700e-002	-1.271967e-004	-2.743996e-003
2251412.017	-4.687326e-005	-2.850180e-003	9.997118e-001	-3.863053e-002	9.992071e-001	-3.731425e-002	-6.606284e-005	-2.858536e-003
2313951.101	-1.293784e-004	-2.939021e-003	9.991294e-001	-3.909287e-002	9.989474e-001	-3.806408e-002	-7.429919e-005	-2.982036e-003
2376490.184	-9.629022e-005	-3.030707e-003	9.997377e-001	-4.012483e-002	9.990332e-001	-3.980018e-002	-9.815332e-005	-3.017636e-003
2439029.268	-1.538197e-004	-3.123224e-003	9.991229e-001	-4.083356e-002	9.986256e-001	-4.068366e-002	-1.562520e-004	-3.154857e-003
2501568.352	-1.374369e-004	-3.096683e-003	9.992445e-001	-4.189833e-002	9.994253e-001	-4.176303e-002	-1.094363e-004	-3.158413e-003
2564107.436	-9.714820e-005	-3.186279e-003	9.988033e-001	-4.310439e-002	9.986335e-001	-4.276142e-002	-1.409492e-004	-3.295455e-003
2626646.520	-1.736207e-004	-3.312050e-003	9.987693e-001	-4.412940e-002	9.992303e-001	-4.331073e-002	-1.318862e-004	-3.327870e-003
2689185.604	-1.757158e-004	-3.385002e-003	9.994611e-001	-4.490969e-002	9.992355e-001	-4.457417e-002	-1.330202e-004	-3.481575e-003
2751724.687	-1.029837e-004	-3.543373e-003	9.991743e-001	-4.590355e-002	9.984221e-001	-4.566723e-002	-1.902577e-004	-3.463243e-003
2814263.771	-1.025380e-004	-3.602815e-003	9.993495e-001	-4.730709e-002	9.990408e-001	-4.723631e-002	-1.803826e-004	-3.568903e-003
2876802.855	-1.664428e-004	-3.671089e-003	9.990395e-001	-4.879619e-002	9.985068e-001	-4.804928e-002	-1.786632e-004	-3.688942e-003
2939341.939	-1.680880e-004	-3.724294e-003	9.988701e-001	-4.941119e-002	9.987091e-001	-4.864175e-002	-2.069273e-004	-3.754680e-003
3001881.023	-2.208374e-004	-3.783133e-003	9.988923e-001	-4.980103e-002	9.990427e-001	-4.948910e-002	-2.388833e-004	-3.795579e-003
3064420.106	-1.731978e-004	-3.925144e-003	9.983815e-001	-5.120005e-002	9.979639e-001	-5.070582e-002	-2.311178e-004	-3.887566e-003
3126959.190	-1.920528e-004	-3.968285e-003	9.986111e-001	-5.241186e-002	9.984251e-001	-5.213801e-002	-2.017335e-004	-3.989579e-003
3189498.274	-1.590433e-004	-4.037787e-003	9.986891e-001	-5.359030e-002	9.982838e-001	-5.320064e-002	-2.403648e-004	-4.066212e-003
3252037.358	-1.592847e-004	-4.142544e-003	9.985229e-001	-5.456708e-002	9.983737e-001	-5.418540e-002	-2.146047e-004	-4.128106e-003
3314576.442	-1.941971e-004	-4.271826e-003	9.985225e-001	-5.567332e-002	9.984394e-001	-5.532761e-002	-2.639262e-004	-4.202557e-003
3377115.525	-2.294041e-004	-4.285171e-003	9.985386e-001	-5.681315e-002	9.982184e-001	-5.635522e-002	-2.639834e-004	-4.295523e-003
3439654.609	-2.065262e-004	-4.333326e-003	9.982151e-001	-5.765963e-002	9.982977e-001	-5.742320e-002	-2.781204e-004	-4.382072e-003
3502193.693	-2.080957e-004	-4.495607e-003	9.982993e-001	-5.876857e-002	9.982342e-001	-5.832089e-002	-2.550453e-004	-4.500537e-003
3564732.777	-2.612964e-004	-4.551109e-003	9.982656e-001	-5.986455e-002	9.981659e-001	-5.942845e-002	-2.609962e-004	-4.558321e-003
3627271.861	-2.452391e-004	-4.627815e-003	9.981416e-001	-6.091137e-002	9.981029e-001	-6.055321e-002	-3.033976e-004	-4.629687e-003
3689810.944	-2.750998e-004	-4.720591e-003	9.981547e-001	-6.191507e-002	9.978852e-001	-6.155861e-002	-3.513159e-004	-4.726411e-003
3752350.028	-3.110528e-004	-4.769352e-003	9.980787e-001	-6.298630e-002	9.979226e-001	-6.257531e-002	-2.872433e-004	-4.781485e-003
3814889.112	-2.643616e-004	-4.850802e-003	9.980043e-001	-6.398723e-002	9.978088e-001	-6.359183e-002	-3.078730e-004	-4.891897e-003
3877428.196	-2.087299e-004	-4.917442e-003	9.979495e-001	-6.501859e-002	9.976281e-001	-6.457887e-002	-3.598054e-004	-4.953958e-003
3939967.280	-3.043318e-004	-5.040205e-003	9.977399e-001	-6.618573e-002	9.976219e-001	-6.568895e-002	-3.435343e-004	-4.987351e-003
4002506.363	-2.749200e-004	-5.107899e-003	9.977415e-001	-6.710965e-002	9.976352e-001	-6.667739e-002	-3.474570e-004	-5.083638e-003
4065045.447	-2.906890e-004	-5.195591e-003	9.977666e-001	-6.826058e-002	9.976582e-001	-6.795815e-002	-3.481165e-004	-5.206875e-003
4127584.531	-3.520678e-004	-5.261557e-003	9.977771e-001	-6.929403e-002	9.974955e-001	-6.887433e-002	-3.648589e-004	-5.265614e-003
4190123.615	-3.366479e-004	-5.324100e-003	9.974839e-001	-7.016936e-002	9.973814e-001	-6.982788e-002	-4.186678e-004	-5.370089e-003
4252662.699	-4.006519e-004	-5.401623e-003	9.974377e-001	-7.125650e-002	9.971608e-001	-7.081724e-002	-4.230694e-004	-5.413823e-003
4315201.782	-3.441070e-004	-5.526257e-003	9.973738e-001	-7.236487e-002	9.971728e-001	-7.180588e-002	-4.626254e-004	-5.516589e-003
4377740.866	-3.804422e-004	-5.600923e-003	9.973883e-001	-7.345619e-002	9.972037e-001	-7.303168e-002	-3.996890e-004	-5.590032e-003
4440279.950	-3.562329e-004	-5.629899e-003	9.972845e-001	-7.424245e-002	9.971869e-001	-7.400418e-002	-4.343870e-004	-5.682975e-003
4502819.034	-3.450951e-004	-5.806689e-003	9.972778e-001	-7.540878e-002	9.969335e-001	-7.504010e-002	-4.381198e-004	-5.749760e-003
4565358.118	-3.841297e-004	-5.811683e-003	9.968710e-001	-7.640487e-002	9.970254e-001	-7.628319e-002	-4.427537e-004	-5.801679e-003
4627897.201	-3.931845e-004	-5.939032e-003	9.969755e-001	-7.748251e-002	9.969651e-001	-7.707578e-002	-4.950139e-004	-5.840030e-003
4690436.285	-3.741418e-004	-5.993421e-003	9.969267e-001	-7.859733e-002	9.968115e-001	-7.814387e-002	-4.894916e-004	-5.949475e-003
4752975.369	-4.640416e-004	-6.145183e-003	9.967900e-001	-7.962272e-002	9.966262e-001	-7.921958e-002	-5.030613e-004	-6.051071e-003
4815514.453	-4.460254e-004	-6.183284e-003	9.967930e-001	-8.072839e-002	9.965143e-001	-8.036931e-002	-5.097936e-004	-6.140580e-003
4878053.537	-4.838037e-004	-6.201135e-003	9.967479e-001	-8.188730e-002	9.965135e-001	-8.124297e-002	-5.354352e-004	-6.184346e-003
4940592.620	-4.630654e-004	-6.313595e-003	9.965032e-001	-8.281741e-002	9.963670e-001	-8.232046e-002	-5.574511e-004	-6.277926e-003
5003131.704	-4.594771e-004	-6.401856e-003	9.964557e-001	-8.388194e-002	9.961699e-001	-8.347869e-002	-6.345501e-004	-6.405132e-003
5065670.788	-5.302205e-004	-6.481181e-003	9.964207e-001	-8.491203e-002	9.961905e-001	-8.447359e-002	-5.847731e-004	-6.436790e-003
5128209.872	-5.029602e-004	-6.535432e-003	9.962906e-001	-8.587925e-002	9.962159e-001	-8.543751e-002	-5.934239e-004	-6.517552e-003
5190748.956	-5.220031e-004	-6.677173e-003	9.961634e-001	-8.702852e-002	9.961664e-001	-8.648548e-002	-6.097104e-004	-6.587705e-003
5253288.039	-5.624983e-004	-6.718286e-003	9.958785e-001	-8.795239e-002	9.960440e-001	-8.754265e-002	-5.735644e-004	-6.684739e-003
5315827.123	-5.501016e-004	-6.794755e-003	9.959203e-001	-8.902204e-002	9.959015e-001	-8.872680e-002	-5.986532e-004	-6.739177e-003
5378366.207	-5.864898e-004	-6.867669e-003	9.957389e-001	-9.014165e-002	9.957977e-001	-8.964049e-002	-6.422300e-004	-6.829863e-003
5440905.291	-5.864108e-004	-6.961737e-003	9.959769e-001	-9.101128e-002	9.958221e-001	-9.078571e-002	-6.415775e-004	-6.924069e-003
5503444.375	-6.009196e-004	-7.045730e-003	9.957473e-001	-9.219707e-002	9.955322e-001	-9.202542e-002	-6.719002e-004	-6.987608e-003
5565983.458	-6.356556e-004	-7.100225e-003	9.957442e-001	-9.323585e-002	9.954150e-001	-9.294407e-002	-6.268744e-004	-7.056281e-003
5628522.542	-6.607230e-004	-7.215066e-003	9.955905e-001	-9.416638e-002	9.955466e-001	-9.378649e-002	-7.620420e-004	-7.184408e-003
5691061.626	-6.078446e-004	-7.263741e-003	9.954742e-001	-9.522050e-002	9.951772e-001	-9.495698e-002	-7.462025e-004	-7.231849e-003
5753600.710	-6.410981e-004	-7.376742e-003	9.952950e-001	-9.640684e-002	9.952045e-001	-9.595064e-002	-7.068778e-004	-7.281605e-003
5816139.794	-6.169333e-004	-7.419807e-003	9.952793e-001	-9.737431e-002	9.951038e-001	-9.714754e-002	-8.039575e-004	-7.391095e-003
5878678.877	-6.814883e-004	-7.510697e-003	9.950334e-001	-9.835586e-002	9.950147e-001	-9.802897e-002	-7.372253e-004	-7.424288e-003
5941217.961	-7.210704e-004	-7.600021e-003	9.951034e-001	-9.935352e-002	9.950329e-001	-9.890096e-002	-8.184209e-004	-7.519298e-003
6003757.045	-6.909385e-004	-7.731082e-003	9.948326e-001	-1.005633e-001	9.947953e-001	-1.000709e-001	-8.231129e-004	-7.659970e-003
6066296.129	-7.576426e-004	-7.745961e-003	9.947198e-001	-1.016152e-001	9.946349e-001	-1.011584e-001	-8.222014e-004	-7.675119e-003
6128835.213	-7.565267e-004	-7.793672e-003	9.947795e-001	-1.026801e-001	9.946983e-001	-1.023590e-001	-8.198057e-004	-7.737108e-003
6191374.296	-7.940825e-004	-7.947165e-003	9.945069e-001	-1.034314e-001	9.944064e-001	-1.032205e-001	-8.876566e-004	-7.870424e-003
6253913.380	-7.741855e-004	-8.022073e-003	9.943352e-001	-1.047435e-001	9.942182e-001	-1.042693e-001	-8.932481e-004	-7.893598e-003
6316452.464	-7.853178e-004	-8.025601e-003	9.943338e-001	-1.055729e-001	9.943133e-001	-1.052402e-001	-8.686040e-004	-7.982523e-003
6378991.548	-8.311338e-004	-8.184297e-003	9.943881e-001	-1.067135e-001	9.941360e-001	-1.062579e-001	-8.850192e-004	-8.035393e-003
6441530.632	-8.567219e-004	-8.220771e-003	9.942603e-001	-1.077776e-001	9.939113e-001	-1.074814e-001	-9.205994e-004	-8.198143e-003
6504069.715	-8.638372e-004	-8.309766e-003	9.940072e-001	-1.088000e-001	9.940207e-001	-1.084993e-001	-9.300981e-004	-8.242432e-003
6566608.799	-8.567958e-004	-8.388627e-003	9.938411e-001	-1.098587e-001	9.938038e-001	-1.094113e-001	-9.985537e-004	-8.290986e-003
6629147.883	-8.922031e-004	-8.471194e-003	9.936763e-001	-1.109620e-001	9.937526e-001	-1.105004e-001	-1.011608e-003	-8.366643e-003
6691686.967	-9.124621e-004	-8.583460e-003	9.937321e-001	-1.118485e-001	9.933963e-001	-1.116468e-001	-1.039017e-003	-8.418386e-003
6754226.051	-9.465215e-004	-8.608181e-003	9.936645e-001	-1.129859e-001	9.935246e-001	-1.125919e-001	-9.950664e-004	-8.561291e-003
6816765.134	-9.986928e-004	-8.728779e-003	9.934236e-001	-1.139871e-001	9.933594e-001	-1.136598e-001	-1.007876e-003	-8.657264e-003
6879304.218	-9.655955e-004	-8.790673e-003	9.933201e-001	-1.150818e-001	9.931566e-001	-1.146814e-001	-1.040984e-003	-8.699861e-003
6941843.302	-9.739315e-004	-8.836635e-003	9.931372e-001	-1.159571e-001	9.931207e-001	-1.157609e-001	-1.077699e-003	-8.744361e-003
7004382.386	-1.034946e-003	-8.919712e-003	9.929491e-001	-1.172287e-001	9.931120e-001	-1.168469e-001	-1.083223e-003	-8.863723e-003
7066921.470	-1.024076e-003	-9.009482e-003	9.928483e-001	-1.182029e-001	9.929586e-001	-1.177392e-001	-1.107935e-003	-8.937987e-003
7129460.553	-1.019525e-003	-9.129312e-003	9.928967e-001	-1.191907e-001	9.928200e-001	-1.189761e-001	-1.141290e-003	-9.012309e-003
7191999.637	-1.061741e-003	-9.182744e-003	9.926093e-001	-1.203287e-001	9.925451e-001	-1.198297e-001	-1.155245e-003	-9.079011e-003
7254538.721	-1.030732e-003	-9.258342e-003	9.925487e-001	-1.213121e-001	9.925500e-001	-1.209094e-001	-1.199945e-003	-9.125293e-003
7317077.805	-1.111430e-003	-9.319000e-003	9.922843e-001	-1.223839e-001	9.925591e-001	-1.219497e-001	-1.194362e-003	-9.211262e-003
7379616.889	-1.088149e-003	-9.398401e-003	9.924436e-001	-1.233949e-001	9.921640e-001	-1.228737e-001	-1.199721e-003	-9.342979e-003
7442155.972	-1.120088e-003	-9.490291e-003	9.921316e-001	-1.243723e-001	9.920042e-001	-1.241022e-001	-1.233488e-003	-9.395387e-003
7504695.056	-1.116149e-003	-9.581720e-003	9.920058e-001	-1.254343e-001	9.920289e-001	-1.249732e-001	-1.214643e-003	-9.428794e-003
7567234.140	-1.171324e-003	-9.620038e-003	9.920055e-001	-1.265561e-001	9.918368e-001	-1.259874e-001	-1.264797e-003	-9.508529e-003
7629773.224	-1.175380e-003	-9.732848e-003	9.917239e-001	-1.275421e-001	9.916842e-001	-1.270589e-001	-1.291444e-003	-9.595068e-003
7692312.308	-1.217732e-003	-9.797301e-003	9.917311e-001	-1.285708e-001	9.915814e-001	-1.281595e-001	-1.281814e-003	-9.615494e-003
7754851.391	-1.219459e-003	-9.912307e-003	9.913815e-001	-1.295339e-001	9.913873e-001	-1.292164e-001	-1.357524e-003	-9.705862e-003
7817390.475	-1.224498e-003	-9.935363e-003	9.915243e-001	-1.305964e-001	9.913018e-001	-1.303328e-001	-1.310222e-003	-9.830478e-003
7879929.559	-1.286941e-003	-1.004707e-002	9.912019e-001	-1.315919e-001	9.911035e-001	-1.312514e-001	-1.352821e-003	-9.900707e-003
7942468.643	-1.313615e-003	-1.007868e-002	9.910689e-001	-1.326424e-001	9.910239e-001	-1.324182e-001	-1.403541e-003	-9.972176e-003
8005007.727	-1.307253e-003	-1.015336e-002	9.909526e-001	-1.338479e-001	9.908879e-001	-1.332740e-001	-1.432976e-003	-1.007891e-002
8067546.811	-1.305249e-003	-1.024188e-002	9.908215e-001	-1.348799e-001	9.908205e-001	-1.345012e-001	-1.381287e-003	-1.013043e-002
8130085.894	-1.350661e-003	-1.030571e-002	9.906533e-001	-1.358228e-001	9.904955e-001	-1.355397e-001	-1.459516e-003	-1.022335e-002
8192624.978	-1.366222e-003	-1.041301e-002	9.904655e-001	-1.368506e-001	9.903786e-001	-1.365082e-001	-1.432225e-003	-1.028745e-002
8255164.062	-1.384936e-003	-1.048562e-002	9.903775e-001	-1.379126e-001	9.902990e-001	-1.374980e-001	-1.482556e-003	-1.039746e-002
8317703.146	-1.372310e-003	-1.060856e-002	9.902891e-001	-1.389717e-001	9.902696e-001	-1.385810e-001	-1.527434e-003	-1.046505e-002
8380242.230	-1.410755e-003	-1.069964e-002	9.901294e-001	-1.397722e-001	9.902129e-001	-1.395903e-001	-1.507736e-003	-1.051476e-002
8442781.313	-1.450860e-003	-1.070986e-002	9.900358e-001	-1.407828e-001	9.898748e-001	-1.405685e-001	-1.567982e-003	-1.056351e-002
8505320.397	-1.493109e-003	-1.079620e-002	9.898319e-001	-1.420553e-001	9.896888e-001	-1.417786e-001	-1.540791e-003	-1.071907e-002
8567859.481	-1.507644e-003	-1.087095e-002	9.896130e-001	-1.430531e-001	9.896215e-001	-1.425682e-001	-1.565232e-003	-1.072795e-002
8630398.565	-1.491985e-003	-1.093603e-002	9.894451e-001	-1.441360e-001	9.894079e-001	-1.437114e-001	-1.582157e-003	-1.085414e-002
8692937.649	-1.541103e-003	-1.101010e-002	9.892531e-001	-1.451421e-001	9.891998e-001	-1.446013e-001	-1.689901e-003	-1.087253e-002
8755476.732	-1.593128e-003	-1.105634e-002	9.890614e-001	-1.462715e-001	9.891996e-001	-1.457713e-001	-1.650897e-003	-1.095177e-002
8818015.816	-1.588308e-003	-1.118832e-002	9.890257e-001	-1.470706e-001	9.890340e-001	-1.467140e-001	-1.672682e-003	-1.103506e-002
8880554.900	-1.651439e-003	-1.129940e-002	9.889124e-001	-1.482925e-001	9.888457e-001	-1.477661e-001	-1.738402e-003	-1.110319e-002
8943093.984	-1.634493e-003	-1.133548e-002	9.887662e-001	-1.494128e-001	9.886391e-001	-1.487468e-001	-1.693843e-003	-1.117129e-002
9005633.068	-1.670046e-003	-1.142761e-002	9.885162e-001	-1.502834e-001	9.884564e-001	-1.499733e-001	-1.756265e-003	-1.129905e-002
9068172.151	-1.661007e-003	-1.149643e-002	9.883713e-001	-1.513374e-001	9.881582e-001	-1.510359e-001	-1.830111e-003	-1.131465e-002
9130711.235	-1.688926e-003	-1.154440e-002	9.882084e-001	-1.523461e-001	9.881675e-001	-1.517835e-001	-1.761240e-003	-1.142422e-002
9193250.319	-1.725884e-003	-1.165962e-002	9.880300e-001	-1.533020e-001	9.880085e-001	-1.530395e-001	-1.769492e-003	-1.149872e-002
9255789.403	-1.716274e-003	-1.173561e-002	9.878571e-001	-1.545178e-001	9.879461e-001	-1.539959e-001	-1.825028e-003	-1.151877e-002
9318328.487	-1.816724e-003	-1.179575e-002	9.876904e-001	-1.555270e-001	9.878058e-001	-1.552387e-001	-1.870002e-003	-1.166356e-002
9380867.570	-1.849213e-003	-1.183857e-002	9.875890e-001	-1.565360e-001	9.873830e-001	-1.560358e-001	-1.899869e-003	-1.169219e-002
9443406.654	-1.857669e-003	-1.197998e-002	9.873420e-001	-1.575041e-001	9.874100e-001	-1.572381e-001	-1.882928e-003	-1.177882e-002
