!Agilent Technologies,E5061B,MY49102235,A.02.00
!Date: Mon Jul 10 17:12:02 2023
!Data & Calibration Information:
!Freq	S11:SOLT2(ON)	S21:SOLT2(ON)	S12:SOLT2(ON)	S22:SOLT2(ON)
# Hz S RI R 50
5.000	-4.796602e-004	4.325756e-004	1.001893e+000	2.298225e-003	1.000621e+000	-6.350655e-005	-8.813400e-005	-6.482045e-005
62544.084	-4.811971e-005	3.839183e-004	1.000032e+000	-1.328339e-003	1.000041e+000	-1.074459e-003	2.677447e-005	2.955220e-004
125083.168	4.366367e-006	6.951739e-004	1.000161e+000	-3.119047e-003	1.000110e+000	-2.949633e-003	-3.108463e-005	6.912342e-004
187622.251	1.975968e-004	9.432816e-004	9.994597e-001	-3.719334e-003	1.000131e+000	-4.014562e-003	7.928173e-005	1.024019e-003
250161.335	9.476008e-005	1.411031e-003	9.996923e-001	-5.926574e-003	9.997168e-001	-5.876311e-003	7.469001e-005	1.406439e-003
312700.419	8.899177e-005	1.673423e-003	1.000268e+000	-7.291362e-003	9.992109e-001	-7.077355e-003	1.754307e-004	1.741730e-003
375239.503	1.523818e-004	2.040786e-003	9.999216e-001	-8.637892e-003	1.000069e+000	-8.706300e-003	7.956957e-005	2.014321e-003
437778.587	1.965661e-004	2.305631e-003	9.999040e-001	-1.008940e-002	9.990432e-001	-1.036120e-002	1.813678e-004	2.494418e-003
500317.670	2.061999e-004	2.640878e-003	9.998920e-001	-1.177384e-002	9.991752e-001	-1.209856e-002	2.305975e-004	2.829556e-003
562856.754	2.750704e-004	3.043738e-003	9.995438e-001	-1.310904e-002	9.995631e-001	-1.291337e-002	1.965367e-004	3.013790e-003
625395.838	2.626411e-004	3.366320e-003	9.997598e-001	-1.466111e-002	9.989672e-001	-1.439890e-002	2.977417e-004	3.397859e-003
687934.922	1.947733e-004	3.611913e-003	9.998709e-001	-1.584257e-002	1.000106e+000	-1.597767e-002	1.821731e-004	3.683520e-003
750474.006	1.464412e-004	3.928189e-003	9.995487e-001	-1.757423e-002	9.994199e-001	-1.657749e-002	1.177476e-004	3.958457e-003
813013.089	1.714802e-004	4.287821e-003	1.000139e+000	-1.906388e-002	9.990280e-001	-1.844223e-002	1.646875e-004	4.233347e-003
875552.173	2.056306e-004	4.570902e-003	9.995820e-001	-2.048705e-002	9.995731e-001	-2.016128e-002	1.868233e-004	4.576142e-003
938091.257	1.413586e-004	4.928976e-003	9.993134e-001	-2.158066e-002	9.991017e-001	-2.112115e-002	1.619135e-004	4.904735e-003
1000630.341	2.268192e-004	5.320833e-003	9.995119e-001	-2.287068e-002	9.993168e-001	-2.290538e-002	2.683551e-004	5.243042e-003
1063169.425	3.050556e-004	5.619131e-003	1.000148e+000	-2.466752e-002	9.999201e-001	-2.475837e-002	3.252253e-004	5.540439e-003
1125708.508	3.338652e-004	5.941733e-003	9.997670e-001	-2.642686e-002	9.990151e-001	-2.585526e-002	3.624120e-004	5.905734e-003
1188247.592	3.621241e-004	6.225718e-003	9.992435e-001	-2.751443e-002	9.992158e-001	-2.722603e-002	4.025406e-004	6.246823e-003
1250786.676	3.805405e-004	6.574463e-003	9.992784e-001	-2.927986e-002	9.986729e-001	-2.859320e-002	4.209988e-004	6.579774e-003
1313325.760	4.321190e-004	6.932777e-003	9.994577e-001	-2.994731e-002	9.985839e-001	-3.040171e-002	4.321719e-004	6.868890e-003
1375864.844	4.912979e-004	7.218416e-003	9.996583e-001	-3.255402e-002	9.989438e-001	-3.213592e-002	4.797649e-004	7.205720e-003
1438403.927	5.247841e-004	7.545930e-003	9.992398e-001	-3.382569e-002	9.988837e-001	-3.307497e-002	5.110253e-004	7.532509e-003
1500943.011	5.773729e-004	7.881447e-003	9.993589e-001	-3.525447e-002	9.985008e-001	-3.479613e-002	5.707212e-004	7.911546e-003
1563482.095	5.483312e-004	8.242738e-003	9.986158e-001	-3.640305e-002	9.988207e-001	-3.611164e-002	5.764035e-004	8.205163e-003
1626021.179	6.957312e-004	8.615756e-003	9.990135e-001	-3.813513e-002	9.986714e-001	-3.743149e-002	6.966665e-004	8.559741e-003
1688560.263	7.422460e-004	8.929683e-003	9.992893e-001	-3.963879e-002	9.988328e-001	-3.893984e-002	7.175729e-004	8.922285e-003
1751099.346	7.924579e-004	9.368633e-003	9.991371e-001	-4.085874e-002	9.982829e-001	-4.046343e-002	7.390446e-004	9.268077e-003
1813638.430	7.484879e-004	9.663567e-003	9.991420e-001	-4.200714e-002	9.982855e-001	-4.199243e-002	7.852805e-004	9.653007e-003
1876177.514	8.318999e-004	9.961478e-003	9.988253e-001	-4.401316e-002	9.985641e-001	-4.332619e-002	8.635102e-004	9.974643e-003
1938716.598	9.012943e-004	1.034292e-002	9.983190e-001	-4.546081e-002	9.987832e-001	-4.508858e-002	9.237664e-004	1.032695e-002
2001255.682	9.572758e-004	1.073794e-002	9.989437e-001	-4.668581e-002	9.978568e-001	-4.652610e-002	9.401114e-004	1.069318e-002
2063794.765	9.903204e-004	1.114646e-002	9.982839e-001	-4.798672e-002	9.985044e-001	-4.787573e-002	1.064731e-003	1.106298e-002
2126333.849	1.117626e-003	1.140478e-002	9.975998e-001	-4.983327e-002	9.979236e-001	-4.968597e-002	1.030149e-003	1.138292e-002
2188872.933	1.145895e-003	1.182614e-002	9.981502e-001	-5.103759e-002	9.981136e-001	-5.111958e-002	1.153789e-003	1.183175e-002
2251412.017	1.298579e-003	1.219617e-002	9.983730e-001	-5.336387e-002	9.979370e-001	-5.236138e-002	1.284436e-003	1.216281e-002
2313951.101	1.299987e-003	1.256195e-002	9.975980e-001	-5.450571e-002	9.975824e-001	-5.347349e-002	1.365368e-003	1.250465e-002
2376490.184	1.413094e-003	1.294861e-002	9.983020e-001	-5.599171e-002	9.975894e-001	-5.552456e-002	1.437629e-003	1.293437e-002
2439029.268	1.459356e-003	1.332660e-002	9.976620e-001	-5.713103e-002	9.970097e-001	-5.703286e-002	1.468074e-003	1.328509e-002
2501568.352	1.573074e-003	1.381699e-002	9.975255e-001	-5.868515e-002	9.976849e-001	-5.862916e-002	1.629276e-003	1.374224e-002
2564107.436	1.737700e-003	1.420553e-002	9.970559e-001	-6.027201e-002	9.968131e-001	-6.000673e-002	1.706353e-003	1.408842e-002
2626646.520	1.790983e-003	1.456523e-002	9.968756e-001	-6.195333e-002	9.973122e-001	-6.118205e-002	1.842024e-003	1.453267e-002
2689185.604	1.914148e-003	1.497099e-002	9.974525e-001	-6.320448e-002	9.972044e-001	-6.294048e-002	1.956483e-003	1.486542e-002
2751724.687	2.091095e-003	1.531448e-002	9.969425e-001	-6.460227e-002	9.963739e-001	-6.448390e-002	2.052672e-003	1.537196e-002
2814263.771	2.228399e-003	1.573944e-002	9.970432e-001	-6.646934e-002	9.967523e-001	-6.648117e-002	2.181888e-003	1.573505e-002
2876802.855	2.324527e-003	1.614250e-002	9.966090e-001	-6.831098e-002	9.959728e-001	-6.773803e-002	2.343589e-003	1.610993e-002
2939341.939	2.464122e-003	1.658293e-002	9.962397e-001	-6.943778e-002	9.961778e-001	-6.881564e-002	2.462659e-003	1.655190e-002
3001881.023	2.605722e-003	1.701994e-002	9.961875e-001	-7.045990e-002	9.962899e-001	-7.013936e-002	2.596606e-003	1.701315e-002
3064420.106	2.819986e-003	1.738111e-002	9.955875e-001	-7.239870e-002	9.952311e-001	-7.195649e-002	2.802264e-003	1.741253e-002
3126959.190	2.987470e-003	1.782791e-002	9.955251e-001	-7.407705e-002	9.952770e-001	-7.387893e-002	3.001917e-003	1.779280e-002
3189498.274	3.207111e-003	1.826045e-002	9.953936e-001	-7.572707e-002	9.949567e-001	-7.542431e-002	3.162897e-003	1.821085e-002
3252037.358	3.427614e-003	1.865910e-002	9.950135e-001	-7.724727e-002	9.948629e-001	-7.688978e-002	3.398117e-003	1.864444e-002
3314576.442	3.591250e-003	1.901899e-002	9.947601e-001	-7.879267e-002	9.947148e-001	-7.854200e-002	3.560853e-003	1.909478e-002
3377115.525	3.789484e-003	1.950994e-002	9.945980e-001	-8.043833e-002	9.942311e-001	-8.004970e-002	3.776807e-003	1.946993e-002
3439654.609	4.051687e-003	1.996162e-002	9.940452e-001	-8.178894e-002	9.940900e-001	-8.162561e-002	4.020547e-003	1.988511e-002
3502193.693	4.297625e-003	2.029738e-002	9.938755e-001	-8.339262e-002	9.937667e-001	-8.306084e-002	4.273816e-003	2.027548e-002
3564732.777	4.522515e-003	2.073430e-002	9.935941e-001	-8.498916e-002	9.934185e-001	-8.463862e-002	4.553127e-003	2.071270e-002
3627271.861	4.792681e-003	2.114916e-002	9.932022e-001	-8.652289e-002	9.931589e-001	-8.623091e-002	4.782367e-003	2.114178e-002
3689810.944	5.057312e-003	2.155572e-002	9.929543e-001	-8.799730e-002	9.926347e-001	-8.777493e-002	5.018818e-003	2.152154e-002
3752350.028	5.315384e-003	2.199785e-002	9.926037e-001	-8.956431e-002	9.924155e-001	-8.922051e-002	5.374608e-003	2.195940e-002
3814889.112	5.657299e-003	2.238375e-002	9.921628e-001	-9.105516e-002	9.919755e-001	-9.076224e-002	5.656096e-003	2.234463e-002
3877428.196	6.026444e-003	2.280646e-002	9.918044e-001	-9.259302e-002	9.915009e-001	-9.221796e-002	5.937225e-003	2.275641e-002
3939967.280	6.269585e-003	2.316552e-002	9.912704e-001	-9.417521e-002	9.911694e-001	-9.384408e-002	6.284589e-003	2.320659e-002
4002506.363	6.637619e-003	2.356725e-002	9.909306e-001	-9.561935e-002	9.907792e-001	-9.525894e-002	6.611931e-003	2.356663e-002
4065045.447	6.986102e-003	2.394197e-002	9.906551e-001	-9.723383e-002	9.904689e-001	-9.700265e-002	6.972297e-003	2.391379e-002
4127584.531	7.290702e-003	2.434802e-002	9.902935e-001	-9.872148e-002	9.899477e-001	-9.839343e-002	7.321087e-003	2.429626e-002
4190123.615	7.679756e-003	2.471924e-002	9.896210e-001	-1.000670e-001	9.895180e-001	-9.978951e-002	7.638398e-003	2.466457e-002
4252662.699	7.999744e-003	2.507944e-002	9.892306e-001	-1.015533e-001	9.889238e-001	-1.011952e-001	7.997838e-003	2.505661e-002
4315201.782	8.454723e-003	2.539813e-002	9.887410e-001	-1.031285e-001	9.885557e-001	-1.026403e-001	8.375940e-003	2.538022e-002
4377740.866	8.810661e-003	2.575400e-002	9.883304e-001	-1.046655e-001	9.881658e-001	-1.043218e-001	8.831377e-003	2.572946e-002
4440279.950	9.260411e-003	2.612283e-002	9.878640e-001	-1.058338e-001	9.876570e-001	-1.056782e-001	9.218425e-003	2.604663e-002
4502819.034	9.683774e-003	2.636270e-002	9.874015e-001	-1.074050e-001	9.870382e-001	-1.071247e-001	9.630428e-003	2.638622e-002
4565358.118	1.007302e-002	2.674598e-002	9.865691e-001	-1.087948e-001	9.867086e-001	-1.087427e-001	1.006858e-002	2.673429e-002
4627897.201	1.050109e-002	2.701816e-002	9.862188e-001	-1.102457e-001	9.862113e-001	-1.099584e-001	1.045593e-002	2.708428e-002
4690436.285	1.095460e-002	2.734465e-002	9.857262e-001	-1.117928e-001	9.856231e-001	-1.113758e-001	1.090820e-002	2.734037e-002
4752975.369	1.133122e-002	2.757946e-002	9.851759e-001	-1.131920e-001	9.849542e-001	-1.128527e-001	1.135015e-002	2.761442e-002
4815514.453	1.181142e-002	2.787006e-002	9.847189e-001	-1.146853e-001	9.844086e-001	-1.143099e-001	1.180130e-002	2.788411e-002
4878053.537	1.222568e-002	2.819818e-002	9.841499e-001	-1.161364e-001	9.839441e-001	-1.155612e-001	1.224067e-002	2.818675e-002
4940592.620	1.275445e-002	2.842289e-002	9.834787e-001	-1.173850e-001	9.832994e-001	-1.169892e-001	1.270035e-002	2.841947e-002
5003131.704	1.321197e-002	2.864887e-002	9.829684e-001	-1.187636e-001	9.826550e-001	-1.184509e-001	1.309168e-002	2.862787e-002
5065670.788	1.362109e-002	2.888839e-002	9.824436e-001	-1.201428e-001	9.821769e-001	-1.197973e-001	1.363789e-002	2.889182e-002
5128209.872	1.416039e-002	2.913263e-002	9.818114e-001	-1.213713e-001	9.817566e-001	-1.210076e-001	1.410088e-002	2.909877e-002
5190748.956	1.461905e-002	2.927003e-002	9.812428e-001	-1.228130e-001	9.812196e-001	-1.223672e-001	1.458628e-002	2.933494e-002
5253288.039	1.508582e-002	2.952265e-002	9.804582e-001	-1.240169e-001	9.805986e-001	-1.237057e-001	1.513718e-002	2.950567e-002
5315827.123	1.557201e-002	2.969927e-002	9.799789e-001	-1.253893e-001	9.799347e-001	-1.251740e-001	1.559622e-002	2.971987e-002
5378366.207	1.604815e-002	2.987697e-002	9.793233e-001	-1.267029e-001	9.793535e-001	-1.263169e-001	1.603876e-002	2.987610e-002
5440905.291	1.655710e-002	3.002397e-002	9.789909e-001	-1.278753e-001	9.788834e-001	-1.276887e-001	1.654235e-002	3.002062e-002
5503444.375	1.702995e-002	3.016816e-002	9.782597e-001	-1.292785e-001	9.781081e-001	-1.291723e-001	1.703044e-002	3.018159e-002
5565983.458	1.750788e-002	3.032730e-002	9.777700e-001	-1.305209e-001	9.774483e-001	-1.302804e-001	1.758071e-002	3.032628e-002
5628522.542	1.799456e-002	3.041731e-002	9.771583e-001	-1.316787e-001	9.770810e-001	-1.313625e-001	1.795127e-002	3.039983e-002
5691061.626	1.855077e-002	3.055352e-002	9.765307e-001	-1.328923e-001	9.762185e-001	-1.327035e-001	1.847797e-002	3.055941e-002
5753600.710	1.903553e-002	3.063519e-002	9.758326e-001	-1.342431e-001	9.757815e-001	-1.339166e-001	1.903308e-002	3.065433e-002
5816139.794	1.955001e-002	3.074771e-002	9.753648e-001	-1.353948e-001	9.751159e-001	-1.352835e-001	1.944751e-002	3.071064e-002
5878678.877	2.000891e-002	3.081444e-002	9.746219e-001	-1.365216e-001	9.744998e-001	-1.363152e-001	2.002569e-002	3.084840e-002
5941217.961	2.047957e-002	3.087514e-002	9.741352e-001	-1.377006e-001	9.740367e-001	-1.373294e-001	2.045146e-002	3.089746e-002
6003757.045	2.099579e-002	3.086715e-002	9.733796e-001	-1.390407e-001	9.733442e-001	-1.386013e-001	2.094721e-002	3.089466e-002
6066296.129	2.144941e-002	3.097071e-002	9.727314e-001	-1.401844e-001	9.726256e-001	-1.398515e-001	2.144294e-002	3.098626e-002
6128835.213	2.192998e-002	3.104753e-002	9.722887e-001	-1.413465e-001	9.722175e-001	-1.411589e-001	2.192556e-002	3.103271e-002
6191374.296	2.236220e-002	3.099958e-002	9.716227e-001	-1.422625e-001	9.715096e-001	-1.421249e-001	2.237069e-002	3.101425e-002
6253913.380	2.289553e-002	3.101457e-002	9.709158e-001	-1.436584e-001	9.707546e-001	-1.432400e-001	2.285604e-002	3.108982e-002
6316452.464	2.337065e-002	3.109271e-002	9.703947e-001	-1.446230e-001	9.704159e-001	-1.443079e-001	2.334787e-002	3.106346e-002
6378991.548	2.381177e-002	3.100415e-002	9.699869e-001	-1.457435e-001	9.697491e-001	-1.453964e-001	2.383311e-002	3.108985e-002
6441530.632	2.424831e-002	3.102521e-002	9.693676e-001	-1.468997e-001	9.690342e-001	-1.466797e-001	2.424489e-002	3.100477e-002
6504069.715	2.471806e-002	3.098921e-002	9.687207e-001	-1.479756e-001	9.686491e-001	-1.477440e-001	2.472282e-002	3.098573e-002
6566608.799	2.519017e-002	3.096790e-002	9.680899e-001	-1.490773e-001	9.680162e-001	-1.487246e-001	2.511202e-002	3.098794e-002
6629147.883	2.561426e-002	3.092765e-002	9.674327e-001	-1.502687e-001	9.674934e-001	-1.498746e-001	2.556484e-002	3.095885e-002
6691686.967	2.603593e-002	3.083534e-002	9.670058e-001	-1.511674e-001	9.666240e-001	-1.510687e-001	2.599424e-002	3.093828e-002
6754226.051	2.644996e-002	3.084450e-002	9.665263e-001	-1.523405e-001	9.663171e-001	-1.520065e-001	2.648012e-002	3.080408e-002
6816765.134	2.685146e-002	3.073249e-002	9.658497e-001	-1.533922e-001	9.657780e-001	-1.531227e-001	2.690667e-002	3.074436e-002
6879304.218	2.731665e-002	3.069303e-002	9.652860e-001	-1.544689e-001	9.651041e-001	-1.541536e-001	2.732762e-002	3.069975e-002
6941843.302	2.775974e-002	3.064389e-002	9.647006e-001	-1.553601e-001	9.647142e-001	-1.552026e-001	2.772614e-002	3.066659e-002
7004382.386	2.814909e-002	3.056511e-002	9.640502e-001	-1.566067e-001	9.642007e-001	-1.563287e-001	2.815305e-002	3.055516e-002
7066921.470	2.855382e-002	3.046907e-002	9.635738e-001	-1.575827e-001	9.636221e-001	-1.572101e-001	2.855911e-002	3.046541e-002
7129460.553	2.896753e-002	3.034271e-002	9.631587e-001	-1.585840e-001	9.630790e-001	-1.584281e-001	2.891850e-002	3.039093e-002
7191999.637	2.933672e-002	3.027199e-002	9.624883e-001	-1.596564e-001	9.624279e-001	-1.592671e-001	2.934661e-002	3.028969e-002
7254538.721	2.979423e-002	3.017872e-002	9.620886e-001	-1.606718e-001	9.620089e-001	-1.603841e-001	2.969680e-002	3.022961e-002
7317077.805	3.009218e-002	3.010483e-002	9.613778e-001	-1.617246e-001	9.616078e-001	-1.614088e-001	3.011341e-002	3.013303e-002
7379616.889	3.051062e-002	2.998425e-002	9.611394e-001	-1.627373e-001	9.608513e-001	-1.622913e-001	3.048830e-002	2.996243e-002
7442155.972	3.087186e-002	2.986867e-002	9.604261e-001	-1.636809e-001	9.602728e-001	-1.634842e-001	3.084181e-002	2.987306e-002
7504695.056	3.125886e-002	2.974998e-002	9.599157e-001	-1.646819e-001	9.599670e-001	-1.643471e-001	3.124819e-002	2.979994e-002
7567234.140	3.157974e-002	2.966754e-002	9.595230e-001	-1.657774e-001	9.593605e-001	-1.653256e-001	3.158379e-002	2.967090e-002
7629773.224	3.195058e-002	2.950792e-002	9.589273e-001	-1.667311e-001	9.588693e-001	-1.663642e-001	3.192382e-002	2.955895e-002
7692312.308	3.227030e-002	2.941737e-002	9.585418e-001	-1.677046e-001	9.583341e-001	-1.673673e-001	3.229768e-002	2.948769e-002
7754851.391	3.264470e-002	2.926377e-002	9.578721e-001	-1.686343e-001	9.578069e-001	-1.683445e-001	3.258855e-002	2.934815e-002
7817390.475	3.297506e-002	2.918254e-002	9.576483e-001	-1.696254e-001	9.573538e-001	-1.694351e-001	3.298045e-002	2.917393e-002
7879929.559	3.329003e-002	2.900482e-002	9.569569e-001	-1.705951e-001	9.568624e-001	-1.703377e-001	3.329565e-002	2.905601e-002
7942468.643	3.360540e-002	2.892367e-002	9.564551e-001	-1.716079e-001	9.563992e-001	-1.714364e-001	3.359808e-002	2.892183e-002
8005007.727	3.395509e-002	2.878893e-002	9.560382e-001	-1.727813e-001	9.559614e-001	-1.722630e-001	3.390429e-002	2.875856e-002
8067546.811	3.429387e-002	2.863010e-002	9.555343e-001	-1.737472e-001	9.555457e-001	-1.734147e-001	3.430634e-002	2.863913e-002
8130085.894	3.459199e-002	2.851879e-002	9.550699e-001	-1.746018e-001	9.548828e-001	-1.743608e-001	3.454694e-002	2.850574e-002
8192624.978	3.488589e-002	2.834345e-002	9.545349e-001	-1.755654e-001	9.544044e-001	-1.752828e-001	3.491116e-002	2.837192e-002
8255164.062	3.519297e-002	2.820583e-002	9.541401e-001	-1.765876e-001	9.540209e-001	-1.762097e-001	3.518499e-002	2.819282e-002
8317703.146	3.549671e-002	2.800950e-002	9.537444e-001	-1.775790e-001	9.536662e-001	-1.772529e-001	3.546294e-002	2.807399e-002
8380242.230	3.581238e-002	2.786262e-002	9.532200e-001	-1.782897e-001	9.533144e-001	-1.782182e-001	3.579514e-002	2.794013e-002
8442781.313	3.608126e-002	2.778901e-002	9.528163e-001	-1.792816e-001	9.526578e-001	-1.791229e-001	3.605334e-002	2.782900e-002
8505320.397	3.634015e-002	2.762886e-002	9.523265e-001	-1.804585e-001	9.521582e-001	-1.802818e-001	3.637476e-002	2.758503e-002
8567859.481	3.665590e-002	2.747772e-002	9.518218e-001	-1.814079e-001	9.517843e-001	-1.809776e-001	3.668275e-002	2.750450e-002
8630398.565	3.696891e-002	2.732484e-002	9.513585e-001	-1.823954e-001	9.512829e-001	-1.820725e-001	3.696570e-002	2.730322e-002
8692937.649	3.722341e-002	2.719069e-002	9.508297e-001	-1.833148e-001	9.507629e-001	-1.828717e-001	3.717321e-002	2.722684e-002
8755476.732	3.745873e-002	2.708545e-002	9.503814e-001	-1.843481e-001	9.504459e-001	-1.840066e-001	3.748495e-002	2.707298e-002
8818015.816	3.774913e-002	2.687550e-002	9.500725e-001	-1.851192e-001	9.500437e-001	-1.848457e-001	3.775570e-002	2.689401e-002
8880554.900	3.798898e-002	2.668293e-002	9.496324e-001	-1.862647e-001	9.495907e-001	-1.858090e-001	3.798433e-002	2.675157e-002
8943093.984	3.826941e-002	2.656602e-002	9.491801e-001	-1.873108e-001	9.490618e-001	-1.867325e-001	3.829848e-002	2.660311e-002
9005633.068	3.851747e-002	2.639892e-002	9.487067e-001	-1.881113e-001	9.485698e-001	-1.878523e-001	3.851588e-002	2.641081e-002
9068172.151	3.879789e-002	2.625523e-002	9.482536e-001	-1.890976e-001	9.479802e-001	-1.888339e-001	3.872804e-002	2.630944e-002
9130711.235	3.904567e-002	2.611195e-002	9.478606e-001	-1.899964e-001	9.477680e-001	-1.895281e-001	3.904959e-002	2.610745e-002
9193250.319	3.927911e-002	2.591188e-002	9.474056e-001	-1.908969e-001	9.473327e-001	-1.906757e-001	3.931810e-002	2.592692e-002
9255789.403	3.955323e-002	2.576435e-002	9.469295e-001	-1.920324e-001	9.469915e-001	-1.915467e-001	3.954876e-002	2.585877e-002
9318328.487	3.972475e-002	2.563975e-002	9.465003e-001	-1.929762e-001	9.465819e-001	-1.927534e-001	3.975864e-002	2.563722e-002
9380867.570	3.996065e-002	2.549867e-002	9.461554e-001	-1.938728e-001	9.459373e-001	-1.934502e-001	3.998438e-002	2.551515e-002
9443406.654	4.020012e-002	2.528832e-002	9.456750e-001	-1.947965e-001	9.457137e-001	-1.945614e-001	4.026036e-002	2.533103e-002
9505945.738	4.042233e-002	2.512444e-002	9.453799e-001	-1.956908e-001	9.451471e-001	-1.954175e-001	4.042951e-002	2.517038e-002
9568484.822	4.067211e-002	2.496757e-002	9.450092e-001	-1.968398e-001	9.448504e-001	-1.963225e-001	4.071920e-002	2.502031e-002
9631023.906	4.089526e-002	2.480206e-002	9.444601e-001	-1.977220e-001	9.443233e-001	-1.973556e-001	4.090956e-002	2.487783e-002
9693562.989	4.112710e-002	2.467322e-002	9.439479e-001	-1.985897e-001	9.440054e-001	-1.983663e-001	4.110190e-002	2.471705e-002
9756102.073	4.126972e-002	2.450457e-002	9.436112e-001	-1.994370e-001	9.436479e-001	-1.991791e-001	4.135440e-002	2.448300e-002
