!Agilent Technologies,E5061B,MY49102235,A.02.00
!Date: Mon Jul 10 16:14:26 2023
!Data & Calibration Information:
!Freq	S11:SOLT2(ON)	S21:SOLT2(ON)	S12:SOLT2(ON)	S22:SOLT2(ON)
# Hz S RI R 50
5.000	-4.676955e-004	4.408511e-004	1.001743e+000	2.307594e-003	1.000461e+000	-2.654577e-005	-1.506608e-004	-5.069057e-005
62544.084	-7.067237e-005	-3.610247e-005	1.000016e+000	-9.892767e-004	1.000154e+000	-7.107912e-004	1.747331e-005	-1.220944e-004
125083.168	-1.413328e-005	-1.462029e-004	1.000137e+000	-2.216626e-003	1.000190e+000	-2.083992e-003	-4.597485e-005	-1.509234e-004
187622.251	1.465042e-004	-2.914258e-004	9.994127e-001	-2.577642e-003	1.000143e+000	-2.812653e-003	5.486274e-005	-2.068537e-004
250161.335	3.475242e-005	-2.405207e-004	9.998015e-001	-4.361285e-003	9.998084e-001	-4.185828e-003	3.153692e-005	-2.580571e-004
312700.419	2.921679e-005	-3.830730e-004	1.000223e+000	-5.279398e-003	9.992693e-001	-4.950013e-003	1.105772e-004	-3.397527e-004
375239.503	6.332406e-005	-4.303053e-004	9.999800e-001	-6.163094e-003	1.000121e+000	-6.177190e-003	6.530275e-006	-4.735442e-004
437778.587	9.868616e-005	-5.713519e-004	9.999525e-001	-7.293795e-003	9.991449e-001	-7.580866e-003	7.991800e-005	-3.629281e-004
500317.670	1.033443e-004	-6.534326e-004	9.998661e-001	-8.395985e-003	9.993718e-001	-8.725376e-003	1.084356e-004	-4.908461e-004
562856.754	1.033968e-004	-6.276512e-004	9.997145e-001	-9.659063e-003	9.996748e-001	-9.152615e-003	6.362680e-005	-6.927259e-004
625395.838	1.118768e-004	-7.001985e-004	9.997047e-001	-1.070298e-002	9.991372e-001	-1.025244e-002	1.310687e-004	-7.065017e-004
687934.922	2.090428e-006	-8.567224e-004	9.999944e-001	-1.143980e-002	1.000334e+000	-1.160534e-002	-2.288473e-005	-8.159586e-004
750474.006	-8.126623e-005	-9.616262e-004	9.997397e-001	-1.273829e-002	9.996561e-001	-1.183661e-002	-9.306036e-005	-9.269041e-004
813013.089	-7.322676e-005	-9.982044e-004	1.000176e+000	-1.374561e-002	9.992879e-001	-1.328777e-002	-7.848821e-005	-1.047945e-003
875552.173	-6.446623e-005	-1.127341e-003	9.997934e-001	-1.484578e-002	1.000001e+000	-1.477932e-002	-5.292823e-005	-1.114557e-003
938091.257	-1.580895e-004	-1.177138e-003	9.994920e-001	-1.566447e-002	9.995180e-001	-1.514595e-002	-1.386228e-004	-1.180518e-003
1000630.341	-9.288409e-005	-1.178536e-003	9.998168e-001	-1.645853e-002	9.997910e-001	-1.661757e-002	-7.850407e-005	-1.265338e-003
1063169.425	-6.171220e-005	-1.284239e-003	1.000366e+000	-1.778442e-002	1.000448e+000	-1.798985e-002	-3.607093e-005	-1.364966e-003
1125708.508	-6.724904e-005	-1.386036e-003	1.000077e+000	-1.899371e-002	9.993802e-001	-1.863639e-002	-5.502648e-005	-1.404574e-003
1188247.592	-7.830600e-005	-1.499487e-003	9.996804e-001	-1.977327e-002	9.995143e-001	-1.967043e-002	-4.949468e-005	-1.479909e-003
1250786.676	-7.440957e-005	-1.563194e-003	9.996505e-001	-2.126768e-002	9.992617e-001	-2.058858e-002	-4.711085e-005	-1.542118e-003
1313325.760	-8.151574e-005	-1.637314e-003	9.998806e-001	-2.152047e-002	9.992096e-001	-2.185115e-002	-8.744960e-005	-1.672788e-003
1375864.844	-5.852835e-005	-1.737298e-003	1.000119e+000	-2.344473e-002	9.994384e-001	-2.331725e-002	-7.779397e-005	-1.762073e-003
1438403.927	-7.424653e-005	-1.848716e-003	9.996059e-001	-2.449409e-002	9.994927e-001	-2.401086e-002	-7.302151e-005	-1.859825e-003
1500943.011	-6.619090e-005	-1.906344e-003	9.999090e-001	-2.545324e-002	9.993094e-001	-2.520518e-002	-6.981988e-005	-1.892996e-003
1563482.095	-1.310521e-004	-1.984272e-003	9.992203e-001	-2.641975e-002	9.997031e-001	-2.601649e-002	-1.167479e-004	-2.000207e-003
1626021.179	-3.682432e-005	-2.042420e-003	9.996156e-001	-2.765640e-002	9.994425e-001	-2.691044e-002	-3.265433e-005	-2.075077e-003
1688560.263	-2.647782e-005	-2.136089e-003	9.999607e-001	-2.853983e-002	9.994765e-001	-2.809571e-002	-6.652462e-005	-2.137713e-003
1751099.346	-2.368789e-005	-2.146866e-003	9.998609e-001	-2.948154e-002	9.992242e-001	-2.925031e-002	-9.924359e-005	-2.239134e-003
1813638.430	-1.165865e-004	-2.275073e-003	9.999502e-001	-3.027448e-002	9.992626e-001	-3.034569e-002	-1.069007e-004	-2.282119e-003
1876177.514	-1.043670e-004	-2.412471e-003	9.996804e-001	-3.170425e-002	9.995980e-001	-3.123318e-002	-8.481911e-005	-2.390837e-003
1938716.598	-9.779972e-005	-2.449691e-003	9.992349e-001	-3.271290e-002	9.997990e-001	-3.246237e-002	-7.379152e-005	-2.462821e-003
2001255.682	-7.457544e-005	-2.500933e-003	9.998892e-001	-3.366207e-002	9.989948e-001	-3.345118e-002	-1.103856e-004	-2.538968e-003
2063794.765	-1.197604e-004	-2.561713e-003	9.992180e-001	-3.445818e-002	9.996001e-001	-3.436028e-002	-5.889380e-005	-2.632793e-003
2126333.849	-7.075800e-005	-2.741276e-003	9.985844e-001	-3.567042e-002	9.991024e-001	-3.562420e-002	-1.625590e-004	-2.756883e-003
2188872.933	-1.068048e-004	-2.763704e-003	9.994024e-001	-3.661524e-002	9.994181e-001	-3.668347e-002	-1.184544e-004	-2.763607e-003
2251412.017	-4.077730e-005	-2.867480e-003	9.995328e-001	-3.843316e-002	9.993493e-001	-3.742263e-002	-7.577653e-005	-2.873801e-003
2313951.101	-1.158546e-004	-2.964476e-003	9.990219e-001	-3.903754e-002	9.990170e-001	-3.821065e-002	-6.391004e-005	-3.005134e-003
2376490.184	-8.242662e-005	-3.056201e-003	9.997557e-001	-4.012123e-002	9.990938e-001	-3.975905e-002	-1.084833e-004	-3.049859e-003
2439029.268	-1.263399e-004	-3.143586e-003	9.991160e-001	-4.082258e-002	9.986107e-001	-4.080154e-002	-1.611178e-004	-3.178325e-003
2501568.352	-1.278663e-004	-3.123142e-003	9.991231e-001	-4.170905e-002	9.994817e-001	-4.182499e-002	-1.076627e-004	-3.178476e-003
2564107.436	-8.211142e-005	-3.212974e-003	9.987381e-001	-4.303684e-002	9.986757e-001	-4.289146e-002	-1.450169e-004	-3.324466e-003
2626646.520	-1.498501e-004	-3.344890e-003	9.986829e-001	-4.417183e-002	9.991395e-001	-4.336314e-002	-1.246150e-004	-3.340664e-003
2689185.604	-1.495612e-004	-3.409750e-003	9.993318e-001	-4.490059e-002	9.993837e-001	-4.481256e-002	-1.261653e-004	-3.495145e-003
2751724.687	-9.004834e-005	-3.568262e-003	9.990350e-001	-4.602346e-002	9.985435e-001	-4.581867e-002	-1.704171e-004	-3.489522e-003
2814263.771	-8.711381e-005	-3.618558e-003	9.991675e-001	-4.730190e-002	9.990418e-001	-4.730374e-002	-1.766754e-004	-3.600749e-003
2876802.855	-1.575853e-004	-3.699149e-003	9.989804e-001	-4.860017e-002	9.984924e-001	-4.813528e-002	-1.764282e-004	-3.709710e-003
2939341.939	-1.539376e-004	-3.758878e-003	9.987906e-001	-4.918346e-002	9.987261e-001	-4.881375e-002	-2.176861e-004	-3.797853e-003
3001881.023	-2.126066e-004	-3.812120e-003	9.989400e-001	-4.972313e-002	9.990170e-001	-4.954052e-002	-2.406039e-004	-3.812919e-003
3064420.106	-1.571638e-004	-3.943702e-003	9.984029e-001	-5.123342e-002	9.980883e-001	-5.091511e-002	-2.141924e-004	-3.903167e-003
3126959.190	-1.755259e-004	-3.998743e-003	9.985427e-001	-5.238949e-002	9.984154e-001	-5.230385e-002	-2.082422e-004	-4.016843e-003
3189498.274	-1.549637e-004	-4.071641e-003	9.985970e-001	-5.359377e-002	9.982965e-001	-5.332813e-002	-2.413776e-004	-4.095406e-003
3252037.358	-1.535121e-004	-4.163410e-003	9.984455e-001	-5.459289e-002	9.984257e-001	-5.428458e-002	-2.072701e-004	-4.158971e-003
3314576.442	-1.818366e-004	-4.313558e-003	9.984397e-001	-5.564592e-002	9.984466e-001	-5.542650e-002	-2.630020e-004	-4.221555e-003
3377115.525	-2.169612e-004	-4.310553e-003	9.984663e-001	-5.679609e-002	9.982135e-001	-5.646614e-002	-2.701631e-004	-4.334695e-003
3439654.609	-1.956233e-004	-4.371590e-003	9.981208e-001	-5.770196e-002	9.983246e-001	-5.754121e-002	-2.717094e-004	-4.421325e-003
3502193.693	-1.863333e-004	-4.527483e-003	9.982183e-001	-5.877289e-002	9.981992e-001	-5.846085e-002	-2.631965e-004	-4.532986e-003
3564732.777	-2.391651e-004	-4.574825e-003	9.982145e-001	-5.983764e-002	9.981311e-001	-5.954892e-002	-2.617219e-004	-4.584727e-003
3627271.861	-2.258750e-004	-4.676109e-003	9.980508e-001	-6.088192e-002	9.981231e-001	-6.067470e-002	-2.960622e-004	-4.661226e-003
3689810.944	-2.511341e-004	-4.769234e-003	9.980711e-001	-6.189644e-002	9.978927e-001	-6.171898e-002	-3.384386e-004	-4.773105e-003
3752350.028	-2.998294e-004	-4.799678e-003	9.979981e-001	-6.299573e-002	9.979429e-001	-6.269640e-002	-2.759247e-004	-4.807881e-003
3814889.112	-2.474747e-004	-4.901240e-003	9.979259e-001	-6.400729e-002	9.978140e-001	-6.368603e-002	-3.098632e-004	-4.935997e-003
3877428.196	-2.016084e-004	-4.962539e-003	9.978439e-001	-6.505677e-002	9.976899e-001	-6.468191e-002	-3.497198e-004	-4.997078e-003
3939967.280	-2.868788e-004	-5.089487e-003	9.976523e-001	-6.616610e-002	9.976495e-001	-6.583860e-002	-3.370430e-004	-5.026215e-003
4002506.363	-2.626087e-004	-5.156025e-003	9.976368e-001	-6.712288e-002	9.976179e-001	-6.678899e-002	-3.551972e-004	-5.121624e-003
4065045.447	-2.652170e-004	-5.244412e-003	9.977011e-001	-6.827872e-002	9.976579e-001	-6.809682e-002	-3.442023e-004	-5.242568e-003
4127584.531	-3.321649e-004	-5.313568e-003	9.976962e-001	-6.931998e-002	9.974946e-001	-6.898701e-002	-3.630745e-004	-5.319723e-003
4190123.615	-3.181238e-004	-5.385827e-003	9.974191e-001	-7.021996e-002	9.974074e-001	-6.997785e-002	-4.110127e-004	-5.419129e-003
4252662.699	-3.794262e-004	-5.461639e-003	9.973736e-001	-7.123617e-002	9.971403e-001	-7.094738e-002	-4.364767e-004	-5.444178e-003
4315201.782	-3.213604e-004	-5.577960e-003	9.973209e-001	-7.239395e-002	9.972179e-001	-7.194023e-002	-4.529073e-004	-5.555054e-003
4377740.866	-3.595661e-004	-5.642637e-003	9.973103e-001	-7.346873e-002	9.972399e-001	-7.320385e-002	-4.058345e-004	-5.627309e-003
4440279.950	-3.426614e-004	-5.690482e-003	9.972236e-001	-7.425653e-002	9.971736e-001	-7.408880e-002	-4.405587e-004	-5.726971e-003
4502819.034	-3.265803e-004	-5.867433e-003	9.971863e-001	-7.540227e-002	9.969508e-001	-7.521332e-002	-4.566073e-004	-5.806038e-003
4565358.118	-3.639190e-004	-5.865120e-003	9.967765e-001	-7.644098e-002	9.970171e-001	-7.641590e-002	-4.317725e-004	-5.847054e-003
4627897.201	-3.720243e-004	-5.992811e-003	9.968902e-001	-7.748217e-002	9.969559e-001	-7.721937e-002	-5.017337e-004	-5.883580e-003
4690436.285	-3.590136e-004	-6.047837e-003	9.968272e-001	-7.865746e-002	9.967972e-001	-7.828826e-002	-4.953221e-004	-6.001311e-003
4752975.369	-4.458074e-004	-6.188979e-003	9.966941e-001	-7.967084e-002	9.966018e-001	-7.937354e-002	-5.019046e-004	-6.104686e-003
4815514.453	-4.188310e-004	-6.244008e-003	9.967312e-001	-8.076660e-002	9.965306e-001	-8.047559e-002	-5.047563e-004	-6.182289e-003
4878053.537	-4.700482e-004	-6.264914e-003	9.966007e-001	-8.193630e-002	9.964846e-001	-8.138647e-002	-5.519615e-004	-6.239088e-003
4940592.620	-4.534363e-004	-6.359722e-003	9.964478e-001	-8.280388e-002	9.963461e-001	-8.246202e-002	-5.598869e-004	-6.326641e-003
5003131.704	-4.463325e-004	-6.459901e-003	9.963789e-001	-8.390202e-002	9.961510e-001	-8.360064e-002	-6.462792e-004	-6.458132e-003
5065670.788	-5.117363e-004	-6.551364e-003	9.963571e-001	-8.492264e-002	9.961347e-001	-8.464120e-002	-5.913521e-004	-6.506517e-003
5128209.872	-4.760627e-004	-6.597536e-003	9.961782e-001	-8.592199e-002	9.961749e-001	-8.558611e-002	-6.039768e-004	-6.581933e-003
5190748.956	-4.968883e-004	-6.735106e-003	9.960969e-001	-8.705210e-002	9.961674e-001	-8.662986e-002	-6.160804e-004	-6.655690e-003
5253288.039	-5.344166e-004	-6.776233e-003	9.958368e-001	-8.799159e-002	9.960759e-001	-8.771879e-002	-5.709037e-004	-6.754876e-003
5315827.123	-5.360783e-004	-6.869506e-003	9.958245e-001	-8.904158e-002	9.958883e-001	-8.890389e-002	-6.157206e-004	-6.790015e-003
5378366.207	-5.638878e-004	-6.935793e-003	9.956819e-001	-9.018600e-002	9.957978e-001	-8.979185e-002	-6.553136e-004	-6.883723e-003
5440905.291	-5.661159e-004	-7.020898e-003	9.958510e-001	-9.106080e-002	9.958081e-001	-9.093259e-002	-6.497058e-004	-6.979577e-003
5503444.375	-5.837516e-004	-7.119278e-003	9.956454e-001	-9.223733e-002	9.955561e-001	-9.218136e-002	-6.791842e-004	-7.045237e-003
5565983.458	-6.064179e-004	-7.164609e-003	9.956628e-001	-9.328070e-002	9.953779e-001	-9.307036e-002	-6.373459e-004	-7.116297e-003
5628522.542	-6.275142e-004	-7.281887e-003	9.954932e-001	-9.425111e-002	9.955606e-001	-9.391552e-002	-7.621286e-004	-7.245480e-003
5691061.626	-5.727107e-004	-7.341438e-003	9.953770e-001	-9.531513e-002	9.951852e-001	-9.508651e-002	-7.623247e-004	-7.284859e-003
5753600.710	-6.078765e-004	-7.442234e-003	9.952255e-001	-9.640004e-002	9.952123e-001	-9.612599e-002	-7.064745e-004	-7.359995e-003
5816139.794	-5.897471e-004	-7.493260e-003	9.952519e-001	-9.740366e-002	9.951162e-001	-9.727945e-002	-7.929154e-004	-7.458512e-003
5878678.877	-6.664579e-004	-7.590310e-003	9.949784e-001	-9.840392e-002	9.949685e-001	-9.819437e-002	-7.556765e-004	-7.499837e-003
5941217.961	-6.980009e-004	-7.670493e-003	9.949886e-001	-9.942497e-002	9.950093e-001	-9.906975e-002	-8.380663e-004	-7.582051e-003
6003757.045	-6.744223e-004	-7.793673e-003	9.947255e-001	-1.006045e-001	9.948128e-001	-1.002234e-001	-8.280210e-004	-7.725375e-003
6066296.129	-7.308257e-004	-7.829870e-003	9.946587e-001	-1.016584e-001	9.945809e-001	-1.013272e-001	-8.385381e-004	-7.757290e-003
6128835.213	-7.281467e-004	-7.871537e-003	9.946724e-001	-1.026908e-001	9.946532e-001	-1.025108e-001	-8.265370e-004	-7.803599e-003
6191374.296	-7.774666e-004	-8.020290e-003	9.944602e-001	-1.035589e-001	9.944339e-001	-1.034114e-001	-9.085730e-004	-7.938938e-003
6253913.380	-7.583545e-004	-8.090018e-003	9.942859e-001	-1.047997e-001	9.941858e-001	-1.044603e-001	-9.129931e-004	-7.959992e-003
6316452.464	-7.597329e-004	-8.104237e-003	9.942038e-001	-1.056739e-001	9.943158e-001	-1.054156e-001	-8.913575e-004	-8.048537e-003
6378991.548	-8.016366e-004	-8.267481e-003	9.943003e-001	-1.067697e-001	9.941306e-001	-1.064210e-001	-8.931927e-004	-8.110605e-003
6441530.632	-8.223151e-004	-8.315224e-003	9.941867e-001	-1.078316e-001	9.938996e-001	-1.076805e-001	-9.313969e-004	-8.265870e-003
6504069.715	-8.275881e-004	-8.400874e-003	9.939689e-001	-1.088672e-001	9.939815e-001	-1.086720e-001	-9.415822e-004	-8.312386e-003
6566608.799	-8.352308e-004	-8.469836e-003	9.937669e-001	-1.099161e-001	9.938343e-001	-1.095868e-001	-1.020911e-003	-8.380314e-003
6629147.883	-8.688647e-004	-8.549649e-003	9.935952e-001	-1.110097e-001	9.937374e-001	-1.106882e-001	-1.021731e-003	-8.446687e-003
6691686.967	-8.783364e-004	-8.669453e-003	9.936546e-001	-1.119105e-001	9.933217e-001	-1.118253e-001	-1.056008e-003	-8.491048e-003
6754226.051	-9.312160e-004	-8.705627e-003	9.935668e-001	-1.130443e-001	9.934725e-001	-1.127586e-001	-1.008824e-003	-8.642565e-003
6816765.134	-9.747373e-004	-8.816246e-003	9.933457e-001	-1.140880e-001	9.933558e-001	-1.138508e-001	-1.033284e-003	-8.729207e-003
6879304.218	-9.380734e-004	-8.877996e-003	9.932470e-001	-1.151437e-001	9.931319e-001	-1.148765e-001	-1.051079e-003	-8.774043e-003
6941843.302	-9.349458e-004	-8.925663e-003	9.930792e-001	-1.160025e-001	9.931249e-001	-1.159557e-001	-1.100286e-003	-8.824137e-003
7004382.386	-1.006485e-003	-8.995942e-003	9.928309e-001	-1.172754e-001	9.930769e-001	-1.170265e-001	-1.111588e-003	-8.939202e-003
7066921.470	-9.887316e-004	-9.109785e-003	9.927506e-001	-1.182498e-001	9.929380e-001	-1.179384e-001	-1.133062e-003	-9.013058e-003
7129460.553	-9.946140e-004	-9.227840e-003	9.927913e-001	-1.192385e-001	9.928042e-001	-1.191243e-001	-1.162513e-003	-9.090092e-003
7191999.637	-1.031849e-003	-9.276494e-003	9.925149e-001	-1.203966e-001	9.925446e-001	-1.199957e-001	-1.167932e-003	-9.163043e-003
7254538.721	-9.902839e-004	-9.350776e-003	9.924756e-001	-1.213609e-001	9.925323e-001	-1.211195e-001	-1.218642e-003	-9.219880e-003
7317077.805	-1.081166e-003	-9.407747e-003	9.922150e-001	-1.224617e-001	9.925131e-001	-1.221586e-001	-1.214888e-003	-9.288407e-003
7379616.889	-1.068687e-003	-9.483400e-003	9.923441e-001	-1.234697e-001	9.921276e-001	-1.230901e-001	-1.220770e-003	-9.425978e-003
7442155.972	-1.084251e-003	-9.585880e-003	9.920172e-001	-1.244650e-001	9.919744e-001	-1.243116e-001	-1.256509e-003	-9.477629e-003
7504695.056	-1.092728e-003	-9.675416e-003	9.919195e-001	-1.254857e-001	9.920198e-001	-1.251820e-001	-1.236198e-003	-9.525622e-003
7567234.140	-1.141788e-003	-9.710755e-003	9.919014e-001	-1.266429e-001	9.918236e-001	-1.261914e-001	-1.287173e-003	-9.591470e-003
7629773.224	-1.145920e-003	-9.829817e-003	9.916131e-001	-1.276174e-001	9.916977e-001	-1.273004e-001	-1.320288e-003	-9.674966e-003
7692312.308	-1.188956e-003	-9.900166e-003	9.916465e-001	-1.286464e-001	9.915808e-001	-1.283702e-001	-1.301758e-003	-9.711219e-003
7754851.391	-1.190074e-003	-9.994689e-003	9.912859e-001	-1.296241e-001	9.913812e-001	-1.293725e-001	-1.383851e-003	-9.790958e-003
7817390.475	-1.192879e-003	-1.003427e-002	9.914620e-001	-1.306413e-001	9.912449e-001	-1.305411e-001	-1.336874e-003	-9.926265e-003
7879929.559	-1.253065e-003	-1.015404e-002	9.911084e-001	-1.316530e-001	9.910879e-001	-1.314535e-001	-1.387577e-003	-9.996655e-003
7942468.643	-1.280422e-003	-1.018653e-002	9.909355e-001	-1.327219e-001	9.909927e-001	-1.325820e-001	-1.423703e-003	-1.005673e-002
8005007.727	-1.268177e-003	-1.025713e-002	9.909178e-001	-1.339798e-001	9.908762e-001	-1.335207e-001	-1.455574e-003	-1.017949e-002
8067546.811	-1.276926e-003	-1.034168e-002	9.907221e-001	-1.349886e-001	9.907897e-001	-1.346969e-001	-1.406116e-003	-1.022676e-002
8130085.894	-1.316362e-003	-1.041098e-002	9.905645e-001	-1.359382e-001	9.904977e-001	-1.357193e-001	-1.499358e-003	-1.031327e-002
8192624.978	-1.331010e-003	-1.053194e-002	9.903896e-001	-1.369616e-001	9.903333e-001	-1.367208e-001	-1.460014e-003	-1.038111e-002
8255164.062	-1.352115e-003	-1.059920e-002	9.902689e-001	-1.380300e-001	9.902782e-001	-1.376906e-001	-1.509383e-003	-1.047472e-002
8317703.146	-1.347044e-003	-1.072368e-002	9.901812e-001	-1.391210e-001	9.902270e-001	-1.387699e-001	-1.557739e-003	-1.056096e-002
8380242.230	-1.373192e-003	-1.080664e-002	9.900264e-001	-1.398440e-001	9.901855e-001	-1.398041e-001	-1.536943e-003	-1.061019e-002
8442781.313	-1.414179e-003	-1.082621e-002	9.899237e-001	-1.409112e-001	9.898392e-001	-1.408025e-001	-1.602707e-003	-1.066616e-002
8505320.397	-1.464050e-003	-1.089983e-002	9.897211e-001	-1.421469e-001	9.896556e-001	-1.420025e-001	-1.569257e-003	-1.082797e-002
8567859.481	-1.462455e-003	-1.098079e-002	9.895280e-001	-1.431779e-001	9.896003e-001	-1.427845e-001	-1.599836e-003	-1.082964e-002
8630398.565	-1.463852e-003	-1.105036e-002	9.893725e-001	-1.442217e-001	9.893511e-001	-1.439555e-001	-1.614485e-003	-1.096171e-002
8692937.649	-1.503452e-003	-1.111849e-002	9.891186e-001	-1.452346e-001	9.892246e-001	-1.448115e-001	-1.718709e-003	-1.097702e-002
8755476.732	-1.562160e-003	-1.117314e-002	9.889584e-001	-1.463867e-001	9.891627e-001	-1.460014e-001	-1.689477e-003	-1.104857e-002
8818015.816	-1.553820e-003	-1.130160e-002	9.889479e-001	-1.471804e-001	9.890274e-001	-1.469231e-001	-1.702460e-003	-1.114843e-002
8880554.900	-1.614527e-003	-1.140698e-002	9.887839e-001	-1.483814e-001	9.887797e-001	-1.479614e-001	-1.768711e-003	-1.121599e-002
8943093.984	-1.590714e-003	-1.145759e-002	9.886449e-001	-1.495224e-001	9.886128e-001	-1.489529e-001	-1.724300e-003	-1.127697e-002
9005633.068	-1.631877e-003	-1.155506e-002	9.884108e-001	-1.503856e-001	9.884189e-001	-1.502126e-001	-1.795036e-003	-1.140283e-002
9068172.151	-1.633436e-003	-1.159792e-002	9.882484e-001	-1.514971e-001	9.881020e-001	-1.512720e-001	-1.859496e-003	-1.142679e-002
9130711.235	-1.654048e-003	-1.166349e-002	9.881200e-001	-1.524554e-001	9.881272e-001	-1.520370e-001	-1.814267e-003	-1.153785e-002
9193250.319	-1.681756e-003	-1.179086e-002	9.879023e-001	-1.534087e-001	9.880030e-001	-1.532624e-001	-1.814122e-003	-1.162603e-002
9255789.403	-1.682729e-003	-1.185437e-002	9.877485e-001	-1.546241e-001	9.878904e-001	-1.542109e-001	-1.856589e-003	-1.162545e-002
9318328.487	-1.781948e-003	-1.191444e-002	9.875698e-001	-1.556716e-001	9.877556e-001	-1.554368e-001	-1.908492e-003	-1.176545e-002
9380867.570	-1.801615e-003	-1.197098e-002	9.874964e-001	-1.566377e-001	9.873611e-001	-1.562737e-001	-1.935541e-003	-1.179929e-002
9443406.654	-1.821214e-003	-1.210274e-002	9.872409e-001	-1.576630e-001	9.874025e-001	-1.574569e-001	-1.918004e-003	-1.190207e-002
