!Agilent Technologies,E5061B,MY49102235,A.02.00
!Date: Mon Jul 10 16:11:33 2023
!Data & Calibration Information:
!Freq	S11:SOLT2(ON)	S21:SOLT2(ON)	S12:SOLT2(ON)	S22:SOLT2(ON)
# Hz S RI R 50
5.000	-4.499141e-004	4.329886e-004	1.001684e+000	2.321554e-003	1.000567e+000	-4.195796e-005	-2.040114e-004	-5.099478e-005
62544.084	-5.015083e-005	3.562500e-004	9.999747e-001	-1.225364e-003	1.000138e+000	-1.089853e-003	3.113114e-005	2.584031e-004
125083.168	8.728350e-006	6.351256e-004	1.000093e+000	-3.018518e-003	1.000092e+000	-2.958236e-003	-2.282797e-005	6.340376e-004
187622.251	2.056015e-004	8.737464e-004	9.993144e-001	-3.539877e-003	1.000173e+000	-4.056990e-003	7.918897e-005	9.469694e-004
250161.335	8.716292e-005	1.301306e-003	9.997731e-001	-5.886439e-003	9.997814e-001	-5.762359e-003	8.080217e-005	1.279113e-003
312700.419	1.027781e-004	1.533416e-003	1.000228e+000	-7.154355e-003	9.990239e-001	-6.990970e-003	2.006545e-004	1.604760e-003
375239.503	1.646572e-004	1.866315e-003	9.998146e-001	-8.398838e-003	1.000009e+000	-8.503635e-003	1.106864e-004	1.824369e-003
437778.587	1.910327e-004	2.107426e-003	9.999304e-001	-9.929832e-003	9.990935e-001	-1.035338e-002	1.839709e-004	2.310753e-003
500317.670	2.251984e-004	2.402817e-003	9.998380e-001	-1.136548e-002	9.992124e-001	-1.180515e-002	2.370390e-004	2.577551e-003
562856.754	2.658187e-004	2.813172e-003	9.995284e-001	-1.302782e-002	9.994832e-001	-1.253280e-002	2.356794e-004	2.734656e-003
625395.838	2.767841e-004	3.079678e-003	9.996317e-001	-1.434284e-002	9.990988e-001	-1.416503e-002	2.855912e-004	3.105039e-003
687934.922	1.890129e-004	3.299775e-003	9.998609e-001	-1.558353e-002	1.000161e+000	-1.573502e-002	1.786595e-004	3.358084e-003
750474.006	1.521190e-004	3.592762e-003	9.994917e-001	-1.726927e-002	9.994255e-001	-1.636592e-002	1.328268e-004	3.607708e-003
813013.089	1.849660e-004	3.900715e-003	9.999658e-001	-1.868707e-002	9.989789e-001	-1.817220e-002	1.753550e-004	3.859454e-003
875552.173	2.137148e-004	4.158961e-003	9.994631e-001	-2.016923e-002	9.997367e-001	-1.998881e-002	2.241042e-004	4.167967e-003
938091.257	1.481470e-004	4.480699e-003	9.991487e-001	-2.119190e-002	9.992154e-001	-2.088265e-002	1.800524e-004	4.457123e-003
1000630.341	2.451763e-004	4.832516e-003	9.993781e-001	-2.249683e-002	9.993864e-001	-2.263764e-002	2.635596e-004	4.758739e-003
1063169.425	2.974187e-004	5.100736e-003	1.000003e+000	-2.410953e-002	1.000068e+000	-2.438088e-002	3.325101e-004	5.039582e-003
1125708.508	3.294682e-004	5.394483e-003	9.996291e-001	-2.577412e-002	9.989956e-001	-2.546222e-002	3.542498e-004	5.368828e-003
1188247.592	3.466261e-004	5.632374e-003	9.990495e-001	-2.697760e-002	9.992252e-001	-2.686907e-002	3.946790e-004	5.674060e-003
1250786.676	3.800873e-004	5.949947e-003	9.991869e-001	-2.872866e-002	9.988155e-001	-2.812975e-002	4.181029e-004	5.969008e-003
1313325.760	4.153797e-004	6.250973e-003	9.993167e-001	-2.933618e-002	9.986439e-001	-2.975113e-002	4.131749e-004	6.216291e-003
1375864.844	4.858480e-004	6.530145e-003	9.996074e-001	-3.174086e-002	9.987862e-001	-3.159072e-002	4.507967e-004	6.506500e-003
1438403.927	5.038357e-004	6.794809e-003	9.989702e-001	-3.317421e-002	9.990802e-001	-3.254352e-002	5.039382e-004	6.793367e-003
1500943.011	5.342665e-004	7.098679e-003	9.992300e-001	-3.440741e-002	9.986276e-001	-3.421731e-002	5.481799e-004	7.127828e-003
1563482.095	5.122194e-004	7.419698e-003	9.985963e-001	-3.562839e-002	9.990138e-001	-3.548764e-002	5.479606e-004	7.395354e-003
1626021.179	6.468393e-004	7.736880e-003	9.987835e-001	-3.725429e-002	9.987458e-001	-3.671985e-002	6.650395e-004	7.687302e-003
1688560.263	7.068864e-004	8.010236e-003	9.992552e-001	-3.872400e-002	9.989279e-001	-3.820940e-002	6.727491e-004	8.009850e-003
1751099.346	7.279791e-004	8.377963e-003	9.989996e-001	-3.998576e-002	9.985061e-001	-3.970655e-002	6.996105e-004	8.305417e-003
1813638.430	6.877694e-004	8.644184e-003	9.991034e-001	-4.106963e-002	9.983749e-001	-4.113572e-002	7.114694e-004	8.644370e-003
1876177.514	7.676112e-004	8.894257e-003	9.988151e-001	-4.293071e-002	9.986452e-001	-4.251297e-002	7.912092e-004	8.898296e-003
1938716.598	8.116209e-004	9.229007e-003	9.983104e-001	-4.432831e-002	9.989497e-001	-4.417124e-002	8.425454e-004	9.214568e-003
2001255.682	8.777086e-004	9.559821e-003	9.988366e-001	-4.558346e-002	9.979711e-001	-4.562166e-002	8.611369e-004	9.517378e-003
2063794.765	8.842216e-004	9.913624e-003	9.982310e-001	-4.678266e-002	9.987212e-001	-4.686745e-002	9.473100e-004	9.833832e-003
2126333.849	9.985379e-004	1.010420e-002	9.975526e-001	-4.856368e-002	9.981455e-001	-4.847081e-002	9.021839e-004	1.009539e-002
2188872.933	1.014497e-003	1.046963e-002	9.982358e-001	-4.978505e-002	9.982072e-001	-4.999737e-002	1.005991e-003	1.047397e-002
2251412.017	1.141134e-003	1.076796e-002	9.983557e-001	-5.207217e-002	9.981347e-001	-5.112426e-002	1.117887e-003	1.075776e-002
2313951.101	1.141992e-003	1.107272e-002	9.977876e-001	-5.310198e-002	9.977098e-001	-5.228195e-002	1.176720e-003	1.102900e-002
2376490.184	1.221622e-003	1.139093e-002	9.984460e-001	-5.442449e-002	9.978665e-001	-5.420741e-002	1.219215e-003	1.139585e-002
2439029.268	1.240016e-003	1.170293e-002	9.977853e-001	-5.560271e-002	9.972306e-001	-5.568074e-002	1.231741e-003	1.165160e-002
2501568.352	1.314003e-003	1.211480e-002	9.977052e-001	-5.704586e-002	9.979584e-001	-5.722927e-002	1.357212e-003	1.203646e-002
2564107.436	1.450022e-003	1.243668e-002	9.972297e-001	-5.857876e-002	9.971443e-001	-5.863750e-002	1.403386e-003	1.231003e-002
2626646.520	1.461792e-003	1.270523e-002	9.970747e-001	-6.016720e-002	9.976832e-001	-5.953486e-002	1.503244e-003	1.269698e-002
2689185.604	1.555258e-003	1.303289e-002	9.977360e-001	-6.140000e-002	9.977013e-001	-6.132050e-002	1.581793e-003	1.294805e-002
2751724.687	1.686689e-003	1.328992e-002	9.973205e-001	-6.269013e-002	9.967221e-001	-6.271473e-002	1.621639e-003	1.336561e-002
2814263.771	1.781700e-003	1.364002e-002	9.975036e-001	-6.451871e-002	9.972641e-001	-6.462330e-002	1.712485e-003	1.365490e-002
2876802.855	1.830704e-003	1.396195e-002	9.970817e-001	-6.626075e-002	9.965197e-001	-6.582078e-002	1.829063e-003	1.395424e-002
2939341.939	1.921835e-003	1.432424e-002	9.967369e-001	-6.733365e-002	9.968242e-001	-6.688584e-002	1.898930e-003	1.428850e-002
3001881.023	1.982703e-003	1.466629e-002	9.967670e-001	-6.807252e-002	9.969633e-001	-6.803499e-002	1.950365e-003	1.466061e-002
3064420.106	2.139477e-003	1.492676e-002	9.961396e-001	-6.994995e-002	9.958649e-001	-6.979462e-002	2.094059e-003	1.496920e-002
3126959.190	2.228782e-003	1.528307e-002	9.962067e-001	-7.164909e-002	9.960863e-001	-7.158098e-002	2.213125e-003	1.526566e-002
3189498.274	2.375341e-003	1.561779e-002	9.961380e-001	-7.320875e-002	9.958355e-001	-7.302487e-002	2.296033e-003	1.557766e-002
3252037.358	2.500946e-003	1.592591e-002	9.958640e-001	-7.460728e-002	9.957941e-001	-7.440809e-002	2.445757e-003	1.593318e-002
3314576.442	2.579876e-003	1.620231e-002	9.957399e-001	-7.608523e-002	9.957627e-001	-7.600572e-002	2.519596e-003	1.628602e-002
3377115.525	2.664549e-003	1.660266e-002	9.956259e-001	-7.762702e-002	9.953872e-001	-7.739087e-002	2.627710e-003	1.657859e-002
3439654.609	2.828220e-003	1.694492e-002	9.951767e-001	-7.894367e-002	9.953348e-001	-7.886589e-002	2.761904e-003	1.689577e-002
3502193.693	2.946262e-003	1.719879e-002	9.951539e-001	-8.043701e-002	9.951485e-001	-8.024258e-002	2.900496e-003	1.719912e-002
3564732.777	3.053784e-003	1.756309e-002	9.950006e-001	-8.193861e-002	9.949598e-001	-8.177275e-002	3.051695e-003	1.755010e-002
3627271.861	3.197162e-003	1.789331e-002	9.947245e-001	-8.340676e-002	9.948245e-001	-8.324977e-002	3.145819e-003	1.789801e-002
3689810.944	3.308725e-003	1.822283e-002	9.945791e-001	-8.479481e-002	9.944001e-001	-8.470093e-002	3.243091e-003	1.820806e-002
3752350.028	3.442894e-003	1.859441e-002	9.943866e-001	-8.633271e-002	9.943068e-001	-8.614130e-002	3.456801e-003	1.857331e-002
3814889.112	3.629622e-003	1.891421e-002	9.941243e-001	-8.774645e-002	9.940427e-001	-8.757740e-002	3.594248e-003	1.887012e-002
3877428.196	3.850830e-003	1.927017e-002	9.938963e-001	-8.922311e-002	9.937062e-001	-8.898156e-002	3.721994e-003	1.923628e-002
3939967.280	3.920719e-003	1.956839e-002	9.935147e-001	-9.076634e-002	9.935240e-001	-9.053722e-002	3.909276e-003	1.962637e-002
4002506.363	4.144716e-003	1.991854e-002	9.933480e-001	-9.214718e-002	9.933075e-001	-9.192272e-002	4.065358e-003	1.995164e-002
4065045.447	4.322740e-003	2.024793e-002	9.932208e-001	-9.370037e-002	9.931881e-001	-9.361939e-002	4.248563e-003	2.024494e-002
4127584.531	4.446869e-003	2.060514e-002	9.930368e-001	-9.518785e-002	9.928346e-001	-9.493873e-002	4.436945e-003	2.059531e-002
4190123.615	4.657590e-003	2.094938e-002	9.925699e-001	-9.650453e-002	9.925745e-001	-9.634259e-002	4.580302e-003	2.091065e-002
4252662.699	4.793795e-003	2.127708e-002	9.922902e-001	-9.792631e-002	9.921177e-001	-9.772852e-002	4.764771e-003	2.128418e-002
4315201.782	5.075982e-003	2.156401e-002	9.920245e-001	-9.950729e-002	9.919478e-001	-9.914605e-002	4.964014e-003	2.158655e-002
4377740.866	5.264432e-003	2.190519e-002	9.917790e-001	-1.010141e-001	9.917313e-001	-1.007714e-001	5.234363e-003	2.192122e-002
4440279.950	5.512618e-003	2.227229e-002	9.915148e-001	-1.021959e-001	9.914321e-001	-1.021777e-001	5.428500e-003	2.221782e-002
4502819.034	5.762339e-003	2.248492e-002	9.912789e-001	-1.037617e-001	9.909688e-001	-1.036146e-001	5.647686e-003	2.255192e-002
4565358.118	5.960401e-003	2.288514e-002	9.905902e-001	-1.051163e-001	9.908017e-001	-1.052243e-001	5.900046e-003	2.288713e-002
4627897.201	6.186615e-003	2.313906e-002	9.904596e-001	-1.065769e-001	9.905404e-001	-1.064118e-001	6.096088e-003	2.325360e-002
4690436.285	6.465076e-003	2.347197e-002	9.901641e-001	-1.081440e-001	9.901071e-001	-1.078666e-001	6.340487e-003	2.351159e-002
4752975.369	6.610920e-003	2.372001e-002	9.897528e-001	-1.095225e-001	9.896967e-001	-1.093245e-001	6.578057e-003	2.379737e-002
4815514.453	6.886273e-003	2.402112e-002	9.895817e-001	-1.110027e-001	9.893191e-001	-1.108216e-001	6.831678e-003	2.407444e-002
4878053.537	7.108427e-003	2.437437e-002	9.891853e-001	-1.125341e-001	9.890488e-001	-1.120726e-001	7.065657e-003	2.438560e-002
4940592.620	7.409077e-003	2.462521e-002	9.887154e-001	-1.137720e-001	9.886293e-001	-1.135342e-001	7.310336e-003	2.465626e-002
5003131.704	7.668986e-003	2.488960e-002	9.883716e-001	-1.151976e-001	9.882370e-001	-1.149851e-001	7.498072e-003	2.489524e-002
5065670.788	7.878277e-003	2.516335e-002	9.881093e-001	-1.166652e-001	9.879207e-001	-1.164037e-001	7.815900e-003	2.519949e-002
5128209.872	8.177190e-003	2.545781e-002	9.877249e-001	-1.179259e-001	9.877479e-001	-1.177304e-001	8.057672e-003	2.545673e-002
5190748.956	8.426939e-003	2.564678e-002	9.873811e-001	-1.194104e-001	9.873945e-001	-1.191097e-001	8.336206e-003	2.573690e-002
5253288.039	8.658600e-003	2.595413e-002	9.867920e-001	-1.206793e-001	9.870107e-001	-1.205159e-001	8.652744e-003	2.598083e-002
5315827.123	8.920884e-003	2.620430e-002	9.865434e-001	-1.221198e-001	9.865793e-001	-1.220096e-001	8.884830e-003	2.627030e-002
5378366.207	9.185871e-003	2.646732e-002	9.861378e-001	-1.235434e-001	9.862209e-001	-1.232813e-001	9.110014e-003	2.650694e-002
5440905.291	9.454571e-003	2.670728e-002	9.859894e-001	-1.247993e-001	9.859504e-001	-1.247388e-001	9.383647e-003	2.674302e-002
5503444.375	9.711270e-003	2.694431e-002	9.855144e-001	-1.263078e-001	9.854184e-001	-1.263467e-001	9.646901e-003	2.701116e-002
5565983.458	9.945699e-003	2.721330e-002	9.852600e-001	-1.276367e-001	9.850071e-001	-1.275491e-001	9.974690e-003	2.725578e-002
5628522.542	1.022554e-002	2.741434e-002	9.848849e-001	-1.289386e-001	9.848974e-001	-1.287563e-001	1.011677e-002	2.744722e-002
5691061.626	1.054753e-002	2.767760e-002	9.844552e-001	-1.303003e-001	9.842251e-001	-1.302323e-001	1.040973e-002	2.774355e-002
5753600.710	1.080402e-002	2.790121e-002	9.839848e-001	-1.317564e-001	9.839907e-001	-1.315828e-001	1.073129e-002	2.797776e-002
5816139.794	1.111003e-002	2.815622e-002	9.837377e-001	-1.330821e-001	9.835487e-001	-1.330698e-001	1.094827e-002	2.819464e-002
5878678.877	1.134549e-002	2.838336e-002	9.831737e-001	-1.343437e-001	9.831948e-001	-1.342676e-001	1.129514e-002	2.847238e-002
5941217.961	1.160012e-002	2.860850e-002	9.829698e-001	-1.357207e-001	9.829132e-001	-1.354606e-001	1.149764e-002	2.870463e-002
6003757.045	1.192024e-002	2.879053e-002	9.823998e-001	-1.372289e-001	9.824510e-001	-1.369008e-001	1.178908e-002	2.884977e-002
6066296.129	1.216125e-002	2.907203e-002	9.819452e-001	-1.385988e-001	9.819216e-001	-1.383389e-001	1.208409e-002	2.914785e-002
6128835.213	1.244948e-002	2.934199e-002	9.816613e-001	-1.399314e-001	9.816745e-001	-1.398688e-001	1.239315e-002	2.938569e-002
6191374.296	1.269878e-002	2.948660e-002	9.812278e-001	-1.409884e-001	9.811887e-001	-1.410073e-001	1.262036e-002	2.956451e-002
6253913.380	1.302421e-002	2.970890e-002	9.807118e-001	-1.426229e-001	9.806255e-001	-1.423816e-001	1.292010e-002	2.983671e-002
6316452.464	1.332155e-002	2.999470e-002	9.803768e-001	-1.437888e-001	9.804836e-001	-1.436192e-001	1.324790e-002	3.003247e-002
6378991.548	1.359745e-002	3.013477e-002	9.801356e-001	-1.452416e-001	9.799845e-001	-1.449293e-001	1.354966e-002	3.027330e-002
6441530.632	1.388826e-002	3.037517e-002	9.797234e-001	-1.466062e-001	9.794229e-001	-1.464819e-001	1.381068e-002	3.039886e-002
6504069.715	1.419659e-002	3.059261e-002	9.791641e-001	-1.478700e-001	9.792015e-001	-1.478039e-001	1.411058e-002	3.064856e-002
6566608.799	1.450361e-002	3.079770e-002	9.786560e-001	-1.492224e-001	9.786960e-001	-1.489897e-001	1.436231e-002	3.088078e-002
6629147.883	1.479614e-002	3.099193e-002	9.782031e-001	-1.505902e-001	9.783272e-001	-1.503762e-001	1.468465e-002	3.109003e-002
6691686.967	1.509034e-002	3.115362e-002	9.779363e-001	-1.517834e-001	9.776053e-001	-1.517951e-001	1.497467e-002	3.133158e-002
6754226.051	1.538123e-002	3.140525e-002	9.774929e-001	-1.531774e-001	9.774301e-001	-1.530176e-001	1.534107e-002	3.145008e-002
6816765.134	1.567388e-002	3.156655e-002	9.769572e-001	-1.545061e-001	9.769562e-001	-1.543794e-001	1.564930e-002	3.163170e-002
6879304.218	1.603387e-002	3.175976e-002	9.765048e-001	-1.558589e-001	9.763969e-001	-1.556631e-001	1.596239e-002	3.185601e-002
6941843.302	1.636567e-002	3.198272e-002	9.760276e-001	-1.569949e-001	9.760824e-001	-1.569993e-001	1.625356e-002	3.208158e-002
7004382.386	1.666578e-002	3.215907e-002	9.754752e-001	-1.585426e-001	9.756878e-001	-1.583702e-001	1.659289e-002	3.222310e-002
7066921.470	1.698703e-002	3.232037e-002	9.750830e-001	-1.597681e-001	9.751994e-001	-1.595367e-001	1.691006e-002	3.239503e-002
7129460.553	1.732676e-002	3.245560e-002	9.747427e-001	-1.609963e-001	9.747591e-001	-1.610033e-001	1.720116e-002	3.258252e-002
7191999.637	1.762977e-002	3.266102e-002	9.741736e-001	-1.623898e-001	9.741664e-001	-1.621398e-001	1.755432e-002	3.274922e-002
7254538.721	1.801085e-002	3.281735e-002	9.737886e-001	-1.636204e-001	9.738198e-001	-1.634828e-001	1.784553e-002	3.294734e-002
7317077.805	1.825673e-002	3.301341e-002	9.731600e-001	-1.649734e-001	9.734563e-001	-1.647579e-001	1.819140e-002	3.312518e-002
7379616.889	1.863159e-002	3.317029e-002	9.729473e-001	-1.662161e-001	9.727600e-001	-1.659362e-001	1.852089e-002	3.321488e-002
7442155.972	1.895029e-002	3.329997e-002	9.722867e-001	-1.674404e-001	9.722341e-001	-1.673986e-001	1.882658e-002	3.339762e-002
7504695.056	1.930409e-002	3.344703e-002	9.718399e-001	-1.687323e-001	9.719489e-001	-1.685411e-001	1.920984e-002	3.358916e-002
7567234.140	1.959354e-002	3.363013e-002	9.714674e-001	-1.700949e-001	9.713985e-001	-1.697335e-001	1.952324e-002	3.373130e-002
7629773.224	1.995666e-002	3.372657e-002	9.708727e-001	-1.713117e-001	9.708903e-001	-1.710565e-001	1.983591e-002	3.387821e-002
7692312.308	2.026247e-002	3.389489e-002	9.704806e-001	-1.725510e-001	9.704501e-001	-1.723603e-001	2.021290e-002	3.406947e-002
7754851.391	2.061336e-002	3.399486e-002	9.698334e-001	-1.737442e-001	9.698847e-001	-1.735849e-001	2.049613e-002	3.418249e-002
7817390.475	2.095268e-002	3.417658e-002	9.696113e-001	-1.750022e-001	9.694268e-001	-1.749732e-001	2.087530e-002	3.426171e-002
7879929.559	2.125955e-002	3.426455e-002	9.689225e-001	-1.762051e-001	9.689333e-001	-1.760853e-001	2.118492e-002	3.441582e-002
7942468.643	2.159320e-002	3.443815e-002	9.684152e-001	-1.774633e-001	9.684376e-001	-1.774471e-001	2.150170e-002	3.453267e-002
8005007.727	2.195360e-002	3.455499e-002	9.679865e-001	-1.788912e-001	9.679785e-001	-1.785372e-001	2.182316e-002	3.462825e-002
8067546.811	2.231467e-002	3.465466e-002	9.674811e-001	-1.801396e-001	9.675406e-001	-1.799326e-001	2.223459e-002	3.475129e-002
8130085.894	2.263957e-002	3.478167e-002	9.669853e-001	-1.812683e-001	9.668816e-001	-1.811263e-001	2.251242e-002	3.487466e-002
8192624.978	2.297610e-002	3.485981e-002	9.664054e-001	-1.825140e-001	9.663802e-001	-1.823499e-001	2.291324e-002	3.498443e-002
8255164.062	2.331725e-002	3.496437e-002	9.659384e-001	-1.837384e-001	9.659294e-001	-1.835066e-001	2.322551e-002	3.506009e-002
8317703.146	2.366478e-002	3.501308e-002	9.655568e-001	-1.849878e-001	9.655258e-001	-1.847685e-001	2.353319e-002	3.517212e-002
8380242.230	2.403066e-002	3.510602e-002	9.650025e-001	-1.859294e-001	9.651437e-001	-1.859717e-001	2.391534e-002	3.528422e-002
8442781.313	2.434239e-002	3.526449e-002	9.645414e-001	-1.871624e-001	9.644465e-001	-1.871022e-001	2.420798e-002	3.541532e-002
8505320.397	2.464444e-002	3.534082e-002	9.639886e-001	-1.885861e-001	9.638810e-001	-1.885144e-001	2.459854e-002	3.541840e-002
8567859.481	2.502350e-002	3.541794e-002	9.634172e-001	-1.897673e-001	9.634609e-001	-1.894731e-001	2.495986e-002	3.556392e-002
8630398.565	2.539196e-002	3.551976e-002	9.629301e-001	-1.910046e-001	9.629142e-001	-1.907912e-001	2.530782e-002	3.559703e-002
8692937.649	2.570121e-002	3.561415e-002	9.623281e-001	-1.921327e-001	9.623419e-001	-1.918440e-001	2.558421e-002	3.573812e-002
8755476.732	2.601846e-002	3.571366e-002	9.617730e-001	-1.934107e-001	9.619449e-001	-1.932215e-001	2.596585e-002	3.581250e-002
8818015.816	2.638299e-002	3.572638e-002	9.614284e-001	-1.944443e-001	9.614378e-001	-1.942636e-001	2.631035e-002	3.585270e-002
8880554.900	2.668905e-002	3.575056e-002	9.608952e-001	-1.957671e-001	9.609083e-001	-1.954403e-001	2.661775e-002	3.593885e-002
8943093.984	2.706327e-002	3.585928e-002	9.603677e-001	-1.970263e-001	9.603346e-001	-1.965889e-001	2.700486e-002	3.601367e-002
9005633.068	2.739081e-002	3.590137e-002	9.598195e-001	-1.980457e-001	9.597761e-001	-1.979614e-001	2.731687e-002	3.602810e-002
9068172.151	2.775410e-002	3.597324e-002	9.593011e-001	-1.992599e-001	9.591187e-001	-1.991339e-001	2.760518e-002	3.613205e-002
9130711.235	2.809961e-002	3.603002e-002	9.587714e-001	-2.003519e-001	9.588083e-001	-2.000564e-001	2.801772e-002	3.615682e-002
9193250.319	2.842482e-002	3.603198e-002	9.582528e-001	-2.014557e-001	9.582819e-001	-2.013964e-001	2.839050e-002	3.618691e-002
9255789.403	2.879106e-002	3.609344e-002	9.576810e-001	-2.027704e-001	9.578203e-001	-2.024809e-001	2.870111e-002	3.631232e-002
9318328.487	2.905114e-002	3.615326e-002	9.571348e-001	-2.039366e-001	9.573060e-001	-2.038376e-001	2.901746e-002	3.628133e-002
9380867.570	2.939328e-002	3.621803e-002	9.567095e-001	-2.050910e-001	9.565759e-001	-2.047925e-001	2.934312e-002	3.636668e-002
9443406.654	2.973048e-002	3.620361e-002	9.561163e-001	-2.062107e-001	9.562446e-001	-2.060860e-001	2.973205e-002	3.636251e-002
9505945.738	3.007638e-002	3.622910e-002	9.557057e-001	-2.073015e-001	9.555877e-001	-2.071061e-001	3.000686e-002	3.640281e-002
9568484.822	3.043629e-002	3.625462e-002	9.552250e-001	-2.086505e-001	9.551498e-001	-2.081755e-001	3.039419e-002	3.643663e-002
9631023.906	3.077058e-002	3.628423e-002	9.546179e-001	-2.096922e-001	9.545226e-001	-2.094343e-001	3.069860e-002	3.647421e-002
9693562.989	3.111125e-002	3.632618e-002	9.539343e-001	-2.107329e-001	9.540845e-001	-2.106287e-001	3.101298e-002	3.651081e-002
9756102.073	3.135467e-002	3.632891e-002	9.535292e-001	-2.117463e-001	9.536362e-001	-2.116278e-001	3.137146e-002	3.643511e-002
