!Agilent Technologies,E5061B,MY49102235,A.02.00
!Date: Mon Jul 10 16:13:43 2023
!Data & Calibration Information:
!Freq	S11:SOLT2(ON)	S21:SOLT2(ON)	S12:SOLT2(ON)	S22:SOLT2(ON)
# Hz S RI R 50
5.000	-4.956775e-004	4.250447e-004	1.001650e+000	2.271790e-003	1.000419e+000	-2.304633e-005	-1.737116e-004	-5.668897e-005
62544.084	-5.521949e-005	-3.589494e-005	9.999101e-001	-8.325677e-004	1.000105e+000	-6.663685e-004	1.531642e-005	-1.209365e-004
125083.168	-1.353514e-005	-1.354920e-004	1.000048e+000	-2.283738e-003	1.000187e+000	-2.146066e-003	-5.323939e-005	-1.447666e-004
187622.251	1.614503e-004	-2.871007e-004	9.994208e-001	-2.515938e-003	1.000254e+000	-2.792032e-003	4.367514e-005	-2.149846e-004
250161.335	3.874638e-005	-2.247865e-004	9.997168e-001	-4.424017e-003	9.997873e-001	-4.137936e-003	3.245750e-005	-2.451946e-004
312700.419	4.150236e-005	-3.750417e-004	1.000185e+000	-5.191846e-003	9.992697e-001	-4.983437e-003	1.218771e-004	-3.186365e-004
375239.503	9.243883e-005	-3.971077e-004	9.998011e-001	-6.219629e-003	1.000140e+000	-6.298793e-003	2.082961e-005	-4.352632e-004
437778.587	9.015280e-005	-5.369108e-004	9.999107e-001	-7.335109e-003	9.992708e-001	-7.635747e-003	7.423113e-005	-3.536067e-004
500317.670	9.121069e-005	-6.352580e-004	9.999479e-001	-8.346343e-003	9.995131e-001	-8.716066e-003	8.327141e-005	-4.630588e-004
562856.754	1.141103e-004	-5.988032e-004	9.997162e-001	-9.600366e-003	9.996837e-001	-9.227418e-003	6.377569e-005	-6.619983e-004
625395.838	8.844230e-005	-7.143555e-004	9.998199e-001	-1.058263e-002	9.991876e-001	-1.019765e-002	1.288411e-004	-7.011168e-004
687934.922	-2.545351e-005	-8.447149e-004	1.000094e+000	-1.147017e-002	1.000333e+000	-1.167880e-002	-2.321137e-005	-7.717546e-004
750474.006	-8.415156e-005	-9.289559e-004	9.996437e-001	-1.274783e-002	9.996725e-001	-1.196206e-002	-9.368073e-005	-8.973195e-004
813013.089	-5.981969e-005	-9.804858e-004	1.000295e+000	-1.381934e-002	9.991653e-001	-1.328351e-002	-8.254693e-005	-1.008995e-003
875552.173	-8.236733e-005	-1.089704e-003	9.996195e-001	-1.497013e-002	1.000153e+000	-1.474930e-002	-6.953324e-005	-1.072384e-003
938091.257	-1.608264e-004	-1.127527e-003	9.995377e-001	-1.568463e-002	9.995657e-001	-1.517228e-002	-1.328358e-004	-1.131588e-003
1000630.341	-9.989296e-005	-1.136591e-003	9.996599e-001	-1.650385e-002	9.997276e-001	-1.662725e-002	-8.141513e-005	-1.226512e-003
1063169.425	-6.794178e-005	-1.241865e-003	1.000341e+000	-1.784544e-002	1.000368e+000	-1.811293e-002	-4.850180e-005	-1.322791e-003
1125708.508	-7.046650e-005	-1.331331e-003	9.999675e-001	-1.903437e-002	9.995077e-001	-1.864311e-002	-5.384422e-005	-1.350677e-003
1188247.592	-7.256933e-005	-1.437087e-003	9.995991e-001	-1.986252e-002	9.995736e-001	-1.963842e-002	-4.385440e-005	-1.421472e-003
1250786.676	-9.116149e-005	-1.505331e-003	9.996568e-001	-2.131586e-002	9.992815e-001	-2.066227e-002	-5.681597e-005	-1.480828e-003
1313325.760	-8.782459e-005	-1.580400e-003	9.997086e-001	-2.150248e-002	9.991086e-001	-2.192792e-002	-8.492267e-005	-1.618212e-003
1375864.844	-5.315790e-005	-1.689179e-003	1.000084e+000	-2.365833e-002	9.995607e-001	-2.338547e-002	-7.167191e-005	-1.686095e-003
1438403.927	-7.412094e-005	-1.760357e-003	9.995871e-001	-2.445080e-002	9.994832e-001	-2.408590e-002	-7.750085e-005	-1.784583e-003
1500943.011	-6.284789e-005	-1.844105e-003	9.998158e-001	-2.540548e-002	9.992868e-001	-2.532188e-002	-6.530809e-005	-1.825092e-003
1563482.095	-1.436823e-004	-1.921362e-003	9.991682e-001	-2.641873e-002	9.996236e-001	-2.621852e-002	-9.620926e-005	-1.919125e-003
1626021.179	-3.588098e-005	-1.969124e-003	9.995743e-001	-2.762145e-002	9.993386e-001	-2.709110e-002	-3.643616e-005	-2.000449e-003
1688560.263	-3.621475e-005	-2.060761e-003	9.998375e-001	-2.858849e-002	9.995913e-001	-2.822512e-002	-6.245345e-005	-2.057728e-003
1751099.346	-3.370851e-005	-2.057771e-003	9.998955e-001	-2.956010e-002	9.993213e-001	-2.923679e-002	-8.790316e-005	-2.145486e-003
1813638.430	-1.221552e-004	-2.193072e-003	9.999172e-001	-3.027395e-002	9.991616e-001	-3.035619e-002	-1.169742e-004	-2.202138e-003
1876177.514	-9.500376e-005	-2.320007e-003	9.996606e-001	-3.184155e-002	9.996136e-001	-3.125030e-002	-6.684921e-005	-2.297051e-003
1938716.598	-9.485411e-005	-2.367943e-003	9.992399e-001	-3.284692e-002	9.997462e-001	-3.253166e-002	-7.673167e-005	-2.365408e-003
2001255.682	-9.281624e-005	-2.407734e-003	9.998095e-001	-3.361434e-002	9.990367e-001	-3.359328e-002	-1.059159e-004	-2.455162e-003
2063794.765	-1.053886e-004	-2.460544e-003	9.992469e-001	-3.454548e-002	9.996448e-001	-3.452745e-002	-5.888417e-005	-2.532617e-003
2126333.849	-7.843558e-005	-2.646790e-003	9.985902e-001	-3.579471e-002	9.992887e-001	-3.584834e-002	-1.676173e-004	-2.641908e-003
2188872.933	-1.175450e-004	-2.658571e-003	9.992581e-001	-3.652337e-002	9.994429e-001	-3.685050e-002	-1.105945e-004	-2.657990e-003
2251412.017	-4.029142e-005	-2.767396e-003	9.994702e-001	-3.849474e-002	9.993410e-001	-3.750857e-002	-5.927035e-005	-2.767961e-003
2313951.101	-1.071555e-004	-2.850807e-003	9.991215e-001	-3.920809e-002	9.991007e-001	-3.837839e-002	-6.255503e-005	-2.889697e-003
2376490.184	-8.911620e-005	-2.935863e-003	9.996311e-001	-4.011564e-002	9.991855e-001	-3.991664e-002	-1.011378e-004	-2.930032e-003
2439029.268	-1.261590e-004	-3.042433e-003	9.990047e-001	-4.090167e-002	9.985667e-001	-4.090913e-002	-1.560631e-004	-3.053241e-003
2501568.352	-1.334334e-004	-2.996250e-003	9.990504e-001	-4.194795e-002	9.995664e-001	-4.204376e-002	-9.157715e-005	-3.066024e-003
2564107.436	-8.908835e-005	-3.092820e-003	9.987506e-001	-4.305355e-002	9.986491e-001	-4.296077e-002	-1.363206e-004	-3.201948e-003
2626646.520	-1.517760e-004	-3.220487e-003	9.986484e-001	-4.419411e-002	9.992163e-001	-4.368671e-002	-1.029165e-004	-3.227597e-003
2689185.604	-1.573539e-004	-3.282618e-003	9.992589e-001	-4.505321e-002	9.993956e-001	-4.499900e-002	-1.091797e-004	-3.364182e-003
2751724.687	-1.020959e-004	-3.438336e-003	9.990473e-001	-4.594150e-002	9.984315e-001	-4.592531e-002	-1.780975e-004	-3.359096e-003
2814263.771	-8.872481e-005	-3.482292e-003	9.991743e-001	-4.741895e-002	9.991111e-001	-4.748051e-002	-1.661141e-004	-3.462402e-003
2876802.855	-1.544451e-004	-3.567535e-003	9.989160e-001	-4.872200e-002	9.984167e-001	-4.826408e-002	-1.693782e-004	-3.582471e-003
2939341.939	-1.566545e-004	-3.630699e-003	9.987286e-001	-4.935858e-002	9.987296e-001	-4.897263e-002	-2.058080e-004	-3.653918e-003
3001881.023	-2.044555e-004	-3.669948e-003	9.988547e-001	-4.990084e-002	9.989308e-001	-4.971183e-002	-2.346516e-004	-3.662428e-003
3064420.106	-1.485820e-004	-3.809132e-003	9.983099e-001	-5.132756e-002	9.981243e-001	-5.120938e-002	-2.027773e-004	-3.756527e-003
3126959.190	-1.826524e-004	-3.848159e-003	9.985374e-001	-5.254538e-002	9.984263e-001	-5.243175e-002	-1.948002e-004	-3.858984e-003
3189498.274	-1.446242e-004	-3.917857e-003	9.985678e-001	-5.366249e-002	9.983003e-001	-5.349991e-002	-2.371788e-004	-3.944261e-003
3252037.358	-1.351365e-004	-4.013973e-003	9.984029e-001	-5.471719e-002	9.984134e-001	-5.445959e-002	-2.052549e-004	-4.012607e-003
3314576.442	-1.791874e-004	-4.157844e-003	9.984344e-001	-5.572608e-002	9.984704e-001	-5.563388e-002	-2.637115e-004	-4.065939e-003
3377115.525	-2.051965e-004	-4.165765e-003	9.984144e-001	-5.694184e-002	9.981955e-001	-5.667231e-002	-2.569605e-004	-4.166570e-003
3439654.609	-1.815348e-004	-4.205145e-003	9.980880e-001	-5.780409e-002	9.982769e-001	-5.772096e-002	-2.651794e-004	-4.254058e-003
3502193.693	-1.830458e-004	-4.366772e-003	9.982147e-001	-5.891157e-002	9.982362e-001	-5.866333e-002	-2.400145e-004	-4.372289e-003
3564732.777	-2.206172e-004	-4.417596e-003	9.981692e-001	-5.998409e-002	9.981269e-001	-5.977898e-002	-2.463948e-004	-4.422397e-003
3627271.861	-2.194168e-004	-4.500389e-003	9.980123e-001	-6.104006e-002	9.981204e-001	-6.088874e-002	-2.766898e-004	-4.484558e-003
3689810.944	-2.526693e-004	-4.585991e-003	9.980441e-001	-6.205588e-002	9.978807e-001	-6.189461e-002	-3.325768e-004	-4.601926e-003
3752350.028	-2.891979e-004	-4.630410e-003	9.979558e-001	-6.311750e-002	9.979405e-001	-6.289759e-002	-2.728275e-004	-4.644075e-003
3814889.112	-2.441963e-004	-4.721222e-003	9.978741e-001	-6.410990e-002	9.977907e-001	-6.394819e-002	-3.003429e-004	-4.758962e-003
3877428.196	-1.888553e-004	-4.783900e-003	9.978154e-001	-6.518506e-002	9.976641e-001	-6.491963e-002	-3.337676e-004	-4.814445e-003
3939967.280	-2.698748e-004	-4.912058e-003	9.976192e-001	-6.634343e-002	9.976083e-001	-6.602451e-002	-3.236195e-004	-4.830606e-003
4002506.363	-2.460824e-004	-4.958250e-003	9.976019e-001	-6.725479e-002	9.975730e-001	-6.702672e-002	-3.307567e-004	-4.937960e-003
4065045.447	-2.640592e-004	-5.048204e-003	9.976663e-001	-6.839786e-002	9.976627e-001	-6.828851e-002	-3.435099e-004	-5.051252e-003
4127584.531	-3.279982e-004	-5.113677e-003	9.976684e-001	-6.945825e-002	9.975186e-001	-6.920738e-002	-3.553562e-004	-5.117761e-003
4190123.615	-3.095671e-004	-5.177829e-003	9.973358e-001	-7.034661e-002	9.973981e-001	-7.018515e-002	-3.921475e-004	-5.225871e-003
4252662.699	-3.693399e-004	-5.265095e-003	9.973512e-001	-7.139235e-002	9.971762e-001	-7.117124e-002	-4.228623e-004	-5.239189e-003
4315201.782	-3.074118e-004	-5.368054e-003	9.972760e-001	-7.257109e-002	9.972039e-001	-7.217450e-002	-4.319589e-004	-5.362347e-003
4377740.866	-3.432556e-004	-5.442207e-003	9.972767e-001	-7.362552e-002	9.972138e-001	-7.341176e-002	-3.832243e-004	-5.415398e-003
4440279.950	-3.206545e-004	-5.482089e-003	9.971861e-001	-7.443109e-002	9.971676e-001	-7.442137e-002	-4.243957e-004	-5.531580e-003
4502819.034	-3.093952e-004	-5.656043e-003	9.971443e-001	-7.559403e-002	9.969177e-001	-7.544153e-002	-4.343528e-004	-5.587439e-003
4565358.118	-3.543236e-004	-5.646570e-003	9.967621e-001	-7.659714e-002	9.969878e-001	-7.665702e-002	-4.227053e-004	-5.628432e-003
4627897.201	-3.587267e-004	-5.779097e-003	9.968461e-001	-7.767430e-002	9.969683e-001	-7.747848e-002	-4.785210e-004	-5.670005e-003
4690436.285	-3.446852e-004	-5.821270e-003	9.967941e-001	-7.884108e-002	9.967950e-001	-7.854019e-002	-4.793019e-004	-5.778845e-003
4752975.369	-4.332203e-004	-5.960786e-003	9.966748e-001	-7.986486e-002	9.966039e-001	-7.962043e-002	-4.901158e-004	-5.875143e-003
4815514.453	-4.060830e-004	-6.022359e-003	9.966618e-001	-8.098760e-002	9.964890e-001	-8.075606e-002	-4.801904e-004	-5.962266e-003
4878053.537	-4.578609e-004	-6.029288e-003	9.965935e-001	-8.214741e-002	9.964975e-001	-8.163375e-002	-5.255011e-004	-6.005881e-003
4940592.620	-4.314675e-004	-6.133119e-003	9.963853e-001	-8.304469e-002	9.963318e-001	-8.273257e-002	-5.387481e-004	-6.095442e-003
5003131.704	-4.190347e-004	-6.213966e-003	9.963515e-001	-8.410873e-002	9.961752e-001	-8.384670e-002	-6.155778e-004	-6.220902e-003
5065670.788	-4.911952e-004	-6.305942e-003	9.962693e-001	-8.517501e-002	9.961382e-001	-8.491943e-002	-5.774638e-004	-6.251614e-003
5128209.872	-4.582482e-004	-6.349376e-003	9.961185e-001	-8.613465e-002	9.962197e-001	-8.587883e-002	-5.848822e-004	-6.343681e-003
5190748.956	-4.850228e-004	-6.492272e-003	9.960555e-001	-8.722560e-002	9.961260e-001	-8.692941e-002	-5.964049e-004	-6.404676e-003
5253288.039	-5.169941e-004	-6.536020e-003	9.957101e-001	-8.817459e-002	9.960400e-001	-8.798679e-002	-5.545443e-004	-6.496319e-003
5315827.123	-5.244116e-004	-6.603820e-003	9.957679e-001	-8.926239e-002	9.958563e-001	-8.915107e-002	-5.885250e-004	-6.540945e-003
5378366.207	-5.375713e-004	-6.678770e-003	9.956284e-001	-9.038556e-002	9.957752e-001	-9.011387e-002	-6.244475e-004	-6.627225e-003
5440905.291	-5.444156e-004	-6.759409e-003	9.958118e-001	-9.129614e-002	9.957777e-001	-9.120177e-002	-6.296644e-004	-6.727081e-003
5503444.375	-5.560860e-004	-6.851102e-003	9.955713e-001	-9.246936e-002	9.955533e-001	-9.245372e-002	-6.486129e-004	-6.788581e-003
5565983.458	-5.993370e-004	-6.895498e-003	9.956001e-001	-9.347864e-002	9.953556e-001	-9.339519e-002	-6.084482e-004	-6.851678e-003
5628522.542	-6.166621e-004	-7.022255e-003	9.954343e-001	-9.446081e-002	9.955156e-001	-9.423878e-002	-7.366337e-004	-6.988050e-003
5691061.626	-5.656119e-004	-7.071230e-003	9.953550e-001	-9.554556e-002	9.951678e-001	-9.542391e-002	-7.282030e-004	-7.016825e-003
5753600.710	-5.875979e-004	-7.164197e-003	9.951458e-001	-9.667461e-002	9.952249e-001	-9.641786e-002	-6.937618e-004	-7.082703e-003
5816139.794	-5.659195e-004	-7.210718e-003	9.951887e-001	-9.769753e-002	9.950529e-001	-9.762117e-002	-7.783970e-004	-7.182718e-003
5878678.877	-6.333859e-004	-7.305630e-003	9.949412e-001	-9.860031e-002	9.949645e-001	-9.852364e-002	-7.226289e-004	-7.213618e-003
5941217.961	-6.749817e-004	-7.388174e-003	9.949487e-001	-9.965558e-002	9.949934e-001	-9.937044e-002	-8.120355e-004	-7.314033e-003
6003757.045	-6.429785e-004	-7.515543e-003	9.947084e-001	-1.008642e-001	9.947673e-001	-1.005414e-001	-8.026074e-004	-7.446090e-003
6066296.129	-6.953536e-004	-7.544675e-003	9.945554e-001	-1.018746e-001	9.945900e-001	-1.016672e-001	-8.076675e-004	-7.457442e-003
6128835.213	-7.080896e-004	-7.582266e-003	9.946134e-001	-1.028996e-001	9.946399e-001	-1.028460e-001	-7.988976e-004	-7.513818e-003
6191374.296	-7.692154e-004	-7.729596e-003	9.944122e-001	-1.037669e-001	9.944071e-001	-1.037153e-001	-8.583202e-004	-7.654410e-003
6253913.380	-7.297181e-004	-7.806209e-003	9.942314e-001	-1.050434e-001	9.941829e-001	-1.047957e-001	-8.752698e-004	-7.674695e-003
6316452.464	-7.331924e-004	-7.807762e-003	9.941243e-001	-1.059161e-001	9.942713e-001	-1.057094e-001	-8.480580e-004	-7.757195e-003
6378991.548	-7.715228e-004	-7.959989e-003	9.942565e-001	-1.070302e-001	9.941471e-001	-1.067606e-001	-8.661280e-004	-7.816432e-003
6441530.632	-8.010463e-004	-8.004817e-003	9.941299e-001	-1.080990e-001	9.938684e-001	-1.079689e-001	-8.909967e-004	-7.961318e-003
6504069.715	-8.065492e-004	-8.087161e-003	9.939117e-001	-1.091151e-001	9.939171e-001	-1.090464e-001	-9.186473e-004	-8.010447e-003
6566608.799	-8.055425e-004	-8.158454e-003	9.936903e-001	-1.102116e-001	9.937621e-001	-1.099562e-001	-9.883040e-004	-8.061815e-003
6629147.883	-8.296631e-004	-8.235100e-003	9.935496e-001	-1.113023e-001	9.937078e-001	-1.109958e-001	-9.864947e-004	-8.132568e-003
6691686.967	-8.534973e-004	-8.351822e-003	9.935786e-001	-1.121533e-001	9.933173e-001	-1.121349e-001	-1.023826e-003	-8.179944e-003
6754226.051	-9.025379e-004	-8.383587e-003	9.934830e-001	-1.133150e-001	9.934710e-001	-1.131205e-001	-9.769298e-004	-8.316052e-003
6816765.134	-9.382244e-004	-8.502466e-003	9.932443e-001	-1.143685e-001	9.933322e-001	-1.141905e-001	-9.999319e-004	-8.407120e-003
6879304.218	-8.965930e-004	-8.556133e-003	9.931502e-001	-1.154264e-001	9.930870e-001	-1.152226e-001	-1.019378e-003	-8.447831e-003
6941843.302	-9.060513e-004	-8.601043e-003	9.929825e-001	-1.163323e-001	9.931480e-001	-1.162984e-001	-1.057860e-003	-8.496340e-003
7004382.386	-9.702891e-004	-8.667703e-003	9.927946e-001	-1.175587e-001	9.930540e-001	-1.174291e-001	-1.072591e-003	-8.627514e-003
7066921.470	-9.608904e-004	-8.770639e-003	9.927279e-001	-1.185649e-001	9.929104e-001	-1.182681e-001	-1.085038e-003	-8.685129e-003
7129460.553	-9.423115e-004	-8.889543e-003	9.927197e-001	-1.195514e-001	9.927731e-001	-1.195080e-001	-1.115212e-003	-8.754759e-003
7191999.637	-1.010000e-003	-8.927375e-003	9.924605e-001	-1.206711e-001	9.925108e-001	-1.203695e-001	-1.123370e-003	-8.826227e-003
7254538.721	-9.577821e-004	-9.011654e-003	9.924359e-001	-1.217166e-001	9.924962e-001	-1.215005e-001	-1.173103e-003	-8.875688e-003
7317077.805	-1.046931e-003	-9.067355e-003	9.921351e-001	-1.228011e-001	9.924924e-001	-1.225195e-001	-1.163302e-003	-8.941999e-003
7379616.889	-1.023191e-003	-9.137882e-003	9.922798e-001	-1.237868e-001	9.921066e-001	-1.234798e-001	-1.173416e-003	-9.084162e-003
7442155.972	-1.053810e-003	-9.239205e-003	9.919651e-001	-1.247719e-001	9.919264e-001	-1.247021e-001	-1.217948e-003	-9.142003e-003
7504695.056	-1.050091e-003	-9.315027e-003	9.918200e-001	-1.258362e-001	9.919688e-001	-1.255614e-001	-1.189307e-003	-9.167170e-003
7567234.140	-1.096575e-003	-9.355368e-003	9.918081e-001	-1.269353e-001	9.917720e-001	-1.265988e-001	-1.247182e-003	-9.241073e-003
7629773.224	-1.094782e-003	-9.470693e-003	9.915784e-001	-1.279720e-001	9.916418e-001	-1.276983e-001	-1.277545e-003	-9.316480e-003
7692312.308	-1.139010e-003	-9.535514e-003	9.915664e-001	-1.289701e-001	9.915169e-001	-1.287397e-001	-1.256027e-003	-9.321288e-003
7754851.391	-1.138749e-003	-9.629402e-003	9.912467e-001	-1.299405e-001	9.913224e-001	-1.297935e-001	-1.329077e-003	-9.432638e-003
7817390.475	-1.146777e-003	-9.656666e-003	9.913933e-001	-1.310063e-001	9.912094e-001	-1.309335e-001	-1.290585e-003	-9.558445e-003
7879929.559	-1.198265e-003	-9.769845e-003	9.910652e-001	-1.320369e-001	9.910330e-001	-1.318520e-001	-1.333486e-003	-9.616796e-003
7942468.643	-1.234011e-003	-9.808741e-003	9.908970e-001	-1.330891e-001	9.909565e-001	-1.330097e-001	-1.374926e-003	-9.684836e-003
8005007.727	-1.224191e-003	-9.881224e-003	9.908233e-001	-1.343102e-001	9.908264e-001	-1.339204e-001	-1.404693e-003	-9.808189e-003
8067546.811	-1.227585e-003	-9.957971e-003	9.906347e-001	-1.353355e-001	9.907462e-001	-1.351110e-001	-1.348745e-003	-9.841983e-003
8130085.894	-1.261745e-003	-1.001655e-002	9.905016e-001	-1.362843e-001	9.904412e-001	-1.361333e-001	-1.432359e-003	-9.937233e-003
8192624.978	-1.278729e-003	-1.013826e-002	9.903231e-001	-1.372988e-001	9.903184e-001	-1.371390e-001	-1.408416e-003	-9.999734e-003
8255164.062	-1.311328e-003	-1.020502e-002	9.901836e-001	-1.383668e-001	9.902176e-001	-1.381007e-001	-1.448374e-003	-1.008857e-002
8317703.146	-1.295626e-003	-1.032321e-002	9.901283e-001	-1.394603e-001	9.901932e-001	-1.392079e-001	-1.498345e-003	-1.017241e-002
8380242.230	-1.314513e-003	-1.040511e-002	9.899390e-001	-1.402267e-001	9.901480e-001	-1.402470e-001	-1.486913e-003	-1.020434e-002
8442781.313	-1.363109e-003	-1.041629e-002	9.898573e-001	-1.412674e-001	9.897903e-001	-1.411835e-001	-1.540037e-003	-1.026912e-002
8505320.397	-1.412839e-003	-1.050229e-002	9.896527e-001	-1.425590e-001	9.896075e-001	-1.424433e-001	-1.528358e-003	-1.042597e-002
8567859.481	-1.403895e-003	-1.057797e-002	9.894788e-001	-1.435294e-001	9.895273e-001	-1.432068e-001	-1.533681e-003	-1.041965e-002
8630398.565	-1.404461e-003	-1.064734e-002	9.892565e-001	-1.446064e-001	9.892981e-001	-1.444001e-001	-1.558210e-003	-1.055635e-002
8692937.649	-1.454126e-003	-1.070761e-002	9.890527e-001	-1.456226e-001	9.891582e-001	-1.452698e-001	-1.656619e-003	-1.056658e-002
8755476.732	-1.496119e-003	-1.076009e-002	9.888955e-001	-1.467296e-001	9.890944e-001	-1.464684e-001	-1.620925e-003	-1.064055e-002
8818015.816	-1.495791e-003	-1.088353e-002	9.888582e-001	-1.475605e-001	9.889744e-001	-1.473896e-001	-1.645942e-003	-1.073617e-002
8880554.900	-1.549505e-003	-1.098750e-002	9.887211e-001	-1.487883e-001	9.887434e-001	-1.484260e-001	-1.702381e-003	-1.079758e-002
8943093.984	-1.539308e-003	-1.102984e-002	9.885524e-001	-1.499087e-001	9.885280e-001	-1.494445e-001	-1.668571e-003	-1.085269e-002
9005633.068	-1.568233e-003	-1.111754e-002	9.883478e-001	-1.507735e-001	9.883558e-001	-1.506330e-001	-1.723009e-003	-1.098143e-002
9068172.151	-1.560010e-003	-1.117484e-002	9.881830e-001	-1.518587e-001	9.880407e-001	-1.517441e-001	-1.794962e-003	-1.099478e-002
9130711.235	-1.594446e-003	-1.122928e-002	9.880212e-001	-1.528474e-001	9.880927e-001	-1.524879e-001	-1.746160e-003	-1.110684e-002
9193250.319	-1.625159e-003	-1.135353e-002	9.878219e-001	-1.538388e-001	9.879493e-001	-1.537430e-001	-1.745995e-003	-1.118977e-002
9255789.403	-1.621306e-003	-1.142346e-002	9.876382e-001	-1.550308e-001	9.878439e-001	-1.546816e-001	-1.788052e-003	-1.118982e-002
9318328.487	-1.709587e-003	-1.148028e-002	9.875044e-001	-1.560549e-001	9.877083e-001	-1.559410e-001	-1.839072e-003	-1.133784e-002
9380867.570	-1.741754e-003	-1.153268e-002	9.873966e-001	-1.570873e-001	9.872996e-001	-1.567784e-001	-1.857503e-003	-1.136625e-002
9443406.654	-1.750678e-003	-1.165154e-002	9.871534e-001	-1.580333e-001	9.873202e-001	-1.579219e-001	-1.846826e-003	-1.145058e-002
