!Agilent Technologies,E5061B,MY49102235,A.02.00
!Date: Mon Jul 10 16:59:55 2023
!Data & Calibration Information:
!Freq	S11:SOLT2(ON)	S21:SOLT2(ON)	S12:SOLT2(ON)	S22:SOLT2(ON)
# Hz S RI R 50
5.000	-4.853787e-004	4.266952e-004	1.001917e+000	2.281242e-003	1.000605e+000	-3.255092e-005	-1.103344e-004	-7.566004e-005
62544.084	-5.332653e-005	3.398281e-004	1.000095e+000	-1.323612e-003	1.000138e+000	-9.945064e-004	3.105575e-005	2.517193e-004
125083.168	-2.672174e-006	6.090652e-004	1.000201e+000	-3.013317e-003	1.000087e+000	-2.895260e-003	-2.789426e-005	6.017229e-004
187622.251	2.014088e-004	8.364196e-004	9.994257e-001	-3.628707e-003	1.000107e+000	-4.008744e-003	7.391971e-005	9.121486e-004
250161.335	8.212865e-005	1.249341e-003	9.998099e-001	-5.884298e-003	9.997019e-001	-5.650308e-003	8.789126e-005	1.239345e-003
312700.419	8.848478e-005	1.464908e-003	1.000316e+000	-7.122603e-003	9.990914e-001	-6.748108e-003	1.899650e-004	1.515604e-003
375239.503	1.492299e-004	1.793473e-003	9.999659e-001	-8.396283e-003	9.999071e-001	-8.335148e-003	1.026177e-004	1.748670e-003
437778.587	1.936628e-004	2.012327e-003	9.999153e-001	-9.931397e-003	9.990235e-001	-1.019175e-002	1.919232e-004	2.218866e-003
500317.670	2.178403e-004	2.292716e-003	9.999019e-001	-1.139372e-002	9.992278e-001	-1.173127e-002	2.169027e-004	2.480081e-003
562856.754	2.611091e-004	2.667742e-003	9.995652e-001	-1.287695e-002	9.995033e-001	-1.244553e-002	2.040005e-004	2.617408e-003
625395.838	2.713768e-004	2.942561e-003	9.996850e-001	-1.430331e-002	9.990243e-001	-1.398646e-002	2.745206e-004	2.971405e-003
687934.922	1.702011e-004	3.149709e-003	9.999499e-001	-1.545038e-002	1.000097e+000	-1.569680e-002	1.767476e-004	3.224636e-003
750474.006	1.453678e-004	3.425278e-003	9.996821e-001	-1.710573e-002	9.993682e-001	-1.623542e-002	1.376535e-004	3.444256e-003
813013.089	1.701791e-004	3.729019e-003	1.000113e+000	-1.847169e-002	9.988738e-001	-1.803904e-002	1.752555e-004	3.672167e-003
875552.173	2.077774e-004	3.978734e-003	9.997021e-001	-1.996471e-002	9.996227e-001	-1.979566e-002	1.999260e-004	3.963429e-003
938091.257	1.315737e-004	4.262275e-003	9.993517e-001	-2.114913e-002	9.991099e-001	-2.058680e-002	1.667413e-004	4.248357e-003
1000630.341	2.303693e-004	4.622849e-003	9.994820e-001	-2.223059e-002	9.993662e-001	-2.224441e-002	2.520656e-004	4.535861e-003
1063169.425	2.925083e-004	4.881684e-003	1.000246e+000	-2.393286e-002	9.998810e-001	-2.408586e-002	3.085015e-004	4.793284e-003
1125708.508	3.150218e-004	5.142815e-003	9.998614e-001	-2.567006e-002	9.990086e-001	-2.518301e-002	3.294491e-004	5.114277e-003
1188247.592	3.439675e-004	5.374066e-003	9.992800e-001	-2.675060e-002	9.991670e-001	-2.647952e-002	3.718353e-004	5.407793e-003
1250786.676	3.626734e-004	5.679264e-003	9.993479e-001	-2.859079e-002	9.986610e-001	-2.780886e-002	4.061719e-004	5.691702e-003
1313325.760	4.079704e-004	5.973606e-003	9.994182e-001	-2.911748e-002	9.986922e-001	-2.951716e-002	3.981417e-004	5.919208e-003
1375864.844	4.528844e-004	6.220940e-003	9.997352e-001	-3.162919e-002	9.987927e-001	-3.124648e-002	4.433710e-004	6.204641e-003
1438403.927	4.921142e-004	6.480368e-003	9.992623e-001	-3.293888e-002	9.989726e-001	-3.216089e-002	4.835779e-004	6.468628e-003
1500943.011	5.218085e-004	6.768569e-003	9.993641e-001	-3.419080e-002	9.986782e-001	-3.390193e-002	5.194948e-004	6.794847e-003
1563482.095	4.851961e-004	7.071111e-003	9.987440e-001	-3.542359e-002	9.989782e-001	-3.519212e-002	5.203539e-004	7.038889e-003
1626021.179	6.245356e-004	7.386689e-003	9.990754e-001	-3.691529e-002	9.985363e-001	-3.628736e-002	6.265862e-004	7.322952e-003
1688560.263	6.774640e-004	7.646113e-003	9.993353e-001	-3.845305e-002	9.987207e-001	-3.773700e-002	6.440324e-004	7.634290e-003
1751099.346	7.035209e-004	7.998543e-003	9.991988e-001	-3.968124e-002	9.984423e-001	-3.919146e-002	6.618765e-004	7.901324e-003
1813638.430	6.595483e-004	8.246598e-003	9.993243e-001	-4.074534e-002	9.983127e-001	-4.070352e-002	6.740304e-004	8.226873e-003
1876177.514	7.315251e-004	8.460483e-003	9.990451e-001	-4.272239e-002	9.987006e-001	-4.205289e-002	7.635961e-004	8.491565e-003
1938716.598	7.865923e-004	8.796598e-003	9.985087e-001	-4.402441e-002	9.987794e-001	-4.374876e-002	8.061577e-004	8.770253e-003
2001255.682	8.420082e-004	9.115914e-003	9.990866e-001	-4.528961e-002	9.979737e-001	-4.511271e-002	8.173045e-004	9.073964e-003
2063794.765	8.496509e-004	9.449884e-003	9.983705e-001	-4.647924e-002	9.986034e-001	-4.645477e-002	9.107322e-004	9.351720e-003
2126333.849	9.496860e-004	9.633060e-003	9.977454e-001	-4.812258e-002	9.981320e-001	-4.799541e-002	8.614504e-004	9.611326e-003
2188872.933	9.734644e-004	9.979259e-003	9.983815e-001	-4.936854e-002	9.981773e-001	-4.939859e-002	9.663042e-004	9.968129e-003
2251412.017	1.087736e-003	1.025932e-002	9.985436e-001	-5.165582e-002	9.980625e-001	-5.042948e-002	1.067727e-003	1.024558e-002
2313951.101	1.082718e-003	1.055497e-002	9.979589e-001	-5.273275e-002	9.978015e-001	-5.169582e-002	1.136271e-003	1.049082e-002
2376490.184	1.164816e-003	1.083844e-002	9.986495e-001	-5.401353e-002	9.977794e-001	-5.362057e-002	1.162356e-003	1.084049e-002
2439029.268	1.182851e-003	1.113045e-002	9.979164e-001	-5.515408e-002	9.973694e-001	-5.496114e-002	1.184198e-003	1.110457e-002
2501568.352	1.267305e-003	1.154045e-002	9.979076e-001	-5.652752e-002	9.980396e-001	-5.653925e-002	1.300952e-003	1.147032e-002
2564107.436	1.399347e-003	1.183473e-002	9.974165e-001	-5.820622e-002	9.972161e-001	-5.780186e-002	1.355809e-003	1.172903e-002
2626646.520	1.402245e-003	1.209562e-002	9.971712e-001	-5.967451e-002	9.976591e-001	-5.889997e-002	1.448631e-003	1.208692e-002
2689185.604	1.495907e-003	1.240043e-002	9.978534e-001	-6.085152e-002	9.976986e-001	-6.051238e-002	1.528881e-003	1.230784e-002
2751724.687	1.629401e-003	1.264629e-002	9.974886e-001	-6.213963e-002	9.967471e-001	-6.201633e-002	1.568582e-003	1.271866e-002
2814263.771	1.719061e-003	1.298502e-002	9.975491e-001	-6.393906e-002	9.972822e-001	-6.392191e-002	1.663882e-003	1.299144e-002
2876802.855	1.767030e-003	1.328673e-002	9.972017e-001	-6.570444e-002	9.964631e-001	-6.510552e-002	1.770048e-003	1.324662e-002
2939341.939	1.858922e-003	1.360661e-002	9.969129e-001	-6.673885e-002	9.967900e-001	-6.616852e-002	1.835824e-003	1.357066e-002
3001881.023	1.919767e-003	1.393436e-002	9.967976e-001	-6.761038e-002	9.970723e-001	-6.741627e-002	1.906238e-003	1.391812e-002
3064420.106	2.065372e-003	1.416990e-002	9.963440e-001	-6.946164e-002	9.958026e-001	-6.907566e-002	2.026546e-003	1.420494e-002
3126959.190	2.146177e-003	1.450816e-002	9.963561e-001	-7.098021e-002	9.961109e-001	-7.079103e-002	2.151186e-003	1.447183e-002
3189498.274	2.276964e-003	1.482293e-002	9.963091e-001	-7.254699e-002	9.958511e-001	-7.218394e-002	2.228880e-003	1.478068e-002
3252037.358	2.403694e-003	1.511201e-002	9.960227e-001	-7.392459e-002	9.958760e-001	-7.354735e-002	2.364922e-003	1.509833e-002
3314576.442	2.470161e-003	1.534489e-002	9.958859e-001	-7.538523e-002	9.957930e-001	-7.510054e-002	2.418051e-003	1.542306e-002
3377115.525	2.551644e-003	1.572727e-002	9.958023e-001	-7.694895e-002	9.954330e-001	-7.651049e-002	2.535371e-003	1.570278e-002
3439654.609	2.696494e-003	1.607025e-002	9.953852e-001	-7.816733e-002	9.954333e-001	-7.796831e-002	2.648676e-003	1.599820e-002
3502193.693	2.820223e-003	1.630467e-002	9.953562e-001	-7.969218e-002	9.952095e-001	-7.929773e-002	2.774217e-003	1.628053e-002
3564732.777	2.892917e-003	1.663348e-002	9.951903e-001	-8.114194e-002	9.950042e-001	-8.074919e-002	2.910724e-003	1.660376e-002
3627271.861	3.028484e-003	1.694125e-002	9.949533e-001	-8.260510e-002	9.949126e-001	-8.227237e-002	3.007784e-003	1.694401e-002
3689810.944	3.139621e-003	1.725749e-002	9.948222e-001	-8.399079e-002	9.944919e-001	-8.369139e-002	3.102469e-003	1.722406e-002
3752350.028	3.255627e-003	1.758804e-002	9.946169e-001	-8.549848e-002	9.944318e-001	-8.510358e-002	3.288651e-003	1.757292e-002
3814889.112	3.437644e-003	1.790282e-002	9.943702e-001	-8.685549e-002	9.941387e-001	-8.656129e-002	3.415248e-003	1.785366e-002
3877428.196	3.632182e-003	1.823633e-002	9.942016e-001	-8.836214e-002	9.938514e-001	-8.788703e-002	3.532048e-003	1.819035e-002
3939967.280	3.699211e-003	1.852117e-002	9.938101e-001	-8.985228e-002	9.936842e-001	-8.944331e-002	3.707562e-003	1.856197e-002
4002506.363	3.898115e-003	1.884505e-002	9.936360e-001	-9.120103e-002	9.934931e-001	-9.078941e-002	3.853083e-003	1.885714e-002
4065045.447	4.065109e-003	1.915792e-002	9.935064e-001	-9.276964e-002	9.933655e-001	-9.250789e-002	4.022756e-003	1.913338e-002
4127584.531	4.173097e-003	1.950013e-002	9.933177e-001	-9.419960e-002	9.930217e-001	-9.376049e-002	4.196999e-003	1.945518e-002
4190123.615	4.383330e-003	1.981786e-002	9.928600e-001	-9.547627e-002	9.927684e-001	-9.516867e-002	4.327491e-003	1.977592e-002
4252662.699	4.510931e-003	2.012368e-002	9.926425e-001	-9.693237e-002	9.923585e-001	-9.656098e-002	4.500376e-003	2.012004e-002
4315201.782	4.766196e-003	2.040036e-002	9.923688e-001	-9.846923e-002	9.921504e-001	-9.794712e-002	4.681923e-003	2.040165e-002
4377740.866	4.930396e-003	2.071179e-002	9.921898e-001	-9.990958e-002	9.919950e-001	-9.956450e-002	4.948058e-003	2.070905e-002
4440279.950	5.179616e-003	2.105066e-002	9.918686e-001	-1.011189e-001	9.917308e-001	-1.008759e-001	5.132102e-003	2.099050e-002
4502819.034	5.409188e-003	2.124641e-002	9.916679e-001	-1.026324e-001	9.912882e-001	-1.023559e-001	5.330089e-003	2.130217e-002
4565358.118	5.587293e-003	2.161780e-002	9.909819e-001	-1.040199e-001	9.911298e-001	-1.039111e-001	5.574817e-003	2.161651e-002
4627897.201	5.815717e-003	2.185919e-002	9.908772e-001	-1.054279e-001	9.908631e-001	-1.050987e-001	5.747261e-003	2.194152e-002
4690436.285	6.069102e-003	2.217276e-002	9.906044e-001	-1.069744e-001	9.904441e-001	-1.065124e-001	5.985806e-003	2.217331e-002
4752975.369	6.201458e-003	2.238528e-002	9.902340e-001	-1.083291e-001	9.900281e-001	-1.079561e-001	6.207264e-003	2.245111e-002
4815514.453	6.459434e-003	2.267664e-002	9.900230e-001	-1.098093e-001	9.897184e-001	-1.094107e-001	6.440347e-003	2.268730e-002
4878053.537	6.660041e-003	2.299168e-002	9.896832e-001	-1.112787e-001	9.894432e-001	-1.106420e-001	6.652053e-003	2.300162e-002
4940592.620	6.937367e-003	2.323025e-002	9.892186e-001	-1.125028e-001	9.890383e-001	-1.120971e-001	6.881329e-003	2.322977e-002
5003131.704	7.176675e-003	2.345976e-002	9.889885e-001	-1.139341e-001	9.886579e-001	-1.135417e-001	7.047569e-003	2.344315e-002
5065670.788	7.342363e-003	2.369604e-002	9.887062e-001	-1.152952e-001	9.883928e-001	-1.149003e-001	7.345714e-003	2.372651e-002
5128209.872	7.631059e-003	2.396650e-002	9.883065e-001	-1.166213e-001	9.882023e-001	-1.161957e-001	7.566120e-003	2.396389e-002
5190748.956	7.853997e-003	2.414511e-002	9.879551e-001	-1.180663e-001	9.879112e-001	-1.175493e-001	7.803575e-003	2.420428e-002
5253288.039	8.055206e-003	2.441899e-002	9.873834e-001	-1.192951e-001	9.875386e-001	-1.189525e-001	8.099872e-003	2.441849e-002
5315827.123	8.301747e-003	2.465205e-002	9.871998e-001	-1.207213e-001	9.871442e-001	-1.204278e-001	8.308501e-003	2.468339e-002
5378366.207	8.528787e-003	2.488238e-002	9.868342e-001	-1.220968e-001	9.868038e-001	-1.216789e-001	8.514040e-003	2.489154e-002
5440905.291	8.773754e-003	2.511045e-002	9.867364e-001	-1.233211e-001	9.865863e-001	-1.231093e-001	8.752279e-003	2.511788e-002
5503444.375	8.991844e-003	2.532204e-002	9.862929e-001	-1.248129e-001	9.860729e-001	-1.246747e-001	8.979831e-003	2.535694e-002
5565983.458	9.199739e-003	2.557346e-002	9.860347e-001	-1.261390e-001	9.856587e-001	-1.258581e-001	9.269029e-003	2.558475e-002
5628522.542	9.434406e-003	2.575160e-002	9.856934e-001	-1.273880e-001	9.856118e-001	-1.270521e-001	9.376581e-003	2.575612e-002
5691061.626	9.725767e-003	2.600254e-002	9.852945e-001	-1.287450e-001	9.850003e-001	-1.285378e-001	9.642564e-003	2.602524e-002
5753600.710	9.940138e-003	2.619235e-002	9.848454e-001	-1.301949e-001	9.847888e-001	-1.298278e-001	9.936449e-003	2.623986e-002
5816139.794	1.021569e-002	2.644276e-002	9.846156e-001	-1.314943e-001	9.843876e-001	-1.313345e-001	1.008921e-002	2.643578e-002
5878678.877	1.041357e-002	2.664564e-002	9.841620e-001	-1.327504e-001	9.840187e-001	-1.324897e-001	1.040954e-002	2.670611e-002
5941217.961	1.061879e-002	2.685478e-002	9.839133e-001	-1.341240e-001	9.838167e-001	-1.337119e-001	1.058091e-002	2.692113e-002
6003757.045	1.089617e-002	2.702442e-002	9.834344e-001	-1.355580e-001	9.833677e-001	-1.351642e-001	1.083030e-002	2.706059e-002
6066296.129	1.110808e-002	2.729513e-002	9.830095e-001	-1.369281e-001	9.829411e-001	-1.365201e-001	1.109577e-002	2.733412e-002
6128835.213	1.135484e-002	2.755313e-002	9.828256e-001	-1.382544e-001	9.827170e-001	-1.380109e-001	1.135053e-002	2.755894e-002
6191374.296	1.155781e-002	2.768906e-002	9.824041e-001	-1.393810e-001	9.822781e-001	-1.392308e-001	1.154566e-002	2.773231e-002
6253913.380	1.184597e-002	2.790570e-002	9.819045e-001	-1.409559e-001	9.817268e-001	-1.404901e-001	1.179359e-002	2.800497e-002
6316452.464	1.210902e-002	2.817987e-002	9.815998e-001	-1.420944e-001	9.816127e-001	-1.417649e-001	1.207391e-002	2.819086e-002
6378991.548	1.232714e-002	2.832125e-002	9.814362e-001	-1.435104e-001	9.811949e-001	-1.430340e-001	1.235518e-002	2.841812e-002
6441530.632	1.256634e-002	2.855662e-002	9.810315e-001	-1.448728e-001	9.806684e-001	-1.445569e-001	1.255966e-002	2.855333e-002
6504069.715	1.283520e-002	2.876643e-002	9.805528e-001	-1.461487e-001	9.804682e-001	-1.459249e-001	1.282104e-002	2.878241e-002
6566608.799	1.311311e-002	2.896991e-002	9.800771e-001	-1.475138e-001	9.800475e-001	-1.471142e-001	1.302238e-002	2.901520e-002
6629147.883	1.334629e-002	2.916274e-002	9.796796e-001	-1.489062e-001	9.796539e-001	-1.485084e-001	1.330053e-002	2.921439e-002
6691686.967	1.359574e-002	2.932778e-002	9.794132e-001	-1.500952e-001	9.790249e-001	-1.498957e-001	1.354207e-002	2.946013e-002
6754226.051	1.384971e-002	2.957626e-002	9.790805e-001	-1.514838e-001	9.789014e-001	-1.511296e-001	1.386735e-002	2.957716e-002
6816765.134	1.408697e-002	2.974902e-002	9.785719e-001	-1.527822e-001	9.784722e-001	-1.525150e-001	1.412825e-002	2.976807e-002
6879304.218	1.440419e-002	2.994521e-002	9.781784e-001	-1.541912e-001	9.779640e-001	-1.537967e-001	1.439504e-002	2.998963e-002
6941843.302	1.470332e-002	3.017006e-002	9.777154e-001	-1.552792e-001	9.776893e-001	-1.551418e-001	1.463703e-002	3.021723e-002
7004382.386	1.493335e-002	3.035742e-002	9.772087e-001	-1.568571e-001	9.773232e-001	-1.565336e-001	1.492810e-002	3.037856e-002
7066921.470	1.521545e-002	3.053188e-002	9.768381e-001	-1.580816e-001	9.769052e-001	-1.576800e-001	1.520788e-002	3.055805e-002
7129460.553	1.551273e-002	3.066810e-002	9.765487e-001	-1.593493e-001	9.764803e-001	-1.591738e-001	1.546036e-002	3.074145e-002
7191999.637	1.576608e-002	3.089602e-002	9.760245e-001	-1.607091e-001	9.759410e-001	-1.603008e-001	1.576843e-002	3.092549e-002
7254538.721	1.611788e-002	3.106106e-002	9.756719e-001	-1.620064e-001	9.756210e-001	-1.616829e-001	1.602199e-002	3.114422e-002
7317077.805	1.631256e-002	3.127144e-002	9.751003e-001	-1.633558e-001	9.752923e-001	-1.629649e-001	1.633111e-002	3.132963e-002
7379616.889	1.664915e-002	3.144615e-002	9.749432e-001	-1.646101e-001	9.746920e-001	-1.641613e-001	1.661432e-002	3.142524e-002
7442155.972	1.693389e-002	3.159519e-002	9.743094e-001	-1.658513e-001	9.741590e-001	-1.656102e-001	1.688254e-002	3.163045e-002
7504695.056	1.723680e-002	3.174543e-002	9.738739e-001	-1.671463e-001	9.739091e-001	-1.667764e-001	1.721925e-002	3.183156e-002
7567234.140	1.750077e-002	3.195078e-002	9.735511e-001	-1.685304e-001	9.734013e-001	-1.679985e-001	1.749897e-002	3.199432e-002
7629773.224	1.781622e-002	3.207938e-002	9.730014e-001	-1.697758e-001	9.729456e-001	-1.693742e-001	1.777033e-002	3.217486e-002
7692312.308	1.806427e-002	3.226289e-002	9.726728e-001	-1.710444e-001	9.725165e-001	-1.706465e-001	1.810996e-002	3.238876e-002
7754851.391	1.839120e-002	3.239139e-002	9.720653e-001	-1.722249e-001	9.719994e-001	-1.718841e-001	1.834459e-002	3.252196e-002
7817390.475	1.870145e-002	3.258995e-002	9.718725e-001	-1.735295e-001	9.715650e-001	-1.733137e-001	1.869949e-002	3.261759e-002
7879929.559	1.897311e-002	3.269684e-002	9.712239e-001	-1.747711e-001	9.711104e-001	-1.744743e-001	1.897518e-002	3.278975e-002
7942468.643	1.926237e-002	3.288908e-002	9.707458e-001	-1.760565e-001	9.706746e-001	-1.758611e-001	1.925465e-002	3.294115e-002
8005007.727	1.959970e-002	3.303362e-002	9.703365e-001	-1.775149e-001	9.702387e-001	-1.769868e-001	1.955084e-002	3.304740e-002
8067546.811	1.992890e-002	3.315438e-002	9.698672e-001	-1.787615e-001	9.698336e-001	-1.783650e-001	1.993178e-002	3.320841e-002
8130085.894	2.021908e-002	3.332051e-002	9.693695e-001	-1.799003e-001	9.692128e-001	-1.796194e-001	2.017325e-002	3.334261e-002
8192624.978	2.051693e-002	3.343022e-002	9.688846e-001	-1.811358e-001	9.687227e-001	-1.808157e-001	2.053774e-002	3.348161e-002
8255164.062	2.083143e-002	3.355588e-002	9.684528e-001	-1.824192e-001	9.683195e-001	-1.820520e-001	2.081586e-002	3.358449e-002
8317703.146	2.115558e-002	3.363154e-002	9.680332e-001	-1.837225e-001	9.679450e-001	-1.833141e-001	2.110572e-002	3.373335e-002
8380242.230	2.148381e-002	3.374831e-002	9.675096e-001	-1.846463e-001	9.676073e-001	-1.845803e-001	2.145868e-002	3.386844e-002
8442781.313	2.176031e-002	3.394014e-002	9.671169e-001	-1.859392e-001	9.669156e-001	-1.857166e-001	2.173563e-002	3.401766e-002
8505320.397	2.204718e-002	3.404572e-002	9.665506e-001	-1.873710e-001	9.664206e-001	-1.871590e-001	2.208297e-002	3.404808e-002
8567859.481	2.239983e-002	3.415044e-002	9.660201e-001	-1.885653e-001	9.659985e-001	-1.881507e-001	2.242669e-002	3.421609e-002
8630398.565	2.274116e-002	3.427294e-002	9.655311e-001	-1.898542e-001	9.654257e-001	-1.894911e-001	2.273930e-002	3.427426e-002
8692937.649	2.303341e-002	3.438903e-002	9.649601e-001	-1.910240e-001	9.649218e-001	-1.905494e-001	2.298625e-002	3.446408e-002
8755476.732	2.332576e-002	3.451388e-002	9.644476e-001	-1.923454e-001	9.645393e-001	-1.919375e-001	2.336614e-002	3.456000e-002
8818015.816	2.366208e-002	3.457601e-002	9.641156e-001	-1.933758e-001	9.640381e-001	-1.930342e-001	2.367131e-002	3.461888e-002
8880554.900	2.394625e-002	3.463639e-002	9.636244e-001	-1.947377e-001	9.635348e-001	-1.942746e-001	2.396586e-002	3.474936e-002
8943093.984	2.429298e-002	3.475157e-002	9.631145e-001	-1.960421e-001	9.630101e-001	-1.954158e-001	2.434548e-002	3.484782e-002
9005633.068	2.461470e-002	3.483421e-002	9.625806e-001	-1.971224e-001	9.624584e-001	-1.968438e-001	2.462297e-002	3.489242e-002
9068172.151	2.496637e-002	3.493378e-002	9.620948e-001	-1.983321e-001	9.617984e-001	-1.980160e-001	2.488878e-002	3.502503e-002
9130711.235	2.529652e-002	3.502725e-002	9.615840e-001	-1.994867e-001	9.615176e-001	-1.989576e-001	2.528904e-002	3.506491e-002
9193250.319	2.559178e-002	3.504976e-002	9.610511e-001	-2.006289e-001	9.610026e-001	-2.003694e-001	2.563723e-002	3.511618e-002
9255789.403	2.594069e-002	3.514370e-002	9.605046e-001	-2.019481e-001	9.605685e-001	-2.014752e-001	2.594848e-002	3.527755e-002
9318328.487	2.618805e-002	3.524803e-002	9.600333e-001	-2.031429e-001	9.600490e-001	-2.028728e-001	2.624080e-002	3.528373e-002
9380867.570	2.650939e-002	3.533805e-002	9.595779e-001	-2.042898e-001	9.593631e-001	-2.038354e-001	2.654281e-002	3.539147e-002
9443406.654	2.682957e-002	3.532928e-002	9.589999e-001	-2.054221e-001	9.590054e-001	-2.051619e-001	2.691471e-002	3.542232e-002
9505945.738	2.716038e-002	3.539240e-002	9.585935e-001	-2.065278e-001	9.583990e-001	-2.062249e-001	2.717120e-002	3.549567e-002
9568484.822	2.750929e-002	3.545178e-002	9.581517e-001	-2.079374e-001	9.579637e-001	-2.073369e-001	2.756277e-002	3.555018e-002
9631023.906	2.782337e-002	3.551319e-002	9.575262e-001	-2.089980e-001	9.573621e-001	-2.085909e-001	2.785041e-002	3.561812e-002
9693562.989	2.815403e-002	3.559976e-002	9.569182e-001	-2.100793e-001	9.569419e-001	-2.098582e-001	2.815224e-002	3.568778e-002
9756102.073	2.838942e-002	3.561538e-002	9.564767e-001	-2.111598e-001	9.564816e-001	-2.108725e-001	2.849491e-002	3.563443e-002
