!Agilent Technologies,E5061B,MY49102235,A.02.00
!Date: Mon Jul 10 16:10:55 2023
!Data & Calibration Information:
!Freq	S11:SOLT2(ON)	S21:SOLT2(ON)	S12:SOLT2(ON)	S22:SOLT2(ON)
# Hz S RI R 50
5.000	-4.708969e-004	4.174387e-004	1.001692e+000	2.371390e-003	1.000528e+000	-7.864122e-005	-1.375397e-004	-6.038502e-005
62544.084	-4.432247e-005	3.719236e-004	9.999069e-001	-1.176134e-003	1.000244e+000	-1.046801e-003	3.509755e-005	2.689698e-004
125083.168	1.938797e-005	6.476636e-004	1.000123e+000	-2.997582e-003	1.000088e+000	-2.936062e-003	-1.618596e-005	6.392234e-004
187622.251	2.055375e-004	9.048114e-004	9.993678e-001	-3.680069e-003	1.000163e+000	-4.094003e-003	8.471184e-005	9.805934e-004
250161.335	1.188775e-004	1.321516e-003	9.996424e-001	-5.770154e-003	9.997541e-001	-5.821228e-003	8.585404e-005	1.312278e-003
312700.419	1.118127e-004	1.573964e-003	1.000121e+000	-7.134950e-003	9.991243e-001	-6.919516e-003	2.026980e-004	1.619361e-003
375239.503	1.515865e-004	1.922829e-003	9.998633e-001	-8.494665e-003	1.000062e+000	-8.548990e-003	1.104343e-004	1.876837e-003
437778.587	2.120059e-004	2.149939e-003	9.998832e-001	-9.951441e-003	9.990457e-001	-1.038365e-002	2.058632e-004	2.360609e-003
500317.670	2.233900e-004	2.467808e-003	9.998348e-001	-1.150955e-002	9.991837e-001	-1.198703e-002	2.566341e-004	2.650455e-003
562856.754	2.893015e-004	2.872425e-003	9.994991e-001	-1.306523e-002	9.994327e-001	-1.274142e-002	2.440767e-004	2.826584e-003
625395.838	2.878914e-004	3.166300e-003	9.996267e-001	-1.453882e-002	9.990447e-001	-1.408874e-002	3.232512e-004	3.152508e-003
687934.922	1.928283e-004	3.370918e-003	9.999045e-001	-1.556610e-002	1.000024e+000	-1.578871e-002	2.186971e-004	3.446908e-003
750474.006	1.650097e-004	3.682219e-003	9.994601e-001	-1.716654e-002	9.993901e-001	-1.650163e-002	1.532886e-004	3.698295e-003
813013.089	2.217848e-004	4.018472e-003	1.000020e+000	-1.865430e-002	9.989244e-001	-1.822637e-002	2.111453e-004	3.959646e-003
875552.173	2.410618e-004	4.279976e-003	9.994345e-001	-2.018092e-002	9.995995e-001	-2.015232e-002	2.408044e-004	4.271157e-003
938091.257	1.805123e-004	4.609120e-003	9.991552e-001	-2.128078e-002	9.992880e-001	-2.102171e-002	2.077177e-004	4.593696e-003
1000630.341	2.692726e-004	4.965504e-003	9.993138e-001	-2.251060e-002	9.993918e-001	-2.259738e-002	3.016145e-004	4.899955e-003
1063169.425	3.445890e-004	5.249992e-003	9.999200e-001	-2.423095e-002	1.000066e+000	-2.454532e-002	3.760970e-004	5.171928e-003
1125708.508	3.727655e-004	5.541979e-003	9.995695e-001	-2.592802e-002	9.990843e-001	-2.552752e-002	3.895649e-004	5.523670e-003
1188247.592	3.974954e-004	5.812859e-003	9.990620e-001	-2.702051e-002	9.991465e-001	-2.701083e-002	4.412449e-004	5.836914e-003
1250786.676	4.348557e-004	6.140544e-003	9.990865e-001	-2.886303e-002	9.986723e-001	-2.836959e-002	4.756937e-004	6.145110e-003
1313325.760	4.909542e-004	6.469270e-003	9.993252e-001	-2.943307e-002	9.985760e-001	-2.994295e-002	4.641752e-004	6.415638e-003
1375864.844	5.426361e-004	6.746914e-003	9.995817e-001	-3.197106e-002	9.988010e-001	-3.186019e-002	5.258469e-004	6.722566e-003
1438403.927	5.736940e-004	7.043020e-003	9.989937e-001	-3.336307e-002	9.989294e-001	-3.289553e-002	5.744050e-004	7.026067e-003
1500943.011	6.225247e-004	7.364376e-003	9.991604e-001	-3.463373e-002	9.984647e-001	-3.449557e-002	6.169642e-004	7.386985e-003
1563482.095	5.935113e-004	7.697947e-003	9.985408e-001	-3.596596e-002	9.989323e-001	-3.583470e-002	6.398517e-004	7.672687e-003
1626021.179	7.377984e-004	8.029760e-003	9.987964e-001	-3.759879e-002	9.987393e-001	-3.693288e-002	7.424693e-004	7.992827e-003
1688560.263	7.986126e-004	8.339847e-003	9.991662e-001	-3.896665e-002	9.988619e-001	-3.854368e-002	7.759717e-004	8.337435e-003
1751099.346	8.516518e-004	8.735053e-003	9.989093e-001	-4.029227e-002	9.982124e-001	-4.012425e-002	7.997148e-004	8.644683e-003
1813638.430	8.115105e-004	9.026602e-003	9.990446e-001	-4.148775e-002	9.981766e-001	-4.157339e-002	8.350656e-004	9.023308e-003
1876177.514	8.894434e-004	9.308720e-003	9.987059e-001	-4.339986e-002	9.985758e-001	-4.292848e-002	9.162516e-004	9.330631e-003
1938716.598	9.603083e-004	9.687279e-003	9.981853e-001	-4.479381e-002	9.987401e-001	-4.459994e-002	9.922363e-004	9.663100e-003
2001255.682	1.020872e-003	1.004137e-002	9.986110e-001	-4.597567e-002	9.977480e-001	-4.605310e-002	1.010339e-003	1.000304e-002
2063794.765	1.062934e-003	1.043960e-002	9.981489e-001	-4.736450e-002	9.985112e-001	-4.746066e-002	1.119471e-003	1.035636e-002
2126333.849	1.204165e-003	1.067075e-002	9.974562e-001	-4.917067e-002	9.977993e-001	-4.911194e-002	1.101893e-003	1.067188e-002
2188872.933	1.238566e-003	1.109641e-002	9.979682e-001	-5.045226e-002	9.980275e-001	-5.069574e-002	1.236039e-003	1.109849e-002
2251412.017	1.388679e-003	1.143309e-002	9.980183e-001	-5.268366e-002	9.978334e-001	-5.182876e-002	1.377846e-003	1.142558e-002
2313951.101	1.428482e-003	1.180368e-002	9.975966e-001	-5.382643e-002	9.975252e-001	-5.303907e-002	1.478578e-003	1.175431e-002
2376490.184	1.551619e-003	1.216879e-002	9.981634e-001	-5.525290e-002	9.974993e-001	-5.496401e-002	1.552156e-003	1.217452e-002
2439029.268	1.631441e-003	1.253905e-002	9.973856e-001	-5.643992e-002	9.969867e-001	-5.661836e-002	1.617240e-003	1.250052e-002
2501568.352	1.765665e-003	1.300537e-002	9.972507e-001	-5.783279e-002	9.974962e-001	-5.804869e-002	1.802435e-003	1.294356e-002
2564107.436	1.958115e-003	1.337279e-002	9.968293e-001	-5.950060e-002	9.967460e-001	-5.942244e-002	1.914328e-003	1.326820e-002
2626646.520	2.040869e-003	1.369518e-002	9.964677e-001	-6.107017e-002	9.970774e-001	-6.054605e-002	2.087704e-003	1.368237e-002
2689185.604	2.224043e-003	1.407733e-002	9.970665e-001	-6.227770e-002	9.971373e-001	-6.232643e-002	2.253301e-003	1.398506e-002
2751724.687	2.453170e-003	1.436716e-002	9.966069e-001	-6.390612e-002	9.959243e-001	-6.374548e-002	2.373779e-003	1.444463e-002
2814263.771	2.628311e-003	1.474569e-002	9.965506e-001	-6.569928e-002	9.963389e-001	-6.577521e-002	2.558796e-003	1.476943e-002
2876802.855	2.766137e-003	1.510960e-002	9.961348e-001	-6.735959e-002	9.955999e-001	-6.698887e-002	2.770717e-003	1.508850e-002
2939341.939	2.962005e-003	1.547847e-002	9.957446e-001	-6.850609e-002	9.957222e-001	-6.802300e-002	2.923655e-003	1.544505e-002
3001881.023	3.116577e-003	1.584866e-002	9.955872e-001	-6.937110e-002	9.957649e-001	-6.927143e-002	3.084987e-003	1.584272e-002
3064420.106	3.377383e-003	1.613282e-002	9.949214e-001	-7.121771e-002	9.946013e-001	-7.105833e-002	3.329304e-003	1.615688e-002
3126959.190	3.552098e-003	1.649214e-002	9.948454e-001	-7.286418e-002	9.947568e-001	-7.280941e-002	3.555943e-003	1.647144e-002
3189498.274	3.795782e-003	1.684413e-002	9.946877e-001	-7.444645e-002	9.943820e-001	-7.428949e-002	3.737793e-003	1.680573e-002
3252037.358	4.033923e-003	1.715658e-002	9.943046e-001	-7.583605e-002	9.942606e-001	-7.567308e-002	3.990363e-003	1.715299e-002
3314576.442	4.217293e-003	1.742146e-002	9.941056e-001	-7.730383e-002	9.941372e-001	-7.724597e-002	4.164787e-003	1.750599e-002
3377115.525	4.425710e-003	1.782426e-002	9.938917e-001	-7.890202e-002	9.936375e-001	-7.867412e-002	4.380553e-003	1.780830e-002
3439654.609	4.690359e-003	1.818009e-002	9.932895e-001	-8.018557e-002	9.934998e-001	-8.015796e-002	4.628570e-003	1.812576e-002
3502193.693	4.930999e-003	1.842022e-002	9.931782e-001	-8.168130e-002	9.931517e-001	-8.149849e-002	4.874283e-003	1.842231e-002
3564732.777	5.149515e-003	1.879240e-002	9.928570e-001	-8.319885e-002	9.928134e-001	-8.301084e-002	5.150571e-003	1.877627e-002
3627271.861	5.415022e-003	1.911437e-002	9.924770e-001	-8.460469e-002	9.925794e-001	-8.451716e-002	5.378894e-003	1.911871e-002
3689810.944	5.661510e-003	1.942402e-002	9.922678e-001	-8.603737e-002	9.920229e-001	-8.594812e-002	5.608827e-003	1.940785e-002
3752350.028	5.910440e-003	1.978924e-002	9.918730e-001	-8.751734e-002	9.918307e-001	-8.735292e-002	5.932468e-003	1.975415e-002
3814889.112	6.231265e-003	2.009213e-002	9.915220e-001	-8.889435e-002	9.914193e-001	-8.879610e-002	6.198112e-003	2.005233e-002
3877428.196	6.593600e-003	2.041041e-002	9.911766e-001	-9.037714e-002	9.909915e-001	-9.016871e-002	6.470330e-003	2.038042e-002
3939967.280	6.797586e-003	2.066613e-002	9.906288e-001	-9.187565e-002	9.906455e-001	-9.168646e-002	6.792281e-003	2.072807e-002
4002506.363	7.145781e-003	2.099472e-002	9.903082e-001	-9.316168e-002	9.902736e-001	-9.304878e-002	7.087874e-003	2.101305e-002
4065045.447	7.464684e-003	2.127709e-002	9.900441e-001	-9.472277e-002	9.899993e-001	-9.467739e-002	7.417401e-003	2.126706e-002
4127584.531	7.743920e-003	2.158132e-002	9.897440e-001	-9.615881e-002	9.895013e-001	-9.596605e-002	7.731299e-003	2.155021e-002
4190123.615	8.104327e-003	2.187783e-002	9.890824e-001	-9.741658e-002	9.891075e-001	-9.732670e-002	8.032908e-003	2.182161e-002
4252662.699	8.401748e-003	2.214291e-002	9.887000e-001	-9.882236e-002	9.885540e-001	-9.863330e-002	8.370122e-003	2.213479e-002
4315201.782	8.816509e-003	2.235623e-002	9.882854e-001	-1.002987e-001	9.881794e-001	-9.996708e-002	8.704139e-003	2.235776e-002
4377740.866	9.127013e-003	2.261097e-002	9.878922e-001	-1.017104e-001	9.878369e-001	-1.015324e-001	9.118842e-003	2.261251e-002
4440279.950	9.531136e-003	2.289472e-002	9.874461e-001	-1.028011e-001	9.873973e-001	-1.028185e-001	9.463233e-003	2.283515e-002
4502819.034	9.909973e-003	2.302688e-002	9.870955e-001	-1.042315e-001	9.868158e-001	-1.041784e-001	9.823331e-003	2.306743e-002
4565358.118	1.025244e-002	2.332117e-002	9.862999e-001	-1.055453e-001	9.865085e-001	-1.056992e-001	1.021179e-002	2.332384e-002
4627897.201	1.062817e-002	2.346609e-002	9.860099e-001	-1.068830e-001	9.860691e-001	-1.067869e-001	1.054474e-002	2.356667e-002
4690436.285	1.103808e-002	2.369555e-002	9.855693e-001	-1.083880e-001	9.855358e-001	-1.081368e-001	1.092980e-002	2.372156e-002
4752975.369	1.132258e-002	2.382033e-002	9.850433e-001	-1.096479e-001	9.849606e-001	-1.094760e-001	1.129988e-002	2.388555e-002
4815514.453	1.171661e-002	2.401740e-002	9.847029e-001	-1.109970e-001	9.845195e-001	-1.108582e-001	1.168058e-002	2.405403e-002
4878053.537	1.206149e-002	2.423481e-002	9.842045e-001	-1.124031e-001	9.841147e-001	-1.119761e-001	1.203335e-002	2.423997e-002
4940592.620	1.249008e-002	2.435932e-002	9.836063e-001	-1.135273e-001	9.835514e-001	-1.133330e-001	1.240154e-002	2.437748e-002
5003131.704	1.286777e-002	2.449074e-002	9.832180e-001	-1.148318e-001	9.829982e-001	-1.146917e-001	1.270968e-002	2.448926e-002
5065670.788	1.317307e-002	2.462002e-002	9.827799e-001	-1.160974e-001	9.826140e-001	-1.159332e-001	1.313838e-002	2.463988e-002
5128209.872	1.358890e-002	2.477061e-002	9.822686e-001	-1.172601e-001	9.822972e-001	-1.170774e-001	1.349772e-002	2.475389e-002
5190748.956	1.393976e-002	2.483083e-002	9.818148e-001	-1.185969e-001	9.818668e-001	-1.183191e-001	1.386954e-002	2.490780e-002
5253288.039	1.428394e-002	2.497617e-002	9.811413e-001	-1.197409e-001	9.813717e-001	-1.195838e-001	1.428785e-002	2.498395e-002
5315827.123	1.465053e-002	2.507384e-002	9.807907e-001	-1.210020e-001	9.808786e-001	-1.209447e-001	1.462477e-002	2.513065e-002
5378366.207	1.498777e-002	2.517308e-002	9.802943e-001	-1.222891e-001	9.803961e-001	-1.220531e-001	1.493741e-002	2.520706e-002
5440905.291	1.536094e-002	2.525331e-002	9.800878e-001	-1.233581e-001	9.800484e-001	-1.233373e-001	1.530854e-002	2.528464e-002
5503444.375	1.569929e-002	2.533646e-002	9.795105e-001	-1.247284e-001	9.794032e-001	-1.247893e-001	1.565173e-002	2.537951e-002
5565983.458	1.601670e-002	2.542662e-002	9.791655e-001	-1.258960e-001	9.788981e-001	-1.258240e-001	1.605699e-002	2.545775e-002
5628522.542	1.636138e-002	2.547299e-002	9.786695e-001	-1.269998e-001	9.787094e-001	-1.268766e-001	1.628196e-002	2.547979e-002
5691061.626	1.677114e-002	2.556694e-002	9.781769e-001	-1.282115e-001	9.779998e-001	-1.281677e-001	1.665885e-002	2.559632e-002
5753600.710	1.708759e-002	2.560411e-002	9.776348e-001	-1.295064e-001	9.776931e-001	-1.293407e-001	1.703441e-002	2.566851e-002
5816139.794	1.746487e-002	2.567821e-002	9.773190e-001	-1.306529e-001	9.772121e-001	-1.306836e-001	1.729875e-002	2.570151e-002
5878678.877	1.776138e-002	2.572837e-002	9.767153e-001	-1.317225e-001	9.766999e-001	-1.316914e-001	1.770984e-002	2.580469e-002
5941217.961	1.805846e-002	2.578039e-002	9.764285e-001	-1.328966e-001	9.764208e-001	-1.327357e-001	1.798022e-002	2.585207e-002
6003757.045	1.842912e-002	2.576928e-002	9.758541e-001	-1.342314e-001	9.758914e-001	-1.340047e-001	1.831881e-002	2.581661e-002
6066296.129	1.872022e-002	2.588020e-002	9.753430e-001	-1.353806e-001	9.753676e-001	-1.352062e-001	1.865412e-002	2.591821e-002
6128835.213	1.904211e-002	2.594378e-002	9.750762e-001	-1.365584e-001	9.750503e-001	-1.365044e-001	1.899619e-002	2.597509e-002
6191374.296	1.931856e-002	2.590857e-002	9.745622e-001	-1.374788e-001	9.745264e-001	-1.375487e-001	1.925762e-002	2.596691e-002
6253913.380	1.969053e-002	2.595085e-002	9.740196e-001	-1.388980e-001	9.739338e-001	-1.386458e-001	1.959782e-002	2.606222e-002
6316452.464	2.001689e-002	2.605175e-002	9.736444e-001	-1.398615e-001	9.737549e-001	-1.397263e-001	1.994141e-002	2.606205e-002
6378991.548	2.030345e-002	2.599999e-002	9.733791e-001	-1.410986e-001	9.732381e-001	-1.408630e-001	2.025927e-002	2.611963e-002
6441530.632	2.060063e-002	2.604536e-002	9.729143e-001	-1.423033e-001	9.726808e-001	-1.422335e-001	2.053954e-002	2.605658e-002
6504069.715	2.091389e-002	2.605825e-002	9.723833e-001	-1.433855e-001	9.724112e-001	-1.433749e-001	2.085300e-002	2.610836e-002
6566608.799	2.124743e-002	2.609175e-002	9.718969e-001	-1.445597e-001	9.719204e-001	-1.443769e-001	2.110983e-002	2.615310e-002
6629147.883	2.152949e-002	2.610617e-002	9.714164e-001	-1.457128e-001	9.715365e-001	-1.455463e-001	2.142577e-002	2.617836e-002
6691686.967	2.181049e-002	2.606729e-002	9.711282e-001	-1.467210e-001	9.708002e-001	-1.467700e-001	2.171327e-002	2.620376e-002
6754226.051	2.209879e-002	2.612548e-002	9.707738e-001	-1.479565e-001	9.706546e-001	-1.478032e-001	2.206342e-002	2.614918e-002
6816765.134	2.235834e-002	2.610197e-002	9.701778e-001	-1.490650e-001	9.702226e-001	-1.489638e-001	2.235883e-002	2.613972e-002
6879304.218	2.270873e-002	2.610677e-002	9.697829e-001	-1.502071e-001	9.697018e-001	-1.500831e-001	2.265826e-002	2.617770e-002
6941843.302	2.302312e-002	2.615153e-002	9.693340e-001	-1.511661e-001	9.693910e-001	-1.512358e-001	2.291279e-002	2.621129e-002
7004382.386	2.327963e-002	2.614395e-002	9.688121e-001	-1.525109e-001	9.690185e-001	-1.523902e-001	2.323752e-002	2.616898e-002
7066921.470	2.358673e-002	2.611254e-002	9.684379e-001	-1.535805e-001	9.685798e-001	-1.533735e-001	2.351687e-002	2.616138e-002
7129460.553	2.389073e-002	2.605714e-002	9.681263e-001	-1.546379e-001	9.680997e-001	-1.547138e-001	2.378002e-002	2.616545e-002
7191999.637	2.414016e-002	2.609248e-002	9.675853e-001	-1.558329e-001	9.675634e-001	-1.556163e-001	2.408859e-002	2.615215e-002
7254538.721	2.448481e-002	2.607316e-002	9.672303e-001	-1.569072e-001	9.672842e-001	-1.568049e-001	2.433652e-002	2.617401e-002
7317077.805	2.469011e-002	2.608776e-002	9.666620e-001	-1.580925e-001	9.669653e-001	-1.578753e-001	2.463762e-002	2.616528e-002
7379616.889	2.501053e-002	2.606811e-002	9.665095e-001	-1.591367e-001	9.662995e-001	-1.588809e-001	2.491412e-002	2.608623e-002
7442155.972	2.527842e-002	2.603041e-002	9.659124e-001	-1.601855e-001	9.658527e-001	-1.601425e-001	2.516911e-002	2.610366e-002
7504695.056	2.555597e-002	2.600204e-002	9.654837e-001	-1.612889e-001	9.656014e-001	-1.611126e-001	2.547679e-002	2.610965e-002
7567234.140	2.580285e-002	2.601355e-002	9.651802e-001	-1.624943e-001	9.650940e-001	-1.621947e-001	2.574205e-002	2.608358e-002
7629773.224	2.608908e-002	2.594143e-002	9.646428e-001	-1.635459e-001	9.646574e-001	-1.633576e-001	2.598837e-002	2.605792e-002
7692312.308	2.632752e-002	2.594392e-002	9.643606e-001	-1.646104e-001	9.642509e-001	-1.644592e-001	2.628650e-002	2.608429e-002
7754851.391	2.661445e-002	2.589296e-002	9.637345e-001	-1.656296e-001	9.637963e-001	-1.655184e-001	2.650252e-002	2.603432e-002
7817390.475	2.688393e-002	2.590545e-002	9.636102e-001	-1.667412e-001	9.633978e-001	-1.667283e-001	2.681184e-002	2.596281e-002
7879929.559	2.712588e-002	2.583732e-002	9.630169e-001	-1.678362e-001	9.629848e-001	-1.677080e-001	2.704833e-002	2.594951e-002
7942468.643	2.736893e-002	2.584594e-002	9.625715e-001	-1.689197e-001	9.625945e-001	-1.689497e-001	2.730277e-002	2.592179e-002
8005007.727	2.765139e-002	2.581466e-002	9.622223e-001	-1.701713e-001	9.621818e-001	-1.698620e-001	2.753338e-002	2.584502e-002
8067546.811	2.792596e-002	2.576608e-002	9.617637e-001	-1.712480e-001	9.618179e-001	-1.711048e-001	2.787077e-002	2.584268e-002
8130085.894	2.816736e-002	2.573369e-002	9.613491e-001	-1.722337e-001	9.612734e-001	-1.721769e-001	2.804832e-002	2.580638e-002
8192624.978	2.841529e-002	2.567258e-002	9.608871e-001	-1.733309e-001	9.608350e-001	-1.732175e-001	2.836973e-002	2.576817e-002
8255164.062	2.865997e-002	2.562536e-002	9.605175e-001	-1.744182e-001	9.605173e-001	-1.742432e-001	2.858328e-002	2.570035e-002
8317703.146	2.893261e-002	2.554460e-002	9.601973e-001	-1.755478e-001	9.601920e-001	-1.753799e-001	2.880390e-002	2.566586e-002
8380242.230	2.919391e-002	2.549679e-002	9.597418e-001	-1.763328e-001	9.598807e-001	-1.764210e-001	2.909634e-002	2.564598e-002
8442781.313	2.941106e-002	2.552092e-002	9.593661e-001	-1.774198e-001	9.592755e-001	-1.774130e-001	2.930222e-002	2.563057e-002
8505320.397	2.962384e-002	2.546663e-002	9.588864e-001	-1.787070e-001	9.588226e-001	-1.786693e-001	2.958382e-002	2.550562e-002
8567859.481	2.990160e-002	2.540489e-002	9.584562e-001	-1.797484e-001	9.584774e-001	-1.795004e-001	2.985075e-002	2.551546e-002
8630398.565	3.016609e-002	2.536983e-002	9.580419e-001	-1.808395e-001	9.580150e-001	-1.806874e-001	3.009808e-002	2.541438e-002
8692937.649	3.038729e-002	2.532782e-002	9.575271e-001	-1.819115e-001	9.575478e-001	-1.816250e-001	3.027170e-002	2.543508e-002
8755476.732	3.060534e-002	2.531624e-002	9.571090e-001	-1.830379e-001	9.572549e-001	-1.828357e-001	3.055460e-002	2.538191e-002
8818015.816	3.085809e-002	2.520960e-002	9.568379e-001	-1.839301e-001	9.568790e-001	-1.837968e-001	3.079041e-002	2.530121e-002
8880554.900	3.105286e-002	2.511704e-002	9.564045e-001	-1.851260e-001	9.564481e-001	-1.848468e-001	3.098941e-002	2.526557e-002
8943093.984	3.132488e-002	2.510086e-002	9.560097e-001	-1.862639e-001	9.559686e-001	-1.859030e-001	3.128322e-002	2.521728e-002
9005633.068	3.155277e-002	2.502557e-002	9.555491e-001	-1.872076e-001	9.555184e-001	-1.871206e-001	3.147462e-002	2.512077e-002
9068172.151	3.180764e-002	2.497570e-002	9.551212e-001	-1.882653e-001	9.549529e-001	-1.881766e-001	3.166127e-002	2.511235e-002
9130711.235	3.203862e-002	2.493252e-002	9.547358e-001	-1.892922e-001	9.547353e-001	-1.889826e-001	3.195893e-002	2.501807e-002
9193250.319	3.224624e-002	2.483038e-002	9.543036e-001	-1.903096e-001	9.543308e-001	-1.902561e-001	3.221792e-002	2.493943e-002
9255789.403	3.249885e-002	2.477861e-002	9.538567e-001	-1.915012e-001	9.540173e-001	-1.912417e-001	3.243255e-002	2.495913e-002
9318328.487	3.266851e-002	2.474275e-002	9.534400e-001	-1.925277e-001	9.535924e-001	-1.924726e-001	3.261418e-002	2.482019e-002
9380867.570	3.288287e-002	2.470387e-002	9.531098e-001	-1.935700e-001	9.529812e-001	-1.932909e-001	3.284142e-002	2.480277e-002
9443406.654	3.310929e-002	2.459123e-002	9.526090e-001	-1.945792e-001	9.527340e-001	-1.945111e-001	3.309758e-002	2.470869e-002
9505945.738	3.334154e-002	2.452026e-002	9.523535e-001	-1.955824e-001	9.522120e-001	-1.954449e-001	3.327281e-002	2.464632e-002
9568484.822	3.357173e-002	2.445000e-002	9.519982e-001	-1.968233e-001	9.518601e-001	-1.964749e-001	3.355037e-002	2.459344e-002
9631023.906	3.379182e-002	2.438374e-002	9.514369e-001	-1.977876e-001	9.513657e-001	-1.976123e-001	3.372888e-002	2.454102e-002
9693562.989	3.401785e-002	2.434817e-002	9.509265e-001	-1.987318e-001	9.510529e-001	-1.986554e-001	3.392095e-002	2.448344e-002
9756102.073	3.414680e-002	2.425917e-002	9.506109e-001	-1.997009e-001	9.507067e-001	-1.996274e-001	3.416832e-002	2.433048e-002
