!Agilent Technologies,E5061B,MY49102235,A.02.00
!Date: Mon Jul 10 17:00:29 2023
!Data & Calibration Information:
!Freq	S11:SOLT2(ON)	S21:SOLT2(ON)	S12:SOLT2(ON)	S22:SOLT2(ON)
# Hz S RI R 50
5.000	-4.265621e-004	4.190889e-004	1.001874e+000	2.285419e-003	1.000503e+000	-3.473075e-005	-3.950051e-005	-6.639363e-005
62544.084	-6.113247e-005	4.074645e-005	1.000139e+000	-1.031870e-003	1.000106e+000	-6.975158e-004	1.301368e-005	-5.128702e-005
125083.168	-2.145850e-005	2.573775e-005	1.000184e+000	-2.471956e-003	1.000138e+000	-2.333764e-003	-5.637175e-005	1.656327e-006
187622.251	1.548013e-004	-7.985310e-005	9.995025e-001	-2.693732e-003	1.000306e+000	-3.024215e-003	3.226102e-005	-5.679175e-006
250161.335	4.736010e-005	4.429675e-005	9.998634e-001	-4.637674e-003	9.997756e-001	-4.521738e-003	2.631651e-005	5.205566e-005
312700.419	3.884025e-005	-2.520882e-005	1.000333e+000	-5.538306e-003	9.992627e-001	-5.419717e-003	1.020103e-004	4.536256e-005
375239.503	7.747031e-005	2.560110e-005	9.999384e-001	-6.727301e-003	1.000083e+000	-6.638436e-003	1.465600e-005	-1.701506e-005
437778.587	1.077760e-004	-5.116443e-005	9.999676e-001	-7.818292e-003	9.990623e-001	-8.068713e-003	9.314745e-005	1.606668e-004
500317.670	1.010413e-004	-4.821922e-005	1.000002e+000	-9.061647e-003	9.993541e-001	-9.439073e-003	9.382676e-005	1.270700e-004
562856.754	1.383041e-004	3.960893e-005	9.996918e-001	-1.028576e-002	9.996316e-001	-9.807371e-003	6.607369e-005	-1.131920e-005
625395.838	9.701914e-005	1.406715e-005	9.999318e-001	-1.135059e-002	9.991908e-001	-1.109654e-002	1.255949e-004	5.012134e-005
687934.922	-2.252266e-005	-6.301994e-005	1.000192e+000	-1.231904e-002	1.000323e+000	-1.239652e-002	-1.835712e-005	1.266141e-005
750474.006	-6.515961e-005	-9.288967e-005	9.997867e-001	-1.365701e-002	9.995976e-001	-1.270139e-002	-8.981079e-005	-5.297881e-005
813013.089	-5.755840e-005	-5.048564e-005	1.000399e+000	-1.476687e-002	9.991415e-001	-1.428412e-002	-7.458669e-005	-1.067317e-004
875552.173	-5.880353e-005	-9.385688e-005	9.999159e-001	-1.596653e-002	9.998229e-001	-1.569506e-002	-5.361802e-005	-9.241981e-005
938091.257	-1.390978e-004	-7.951064e-005	9.995788e-001	-1.688544e-002	9.994516e-001	-1.626390e-002	-1.167812e-004	-8.624314e-005
1000630.341	-7.621751e-005	-1.181413e-005	9.997469e-001	-1.765908e-002	9.995915e-001	-1.767082e-002	-6.166056e-005	-1.072006e-004
1063169.425	-4.893939e-005	-3.042985e-005	1.000474e+000	-1.898763e-002	1.000281e+000	-1.922218e-002	-3.169269e-005	-1.229137e-004
1125708.508	-3.957446e-005	-6.062793e-005	1.000167e+000	-2.040116e-002	9.993833e-001	-1.995069e-002	-2.976760e-005	-8.186339e-005
1188247.592	-4.415831e-005	-1.090024e-004	9.996993e-001	-2.129002e-002	9.994643e-001	-2.097544e-002	-1.252580e-005	-8.561348e-005
1250786.676	-4.971394e-005	-1.051644e-004	9.997095e-001	-2.284453e-002	9.991521e-001	-2.211240e-002	-1.843167e-005	-7.441565e-005
1313325.760	-3.204895e-005	-9.506208e-005	9.998405e-001	-2.309059e-002	9.990501e-001	-2.338850e-002	-6.691784e-005	-1.366311e-004
1375864.844	-8.694389e-006	-1.297064e-004	1.000267e+000	-2.537090e-002	9.992217e-001	-2.481889e-002	-3.985300e-005	-1.493793e-004
1438403.927	-2.753383e-005	-1.609732e-004	9.996534e-001	-2.629198e-002	9.994092e-001	-2.545804e-002	-4.316389e-005	-1.625681e-004
1500943.011	-7.195515e-006	-1.429118e-004	9.999917e-001	-2.724939e-002	9.991169e-001	-2.695153e-002	-1.816266e-005	-1.307054e-004
1563482.095	-7.856526e-005	-1.434926e-004	9.992835e-001	-2.817367e-002	9.994464e-001	-2.786463e-002	-5.835572e-005	-1.762656e-004
1626021.179	2.846492e-005	-1.334197e-004	9.995706e-001	-2.966423e-002	9.993218e-001	-2.884814e-002	1.283782e-005	-1.801281e-004
1688560.263	3.823510e-005	-1.484290e-004	1.000047e+000	-3.057969e-002	9.994172e-001	-2.994952e-002	-5.600243e-006	-1.605885e-004
1751099.346	3.988588e-005	-8.402443e-005	9.998345e-001	-3.166009e-002	9.991039e-001	-3.127671e-002	-1.941818e-005	-1.888913e-004
1813638.430	-6.294044e-005	-1.427878e-004	9.998694e-001	-3.238841e-002	9.989972e-001	-3.245198e-002	-3.329985e-005	-1.701127e-004
1876177.514	-2.978450e-005	-2.220261e-004	9.996080e-001	-3.412895e-002	9.994176e-001	-3.335689e-002	8.479079e-007	-1.910763e-004
1938716.598	-2.153032e-005	-1.764674e-004	9.992938e-001	-3.511281e-002	9.996930e-001	-3.477192e-002	8.125883e-006	-2.013635e-004
2001255.682	-7.291540e-006	-1.580390e-004	9.997754e-001	-3.596091e-002	9.988917e-001	-3.580586e-002	-2.373497e-005	-2.161727e-004
2063794.765	-2.877535e-005	-1.347222e-004	9.993170e-001	-3.695104e-002	9.994881e-001	-3.691046e-002	3.464608e-005	-2.216951e-004
2126333.849	3.191721e-005	-2.428885e-004	9.987350e-001	-3.829018e-002	9.990154e-001	-3.819629e-002	-7.121503e-005	-2.670650e-004
2188872.933	-1.874948e-006	-1.944444e-004	9.993551e-001	-3.924453e-002	9.991888e-001	-3.928390e-002	-2.265673e-005	-2.108300e-004
2251412.017	6.617750e-005	-2.316776e-004	9.994758e-001	-4.111104e-002	9.989985e-001	-4.000108e-002	3.864554e-005	-2.513040e-004
2313951.101	-1.962364e-006	-2.414411e-004	9.990684e-001	-4.180574e-002	9.988679e-001	-4.094635e-002	4.624383e-005	-3.043230e-004
2376490.184	3.003720e-005	-2.468207e-004	9.998414e-001	-4.290731e-002	9.990032e-001	-4.253551e-002	4.218752e-005	-2.518492e-004
2439029.268	-2.568653e-005	-2.917748e-004	9.989485e-001	-4.380997e-002	9.984647e-001	-4.368305e-002	-3.075099e-005	-3.273213e-004
2501568.352	-6.608572e-006	-1.850166e-004	9.990777e-001	-4.476958e-002	9.992985e-001	-4.474209e-002	2.808289e-005	-2.575405e-004
2564107.436	3.741198e-005	-2.118648e-004	9.986719e-001	-4.611772e-002	9.985999e-001	-4.581771e-002	6.857199e-006	-3.198267e-004
2626646.520	-1.372900e-005	-2.609798e-004	9.985448e-001	-4.721520e-002	9.990088e-001	-4.659365e-002	4.281697e-005	-2.781269e-004
2689185.604	-9.257909e-007	-2.642859e-004	9.993542e-001	-4.813536e-002	9.992222e-001	-4.788417e-002	3.401603e-005	-3.563727e-004
2751724.687	6.417598e-005	-3.383086e-004	9.990549e-001	-4.918822e-002	9.982393e-001	-4.894235e-002	-2.869780e-005	-2.622353e-004
2814263.771	5.990919e-005	-3.239659e-004	9.990690e-001	-5.076209e-002	9.989269e-001	-5.056785e-002	1.560179e-005	-3.164456e-004
2876802.855	1.701310e-005	-3.233281e-004	9.989922e-001	-5.211452e-002	9.982028e-001	-5.145769e-002	1.065908e-005	-3.590635e-004
2939341.939	9.371857e-006	-3.125082e-004	9.986617e-001	-5.279830e-002	9.986956e-001	-5.217429e-002	-3.153822e-006	-3.546441e-004
3001881.023	-2.233415e-005	-2.825790e-004	9.987841e-001	-5.325977e-002	9.988308e-001	-5.314297e-002	-5.353723e-005	-3.062002e-004
3064420.106	4.656988e-005	-3.483914e-004	9.983322e-001	-5.492395e-002	9.978444e-001	-5.453805e-002	-2.411165e-007	-3.246205e-004
3126959.190	1.403829e-005	-3.323666e-004	9.984115e-001	-5.614133e-002	9.981757e-001	-5.592334e-002	9.898549e-006	-3.603929e-004
3189498.274	6.191911e-005	-3.332580e-004	9.984719e-001	-5.744340e-002	9.980300e-001	-5.703667e-002	-8.426771e-006	-3.762855e-004
3252037.358	7.034009e-005	-3.638790e-004	9.982616e-001	-5.849017e-002	9.981184e-001	-5.808326e-002	2.551369e-005	-3.555363e-004
3314576.442	5.096767e-005	-4.283838e-004	9.982761e-001	-5.961327e-002	9.981587e-001	-5.930705e-002	-1.825726e-005	-3.566547e-004
3377115.525	1.196043e-005	-3.699214e-004	9.983103e-001	-6.085941e-002	9.979232e-001	-6.039984e-002	-2.062138e-005	-3.880137e-004
3439654.609	6.716858e-005	-3.484020e-004	9.979362e-001	-6.181562e-002	9.980154e-001	-6.156490e-002	-1.502791e-005	-4.099398e-004
3502193.693	5.952496e-005	-4.280146e-004	9.980395e-001	-6.295760e-002	9.978986e-001	-6.253529e-002	1.569675e-005	-4.484189e-004
3564732.777	2.645384e-005	-4.107560e-004	9.980155e-001	-6.410266e-002	9.978230e-001	-6.374557e-002	2.854502e-005	-4.331249e-004
3627271.861	4.710013e-005	-4.274856e-004	9.978847e-001	-6.524275e-002	9.978370e-001	-6.490003e-002	2.209329e-007	-4.282359e-004
3689810.944	2.422207e-005	-4.441815e-004	9.978697e-001	-6.632585e-002	9.975473e-001	-6.600813e-002	-2.874944e-005	-4.566636e-004
3752350.028	-1.028986e-007	-4.113895e-004	9.977834e-001	-6.747217e-002	9.976279e-001	-6.708756e-002	3.367011e-005	-4.419828e-004
3814889.112	4.182393e-005	-4.295919e-004	9.976656e-001	-6.857014e-002	9.974710e-001	-6.818530e-002	1.353472e-005	-4.875545e-004
3877428.196	1.036426e-004	-4.233803e-004	9.976279e-001	-6.966774e-002	9.973175e-001	-6.925336e-002	-1.251452e-005	-4.680637e-004
3939967.280	3.036423e-005	-4.849296e-004	9.973860e-001	-7.088755e-002	9.972714e-001	-7.044082e-002	1.352241e-005	-4.289700e-004
4002506.363	6.117816e-005	-4.636290e-004	9.973662e-001	-7.190350e-002	9.972408e-001	-7.148858e-002	5.064932e-006	-4.465706e-004
4065045.447	7.729710e-005	-4.768063e-004	9.974464e-001	-7.311415e-002	9.973128e-001	-7.287858e-002	2.068125e-005	-5.037580e-004
4127584.531	8.688278e-006	-4.750395e-004	9.974159e-001	-7.423869e-002	9.971364e-001	-7.383235e-002	8.582397e-006	-5.010881e-004
4190123.615	4.097128e-005	-4.654161e-004	9.971175e-001	-7.520887e-002	9.970217e-001	-7.486634e-002	-2.891809e-005	-5.235096e-004
4252662.699	-1.946325e-005	-4.829137e-004	9.970637e-001	-7.633532e-002	9.967683e-001	-7.594499e-002	-3.508662e-005	-4.898454e-004
4315201.782	6.470207e-005	-5.248130e-004	9.970390e-001	-7.753876e-002	9.967899e-001	-7.699776e-002	-3.324948e-005	-5.401703e-004
4377740.866	3.332857e-005	-5.267687e-004	9.969458e-001	-7.871196e-002	9.967940e-001	-7.830677e-002	2.641958e-005	-5.318910e-004
4440279.950	6.318816e-005	-4.961109e-004	9.968769e-001	-7.954968e-002	9.967309e-001	-7.930596e-002	5.942134e-006	-5.638837e-004
4502819.034	9.494052e-005	-5.989590e-004	9.968341e-001	-8.078124e-002	9.964824e-001	-8.046137e-002	2.472900e-006	-5.509284e-004
4565358.118	5.605067e-005	-5.252371e-004	9.964228e-001	-8.187652e-002	9.965165e-001	-8.173322e-002	2.768016e-005	-5.294327e-004
4627897.201	6.924592e-005	-5.847284e-004	9.965221e-001	-8.297317e-002	9.965018e-001	-8.265601e-002	-1.778110e-005	-4.951222e-004
4690436.285	9.527839e-005	-5.571669e-004	9.964760e-001	-8.424970e-002	9.963529e-001	-8.377131e-002	5.698252e-006	-5.366008e-004
4752975.369	1.846616e-005	-6.227658e-004	9.963132e-001	-8.528390e-002	9.960930e-001	-8.489143e-002	-3.551980e-006	-5.585029e-004
4815514.453	5.139321e-005	-6.049426e-004	9.963163e-001	-8.649118e-002	9.959834e-001	-8.612516e-002	1.331571e-005	-5.752268e-004
4878053.537	2.140082e-005	-5.502793e-004	9.962261e-001	-8.771839e-002	9.959669e-001	-8.709829e-002	-4.579549e-006	-5.536313e-004
4940592.620	5.685033e-005	-5.762574e-004	9.960179e-001	-8.869803e-002	9.957787e-001	-8.824375e-002	-1.754125e-005	-5.751178e-004
5003131.704	6.121869e-005	-6.011356e-004	9.959460e-001	-8.982243e-002	9.956309e-001	-8.943097e-002	-7.999806e-005	-6.335971e-004
5065670.788	1.266438e-005	-6.180260e-004	9.958488e-001	-9.099088e-002	9.955630e-001	-9.057188e-002	-1.855674e-005	-5.938377e-004
5128209.872	6.087601e-005	-5.985081e-004	9.957511e-001	-9.201095e-002	9.956443e-001	-9.159102e-002	-1.961850e-005	-6.116686e-004
5190748.956	5.101466e-005	-6.636405e-004	9.956366e-001	-9.321170e-002	9.956036e-001	-9.269816e-002	-2.013011e-005	-5.967539e-004
5253288.039	2.866491e-005	-6.377049e-004	9.953131e-001	-9.420991e-002	9.954732e-001	-9.385262e-002	3.377202e-005	-6.386130e-004
5315827.123	3.571834e-005	-6.478850e-004	9.953255e-001	-9.539131e-002	9.952748e-001	-9.511989e-002	1.407309e-005	-6.145685e-004
5378366.207	3.047253e-005	-6.473317e-004	9.951909e-001	-9.653507e-002	9.951368e-001	-9.609061e-002	-2.171199e-005	-6.296542e-004
5440905.291	3.570412e-005	-6.537188e-004	9.952792e-001	-9.750984e-002	9.952072e-001	-9.730256e-002	1.311696e-006	-6.508481e-004
5503444.375	3.536596e-005	-6.791063e-004	9.950849e-001	-9.878457e-002	9.949021e-001	-9.862581e-002	-1.025346e-005	-6.472325e-004
5565983.458	2.007894e-005	-6.552101e-004	9.950732e-001	-9.986836e-002	9.947546e-001	-9.959556e-002	5.125730e-005	-6.472795e-004
5628522.542	1.648389e-005	-6.960625e-004	9.949427e-001	-1.008630e-001	9.948893e-001	-1.005422e-001	-5.519714e-005	-7.015142e-004
5691061.626	8.147063e-005	-6.862716e-004	9.947824e-001	-1.020265e-001	9.944899e-001	-1.017487e-001	-5.972493e-005	-6.655596e-004
5753600.710	6.535268e-005	-7.175053e-004	9.946080e-001	-1.032481e-001	9.945176e-001	-1.028467e-001	1.320633e-005	-6.648081e-004
5816139.794	1.022774e-004	-7.016099e-004	9.945620e-001	-1.043233e-001	9.943853e-001	-1.041114e-001	-5.320712e-005	-6.922917e-004
5878678.877	4.012681e-005	-7.094023e-004	9.943414e-001	-1.053319e-001	9.942591e-001	-1.050714e-001	1.372164e-005	-6.627343e-004
5941217.961	3.152384e-005	-7.341121e-004	9.943508e-001	-1.064715e-001	9.942325e-001	-1.060287e-001	-4.788047e-005	-6.793268e-004
6003757.045	6.365433e-005	-8.037313e-004	9.940844e-001	-1.076984e-001	9.940348e-001	-1.072708e-001	-3.341233e-005	-7.549232e-004
6066296.129	2.998672e-005	-7.327105e-004	9.939846e-001	-1.088738e-001	9.938176e-001	-1.084341e-001	-1.509463e-005	-6.949611e-004
6128835.213	2.558546e-005	-7.057871e-004	9.939447e-001	-1.099797e-001	9.938621e-001	-1.096392e-001	3.905060e-006	-6.944305e-004
6191374.296	6.521125e-007	-7.963969e-004	9.937409e-001	-1.108292e-001	9.936258e-001	-1.106601e-001	-4.284215e-005	-7.421302e-004
6253913.380	4.680940e-005	-7.990259e-004	9.935530e-001	-1.121787e-001	9.933878e-001	-1.117398e-001	-3.686039e-005	-6.983675e-004
6316452.464	4.897406e-005	-7.253198e-004	9.934727e-001	-1.131421e-001	9.935084e-001	-1.127734e-001	-4.559513e-006	-7.237040e-004
6378991.548	2.711787e-005	-8.064137e-004	9.935468e-001	-1.143117e-001	9.932578e-001	-1.138650e-001	-1.110167e-007	-7.022975e-004
6441530.632	2.655944e-005	-7.887654e-004	9.934140e-001	-1.154559e-001	9.930177e-001	-1.151938e-001	-1.900821e-005	-7.852104e-004
6504069.715	3.751738e-005	-8.011645e-004	9.931504e-001	-1.165381e-001	9.930681e-001	-1.162624e-001	-1.522431e-005	-7.578727e-004
6566608.799	4.664613e-005	-8.065900e-004	9.929051e-001	-1.176997e-001	9.928851e-001	-1.172800e-001	-5.419526e-005	-7.456497e-004
6629147.883	2.824767e-005	-8.156459e-004	9.927920e-001	-1.188512e-001	9.928043e-001	-1.184109e-001	-5.677284e-005	-7.573779e-004
6691686.967	2.968965e-005	-8.617819e-004	9.928070e-001	-1.198389e-001	9.923811e-001	-1.196564e-001	-8.178628e-005	-7.290429e-004
6754226.051	6.714010e-007	-8.179763e-004	9.926830e-001	-1.209793e-001	9.925088e-001	-1.206210e-001	-2.048135e-005	-8.149686e-004
6816765.134	-2.444708e-005	-8.537712e-004	9.924457e-001	-1.221188e-001	9.923451e-001	-1.218556e-001	-1.137174e-005	-8.275607e-004
6879304.218	4.300983e-005	-8.539496e-004	9.923191e-001	-1.232608e-001	9.921050e-001	-1.229066e-001	-1.284694e-005	-7.892630e-004
6941843.302	5.288435e-005	-8.240228e-004	9.921456e-001	-1.241950e-001	9.921198e-001	-1.240201e-001	-4.212638e-005	-7.733241e-004
7004382.386	9.113403e-006	-8.421154e-004	9.919151e-001	-1.255947e-001	9.920200e-001	-1.252411e-001	-3.778624e-005	-8.262345e-004
7066921.470	3.437188e-005	-8.599888e-004	9.918312e-001	-1.266135e-001	9.918573e-001	-1.261822e-001	-2.576175e-005	-8.326522e-004
7129460.553	5.801930e-005	-9.051865e-004	9.918177e-001	-1.276929e-001	9.917083e-001	-1.274373e-001	-3.949244e-005	-8.249766e-004
7191999.637	2.186692e-005	-8.875500e-004	9.915018e-001	-1.288584e-001	9.914734e-001	-1.283951e-001	-1.799446e-005	-8.372023e-004
7254538.721	9.480099e-005	-8.892153e-004	9.914920e-001	-1.299331e-001	9.914114e-001	-1.295983e-001	-5.756237e-005	-8.128310e-004
7317077.805	1.423626e-005	-8.851380e-004	9.911367e-001	-1.310830e-001	9.914249e-001	-1.306869e-001	-3.757800e-005	-8.184073e-004
7379616.889	4.986370e-005	-8.908084e-004	9.912969e-001	-1.321640e-001	9.910005e-001	-1.316861e-001	-1.358841e-005	-8.970650e-004
7442155.972	5.191057e-005	-9.166313e-004	9.909571e-001	-1.332269e-001	9.908379e-001	-1.329753e-001	-4.431259e-005	-8.618292e-004
7504695.056	5.333355e-005	-9.160746e-004	9.908289e-001	-1.343560e-001	9.908378e-001	-1.339474e-001	-1.035234e-005	-8.292481e-004
7567234.140	3.665492e-005	-8.991357e-004	9.908132e-001	-1.355582e-001	9.906105e-001	-1.350251e-001	-2.522895e-005	-8.407031e-004
7629773.224	4.925744e-005	-9.434295e-004	9.905097e-001	-1.366146e-001	9.904831e-001	-1.361955e-001	-4.564951e-005	-8.370370e-004
7692312.308	3.014399e-005	-9.288748e-004	9.904728e-001	-1.377104e-001	9.903083e-001	-1.373428e-001	-9.414888e-006	-8.029789e-004
7754851.391	4.676490e-005	-9.675564e-004	9.901464e-001	-1.387614e-001	9.901253e-001	-1.383681e-001	-5.785990e-005	-8.321553e-004
7817390.475	5.456675e-005	-9.193974e-004	9.902837e-001	-1.398635e-001	9.899851e-001	-1.396339e-001	-2.613945e-006	-8.911911e-004
7879929.559	2.249150e-005	-9.704361e-004	9.898808e-001	-1.409485e-001	9.897978e-001	-1.406332e-001	-2.955093e-005	-8.816482e-004
7942468.643	4.683874e-006	-9.346272e-004	9.897170e-001	-1.420781e-001	9.897021e-001	-1.418885e-001	-4.850796e-005	-8.825521e-004
8005007.727	4.470064e-005	-9.475717e-004	9.896553e-001	-1.433747e-001	9.895310e-001	-1.428578e-001	-5.694599e-005	-9.254272e-004
8067546.811	5.980233e-005	-9.593077e-004	9.894555e-001	-1.444782e-001	9.894466e-001	-1.440930e-001	2.084634e-005	-9.132481e-004
8130085.894	4.501248e-005	-9.508081e-004	9.892814e-001	-1.454785e-001	9.891144e-001	-1.451703e-001	-5.940118e-005	-9.258142e-004
8192624.978	4.273263e-005	-9.944350e-004	9.891073e-001	-1.465628e-001	9.889572e-001	-1.462563e-001	1.315421e-005	-9.067184e-004
8255164.062	4.741941e-005	-9.920525e-004	9.889830e-001	-1.476923e-001	9.888492e-001	-1.473400e-001	-1.918032e-005	-9.577849e-004
8317703.146	6.669124e-005	-1.053175e-003	9.888664e-001	-1.488576e-001	9.887796e-001	-1.484752e-001	-4.951889e-005	-9.582476e-004
8380242.230	7.994693e-005	-1.065815e-003	9.886511e-001	-1.497108e-001	9.887566e-001	-1.495549e-001	-1.299547e-005	-9.331350e-004
8442781.313	4.252701e-005	-9.988255e-004	9.885586e-001	-1.507911e-001	9.883383e-001	-1.505886e-001	-4.692292e-005	-9.126611e-004
8505320.397	1.791362e-005	-1.023487e-003	9.882811e-001	-1.521200e-001	9.881594e-001	-1.519150e-001	2.016923e-006	-1.004511e-003
8567859.481	4.816481e-005	-1.024538e-003	9.880842e-001	-1.532172e-001	9.880604e-001	-1.527528e-001	2.395748e-006	-9.311555e-004
8630398.565	7.620298e-005	-1.032001e-003	9.879295e-001	-1.543770e-001	9.878151e-001	-1.540159e-001	8.555941e-006	-9.952824e-004
8692937.649	4.714305e-005	-1.014545e-003	9.876460e-001	-1.554397e-001	9.876248e-001	-1.549206e-001	-6.889253e-005	-9.420632e-004
8755476.732	2.209315e-005	-1.003780e-003	9.874728e-001	-1.566331e-001	9.875370e-001	-1.561989e-001	-1.883958e-005	-9.501374e-004
8818015.816	4.069395e-005	-1.061218e-003	9.874400e-001	-1.575246e-001	9.873915e-001	-1.572123e-001	-8.218946e-006	-9.751683e-004
8880554.900	-5.385327e-007	-1.104924e-003	9.872141e-001	-1.588299e-001	9.871740e-001	-1.583208e-001	-4.895463e-005	-9.694387e-004
8943093.984	5.217806e-005	-1.075507e-003	9.870913e-001	-1.600003e-001	9.869632e-001	-1.593827e-001	2.290392e-005	-9.734267e-004
9005633.068	3.654267e-005	-1.094036e-003	9.868717e-001	-1.609414e-001	9.867711e-001	-1.606644e-001	-2.387134e-005	-1.027452e-003
9068172.151	7.773630e-005	-1.083836e-003	9.866730e-001	-1.620851e-001	9.864043e-001	-1.618332e-001	-6.968757e-005	-9.667877e-004
9130711.235	6.362212e-005	-1.067674e-003	9.864619e-001	-1.631602e-001	9.863972e-001	-1.626467e-001	-4.637570e-006	-1.015738e-003
9193250.319	5.868074e-005	-1.116033e-003	9.862939e-001	-1.642103e-001	9.862602e-001	-1.639471e-001	2.115297e-005	-1.039659e-003
9255789.403	7.998666e-005	-1.122739e-003	9.860510e-001	-1.654694e-001	9.861287e-001	-1.649746e-001	-3.369670e-006	-9.575607e-004
9318328.487	4.056891e-006	-1.104193e-003	9.858472e-001	-1.665690e-001	9.859623e-001	-1.662868e-001	-1.330327e-005	-1.050935e-003
9380867.570	4.519391e-006	-1.078921e-003	9.857514e-001	-1.676306e-001	9.855395e-001	-1.671554e-001	-1.836592e-005	-1.001471e-003
9443406.654	1.709694e-005	-1.138120e-003	9.854991e-001	-1.686911e-001	9.855150e-001	-1.684150e-001	1.938696e-005	-1.015152e-003
9505945.738	2.192875e-005	-1.147994e-003	9.854058e-001	-1.697695e-001	9.852148e-001	-1.693797e-001	-3.989170e-005	-1.047050e-003
9568484.822	3.908901e-005	-1.166646e-003	9.853174e-001	-1.710717e-001	9.851262e-001	-1.704693e-001	3.624071e-005	-1.023925e-003
