!Agilent Technologies,E5061B,MY49102235,A.02.00
!Date: Mon Jul 10 16:12:11 2023
!Data & Calibration Information:
!Freq	S11:SOLT2(ON)	S21:SOLT2(ON)	S12:SOLT2(ON)	S22:SOLT2(ON)
# Hz S RI R 50
5.000	-5.000335e-004	4.519125e-004	1.001735e+000	2.360097e-003	1.000531e+000	-4.312945e-005	-1.744728e-004	-6.218183e-005
62544.084	-5.875068e-005	3.515505e-005	1.000001e+000	-1.007032e-003	1.000042e+000	-6.767334e-004	2.242781e-005	-4.293010e-005
125083.168	-3.463228e-005	-1.326073e-006	1.000171e+000	-2.367768e-003	1.000178e+000	-2.199939e-003	-3.980590e-005	-8.157721e-006
187622.251	1.558656e-004	-7.112430e-005	9.994234e-001	-2.729033e-003	1.000253e+000	-3.047873e-003	3.460059e-005	1.181193e-005
250161.335	2.761288e-005	4.046399e-005	9.998683e-001	-4.571153e-003	9.998986e-001	-4.506274e-003	2.987755e-005	3.281745e-005
312700.419	2.238000e-005	-3.761204e-005	1.000307e+000	-5.501207e-003	9.992558e-001	-5.330006e-003	1.115115e-004	2.362052e-005
375239.503	7.028498e-005	3.126537e-005	9.998931e-001	-6.657463e-003	1.000121e+000	-6.692078e-003	2.292009e-005	-2.300341e-005
437778.587	8.922503e-005	-5.380722e-005	9.999394e-001	-7.802821e-003	9.991603e-001	-8.050938e-003	1.000137e-004	1.378121e-004
500317.670	1.094555e-004	-7.221172e-005	9.998591e-001	-8.964447e-003	9.992211e-001	-9.304407e-003	1.286757e-004	1.144265e-004
562856.754	1.350054e-004	3.057619e-005	9.995784e-001	-1.015643e-002	9.995893e-001	-9.807347e-003	8.740886e-005	-2.747919e-005
625395.838	1.016079e-004	1.229231e-005	9.997447e-001	-1.136825e-002	9.992049e-001	-1.104960e-002	1.314702e-004	3.139939e-005
687934.922	-5.007045e-006	-7.960583e-005	1.000038e+000	-1.214164e-002	1.000297e+000	-1.232297e-002	-4.288595e-007	-2.393672e-005
750474.006	-7.397901e-005	-8.746901e-005	9.996923e-001	-1.352268e-002	9.996773e-001	-1.274187e-002	-9.633941e-005	-6.283041e-005
813013.089	-4.622883e-005	-5.994621e-005	1.000208e+000	-1.478706e-002	9.991606e-001	-1.426144e-002	-5.663711e-005	-9.326478e-005
875552.173	-6.304061e-005	-1.076816e-004	9.996388e-001	-1.578723e-002	9.999736e-001	-1.573453e-002	-5.374634e-005	-1.036705e-004
938091.257	-1.450029e-004	-7.392464e-005	9.994908e-001	-1.660816e-002	9.995812e-001	-1.630376e-002	-1.136467e-004	-8.848194e-005
1000630.341	-7.557969e-005	-2.546390e-005	9.996158e-001	-1.764444e-002	9.996867e-001	-1.772705e-002	-5.600269e-005	-1.007864e-004
1063169.425	-4.937905e-005	-5.306536e-005	1.000241e+000	-1.896632e-002	1.000327e+000	-1.923819e-002	-1.286343e-005	-1.232997e-004
1125708.508	-4.413319e-005	-7.795500e-005	1.000019e+000	-2.038134e-002	9.993532e-001	-1.989171e-002	-3.609065e-005	-8.207010e-005
1188247.592	-4.479253e-005	-1.129537e-004	9.995256e-001	-2.120784e-002	9.994632e-001	-2.116970e-002	-8.515530e-006	-1.018883e-004
1250786.676	-5.652444e-005	-1.182241e-004	9.995873e-001	-2.272271e-002	9.991265e-001	-2.213090e-002	-1.555663e-005	-8.482577e-005
1313325.760	-4.845308e-005	-9.792882e-005	9.997626e-001	-2.289447e-002	9.990109e-001	-2.346875e-002	-5.081001e-005	-1.510589e-004
1375864.844	-8.853371e-006	-1.487647e-004	1.000023e+000	-2.507589e-002	9.993993e-001	-2.489197e-002	-3.474281e-005	-1.606302e-004
1438403.927	-1.728093e-005	-1.702989e-004	9.995725e-001	-2.607941e-002	9.995088e-001	-2.556729e-002	-2.948192e-005	-1.764534e-004
1500943.011	-2.168554e-005	-1.696052e-004	9.997673e-001	-2.709570e-002	9.992373e-001	-2.698625e-002	-1.312624e-005	-1.370440e-004
1563482.095	-7.338540e-005	-1.647450e-004	9.992042e-001	-2.816355e-002	9.995413e-001	-2.802015e-002	-5.545716e-005	-1.779330e-004
1626021.179	1.206050e-005	-1.484713e-004	9.995127e-001	-2.937081e-002	9.993027e-001	-2.883080e-002	2.164533e-005	-1.853931e-004
1688560.263	2.541378e-005	-1.681323e-004	9.998682e-001	-3.047572e-002	9.995712e-001	-3.002455e-002	-1.274183e-007	-1.767981e-004
1751099.346	4.799060e-005	-9.470112e-005	9.997124e-001	-3.146251e-002	9.991411e-001	-3.123492e-002	-2.011263e-005	-1.942382e-004
1813638.430	-4.985808e-005	-1.594647e-004	9.998634e-001	-3.227886e-002	9.990810e-001	-3.239748e-002	-4.105776e-005	-1.710126e-004
1876177.514	-2.786348e-005	-2.301930e-004	9.995468e-001	-3.393494e-002	9.994202e-001	-3.348672e-002	6.990453e-006	-2.153459e-004
1938716.598	-1.323806e-005	-1.998637e-004	9.990551e-001	-3.496552e-002	9.996913e-001	-3.472920e-002	8.500193e-006	-2.056420e-004
2001255.682	-9.462710e-006	-1.803346e-004	9.996971e-001	-3.584762e-002	9.988471e-001	-3.574193e-002	-2.824341e-005	-2.155090e-004
2063794.765	-2.492931e-005	-1.490289e-004	9.992077e-001	-3.677001e-002	9.996178e-001	-3.684120e-002	3.414464e-005	-2.267962e-004
2126333.849	2.142363e-005	-2.685691e-004	9.985836e-001	-3.812215e-002	9.991026e-001	-3.811212e-002	-7.079931e-005	-2.831083e-004
2188872.933	-1.279147e-006	-2.092337e-004	9.992669e-001	-3.901107e-002	9.992610e-001	-3.942354e-002	-1.254448e-005	-2.185664e-004
2251412.017	5.434941e-005	-2.588899e-004	9.993665e-001	-4.097350e-002	9.992387e-001	-4.003377e-002	4.867600e-005	-2.708386e-004
2313951.101	-1.401094e-005	-2.662507e-004	9.988732e-001	-4.171000e-002	9.990390e-001	-4.098333e-002	4.279555e-005	-3.197638e-004
2376490.184	3.320865e-005	-2.834828e-004	9.996106e-001	-4.274679e-002	9.989023e-001	-4.250072e-002	2.167212e-005	-2.798562e-004
2439029.268	-1.076863e-005	-3.086901e-004	9.989699e-001	-4.365822e-002	9.985569e-001	-4.370728e-002	-2.295008e-005	-3.341811e-004
2501568.352	1.506622e-006	-2.087500e-004	9.989822e-001	-4.462104e-002	9.992687e-001	-4.484588e-002	2.811965e-005	-2.823566e-004
2564107.436	5.596223e-005	-2.320844e-004	9.985824e-001	-4.598202e-002	9.985640e-001	-4.585965e-002	1.922185e-007	-3.452582e-004
2626646.520	-1.071677e-005	-2.926194e-004	9.985231e-001	-4.716808e-002	9.991017e-001	-4.658127e-002	2.184282e-005	-2.981910e-004
2689185.604	-7.353562e-006	-2.975890e-004	9.992641e-001	-4.802452e-002	9.992268e-001	-4.793686e-002	3.281639e-005	-3.722678e-004
2751724.687	6.019738e-005	-3.648425e-004	9.989134e-001	-4.894551e-002	9.982314e-001	-4.911826e-002	-1.443680e-005	-3.088982e-004
2814263.771	6.460427e-005	-3.468179e-004	9.990163e-001	-5.059134e-002	9.988634e-001	-5.063147e-002	-1.553563e-006	-3.378257e-004
2876802.855	2.430822e-005	-3.543949e-004	9.988347e-001	-5.195982e-002	9.983308e-001	-5.154516e-002	1.406859e-005	-3.744757e-004
2939341.939	2.293537e-005	-3.364661e-004	9.987007e-001	-5.265614e-002	9.987046e-001	-5.222794e-002	-1.852153e-005	-3.620948e-004
3001881.023	-2.629577e-005	-3.233180e-004	9.987313e-001	-5.316197e-002	9.988201e-001	-5.312936e-002	-4.858819e-005	-3.290799e-004
3064420.106	4.512303e-005	-3.890407e-004	9.981654e-001	-5.480818e-002	9.978655e-001	-5.449822e-002	-6.890248e-006	-3.402413e-004
3126959.190	1.813314e-005	-3.596052e-004	9.983295e-001	-5.598859e-002	9.982595e-001	-5.595558e-002	7.231856e-006	-3.922417e-004
3189498.274	6.516305e-005	-3.623667e-004	9.983779e-001	-5.725537e-002	9.980742e-001	-5.704891e-002	-1.526400e-005	-3.945479e-004
3252037.358	7.282739e-005	-3.914062e-004	9.981805e-001	-5.830935e-002	9.982153e-001	-5.808003e-002	1.536472e-005	-3.821889e-004
3314576.442	5.386020e-005	-4.621940e-004	9.981902e-001	-5.942802e-002	9.982873e-001	-5.932932e-002	-3.120594e-005	-3.719930e-004
3377115.525	1.339328e-005	-3.967072e-004	9.982121e-001	-6.066805e-002	9.979632e-001	-6.043175e-002	-2.656380e-005	-4.107223e-004
3439654.609	5.972150e-005	-3.729195e-004	9.978600e-001	-6.164791e-002	9.980618e-001	-6.159801e-002	-9.660500e-006	-4.322772e-004
3502193.693	6.666837e-005	-4.555817e-004	9.979696e-001	-6.278372e-002	9.979863e-001	-6.255837e-002	1.156886e-005	-4.674816e-004
3564732.777	3.698730e-005	-4.397838e-004	9.979405e-001	-6.395790e-002	9.978962e-001	-6.373147e-002	2.121964e-005	-4.620199e-004
3627271.861	4.884929e-005	-4.610444e-004	9.977656e-001	-6.504586e-002	9.978786e-001	-6.490893e-002	-1.928722e-005	-4.542058e-004
3689810.944	2.076006e-005	-4.734632e-004	9.977589e-001	-6.615315e-002	9.976002e-001	-6.604274e-002	-4.413338e-005	-4.899284e-004
3752350.028	-3.664248e-006	-4.418116e-004	9.976915e-001	-6.729641e-002	9.976636e-001	-6.711254e-002	1.726070e-005	-4.643131e-004
3814889.112	5.138742e-005	-4.751887e-004	9.975799e-001	-6.835418e-002	9.975355e-001	-6.817108e-002	4.013071e-006	-5.119924e-004
3877428.196	1.024632e-004	-4.577727e-004	9.975616e-001	-6.945633e-002	9.973540e-001	-6.924728e-002	-3.138359e-005	-4.922643e-004
3939967.280	2.736538e-005	-5.166654e-004	9.972725e-001	-7.067404e-002	9.973170e-001	-7.043008e-002	2.013742e-006	-4.518669e-004
4002506.363	7.543520e-005	-5.068096e-004	9.973138e-001	-7.168041e-002	9.973248e-001	-7.148108e-002	-4.644404e-006	-4.884337e-004
4065045.447	8.327270e-005	-5.171956e-004	9.973280e-001	-7.289699e-002	9.973210e-001	-7.285173e-002	1.205055e-005	-5.368078e-004
4127584.531	2.059217e-005	-5.102353e-004	9.973500e-001	-7.405252e-002	9.971709e-001	-7.382408e-002	6.384178e-006	-5.305871e-004
4190123.615	5.035183e-005	-5.078329e-004	9.970502e-001	-7.499966e-002	9.970714e-001	-7.486751e-002	-4.118170e-005	-5.563991e-004
4252662.699	-4.309069e-006	-5.330564e-004	9.969728e-001	-7.614502e-002	9.968218e-001	-7.593390e-002	-5.176125e-005	-5.080226e-004
4315201.782	6.904544e-005	-5.785729e-004	9.969045e-001	-7.733897e-002	9.968456e-001	-7.699656e-002	-6.153156e-005	-5.540323e-004
4377740.866	4.569527e-005	-5.696639e-004	9.969019e-001	-7.848947e-002	9.968788e-001	-7.830178e-002	1.301112e-005	-5.608117e-004
4440279.950	7.486538e-005	-5.311901e-004	9.968112e-001	-7.937305e-002	9.967867e-001	-7.932022e-002	-2.177196e-005	-5.869402e-004
4502819.034	9.122689e-005	-6.388179e-004	9.967827e-001	-8.061018e-002	9.965586e-001	-8.047057e-002	-2.013970e-006	-5.845282e-004
4565358.118	6.056683e-005	-5.734136e-004	9.963568e-001	-8.165114e-002	9.966043e-001	-8.175777e-002	4.393038e-006	-5.598504e-004
4627897.201	7.081608e-005	-6.242806e-004	9.964465e-001	-8.275368e-002	9.965553e-001	-8.261312e-002	-2.378752e-005	-5.271454e-004
4690436.285	1.043674e-004	-6.090867e-004	9.963695e-001	-8.401967e-002	9.963877e-001	-8.378586e-002	-2.064195e-005	-5.753289e-004
4752975.369	2.960281e-005	-6.772637e-004	9.962121e-001	-8.512672e-002	9.961631e-001	-8.490071e-002	-1.479737e-005	-6.003807e-004
4815514.453	5.641444e-005	-6.534327e-004	9.962689e-001	-8.631093e-002	9.960915e-001	-8.609078e-002	-1.545835e-005	-6.137705e-004
4878053.537	2.225213e-005	-6.065683e-004	9.961091e-001	-8.753932e-002	9.960172e-001	-8.705448e-002	-3.805749e-005	-5.888082e-004
4940592.620	5.927808e-005	-6.320503e-004	9.959254e-001	-8.847270e-002	9.958532e-001	-8.821052e-002	-3.931703e-005	-6.176156e-004
5003131.704	8.754243e-005	-6.540494e-004	9.958398e-001	-8.965305e-002	9.956821e-001	-8.946532e-002	-9.335858e-005	-6.683802e-004
5065670.788	2.605096e-005	-6.722550e-004	9.957879e-001	-9.076342e-002	9.956552e-001	-9.056079e-002	-4.322747e-005	-6.338407e-004
5128209.872	6.737955e-005	-6.532177e-004	9.956502e-001	-9.176345e-002	9.956943e-001	-9.156189e-002	-5.445119e-005	-6.483869e-004
5190748.956	6.179912e-005	-7.278199e-004	9.955544e-001	-9.300594e-002	9.956146e-001	-9.271229e-002	-3.366370e-005	-6.397909e-004
5253288.039	3.777836e-005	-6.921090e-004	9.952754e-001	-9.399317e-002	9.954947e-001	-9.382534e-002	2.258290e-005	-6.732493e-004
5315827.123	4.496768e-005	-6.967649e-004	9.952638e-001	-9.514830e-002	9.953293e-001	-9.510736e-002	-6.891947e-006	-6.399941e-004
5378366.207	4.060381e-005	-6.977312e-004	9.950835e-001	-9.638117e-002	9.952011e-001	-9.605522e-002	-3.916298e-005	-6.636201e-004
5440905.291	5.926240e-005	-7.164932e-004	9.952306e-001	-9.730210e-002	9.952480e-001	-9.727704e-002	-1.668892e-005	-6.881323e-004
5503444.375	4.494426e-005	-7.273684e-004	9.950109e-001	-9.855147e-002	9.949424e-001	-9.859867e-002	-3.652125e-005	-6.845090e-004
5565983.458	1.858064e-005	-7.136740e-004	9.950117e-001	-9.967393e-002	9.947797e-001	-9.957006e-002	2.745717e-005	-6.774147e-004
5628522.542	2.331601e-005	-7.731239e-004	9.948486e-001	-1.006859e-001	9.949233e-001	-1.004987e-001	-9.107899e-005	-7.482895e-004
5691061.626	9.464880e-005	-7.541467e-004	9.946932e-001	-1.018162e-001	9.945788e-001	-1.017345e-001	-7.245387e-005	-6.973871e-004
5753600.710	7.043643e-005	-7.819987e-004	9.945584e-001	-1.030358e-001	9.945788e-001	-1.028374e-001	-2.941028e-006	-7.129882e-004
5816139.794	1.160996e-004	-7.647601e-004	9.945133e-001	-1.040975e-001	9.944594e-001	-1.040867e-001	-8.432460e-005	-7.340278e-004
5878678.877	4.780397e-005	-7.899860e-004	9.942806e-001	-1.051108e-001	9.942656e-001	-1.050540e-001	-1.573790e-005	-6.987164e-004
5941217.961	3.196266e-005	-8.043802e-004	9.942845e-001	-1.062300e-001	9.943313e-001	-1.059573e-001	-8.492859e-005	-7.103344e-004
6003757.045	7.116607e-005	-8.535002e-004	9.940177e-001	-1.075415e-001	9.941012e-001	-1.072112e-001	-5.629956e-005	-8.027172e-004
6066296.129	4.446119e-005	-8.020848e-004	9.938606e-001	-1.086154e-001	9.938690e-001	-1.083970e-001	-5.735473e-005	-7.348593e-004
6128835.213	4.667004e-005	-7.793502e-004	9.938916e-001	-1.097216e-001	9.939373e-001	-1.096825e-001	-3.279849e-005	-7.237441e-004
6191374.296	1.173264e-005	-8.618152e-004	9.936995e-001	-1.106405e-001	9.936776e-001	-1.105601e-001	-7.473062e-005	-7.844964e-004
6253913.380	6.724793e-005	-8.651754e-004	9.934630e-001	-1.119677e-001	9.934188e-001	-1.117013e-001	-8.065570e-005	-7.389070e-004
6316452.464	5.661554e-005	-7.929600e-004	9.934168e-001	-1.129189e-001	9.935527e-001	-1.127361e-001	-3.909977e-005	-7.635959e-004
6378991.548	3.888233e-005	-8.892810e-004	9.934526e-001	-1.140542e-001	9.933066e-001	-1.138210e-001	-2.692161e-005	-7.465617e-004
6441530.632	4.344969e-005	-8.627900e-004	9.933416e-001	-1.152283e-001	9.930831e-001	-1.151439e-001	-5.854079e-005	-8.316558e-004
6504069.715	4.258074e-005	-8.719413e-004	9.931039e-001	-1.163218e-001	9.931573e-001	-1.162104e-001	-5.812885e-005	-8.050259e-004
6566608.799	6.205010e-005	-8.743598e-004	9.928848e-001	-1.174691e-001	9.929562e-001	-1.172215e-001	-9.833521e-005	-7.913706e-004
6629147.883	4.291236e-005	-8.798746e-004	9.927312e-001	-1.186218e-001	9.928822e-001	-1.184030e-001	-8.871598e-005	-7.998063e-004
6691686.967	3.522066e-005	-9.276853e-004	9.927665e-001	-1.196017e-001	9.924262e-001	-1.196130e-001	-1.061871e-004	-7.669891e-004
6754226.051	1.519915e-005	-9.010058e-004	9.926548e-001	-1.208280e-001	9.926053e-001	-1.206038e-001	-4.786729e-005	-8.548120e-004
6816765.134	-1.282067e-005	-9.407127e-004	9.923848e-001	-1.219176e-001	9.924550e-001	-1.217974e-001	-4.881389e-005	-8.704557e-004
6879304.218	4.251775e-005	-9.288804e-004	9.922556e-001	-1.230475e-001	9.921831e-001	-1.228554e-001	-4.891073e-005	-8.373235e-004
6941843.302	5.983343e-005	-9.053109e-004	9.920767e-001	-1.239915e-001	9.921778e-001	-1.239918e-001	-7.290032e-005	-8.214891e-004
7004382.386	2.472808e-005	-9.186292e-004	9.918448e-001	-1.253404e-001	9.921042e-001	-1.251836e-001	-6.382686e-005	-8.717875e-004
7066921.470	3.074952e-005	-9.473823e-004	9.917567e-001	-1.263958e-001	9.919511e-001	-1.261178e-001	-6.923490e-005	-8.735702e-004
7129460.553	6.369674e-005	-9.886929e-004	9.917782e-001	-1.274251e-001	9.918106e-001	-1.274301e-001	-8.595618e-005	-8.698779e-004
7191999.637	3.512285e-005	-9.667337e-004	9.914782e-001	-1.286175e-001	9.915026e-001	-1.283699e-001	-6.661952e-005	-8.854618e-004
7254538.721	9.711813e-005	-9.648593e-004	9.914488e-001	-1.297135e-001	9.914957e-001	-1.295503e-001	-9.408489e-005	-8.638191e-004
7317077.805	1.074285e-005	-9.610535e-004	9.911387e-001	-1.308628e-001	9.914698e-001	-1.306583e-001	-8.354005e-005	-8.525230e-004
7379616.889	6.328199e-005	-9.732584e-004	9.912467e-001	-1.319210e-001	9.910647e-001	-1.316421e-001	-6.814799e-005	-9.315656e-004
7442155.972	5.835701e-005	-1.001380e-003	9.909057e-001	-1.330097e-001	9.908852e-001	-1.329616e-001	-8.618358e-005	-9.133130e-004
7504695.056	7.183180e-005	-1.009983e-003	9.907806e-001	-1.341108e-001	9.909028e-001	-1.338982e-001	-5.614433e-005	-8.879151e-004
7567234.140	4.532187e-005	-9.930637e-004	9.907365e-001	-1.353084e-001	9.906805e-001	-1.349854e-001	-8.518086e-005	-8.793872e-004
7629773.224	5.744851e-005	-1.031154e-003	9.904640e-001	-1.364121e-001	9.905277e-001	-1.361487e-001	-9.085197e-005	-8.933820e-004
7692312.308	4.270327e-005	-1.022462e-003	9.904746e-001	-1.374711e-001	9.903979e-001	-1.372707e-001	-5.331442e-005	-8.490573e-004
7754851.391	5.144947e-005	-1.064385e-003	9.901022e-001	-1.385348e-001	9.901963e-001	-1.383724e-001	-1.110381e-004	-8.721784e-004
7817390.475	6.136187e-005	-1.025091e-003	9.902077e-001	-1.396456e-001	9.900657e-001	-1.396069e-001	-5.287038e-005	-9.323301e-004
7879929.559	3.294812e-005	-1.060202e-003	9.898506e-001	-1.407397e-001	9.898711e-001	-1.405969e-001	-8.221226e-005	-9.136357e-004
7942468.643	1.678098e-005	-1.040300e-003	9.896862e-001	-1.418663e-001	9.897664e-001	-1.418364e-001	-9.066262e-005	-9.254776e-004
8005007.727	4.816716e-005	-1.030982e-003	9.895987e-001	-1.431558e-001	9.896179e-001	-1.427836e-001	-1.215700e-004	-9.779652e-004
8067546.811	6.693948e-005	-1.042092e-003	9.894011e-001	-1.442232e-001	9.894993e-001	-1.440328e-001	-3.657665e-005	-9.502228e-004
8130085.894	6.105079e-005	-1.044877e-003	9.892552e-001	-1.452557e-001	9.891634e-001	-1.451464e-001	-1.018927e-004	-9.630280e-004
8192624.978	3.818459e-005	-1.082034e-003	9.890167e-001	-1.463744e-001	9.890276e-001	-1.462062e-001	-4.710548e-005	-9.698344e-004
8255164.062	5.501835e-005	-1.084213e-003	9.889153e-001	-1.474904e-001	9.889389e-001	-1.472469e-001	-7.305659e-005	-9.983096e-004
8317703.146	8.298338e-005	-1.149324e-003	9.888180e-001	-1.486423e-001	9.888805e-001	-1.484270e-001	-1.029750e-004	-1.005176e-003
8380242.230	8.168927e-005	-1.166597e-003	9.886129e-001	-1.494560e-001	9.888195e-001	-1.494956e-001	-5.936690e-005	-9.805190e-004
8442781.313	5.377868e-005	-1.096700e-003	9.884875e-001	-1.505699e-001	9.884411e-001	-1.505516e-001	-1.033143e-004	-9.630097e-004
8505320.397	2.220250e-005	-1.114358e-003	9.882778e-001	-1.519164e-001	9.882287e-001	-1.518376e-001	-4.854557e-005	-1.054775e-003
8567859.481	4.758823e-005	-1.116689e-003	9.880689e-001	-1.529968e-001	9.881612e-001	-1.526695e-001	-4.615144e-005	-9.826908e-004
8630398.565	7.502648e-005	-1.121986e-003	9.878789e-001	-1.541350e-001	9.879015e-001	-1.539552e-001	-4.475473e-005	-1.052131e-003
8692937.649	5.746422e-005	-1.121421e-003	9.875965e-001	-1.552079e-001	9.877043e-001	-1.548771e-001	-1.183705e-004	-9.949656e-004
8755476.732	2.478028e-005	-1.103095e-003	9.874258e-001	-1.563769e-001	9.876225e-001	-1.561632e-001	-7.357567e-005	-9.923611e-004
8818015.816	4.992093e-005	-1.156184e-003	9.873872e-001	-1.573036e-001	9.874565e-001	-1.571314e-001	-6.431175e-005	-1.029231e-003
8880554.900	1.108613e-005	-1.203149e-003	9.872242e-001	-1.585777e-001	9.872711e-001	-1.582517e-001	-1.123284e-004	-1.031788e-003
8943093.984	5.435062e-005	-1.174450e-003	9.870592e-001	-1.597594e-001	9.869785e-001	-1.593113e-001	-4.244289e-005	-1.012543e-003
9005633.068	4.144026e-005	-1.192037e-003	9.867934e-001	-1.606910e-001	9.868193e-001	-1.606150e-001	-8.790115e-005	-1.077902e-003
9068172.151	7.162157e-005	-1.181271e-003	9.865853e-001	-1.618289e-001	9.864876e-001	-1.617442e-001	-1.337049e-004	-1.020604e-003
9130711.235	7.258522e-005	-1.168551e-003	9.864467e-001	-1.629396e-001	9.864993e-001	-1.625753e-001	-5.319234e-005	-1.064731e-003
9193250.319	5.548015e-005	-1.223637e-003	9.862368e-001	-1.639619e-001	9.863276e-001	-1.638824e-001	-3.042866e-005	-1.080696e-003
9255789.403	8.110030e-005	-1.227962e-003	9.860226e-001	-1.652318e-001	9.862189e-001	-1.649038e-001	-6.853163e-005	-1.009128e-003
9318328.487	-2.653430e-006	-1.218535e-003	9.858543e-001	-1.663029e-001	9.860266e-001	-1.662110e-001	-8.030928e-005	-1.094648e-003
9380867.570	1.632247e-006	-1.186807e-003	9.857318e-001	-1.674001e-001	9.856455e-001	-1.671043e-001	-8.739475e-005	-1.055329e-003
9443406.654	2.636670e-005	-1.254382e-003	9.854692e-001	-1.684556e-001	9.856422e-001	-1.683579e-001	-4.214162e-005	-1.076734e-003
9505945.738	3.297979e-005	-1.264823e-003	9.853720e-001	-1.695016e-001	9.852948e-001	-1.693689e-001	-1.003438e-004	-1.105032e-003
