!Agilent Technologies,E5061B,MY49102235,A.02.00
!Date: Mon Jul 10 17:01:51 2023
!Data & Calibration Information:
!Freq	S11:SOLT2(ON)	S21:SOLT2(ON)	S12:SOLT2(ON)	S22:SOLT2(ON)
# Hz S RI R 50
5.000	-3.522288e-004	4.330763e-004	1.001590e+000	2.296273e-003	1.000516e+000	2.562575e-008	-1.870684e-004	-7.040769e-005
62544.084	-6.209427e-005	-3.020063e-005	1.000083e+000	-1.008584e-003	1.000069e+000	-6.393588e-004	9.117192e-006	-1.152555e-004
125083.168	-2.371164e-005	-1.512903e-004	1.000167e+000	-2.279793e-003	1.000135e+000	-1.909687e-003	-3.797875e-005	-1.539328e-004
187622.251	1.615589e-004	-2.767190e-004	9.993528e-001	-2.517025e-003	1.000223e+000	-2.903272e-003	4.143695e-005	-1.921336e-004
250161.335	2.945967e-005	-2.333079e-004	9.998873e-001	-4.351453e-003	9.998364e-001	-4.179193e-003	2.119545e-005	-2.442235e-004
312700.419	3.658671e-005	-3.746234e-004	1.000318e+000	-5.271123e-003	9.992808e-001	-4.901871e-003	1.147855e-004	-3.170338e-004
375239.503	7.951744e-005	-4.078744e-004	9.999674e-001	-6.170002e-003	1.000082e+000	-6.187873e-003	1.661199e-005	-4.370986e-004
437778.587	7.794276e-005	-5.431596e-004	1.000050e+000	-7.404518e-003	9.992261e-001	-7.635807e-003	6.612765e-005	-3.391251e-004
500317.670	9.603627e-005	-5.993964e-004	9.999527e-001	-8.594413e-003	9.993206e-001	-8.753060e-003	1.066357e-004	-4.443764e-004
562856.754	1.295149e-004	-5.901559e-004	9.996707e-001	-9.664980e-003	9.995613e-001	-9.255821e-003	6.783664e-005	-6.182974e-004
625395.838	9.576054e-005	-6.748050e-004	9.998762e-001	-1.075229e-002	9.990999e-001	-1.026532e-002	1.352904e-004	-6.666999e-004
687934.922	-1.609653e-005	-8.274876e-004	1.000065e+000	-1.153420e-002	1.000291e+000	-1.161587e-002	-2.001794e-005	-7.579106e-004
750474.006	-8.759551e-005	-9.147637e-004	9.997281e-001	-1.282126e-002	9.997155e-001	-1.170234e-002	-1.124049e-004	-8.918777e-004
813013.089	-8.241074e-005	-9.515061e-004	1.000236e+000	-1.383357e-002	9.992531e-001	-1.335513e-002	-7.806998e-005	-9.992123e-004
875552.173	-7.283853e-005	-1.077910e-003	9.997215e-001	-1.498505e-002	9.999331e-001	-1.476990e-002	-7.217084e-005	-1.072855e-003
938091.257	-1.683022e-004	-1.118308e-003	9.994840e-001	-1.577618e-002	9.994720e-001	-1.520231e-002	-1.389436e-004	-1.132644e-003
1000630.341	-1.081117e-004	-1.117369e-003	9.997315e-001	-1.654462e-002	9.997488e-001	-1.650108e-002	-7.638704e-005	-1.210392e-003
1063169.425	-6.601551e-005	-1.224882e-003	1.000381e+000	-1.796903e-002	1.000348e+000	-1.798050e-002	-4.438036e-005	-1.312990e-003
1125708.508	-6.642842e-005	-1.328029e-003	9.999873e-001	-1.922984e-002	9.994261e-001	-1.872778e-002	-4.268377e-005	-1.338894e-003
1188247.592	-8.087498e-005	-1.428961e-003	9.996789e-001	-1.997288e-002	9.995837e-001	-1.972353e-002	-4.115669e-005	-1.410505e-003
1250786.676	-8.478286e-005	-1.497891e-003	9.996210e-001	-2.141923e-002	9.991098e-001	-2.054207e-002	-5.360938e-005	-1.473237e-003
1313325.760	-8.099915e-005	-1.550372e-003	9.997769e-001	-2.155279e-002	9.991194e-001	-2.200878e-002	-8.523367e-005	-1.608895e-003
1375864.844	-4.984825e-005	-1.660232e-003	1.000139e+000	-2.357888e-002	9.994157e-001	-2.329318e-002	-7.678405e-005	-1.680423e-003
1438403.927	-8.406443e-005	-1.764986e-003	9.995235e-001	-2.470973e-002	9.995153e-001	-2.398041e-002	-7.573249e-005	-1.765798e-003
1500943.011	-7.754392e-005	-1.828484e-003	9.997823e-001	-2.559641e-002	9.993037e-001	-2.519241e-002	-7.119136e-005	-1.802074e-003
1563482.095	-1.286288e-004	-1.887877e-003	9.991420e-001	-2.653687e-002	9.995095e-001	-2.620238e-002	-1.111657e-004	-1.913198e-003
1626021.179	-3.095231e-005	-1.935895e-003	9.996126e-001	-2.770252e-002	9.993832e-001	-2.691860e-002	-5.101564e-005	-1.983117e-003
1688560.263	-4.095943e-005	-2.057313e-003	9.998760e-001	-2.879180e-002	9.996435e-001	-2.815798e-002	-5.467459e-005	-2.033906e-003
1751099.346	-3.315292e-005	-2.036573e-003	9.998269e-001	-2.969782e-002	9.992736e-001	-2.921696e-002	-9.305493e-005	-2.135998e-003
1813638.430	-1.251113e-004	-2.164072e-003	9.999593e-001	-3.049188e-002	9.990946e-001	-3.028610e-002	-1.102574e-004	-2.169036e-003
1876177.514	-9.316451e-005	-2.294079e-003	9.996029e-001	-3.186140e-002	9.995171e-001	-3.126731e-002	-7.671280e-005	-2.277753e-003
1938716.598	-9.304397e-005	-2.337178e-003	9.992159e-001	-3.294323e-002	9.998636e-001	-3.258598e-002	-5.898048e-005	-2.347138e-003
2001255.682	-8.911829e-005	-2.382721e-003	9.997049e-001	-3.369542e-002	9.988659e-001	-3.362506e-002	-1.124499e-004	-2.436870e-003
2063794.765	-1.191541e-004	-2.432210e-003	9.993407e-001	-3.468143e-002	9.995867e-001	-3.453832e-002	-7.735493e-005	-2.512865e-003
2126333.849	-7.192434e-005	-2.612679e-003	9.986365e-001	-3.592862e-002	9.991514e-001	-3.579466e-002	-1.671092e-004	-2.629091e-003
2188872.933	-1.116935e-004	-2.646615e-003	9.993857e-001	-3.675577e-002	9.992486e-001	-3.684977e-002	-1.241172e-004	-2.635745e-003
2251412.017	-5.666570e-005	-2.741500e-003	9.995384e-001	-3.861830e-002	9.992625e-001	-3.744142e-002	-5.674129e-005	-2.749416e-003
2313951.101	-1.256891e-004	-2.830069e-003	9.989543e-001	-3.930951e-002	9.990817e-001	-3.825845e-002	-5.612905e-005	-2.870195e-003
2376490.184	-9.380273e-005	-2.907844e-003	9.997486e-001	-4.024770e-002	9.991680e-001	-3.994508e-002	-8.920177e-005	-2.903115e-003
2439029.268	-1.360752e-004	-3.005791e-003	9.990849e-001	-4.116998e-002	9.984589e-001	-4.098150e-002	-1.531295e-004	-3.032822e-003
2501568.352	-1.363148e-004	-2.970317e-003	9.990627e-001	-4.205584e-002	9.994689e-001	-4.204505e-002	-9.898277e-005	-3.036801e-003
2564107.436	-9.431330e-005	-3.050288e-003	9.988144e-001	-4.320863e-002	9.987590e-001	-4.306552e-002	-1.375569e-004	-3.169982e-003
2626646.520	-1.681201e-004	-3.181272e-003	9.986496e-001	-4.428539e-002	9.991585e-001	-4.361531e-002	-1.289533e-004	-3.197235e-003
2689185.604	-1.600286e-004	-3.255965e-003	9.994385e-001	-4.509067e-002	9.994019e-001	-4.488931e-002	-1.208560e-004	-3.340556e-003
2751724.687	-9.619267e-005	-3.393516e-003	9.990531e-001	-4.614070e-002	9.984135e-001	-4.591831e-002	-1.710589e-004	-3.328263e-003
2814263.771	-1.005276e-004	-3.453826e-003	9.992763e-001	-4.758869e-002	9.990302e-001	-4.747275e-002	-1.618815e-004	-3.436199e-003
2876802.855	-1.496537e-004	-3.526208e-003	9.990531e-001	-4.890559e-002	9.983820e-001	-4.822487e-002	-1.775928e-004	-3.546943e-003
2939341.939	-1.627160e-004	-3.582496e-003	9.988911e-001	-4.957404e-002	9.986594e-001	-4.890962e-002	-2.071953e-004	-3.616074e-003
3001881.023	-2.020540e-004	-3.630684e-003	9.988205e-001	-5.007716e-002	9.991319e-001	-4.974166e-002	-2.317076e-004	-3.635085e-003
3064420.106	-1.587473e-004	-3.762194e-003	9.984031e-001	-5.148207e-002	9.980571e-001	-5.113594e-002	-2.110235e-004	-3.725018e-003
3126959.190	-1.734280e-004	-3.803780e-003	9.985612e-001	-5.267886e-002	9.984229e-001	-5.245247e-002	-1.960345e-004	-3.837439e-003
3189498.274	-1.422392e-004	-3.871806e-003	9.986248e-001	-5.382839e-002	9.982553e-001	-5.351856e-002	-2.246150e-004	-3.911419e-003
3252037.358	-1.467412e-004	-3.967020e-003	9.984552e-001	-5.488235e-002	9.984010e-001	-5.446332e-002	-1.878688e-004	-3.960552e-003
3314576.442	-1.864025e-004	-4.107363e-003	9.984028e-001	-5.587860e-002	9.984246e-001	-5.564895e-002	-2.513936e-004	-4.026589e-003
3377115.525	-2.210471e-004	-4.111485e-003	9.984548e-001	-5.706442e-002	9.981467e-001	-5.668673e-002	-2.590248e-004	-4.132301e-003
3439654.609	-1.944984e-004	-4.164522e-003	9.981395e-001	-5.792174e-002	9.982860e-001	-5.774381e-002	-2.534181e-004	-4.220281e-003
3502193.693	-1.979466e-004	-4.318634e-003	9.982145e-001	-5.905494e-002	9.982016e-001	-5.867397e-002	-2.446882e-004	-4.334267e-003
3564732.777	-2.328298e-004	-4.360941e-003	9.982162e-001	-6.012667e-002	9.980992e-001	-5.977789e-002	-2.458407e-004	-4.385902e-003
3627271.861	-2.290502e-004	-4.448482e-003	9.980394e-001	-6.120617e-002	9.981134e-001	-6.088585e-002	-2.711465e-004	-4.452240e-003
3689810.944	-2.669568e-004	-4.544537e-003	9.980667e-001	-6.217137e-002	9.978801e-001	-6.191081e-002	-3.234490e-004	-4.560985e-003
3752350.028	-2.912459e-004	-4.578692e-003	9.979871e-001	-6.325949e-002	9.979386e-001	-6.293672e-002	-2.637786e-004	-4.602105e-003
3814889.112	-2.499808e-004	-4.665521e-003	9.979006e-001	-6.429530e-002	9.977594e-001	-6.394723e-002	-2.791486e-004	-4.714435e-003
3877428.196	-2.138408e-004	-4.733422e-003	9.978188e-001	-6.534828e-002	9.976667e-001	-6.495817e-002	-3.429726e-004	-4.758016e-003
3939967.280	-3.022091e-004	-4.847824e-003	9.976221e-001	-6.648002e-002	9.976324e-001	-6.606199e-002	-3.011353e-004	-4.794216e-003
4002506.363	-2.555025e-004	-4.913260e-003	9.976481e-001	-6.743496e-002	9.975403e-001	-6.708413e-002	-3.273405e-004	-4.887175e-003
4065045.447	-2.741673e-004	-4.981941e-003	9.976851e-001	-6.859031e-002	9.976082e-001	-6.831519e-002	-3.299036e-004	-5.010146e-003
4127584.531	-3.430718e-004	-5.043917e-003	9.976879e-001	-6.964418e-002	9.974729e-001	-6.927647e-002	-3.295906e-004	-5.077411e-003
4190123.615	-3.118974e-004	-5.111544e-003	9.974077e-001	-7.051171e-002	9.974061e-001	-7.020630e-002	-3.763214e-004	-5.169909e-003
4252662.699	-3.791306e-004	-5.197853e-003	9.973806e-001	-7.154880e-002	9.971487e-001	-7.123870e-002	-4.018895e-004	-5.194273e-003
4315201.782	-3.153301e-004	-5.319908e-003	9.973089e-001	-7.271204e-002	9.971599e-001	-7.220378e-002	-4.262183e-004	-5.301760e-003
4377740.866	-3.509271e-004	-5.374923e-003	9.972985e-001	-7.383326e-002	9.971919e-001	-7.346630e-002	-3.672048e-004	-5.368510e-003
4440279.950	-3.429831e-004	-5.410543e-003	9.972345e-001	-7.461718e-002	9.971321e-001	-7.442772e-002	-3.995000e-004	-5.474749e-003
4502819.034	-3.188599e-004	-5.593006e-003	9.971688e-001	-7.576972e-002	9.969228e-001	-7.549873e-002	-4.128040e-004	-5.528231e-003
4565358.118	-3.668948e-004	-5.577409e-003	9.967530e-001	-7.678292e-002	9.970121e-001	-7.669928e-002	-3.984198e-004	-5.580786e-003
4627897.201	-3.632768e-004	-5.715129e-003	9.968709e-001	-7.782366e-002	9.969543e-001	-7.751779e-002	-4.621975e-004	-5.610946e-003
4690436.285	-3.509159e-004	-5.752874e-003	9.967701e-001	-7.901014e-002	9.967797e-001	-7.857975e-002	-4.528955e-004	-5.729145e-003
4752975.369	-4.419739e-004	-5.888892e-003	9.966462e-001	-8.000222e-002	9.965534e-001	-7.963460e-002	-4.610281e-004	-5.822523e-003
4815514.453	-4.310946e-004	-5.948814e-003	9.966927e-001	-8.113982e-002	9.964745e-001	-8.078963e-002	-4.785301e-004	-5.911917e-003
4878053.537	-4.540377e-004	-5.950873e-003	9.966110e-001	-8.232202e-002	9.964792e-001	-8.167617e-002	-5.063523e-004	-5.949174e-003
4940592.620	-4.303240e-004	-6.049852e-003	9.963808e-001	-8.320222e-002	9.963037e-001	-8.278877e-002	-5.138456e-004	-6.043103e-003
5003131.704	-4.433288e-004	-6.142960e-003	9.963616e-001	-8.429860e-002	9.961153e-001	-8.389373e-002	-5.962028e-004	-6.161979e-003
5065670.788	-4.990109e-004	-6.232881e-003	9.963114e-001	-8.532068e-002	9.961120e-001	-8.494903e-002	-5.400951e-004	-6.200089e-003
5128209.872	-4.675554e-004	-6.273954e-003	9.961455e-001	-8.628883e-002	9.961579e-001	-8.589007e-002	-5.742375e-004	-6.294526e-003
5190748.956	-4.993489e-004	-6.423251e-003	9.960631e-001	-8.744351e-002	9.961215e-001	-8.694623e-002	-5.718155e-004	-6.349741e-003
5253288.039	-5.192905e-004	-6.451087e-003	9.957704e-001	-8.838751e-002	9.960216e-001	-8.800617e-002	-5.240341e-004	-6.439149e-003
5315827.123	-5.346452e-004	-6.539905e-003	9.957960e-001	-8.948562e-002	9.958461e-001	-8.920800e-002	-5.711025e-004	-6.489540e-003
5378366.207	-5.537908e-004	-6.604769e-003	9.956420e-001	-9.056862e-002	9.957456e-001	-9.013752e-002	-6.060790e-004	-6.568350e-003
5440905.291	-5.499679e-004	-6.682987e-003	9.958245e-001	-9.146971e-002	9.957841e-001	-9.127906e-002	-6.016331e-004	-6.660418e-003
5503444.375	-5.706214e-004	-6.769289e-003	9.956137e-001	-9.263533e-002	9.954979e-001	-9.252459e-002	-6.378191e-004	-6.726487e-003
5565983.458	-6.240380e-004	-6.815140e-003	9.956158e-001	-9.368874e-002	9.953271e-001	-9.342895e-002	-5.856022e-004	-6.803724e-003
5628522.542	-6.318992e-004	-6.932380e-003	9.954721e-001	-9.462870e-002	9.954985e-001	-9.428265e-002	-7.106592e-004	-6.923104e-003
5691061.626	-5.699770e-004	-6.980922e-003	9.953560e-001	-9.568093e-002	9.950971e-001	-9.548945e-002	-7.066148e-004	-6.952341e-003
5753600.710	-5.996909e-004	-7.076938e-003	9.951857e-001	-9.682367e-002	9.951718e-001	-9.648533e-002	-6.492989e-004	-7.023082e-003
5816139.794	-5.815300e-004	-7.141046e-003	9.952150e-001	-9.784483e-002	9.950370e-001	-9.768806e-002	-7.449671e-004	-7.110621e-003
5878678.877	-6.489407e-004	-7.222623e-003	9.949389e-001	-9.877768e-002	9.949328e-001	-9.855917e-002	-6.931878e-004	-7.160467e-003
5941217.961	-6.818486e-004	-7.295056e-003	9.949712e-001	-9.985649e-002	9.949612e-001	-9.947032e-002	-7.770214e-004	-7.246690e-003
6003757.045	-6.653438e-004	-7.434142e-003	9.947650e-001	-1.010502e-001	9.947742e-001	-1.006170e-001	-7.739699e-004	-7.378626e-003
6066296.129	-7.115614e-004	-7.437508e-003	9.945320e-001	-1.021159e-001	9.945369e-001	-1.016960e-001	-7.833514e-004	-7.383855e-003
6128835.213	-7.305625e-004	-7.488817e-003	9.945637e-001	-1.031628e-001	9.946212e-001	-1.029273e-001	-7.568542e-004	-7.444453e-003
6191374.296	-7.714704e-004	-7.636851e-003	9.944414e-001	-1.039696e-001	9.943759e-001	-1.037945e-001	-8.390263e-004	-7.577863e-003
6253913.380	-7.411660e-004	-7.704630e-003	9.942404e-001	-1.052398e-001	9.941123e-001	-1.048457e-001	-8.434135e-004	-7.598066e-003
6316452.464	-7.438700e-004	-7.716770e-003	9.941476e-001	-1.061099e-001	9.942556e-001	-1.057683e-001	-8.156429e-004	-7.690166e-003
6378991.548	-7.839574e-004	-7.852805e-003	9.942770e-001	-1.072311e-001	9.940611e-001	-1.068018e-001	-8.152029e-004	-7.750103e-003
6441530.632	-8.216916e-004	-7.901588e-003	9.941219e-001	-1.083120e-001	9.938099e-001	-1.080657e-001	-8.518548e-004	-7.899206e-003
6504069.715	-8.215068e-004	-7.981377e-003	9.939278e-001	-1.093147e-001	9.939263e-001	-1.090907e-001	-8.791021e-004	-7.940667e-003
6566608.799	-8.173496e-004	-8.056124e-003	9.937156e-001	-1.104101e-001	9.937566e-001	-1.099914e-001	-9.384471e-004	-7.998653e-003
6629147.883	-8.453100e-004	-8.137169e-003	9.935702e-001	-1.114860e-001	9.936722e-001	-1.111250e-001	-9.428919e-004	-8.059748e-003
6691686.967	-8.782863e-004	-8.247797e-003	9.935924e-001	-1.123743e-001	9.932282e-001	-1.122768e-001	-9.903616e-004	-8.107460e-003
6754226.051	-9.024932e-004	-8.270600e-003	9.935135e-001	-1.135302e-001	9.934144e-001	-1.131947e-001	-9.403179e-004	-8.247427e-003
6816765.134	-9.514717e-004	-8.388541e-003	9.932607e-001	-1.145331e-001	9.932805e-001	-1.142907e-001	-9.564917e-004	-8.332096e-003
6879304.218	-9.166669e-004	-8.451150e-003	9.931874e-001	-1.156309e-001	9.930331e-001	-1.153219e-001	-9.597641e-004	-8.380429e-003
6941843.302	-9.195047e-004	-8.501949e-003	9.930271e-001	-1.165148e-001	9.930666e-001	-1.163850e-001	-1.008653e-003	-8.428451e-003
7004382.386	-9.853019e-004	-8.557370e-003	9.927836e-001	-1.177825e-001	9.929631e-001	-1.175210e-001	-1.023403e-003	-8.549397e-003
7066921.470	-9.779244e-004	-8.663694e-003	9.926957e-001	-1.187812e-001	9.928495e-001	-1.183464e-001	-1.034641e-003	-8.616612e-003
7129460.553	-9.654718e-004	-8.780236e-003	9.927321e-001	-1.197799e-001	9.927151e-001	-1.196185e-001	-1.062447e-003	-8.687596e-003
7191999.637	-1.018232e-003	-8.820313e-003	9.924690e-001	-1.208716e-001	9.924699e-001	-1.204544e-001	-1.081830e-003	-8.763232e-003
7254538.721	-9.627094e-004	-8.893085e-003	9.923972e-001	-1.218784e-001	9.924561e-001	-1.215769e-001	-1.127086e-003	-8.812791e-003
7317077.805	-1.058570e-003	-8.958802e-003	9.921078e-001	-1.229750e-001	9.924847e-001	-1.226233e-001	-1.117057e-003	-8.878470e-003
7379616.889	-1.034596e-003	-9.027663e-003	9.922877e-001	-1.240259e-001	9.920835e-001	-1.235653e-001	-1.119556e-003	-9.006352e-003
7442155.972	-1.066207e-003	-9.126939e-003	9.919573e-001	-1.249733e-001	9.918747e-001	-1.247951e-001	-1.155676e-003	-9.059821e-003
7504695.056	-1.062093e-003	-9.208720e-003	9.918457e-001	-1.260308e-001	9.919660e-001	-1.256490e-001	-1.146018e-003	-9.102089e-003
7567234.140	-1.117927e-003	-9.233237e-003	9.918079e-001	-1.271719e-001	9.917224e-001	-1.266756e-001	-1.193128e-003	-9.169357e-003
7629773.224	-1.111740e-003	-9.344810e-003	9.915449e-001	-1.281760e-001	9.915562e-001	-1.277895e-001	-1.220119e-003	-9.247764e-003
7692312.308	-1.165610e-003	-9.421034e-003	9.915335e-001	-1.291899e-001	9.914549e-001	-1.288618e-001	-1.206144e-003	-9.261704e-003
7754851.391	-1.164548e-003	-9.515702e-003	9.912425e-001	-1.301730e-001	9.912856e-001	-1.298863e-001	-1.267135e-003	-9.359688e-003
7817390.475	-1.166242e-003	-9.549183e-003	9.913526e-001	-1.312134e-001	9.911850e-001	-1.310351e-001	-1.226870e-003	-9.489720e-003
7879929.559	-1.227125e-003	-9.645661e-003	9.910550e-001	-1.322374e-001	9.910177e-001	-1.319479e-001	-1.277265e-003	-9.543994e-003
7942468.643	-1.256665e-003	-9.686999e-003	9.908608e-001	-1.332745e-001	9.908836e-001	-1.331392e-001	-1.330353e-003	-9.617920e-003
8005007.727	-1.239459e-003	-9.765764e-003	9.908360e-001	-1.345151e-001	9.907795e-001	-1.339803e-001	-1.360628e-003	-9.735763e-003
8067546.811	-1.242673e-003	-9.840828e-003	9.906481e-001	-1.355666e-001	9.906913e-001	-1.352030e-001	-1.312640e-003	-9.776754e-003
8130085.894	-1.280129e-003	-9.899960e-003	9.905016e-001	-1.364933e-001	9.903870e-001	-1.362297e-001	-1.387395e-003	-9.858385e-003
8192624.978	-1.302187e-003	-1.000222e-002	9.902780e-001	-1.375518e-001	9.902385e-001	-1.372245e-001	-1.347469e-003	-9.935004e-003
8255164.062	-1.321216e-003	-1.008272e-002	9.901805e-001	-1.385837e-001	9.901673e-001	-1.382270e-001	-1.400238e-003	-1.002682e-002
8317703.146	-1.316652e-003	-1.020017e-002	9.900911e-001	-1.396994e-001	9.901336e-001	-1.392988e-001	-1.442277e-003	-1.010320e-002
8380242.230	-1.329172e-003	-1.027809e-002	9.898997e-001	-1.404379e-001	9.901170e-001	-1.403409e-001	-1.423753e-003	-1.014450e-002
8442781.313	-1.390924e-003	-1.029341e-002	9.898414e-001	-1.414948e-001	9.897106e-001	-1.413247e-001	-1.486462e-003	-1.020388e-002
8505320.397	-1.426972e-003	-1.038388e-002	9.896508e-001	-1.427617e-001	9.895435e-001	-1.425367e-001	-1.452899e-003	-1.035285e-002
8567859.481	-1.429197e-003	-1.044425e-002	9.894470e-001	-1.437241e-001	9.895082e-001	-1.433249e-001	-1.480713e-003	-1.035926e-002
8630398.565	-1.406458e-003	-1.051498e-002	9.892931e-001	-1.448468e-001	9.892632e-001	-1.444982e-001	-1.492130e-003	-1.047739e-002
8692937.649	-1.470104e-003	-1.058052e-002	9.890139e-001	-1.458406e-001	9.890987e-001	-1.453525e-001	-1.591218e-003	-1.048996e-002
8755476.732	-1.523913e-003	-1.061575e-002	9.888657e-001	-1.469809e-001	9.890478e-001	-1.465481e-001	-1.559716e-003	-1.055873e-002
8818015.816	-1.515397e-003	-1.074894e-002	9.888602e-001	-1.477856e-001	9.889161e-001	-1.475034e-001	-1.585186e-003	-1.066311e-002
8880554.900	-1.576296e-003	-1.086005e-002	9.886885e-001	-1.489881e-001	9.886902e-001	-1.485461e-001	-1.641247e-003	-1.072072e-002
8943093.984	-1.554168e-003	-1.089517e-002	9.885392e-001	-1.501020e-001	9.884855e-001	-1.495376e-001	-1.601248e-003	-1.078779e-002
9005633.068	-1.598763e-003	-1.098491e-002	9.883297e-001	-1.509980e-001	9.882933e-001	-1.508024e-001	-1.663482e-003	-1.090978e-002
9068172.151	-1.576426e-003	-1.103752e-002	9.881691e-001	-1.520693e-001	9.879998e-001	-1.518218e-001	-1.718983e-003	-1.091565e-002
9130711.235	-1.612910e-003	-1.109706e-002	9.879776e-001	-1.530900e-001	9.880070e-001	-1.525882e-001	-1.680016e-003	-1.102671e-002
9193250.319	-1.639696e-003	-1.121826e-002	9.878418e-001	-1.540873e-001	9.878576e-001	-1.538226e-001	-1.681761e-003	-1.111441e-002
9255789.403	-1.644416e-003	-1.128604e-002	9.876154e-001	-1.552581e-001	9.877662e-001	-1.547869e-001	-1.719341e-003	-1.111471e-002
9318328.487	-1.721671e-003	-1.134298e-002	9.874378e-001	-1.562926e-001	9.876250e-001	-1.560548e-001	-1.766956e-003	-1.126191e-002
9380867.570	-1.756415e-003	-1.138881e-002	9.873945e-001	-1.572550e-001	9.872432e-001	-1.568711e-001	-1.790046e-003	-1.128649e-002
9443406.654	-1.770780e-003	-1.151516e-002	9.871265e-001	-1.583005e-001	9.872432e-001	-1.580575e-001	-1.773237e-003	-1.136651e-002
