!Agilent Technologies,E5061B,MY49102235,A.02.00
!Date: Mon Jul 10 16:13:13 2023
!Data & Calibration Information:
!Freq	S11:SOLT2(ON)	S21:SOLT2(ON)	S12:SOLT2(ON)	S22:SOLT2(ON)
# Hz S RI R 50
5.000	-4.803475e-004	4.222459e-004	1.001719e+000	2.300278e-003	1.000508e+000	-6.201616e-005	-1.877865e-004	-6.200390e-005
62544.084	-5.186644e-005	-4.260221e-005	1.000068e+000	-8.461708e-004	1.000087e+000	-6.879825e-004	1.099960e-005	-1.198441e-004
125083.168	-4.423452e-005	-1.230361e-004	1.000219e+000	-2.303719e-003	1.000203e+000	-2.121946e-003	-4.744103e-005	-1.350332e-004
187622.251	1.636499e-004	-2.617375e-004	9.994471e-001	-2.456506e-003	1.000085e+000	-2.951696e-003	4.400507e-005	-1.706551e-004
250161.335	4.608533e-005	-1.959199e-004	9.997730e-001	-4.380988e-003	9.997575e-001	-4.261912e-003	4.231449e-005	-2.117846e-004
312700.419	2.271042e-005	-3.219336e-004	1.000230e+000	-5.281754e-003	9.992945e-001	-5.013621e-003	1.150601e-004	-2.864819e-004
375239.503	9.089480e-005	-3.758156e-004	9.998723e-001	-6.057752e-003	1.000103e+000	-6.284277e-003	1.549224e-005	-4.078299e-004
437778.587	1.026604e-004	-4.998894e-004	9.998972e-001	-7.271355e-003	9.991894e-001	-7.752843e-003	8.706613e-005	-2.893371e-004
500317.670	9.124610e-005	-5.615916e-004	9.999314e-001	-8.433829e-003	9.993402e-001	-8.859718e-003	9.646406e-005	-3.882463e-004
562856.754	1.201711e-004	-5.218046e-004	9.996863e-001	-9.708431e-003	9.996661e-001	-9.315047e-003	7.398139e-005	-5.667930e-004
625395.838	9.878184e-005	-6.218016e-004	9.997870e-001	-1.067405e-002	9.993156e-001	-1.037579e-002	1.049809e-004	-6.100783e-004
687934.922	-1.597939e-005	-7.646224e-004	1.000105e+000	-1.147131e-002	1.000268e+000	-1.167884e-002	-1.077304e-005	-6.992483e-004
750474.006	-8.283262e-005	-8.337697e-004	9.996760e-001	-1.275917e-002	9.996613e-001	-1.190492e-002	-9.893084e-005	-8.159238e-004
813013.089	-7.712793e-005	-8.781971e-004	1.000263e+000	-1.385373e-002	9.992560e-001	-1.346019e-002	-7.485232e-005	-9.061702e-004
875552.173	-7.439956e-005	-9.751042e-004	9.996478e-001	-1.502791e-002	9.998944e-001	-1.472273e-002	-5.701677e-005	-9.648517e-004
938091.257	-1.711908e-004	-1.015200e-003	9.993550e-001	-1.584402e-002	9.994752e-001	-1.532846e-002	-1.282575e-004	-1.030100e-003
1000630.341	-1.081937e-004	-1.029584e-003	9.995878e-001	-1.661704e-002	9.997658e-001	-1.662944e-002	-7.453312e-005	-1.091516e-003
1063169.425	-6.873567e-005	-1.118431e-003	1.000310e+000	-1.786092e-002	1.000471e+000	-1.824918e-002	-4.103946e-005	-1.187508e-003
1125708.508	-7.266225e-005	-1.198501e-003	1.000026e+000	-1.921273e-002	9.995412e-001	-1.886407e-002	-5.913453e-005	-1.201221e-003
1188247.592	-8.056054e-005	-1.302471e-003	9.994570e-001	-2.007447e-002	9.995952e-001	-1.991982e-002	-3.232320e-005	-1.271072e-003
1250786.676	-9.745168e-005	-1.355166e-003	9.996167e-001	-2.136527e-002	9.992742e-001	-2.079699e-002	-5.176564e-005	-1.326413e-003
1313325.760	-8.197843e-005	-1.408012e-003	9.997368e-001	-2.167553e-002	9.991096e-001	-2.205653e-002	-9.274170e-005	-1.455670e-003
1375864.844	-4.886288e-005	-1.529392e-003	1.000002e+000	-2.372817e-002	9.993434e-001	-2.353586e-002	-7.547500e-005	-1.532044e-003
1438403.927	-5.891349e-005	-1.602933e-003	9.996407e-001	-2.473902e-002	9.995003e-001	-2.412452e-002	-6.953880e-005	-1.597680e-003
1500943.011	-7.228018e-005	-1.659396e-003	9.997678e-001	-2.565688e-002	9.993570e-001	-2.550727e-002	-5.897675e-005	-1.636094e-003
1563482.095	-1.361335e-004	-1.714806e-003	9.991031e-001	-2.660291e-002	9.995528e-001	-2.643868e-002	-1.057304e-004	-1.728994e-003
1626021.179	-3.614560e-005	-1.767089e-003	9.994845e-001	-2.781920e-002	9.993676e-001	-2.715396e-002	-2.059324e-005	-1.794536e-003
1688560.263	-2.740843e-005	-1.855315e-003	9.999336e-001	-2.889928e-002	9.996437e-001	-2.835753e-002	-5.547279e-005	-1.845198e-003
1751099.346	-1.970280e-005	-1.836832e-003	9.997923e-001	-2.971024e-002	9.990487e-001	-2.940705e-002	-9.300064e-005	-1.939011e-003
1813638.430	-1.229400e-004	-1.963842e-003	9.998646e-001	-3.046436e-002	9.991558e-001	-3.057008e-002	-1.011202e-004	-1.976055e-003
1876177.514	-1.001025e-004	-2.089203e-003	9.996408e-001	-3.197658e-002	9.997010e-001	-3.147422e-002	-5.949557e-005	-2.051560e-003
1938716.598	-8.320553e-005	-2.122554e-003	9.991785e-001	-3.297889e-002	9.997606e-001	-3.286277e-002	-5.842480e-005	-2.126187e-003
2001255.682	-7.322743e-005	-2.152348e-003	9.997759e-001	-3.381644e-002	9.988842e-001	-3.392228e-002	-1.045761e-004	-2.208405e-003
2063794.765	-1.126756e-004	-2.194970e-003	9.992787e-001	-3.470459e-002	9.996045e-001	-3.478626e-002	-6.714645e-005	-2.275971e-003
2126333.849	-5.525204e-005	-2.382408e-003	9.986246e-001	-3.605474e-002	9.990786e-001	-3.615577e-002	-1.537459e-004	-2.390580e-003
2188872.933	-9.685722e-005	-2.398878e-003	9.992370e-001	-3.689465e-002	9.992565e-001	-3.715519e-002	-1.155638e-004	-2.393797e-003
2251412.017	-2.768906e-005	-2.480633e-003	9.994712e-001	-3.879416e-002	9.993609e-001	-3.776681e-002	-4.971333e-005	-2.487938e-003
2313951.101	-9.844967e-005	-2.559060e-003	9.989807e-001	-3.936439e-002	9.989247e-001	-3.854803e-002	-5.197976e-005	-2.605746e-003
2376490.184	-8.435369e-005	-2.640191e-003	9.996848e-001	-4.044511e-002	9.991638e-001	-4.012755e-002	-7.970188e-005	-2.630455e-003
2439029.268	-1.275201e-004	-2.724617e-003	9.990451e-001	-4.111393e-002	9.986623e-001	-4.125127e-002	-1.434421e-004	-2.751955e-003
2501568.352	-1.145001e-004	-2.690967e-003	9.991125e-001	-4.218998e-002	9.994928e-001	-4.230195e-002	-7.292411e-005	-2.756658e-003
2564107.436	-6.855083e-005	-2.766442e-003	9.987240e-001	-4.343043e-002	9.987522e-001	-4.322907e-002	-1.236805e-004	-2.869297e-003
2626646.520	-1.378319e-004	-2.899539e-003	9.986379e-001	-4.452623e-002	9.991348e-001	-4.396249e-002	-1.113168e-004	-2.895651e-003
2689185.604	-1.425493e-004	-2.955623e-003	9.994043e-001	-4.528253e-002	9.994070e-001	-4.524771e-002	-1.092318e-004	-3.035501e-003
2751724.687	-8.343527e-005	-3.099148e-003	9.990248e-001	-4.632927e-002	9.983043e-001	-4.630074e-002	-1.678256e-004	-3.016114e-003
2814263.771	-6.923091e-005	-3.141249e-003	9.992307e-001	-4.774617e-002	9.989593e-001	-4.781551e-002	-1.547365e-004	-3.116539e-003
2876802.855	-1.352533e-004	-3.199239e-003	9.989455e-001	-4.899074e-002	9.985276e-001	-4.860137e-002	-1.441642e-004	-3.236251e-003
2939341.939	-1.392639e-004	-3.255780e-003	9.986602e-001	-4.982080e-002	9.987872e-001	-4.932516e-002	-1.786453e-004	-3.288629e-003
3001881.023	-1.917768e-004	-3.308609e-003	9.987991e-001	-5.021245e-002	9.990151e-001	-5.000100e-002	-2.273365e-004	-3.296158e-003
3064420.106	-1.420838e-004	-3.433685e-003	9.982563e-001	-5.161881e-002	9.981451e-001	-5.144679e-002	-1.920262e-004	-3.380220e-003
3126959.190	-1.549174e-004	-3.451525e-003	9.985055e-001	-5.291013e-002	9.984409e-001	-5.286288e-002	-1.762372e-004	-3.482597e-003
3189498.274	-1.260711e-004	-3.522104e-003	9.985655e-001	-5.407153e-002	9.982689e-001	-5.390898e-002	-2.114081e-004	-3.546710e-003
3252037.358	-1.230988e-004	-3.618895e-003	9.983618e-001	-5.510935e-002	9.983559e-001	-5.487311e-002	-1.698654e-004	-3.608186e-003
3314576.442	-1.558214e-004	-3.750691e-003	9.984059e-001	-5.614061e-002	9.984295e-001	-5.603540e-002	-2.376544e-004	-3.652925e-003
3377115.525	-1.889427e-004	-3.725919e-003	9.984199e-001	-5.734943e-002	9.981603e-001	-5.704836e-002	-2.386996e-004	-3.744371e-003
3439654.609	-1.669334e-004	-3.772953e-003	9.980515e-001	-5.825480e-002	9.982673e-001	-5.816393e-002	-2.385000e-004	-3.829352e-003
3502193.693	-1.612646e-004	-3.935247e-003	9.981956e-001	-5.928825e-002	9.982006e-001	-5.911069e-002	-2.284710e-004	-3.930188e-003
3564732.777	-2.011585e-004	-3.969524e-003	9.981587e-001	-6.042141e-002	9.981143e-001	-6.020306e-002	-2.272083e-004	-3.989598e-003
3627271.861	-1.912170e-004	-4.051619e-003	9.979957e-001	-6.148405e-002	9.981298e-001	-6.134687e-002	-2.584917e-004	-4.040550e-003
3689810.944	-2.150826e-004	-4.132817e-003	9.980390e-001	-6.245807e-002	9.978456e-001	-6.233576e-002	-3.015808e-004	-4.139227e-003
3752350.028	-2.551578e-004	-4.168660e-003	9.979225e-001	-6.358215e-002	9.979322e-001	-6.336752e-002	-2.557449e-004	-4.169449e-003
3814889.112	-2.153981e-004	-4.248838e-003	9.978763e-001	-6.459463e-002	9.977613e-001	-6.441798e-002	-2.666892e-004	-4.287510e-003
3877428.196	-1.678582e-004	-4.290166e-003	9.978035e-001	-6.568232e-002	9.976369e-001	-6.537640e-002	-3.111699e-004	-4.322661e-003
3939967.280	-2.442699e-004	-4.417451e-003	9.975668e-001	-6.682286e-002	9.975769e-001	-6.653211e-002	-2.926330e-004	-4.349600e-003
4002506.363	-2.228528e-004	-4.469715e-003	9.975381e-001	-6.771683e-002	9.975744e-001	-6.754927e-002	-3.107367e-004	-4.430795e-003
4065045.447	-2.163721e-004	-4.545940e-003	9.976426e-001	-6.892919e-002	9.976170e-001	-6.882003e-002	-2.970068e-004	-4.550956e-003
4127584.531	-2.870569e-004	-4.598967e-003	9.976260e-001	-6.995231e-002	9.974810e-001	-6.973784e-002	-3.273346e-004	-4.607788e-003
4190123.615	-2.713801e-004	-4.663976e-003	9.973542e-001	-7.090473e-002	9.973841e-001	-7.069713e-002	-3.592961e-004	-4.698048e-003
4252662.699	-3.234079e-004	-4.737773e-003	9.972984e-001	-7.193139e-002	9.971566e-001	-7.170513e-002	-3.703238e-004	-4.711060e-003
4315201.782	-2.650804e-004	-4.842590e-003	9.972295e-001	-7.312453e-002	9.971401e-001	-7.274532e-002	-3.940000e-004	-4.819961e-003
4377740.866	-3.069157e-004	-4.895978e-003	9.972082e-001	-7.417963e-002	9.971381e-001	-7.395246e-002	-3.468903e-004	-4.888817e-003
4440279.950	-2.858544e-004	-4.925849e-003	9.971273e-001	-7.496004e-002	9.971201e-001	-7.496136e-002	-3.829041e-004	-4.981314e-003
4502819.034	-2.620650e-004	-5.090891e-003	9.971402e-001	-7.614030e-002	9.968869e-001	-7.602514e-002	-3.851614e-004	-5.033583e-003
4565358.118	-3.106211e-004	-5.088507e-003	9.966985e-001	-7.715868e-002	9.969676e-001	-7.722562e-002	-3.842386e-004	-5.064055e-003
4627897.201	-3.118909e-004	-5.193990e-003	9.968196e-001	-7.822477e-002	9.968944e-001	-7.804636e-002	-4.365881e-004	-5.094254e-003
4690436.285	-2.897511e-004	-5.234554e-003	9.967512e-001	-7.935917e-002	9.967279e-001	-7.911644e-002	-4.268487e-004	-5.202491e-003
4752975.369	-3.898577e-004	-5.366397e-003	9.965929e-001	-8.040945e-002	9.965585e-001	-8.020860e-002	-4.355550e-004	-5.284751e-003
4815514.453	-3.590262e-004	-5.424137e-003	9.966384e-001	-8.156059e-002	9.964873e-001	-8.132192e-002	-4.462971e-004	-5.362210e-003
4878053.537	-3.957216e-004	-5.433654e-003	9.965732e-001	-8.272463e-002	9.964307e-001	-8.226207e-002	-4.725706e-004	-5.397328e-003
4940592.620	-3.796279e-004	-5.517326e-003	9.963137e-001	-8.360779e-002	9.962917e-001	-8.336780e-002	-4.853649e-004	-5.491296e-003
5003131.704	-3.739993e-004	-5.592435e-003	9.963063e-001	-8.469344e-002	9.960643e-001	-8.452652e-002	-5.650271e-004	-5.598740e-003
5065670.788	-4.429702e-004	-5.680076e-003	9.962147e-001	-8.575820e-002	9.961144e-001	-8.555725e-002	-5.219267e-004	-5.634633e-003
5128209.872	-4.049974e-004	-5.713030e-003	9.960943e-001	-8.670457e-002	9.961316e-001	-8.650904e-002	-5.313464e-004	-5.701370e-003
5190748.956	-4.242047e-004	-5.852811e-003	9.960182e-001	-8.788058e-002	9.960865e-001	-8.755341e-002	-5.385712e-004	-5.754662e-003
5253288.039	-4.558737e-004	-5.888118e-003	9.957398e-001	-8.882312e-002	9.959735e-001	-8.861198e-002	-5.006387e-004	-5.848216e-003
5315827.123	-4.455194e-004	-5.961718e-003	9.957405e-001	-8.992314e-002	9.958138e-001	-8.981382e-002	-5.395855e-004	-5.879864e-003
5378366.207	-4.771355e-004	-6.003794e-003	9.955788e-001	-9.105350e-002	9.957502e-001	-9.076349e-002	-5.741041e-004	-5.967799e-003
5440905.291	-4.855984e-004	-6.086231e-003	9.957443e-001	-9.195877e-002	9.957341e-001	-9.186385e-002	-5.608597e-004	-6.040213e-003
5503444.375	-4.984368e-004	-6.173186e-003	9.955273e-001	-9.313305e-002	9.954582e-001	-9.320004e-002	-5.932425e-004	-6.100750e-003
5565983.458	-5.477162e-004	-6.211587e-003	9.955158e-001	-9.417062e-002	9.952853e-001	-9.405456e-002	-5.506782e-004	-6.157038e-003
5628522.542	-5.456163e-004	-6.324561e-003	9.953849e-001	-9.512235e-002	9.954568e-001	-9.492250e-002	-6.774691e-004	-6.283715e-003
5691061.626	-5.005280e-004	-6.362543e-003	9.952948e-001	-9.618057e-002	9.950993e-001	-9.609805e-002	-6.676000e-004	-6.301651e-003
5753600.710	-5.178707e-004	-6.465659e-003	9.951301e-001	-9.738398e-002	9.951656e-001	-9.714246e-002	-6.113321e-004	-6.359912e-003
5816139.794	-4.890427e-004	-6.495781e-003	9.951340e-001	-9.837545e-002	9.949938e-001	-9.832589e-002	-7.073249e-004	-6.458684e-003
5878678.877	-5.652330e-004	-6.581654e-003	9.948739e-001	-9.930733e-002	9.949059e-001	-9.921813e-002	-6.483692e-004	-6.486219e-003
5941217.961	-6.027242e-004	-6.656391e-003	9.948675e-001	-1.003610e-001	9.949253e-001	-1.001033e-001	-7.308819e-004	-6.571698e-003
6003757.045	-5.863990e-004	-6.780332e-003	9.946438e-001	-1.015802e-001	9.947180e-001	-1.013188e-001	-7.275289e-004	-6.708047e-003
6066296.129	-6.259170e-004	-6.788076e-003	9.944750e-001	-1.026209e-001	9.944976e-001	-1.024195e-001	-7.291804e-004	-6.700892e-003
6128835.213	-6.323618e-004	-6.819793e-003	9.945309e-001	-1.036767e-001	9.945421e-001	-1.036549e-001	-7.205455e-004	-6.753036e-003
6191374.296	-6.694679e-004	-6.969921e-003	9.943608e-001	-1.045196e-001	9.943877e-001	-1.044755e-001	-7.901150e-004	-6.884162e-003
6253913.380	-6.445107e-004	-7.034369e-003	9.941123e-001	-1.058091e-001	9.940673e-001	-1.055363e-001	-7.906478e-004	-6.895307e-003
6316452.464	-6.482485e-004	-7.034993e-003	9.940598e-001	-1.066458e-001	9.942239e-001	-1.064995e-001	-7.760681e-004	-6.977914e-003
6378991.548	-6.837461e-004	-7.163066e-003	9.941532e-001	-1.078123e-001	9.940565e-001	-1.075241e-001	-7.791903e-004	-7.018535e-003
6441530.632	-7.098107e-004	-7.217176e-003	9.940403e-001	-1.088868e-001	9.937660e-001	-1.087705e-001	-8.161869e-004	-7.164932e-003
6504069.715	-7.153030e-004	-7.272088e-003	9.937887e-001	-1.099146e-001	9.938918e-001	-1.098079e-001	-8.399455e-004	-7.205364e-003
6566608.799	-7.160561e-004	-7.342816e-003	9.936338e-001	-1.110181e-001	9.936684e-001	-1.107646e-001	-9.004041e-004	-7.247038e-003
6629147.883	-7.446001e-004	-7.415365e-003	9.934808e-001	-1.120860e-001	9.936176e-001	-1.118328e-001	-8.946595e-004	-7.306881e-003
6691686.967	-7.692816e-004	-7.527118e-003	9.934964e-001	-1.130056e-001	9.931984e-001	-1.130071e-001	-9.278073e-004	-7.353555e-003
6754226.051	-8.033290e-004	-7.549149e-003	9.934202e-001	-1.141482e-001	9.933518e-001	-1.139459e-001	-8.858900e-004	-7.491933e-003
6816765.134	-8.361991e-004	-7.656318e-003	9.931865e-001	-1.151865e-001	9.932331e-001	-1.150509e-001	-9.054230e-004	-7.564892e-003
6879304.218	-8.087324e-004	-7.708136e-003	9.930608e-001	-1.162804e-001	9.929779e-001	-1.160783e-001	-9.189785e-004	-7.603043e-003
6941843.302	-8.082609e-004	-7.750484e-003	9.928929e-001	-1.171458e-001	9.929991e-001	-1.171617e-001	-9.619648e-004	-7.633550e-003
7004382.386	-8.554435e-004	-7.809347e-003	9.927092e-001	-1.184143e-001	9.929329e-001	-1.182698e-001	-9.654346e-004	-7.746257e-003
7066921.470	-8.624025e-004	-7.892299e-003	9.926309e-001	-1.194140e-001	9.927969e-001	-1.191460e-001	-9.755899e-004	-7.813810e-003
7129460.553	-8.466460e-004	-7.998599e-003	9.926463e-001	-1.204315e-001	9.926418e-001	-1.204611e-001	-1.017187e-003	-7.873252e-003
7191999.637	-8.971863e-004	-8.037695e-003	9.923604e-001	-1.215407e-001	9.923779e-001	-1.212395e-001	-1.024932e-003	-7.935689e-003
7254538.721	-8.455269e-004	-8.113608e-003	9.923309e-001	-1.225575e-001	9.924054e-001	-1.223802e-001	-1.069398e-003	-7.978646e-003
7317077.805	-9.333834e-004	-8.162456e-003	9.920401e-001	-1.236597e-001	9.923585e-001	-1.234258e-001	-1.070366e-003	-8.041953e-003
7379616.889	-9.108542e-004	-8.229580e-003	9.921722e-001	-1.246775e-001	9.920117e-001	-1.243982e-001	-1.067994e-003	-8.163145e-003
7442155.972	-9.285117e-004	-8.318330e-003	9.918358e-001	-1.256534e-001	9.918511e-001	-1.256199e-001	-1.102407e-003	-8.208886e-003
7504695.056	-9.274041e-004	-8.389772e-003	9.917494e-001	-1.267504e-001	9.918926e-001	-1.265153e-001	-1.078140e-003	-8.243932e-003
7567234.140	-9.888155e-004	-8.424583e-003	9.917338e-001	-1.278785e-001	9.916602e-001	-1.275444e-001	-1.116292e-003	-8.318152e-003
7629773.224	-9.837598e-004	-8.530818e-003	9.914280e-001	-1.288937e-001	9.915170e-001	-1.286656e-001	-1.161095e-003	-8.387295e-003
7692312.308	-1.030978e-003	-8.582215e-003	9.914273e-001	-1.298739e-001	9.913539e-001	-1.297161e-001	-1.130220e-003	-8.387827e-003
7754851.391	-1.023248e-003	-8.679750e-003	9.910879e-001	-1.309055e-001	9.911857e-001	-1.307594e-001	-1.207637e-003	-8.485019e-003
7817390.475	-1.019161e-003	-8.696636e-003	9.912546e-001	-1.319288e-001	9.911119e-001	-1.318833e-001	-1.156399e-003	-8.594265e-003
7879929.559	-1.073323e-003	-8.796206e-003	9.909280e-001	-1.330050e-001	9.909182e-001	-1.328308e-001	-1.203608e-003	-8.651611e-003
7942468.643	-1.105769e-003	-8.831288e-003	9.907510e-001	-1.340115e-001	9.908371e-001	-1.340147e-001	-1.249467e-003	-8.711747e-003
8005007.727	-1.096947e-003	-8.903356e-003	9.907052e-001	-1.352920e-001	9.906897e-001	-1.348988e-001	-1.278316e-003	-8.819375e-003
8067546.811	-1.095487e-003	-8.962139e-003	9.905414e-001	-1.363207e-001	9.906356e-001	-1.361053e-001	-1.218335e-003	-8.852310e-003
8130085.894	-1.125398e-003	-9.015103e-003	9.903879e-001	-1.372765e-001	9.903084e-001	-1.371147e-001	-1.298259e-003	-8.932485e-003
8192624.978	-1.144759e-003	-9.129307e-003	9.901699e-001	-1.382929e-001	9.901685e-001	-1.381505e-001	-1.264068e-003	-8.977360e-003
8255164.062	-1.166215e-003	-9.187583e-003	9.900527e-001	-1.393534e-001	9.900837e-001	-1.391372e-001	-1.314286e-003	-9.070080e-003
8317703.146	-1.154778e-003	-9.298490e-003	9.899786e-001	-1.404630e-001	9.900363e-001	-1.402461e-001	-1.362019e-003	-9.142467e-003
8380242.230	-1.153871e-003	-9.376160e-003	9.898165e-001	-1.412327e-001	9.900194e-001	-1.412768e-001	-1.340111e-003	-9.184173e-003
8442781.313	-1.214785e-003	-9.378455e-003	9.897272e-001	-1.422936e-001	9.896295e-001	-1.422449e-001	-1.394958e-003	-9.223429e-003
8505320.397	-1.266432e-003	-9.448518e-003	9.894758e-001	-1.435583e-001	9.894511e-001	-1.434958e-001	-1.365470e-003	-9.379131e-003
8567859.481	-1.250851e-003	-9.527204e-003	9.893054e-001	-1.445688e-001	9.893901e-001	-1.442830e-001	-1.381933e-003	-9.373743e-003
8630398.565	-1.249796e-003	-9.583710e-003	9.891648e-001	-1.456696e-001	9.891879e-001	-1.454491e-001	-1.394227e-003	-9.486225e-003
8692937.649	-1.303698e-003	-9.640353e-003	9.888688e-001	-1.466423e-001	9.889875e-001	-1.463224e-001	-1.500844e-003	-9.490232e-003
8755476.732	-1.343786e-003	-9.689032e-003	9.887308e-001	-1.478088e-001	9.889474e-001	-1.475380e-001	-1.471474e-003	-9.563753e-003
8818015.816	-1.339603e-003	-9.795956e-003	9.887180e-001	-1.486415e-001	9.887879e-001	-1.484544e-001	-1.485179e-003	-9.651350e-003
8880554.900	-1.394311e-003	-9.899613e-003	9.885783e-001	-1.498905e-001	9.885912e-001	-1.495409e-001	-1.539180e-003	-9.707320e-003
8943093.984	-1.377615e-003	-9.932637e-003	9.884138e-001	-1.509537e-001	9.883750e-001	-1.505408e-001	-1.497156e-003	-9.764443e-003
9005633.068	-1.408084e-003	-1.001442e-002	9.881821e-001	-1.518581e-001	9.882026e-001	-1.517746e-001	-1.549297e-003	-9.869414e-003
9068172.151	-1.399446e-003	-1.006488e-002	9.880003e-001	-1.529532e-001	9.878931e-001	-1.528667e-001	-1.627379e-003	-9.881040e-003
9130711.235	-1.421291e-003	-1.011670e-002	9.878439e-001	-1.539577e-001	9.879138e-001	-1.536274e-001	-1.572422e-003	-9.977656e-003
9193250.319	-1.449543e-003	-1.023242e-002	9.876976e-001	-1.549349e-001	9.877639e-001	-1.548813e-001	-1.564774e-003	-1.006694e-002
9255789.403	-1.447048e-003	-1.028770e-002	9.874610e-001	-1.561364e-001	9.876787e-001	-1.558510e-001	-1.619146e-003	-1.005061e-002
9318328.487	-1.538084e-003	-1.032897e-002	9.873299e-001	-1.571609e-001	9.874930e-001	-1.570750e-001	-1.656843e-003	-1.018514e-002
9380867.570	-1.560877e-003	-1.036513e-002	9.872305e-001	-1.582057e-001	9.871195e-001	-1.578732e-001	-1.679562e-003	-1.020146e-002
9443406.654	-1.573368e-003	-1.049852e-002	9.870112e-001	-1.592030e-001	9.870914e-001	-1.591040e-001	-1.651436e-003	-1.029792e-002
