!Agilent Technologies,E5061B,MY49102235,A.02.00
!Date: Mon Jul 10 17:01:10 2023
!Data & Calibration Information:
!Freq	S11:SOLT2(ON)	S21:SOLT2(ON)	S12:SOLT2(ON)	S22:SOLT2(ON)
# Hz S RI R 50
5.000	-4.724967e-004	4.280578e-004	1.001876e+000	2.293335e-003	1.000526e+000	-2.629722e-005	-1.733458e-004	-5.278860e-005
62544.084	-5.870189e-005	-1.746345e-005	1.000027e+000	-8.684011e-004	1.000214e+000	-6.067742e-004	1.764119e-005	-1.229839e-004
125083.168	-2.602897e-005	-1.330775e-004	1.000304e+000	-2.292654e-003	1.000123e+000	-2.035028e-003	-5.187775e-005	-1.379395e-004
187622.251	1.731067e-004	-2.576557e-004	9.993807e-001	-2.546211e-003	1.000219e+000	-2.901251e-003	3.827001e-005	-1.733537e-004
250161.335	3.558404e-005	-1.830828e-004	9.997957e-001	-4.504162e-003	9.998335e-001	-4.266646e-003	2.709319e-005	-2.066501e-004
312700.419	3.474092e-005	-3.175210e-004	1.000245e+000	-5.334503e-003	9.992494e-001	-5.008272e-003	1.044963e-004	-2.702026e-004
375239.503	6.545798e-005	-3.418989e-004	9.999882e-001	-6.405868e-003	1.000111e+000	-6.351317e-003	-9.944400e-007	-3.725404e-004
437778.587	9.512754e-005	-4.882991e-004	1.000045e+000	-7.407766e-003	9.991792e-001	-7.718163e-003	7.035044e-005	-2.762018e-004
500317.670	1.051555e-004	-5.409448e-004	9.999199e-001	-8.578725e-003	9.993233e-001	-8.795309e-003	1.012674e-004	-3.818187e-004
562856.754	1.108953e-004	-5.049644e-004	9.997975e-001	-9.793192e-003	9.997592e-001	-9.257383e-003	5.081040e-005	-5.710971e-004
625395.838	9.631024e-005	-6.072781e-004	9.998868e-001	-1.075897e-002	9.991388e-001	-1.025836e-002	1.399289e-004	-5.842897e-004
687934.922	1.362877e-006	-7.341598e-004	1.000070e+000	-1.158836e-002	1.000221e+000	-1.174346e-002	-1.521941e-005	-6.676409e-004
750474.006	-8.674287e-005	-8.152740e-004	9.996767e-001	-1.283834e-002	9.994832e-001	-1.192763e-002	-1.123854e-004	-8.141038e-004
813013.089	-7.704886e-005	-8.484561e-004	1.000359e+000	-1.398803e-002	9.991699e-001	-1.336874e-002	-8.511596e-005	-8.891637e-004
875552.173	-6.197197e-005	-9.481661e-004	9.998319e-001	-1.516606e-002	9.998999e-001	-1.486861e-002	-6.123185e-005	-9.552053e-004
938091.257	-1.744748e-004	-9.860225e-004	9.995362e-001	-1.581440e-002	9.995284e-001	-1.526566e-002	-1.427951e-004	-1.009222e-003
1000630.341	-8.500019e-005	-1.003992e-003	9.998260e-001	-1.679284e-002	9.996752e-001	-1.661967e-002	-7.494831e-005	-1.086509e-003
1063169.425	-6.466659e-005	-1.099199e-003	1.000360e+000	-1.800179e-002	1.000378e+000	-1.813469e-002	-4.219910e-005	-1.155635e-003
1125708.508	-8.149299e-005	-1.164465e-003	1.000189e+000	-1.927571e-002	9.995369e-001	-1.870033e-002	-4.290005e-005	-1.187049e-003
1188247.592	-6.994883e-005	-1.271516e-003	9.996272e-001	-2.004378e-002	9.994443e-001	-1.986057e-002	-4.158129e-005	-1.265702e-003
1250786.676	-8.170461e-005	-1.329027e-003	9.997963e-001	-2.152691e-002	9.991860e-001	-2.081346e-002	-4.443087e-005	-1.303459e-003
1313325.760	-7.347437e-005	-1.377269e-003	9.998907e-001	-2.173632e-002	9.990940e-001	-2.199643e-002	-8.969080e-005	-1.428381e-003
1375864.844	-5.361466e-005	-1.482975e-003	1.000193e+000	-2.390728e-002	9.994572e-001	-2.358458e-002	-8.351998e-005	-1.503407e-003
1438403.927	-7.197769e-005	-1.575992e-003	9.995809e-001	-2.482359e-002	9.995091e-001	-2.411981e-002	-5.367115e-005	-1.573030e-003
1500943.011	-5.999540e-005	-1.621939e-003	9.999488e-001	-2.584638e-002	9.991673e-001	-2.539581e-002	-7.291331e-005	-1.607367e-003
1563482.095	-1.292535e-004	-1.689324e-003	9.992757e-001	-2.667623e-002	9.995390e-001	-2.636919e-002	-1.080708e-004	-1.707880e-003
1626021.179	-2.489374e-005	-1.726227e-003	9.995836e-001	-2.794843e-002	9.993889e-001	-2.714702e-002	-3.158290e-005	-1.780645e-003
1688560.263	-2.464577e-005	-1.811107e-003	1.000040e+000	-2.886767e-002	9.994986e-001	-2.834690e-002	-6.486314e-005	-1.840891e-003
1751099.346	-1.703693e-005	-1.812594e-003	9.998402e-001	-2.990104e-002	9.990740e-001	-2.951673e-002	-7.857289e-005	-1.906496e-003
1813638.430	-1.146429e-004	-1.926030e-003	9.999373e-001	-3.062653e-002	9.990002e-001	-3.063358e-002	-9.803628e-005	-1.945217e-003
1876177.514	-9.107554e-005	-2.057594e-003	9.996250e-001	-3.211685e-002	9.995080e-001	-3.151070e-002	-6.160203e-005	-2.036847e-003
1938716.598	-9.192037e-005	-2.090697e-003	9.993172e-001	-3.313585e-002	9.997266e-001	-3.263651e-002	-6.863704e-005	-2.096882e-003
2001255.682	-8.311538e-005	-2.133161e-003	9.998163e-001	-3.408758e-002	9.988530e-001	-3.382826e-002	-1.041957e-004	-2.177464e-003
2063794.765	-1.073710e-004	-2.167917e-003	9.993662e-001	-3.491960e-002	9.995027e-001	-3.467682e-002	-6.274240e-005	-2.250202e-003
2126333.849	-5.343967e-005	-2.335583e-003	9.986832e-001	-3.619622e-002	9.992033e-001	-3.597008e-002	-1.588433e-004	-2.348602e-003
2188872.933	-9.425782e-005	-2.353130e-003	9.993835e-001	-3.705701e-002	9.992351e-001	-3.719201e-002	-1.120250e-004	-2.366472e-003
2251412.017	-2.927072e-005	-2.444441e-003	9.995718e-001	-3.898078e-002	9.992196e-001	-3.788402e-002	-4.431254e-005	-2.463539e-003
2313951.101	-9.746228e-005	-2.517332e-003	9.990691e-001	-3.963589e-002	9.990727e-001	-3.865588e-002	-5.108912e-005	-2.571311e-003
2376490.184	-7.516972e-005	-2.597531e-003	9.998391e-001	-4.064189e-002	9.991663e-001	-4.023341e-002	-7.432479e-005	-2.598850e-003
2439029.268	-1.289947e-004	-2.674757e-003	9.991840e-001	-4.134109e-002	9.986124e-001	-4.121161e-002	-1.424971e-004	-2.713985e-003
2501568.352	-1.212067e-004	-2.648762e-003	9.992330e-001	-4.235982e-002	9.993689e-001	-4.235809e-002	-8.766095e-005	-2.714125e-003
2564107.436	-7.155402e-005	-2.730481e-003	9.987576e-001	-4.360344e-002	9.986076e-001	-4.335804e-002	-1.171781e-004	-2.845682e-003
2626646.520	-1.464450e-004	-2.849859e-003	9.986997e-001	-4.467483e-002	9.992438e-001	-4.389756e-002	-1.015706e-004	-2.846701e-003
2689185.604	-1.315512e-004	-2.915575e-003	9.994103e-001	-4.552877e-002	9.993740e-001	-4.525307e-002	-1.007267e-004	-3.001132e-003
2751724.687	-8.160711e-005	-3.047716e-003	9.990284e-001	-4.653543e-002	9.983385e-001	-4.634637e-002	-1.481942e-004	-2.975369e-003
2814263.771	-7.706557e-005	-3.083966e-003	9.993258e-001	-4.792775e-002	9.990562e-001	-4.781773e-002	-1.501647e-004	-3.079756e-003
2876802.855	-1.349820e-004	-3.146548e-003	9.991250e-001	-4.925841e-002	9.983843e-001	-4.864023e-002	-1.422934e-004	-3.180061e-003
2939341.939	-1.414231e-004	-3.204721e-003	9.986944e-001	-4.995624e-002	9.986712e-001	-4.924220e-002	-1.712668e-004	-3.229820e-003
3001881.023	-1.897329e-004	-3.249537e-003	9.988794e-001	-5.041892e-002	9.989044e-001	-5.009704e-002	-2.135302e-004	-3.247460e-003
3064420.106	-1.366638e-004	-3.374888e-003	9.982621e-001	-5.189268e-002	9.980788e-001	-5.150827e-002	-1.765948e-004	-3.343522e-003
3126959.190	-1.663932e-004	-3.403966e-003	9.985661e-001	-5.308059e-002	9.983865e-001	-5.281132e-002	-1.644824e-004	-3.418551e-003
3189498.274	-1.371086e-004	-3.466836e-003	9.986567e-001	-5.428068e-002	9.981990e-001	-5.390601e-002	-2.140062e-004	-3.498853e-003
3252037.358	-1.287915e-004	-3.551069e-003	9.984189e-001	-5.525679e-002	9.983230e-001	-5.491931e-002	-1.780575e-004	-3.555167e-003
3314576.442	-1.476704e-004	-3.668437e-003	9.984547e-001	-5.636910e-002	9.983904e-001	-5.604610e-002	-2.259264e-004	-3.601477e-003
3377115.525	-2.025149e-004	-3.676787e-003	9.984546e-001	-5.751590e-002	9.981466e-001	-5.710043e-002	-2.295701e-004	-3.707178e-003
3439654.609	-1.687291e-004	-3.710485e-003	9.981551e-001	-5.841214e-002	9.982025e-001	-5.814531e-002	-2.313821e-004	-3.780111e-003
3502193.693	-1.739585e-004	-3.862584e-003	9.982621e-001	-5.950955e-002	9.981582e-001	-5.910616e-002	-2.169098e-004	-3.877646e-003
3564732.777	-2.030217e-004	-3.902478e-003	9.982039e-001	-6.060878e-002	9.980585e-001	-6.022530e-002	-2.117626e-004	-3.922044e-003
3627271.861	-2.078879e-004	-3.984116e-003	9.980636e-001	-6.165815e-002	9.980691e-001	-6.138591e-002	-2.256990e-004	-3.981629e-003
3689810.944	-2.357840e-004	-4.058471e-003	9.980911e-001	-6.268712e-002	9.978073e-001	-6.239459e-002	-2.834057e-004	-4.088998e-003
3752350.028	-2.594192e-004	-4.091191e-003	9.979932e-001	-6.379181e-002	9.978823e-001	-6.341368e-002	-2.312336e-004	-4.105107e-003
3814889.112	-2.301366e-004	-4.165598e-003	9.979249e-001	-6.479765e-002	9.977297e-001	-6.445173e-002	-2.561542e-004	-4.214633e-003
3877428.196	-1.647308e-004	-4.216577e-003	9.978444e-001	-6.583556e-002	9.975842e-001	-6.540885e-002	-2.944595e-004	-4.273503e-003
3939967.280	-2.478193e-004	-4.332528e-003	9.976462e-001	-6.696650e-002	9.975098e-001	-6.657994e-002	-2.701687e-004	-4.292056e-003
4002506.363	-2.239999e-004	-4.392581e-003	9.976397e-001	-6.795946e-002	9.974851e-001	-6.756555e-002	-2.884176e-004	-4.375768e-003
4065045.447	-2.252281e-004	-4.461532e-003	9.976601e-001	-6.911942e-002	9.975279e-001	-6.887067e-002	-2.770857e-004	-4.489340e-003
4127584.531	-3.044423e-004	-4.518188e-003	9.977098e-001	-7.018856e-002	9.973962e-001	-6.975386e-002	-2.938936e-004	-4.550381e-003
4190123.615	-2.777548e-004	-4.561058e-003	9.974068e-001	-7.108074e-002	9.973475e-001	-7.075947e-002	-3.311903e-004	-4.623487e-003
4252662.699	-3.420356e-004	-4.652935e-003	9.973695e-001	-7.212569e-002	9.971191e-001	-7.178405e-002	-3.556660e-004	-4.655126e-003
4315201.782	-2.893116e-004	-4.751441e-003	9.972698e-001	-7.328162e-002	9.970758e-001	-7.277531e-002	-3.824940e-004	-4.750982e-003
4377740.866	-3.138001e-004	-4.815125e-003	9.972613e-001	-7.437123e-002	9.971050e-001	-7.399446e-002	-3.229189e-004	-4.804564e-003
4440279.950	-2.885733e-004	-4.842988e-003	9.971851e-001	-7.521074e-002	9.970957e-001	-7.501577e-002	-3.609007e-004	-4.913790e-003
4502819.034	-2.777801e-004	-4.994660e-003	9.971590e-001	-7.635701e-002	9.968415e-001	-7.602716e-002	-3.627911e-004	-4.958315e-003
4565358.118	-3.215449e-004	-4.992490e-003	9.967250e-001	-7.736548e-002	9.969093e-001	-7.728399e-002	-3.547760e-004	-4.997632e-003
4627897.201	-3.268727e-004	-5.113078e-003	9.968308e-001	-7.845887e-002	9.968296e-001	-7.807059e-002	-4.141974e-004	-5.027045e-003
4690436.285	-3.099394e-004	-5.145827e-003	9.967791e-001	-7.961492e-002	9.967125e-001	-7.919354e-002	-4.040123e-004	-5.136086e-003
4752975.369	-3.953059e-004	-5.290168e-003	9.966759e-001	-8.059660e-002	9.965034e-001	-8.024515e-002	-4.158378e-004	-5.222221e-003
4815514.453	-3.760409e-004	-5.329360e-003	9.967140e-001	-8.178774e-002	9.964026e-001	-8.141648e-002	-4.186729e-004	-5.292378e-003
4878053.537	-4.077295e-004	-5.334767e-003	9.965795e-001	-8.290798e-002	9.963638e-001	-8.229271e-002	-4.480277e-004	-5.328297e-003
4940592.620	-3.932810e-004	-5.428261e-003	9.963877e-001	-8.384639e-002	9.962358e-001	-8.338925e-002	-4.609991e-004	-5.408662e-003
5003131.704	-3.705388e-004	-5.499532e-003	9.963813e-001	-8.494455e-002	9.960885e-001	-8.458888e-002	-5.469756e-004	-5.524702e-003
5065670.788	-4.502847e-004	-5.580365e-003	9.962875e-001	-8.600590e-002	9.960209e-001	-8.558197e-002	-4.845726e-004	-5.556833e-003
5128209.872	-4.157948e-004	-5.618476e-003	9.961510e-001	-8.697369e-002	9.960840e-001	-8.657052e-002	-5.001156e-004	-5.632434e-003
5190748.956	-4.349391e-004	-5.747648e-003	9.960821e-001	-8.810010e-002	9.960389e-001	-8.761108e-002	-5.024623e-004	-5.688620e-003
5253288.039	-4.660138e-004	-5.781550e-003	9.957591e-001	-8.907336e-002	9.959076e-001	-8.867827e-002	-4.565446e-004	-5.772049e-003
5315827.123	-4.695628e-004	-5.848203e-003	9.957964e-001	-9.013822e-002	9.957516e-001	-8.990263e-002	-4.993868e-004	-5.802521e-003
5378366.207	-5.111717e-004	-5.909848e-003	9.956475e-001	-9.126677e-002	9.956596e-001	-9.077998e-002	-5.400686e-004	-5.893059e-003
5440905.291	-4.848562e-004	-5.986866e-003	9.957696e-001	-9.218540e-002	9.956735e-001	-9.195383e-002	-5.352357e-004	-5.974741e-003
5503444.375	-5.074003e-004	-6.050319e-003	9.955705e-001	-9.337366e-002	9.953731e-001	-9.321062e-002	-5.592094e-004	-6.029506e-003
5565983.458	-5.440584e-004	-6.102484e-003	9.955778e-001	-9.441783e-002	9.952337e-001	-9.415130e-002	-5.063862e-004	-6.086295e-003
5628522.542	-5.503947e-004	-6.204596e-003	9.954919e-001	-9.536625e-002	9.954221e-001	-9.500572e-002	-6.373374e-004	-6.212370e-003
5691061.626	-5.038484e-004	-6.254939e-003	9.952849e-001	-9.643339e-002	9.950898e-001	-9.619712e-002	-6.241050e-004	-6.222773e-003
5753600.710	-5.306313e-004	-6.344893e-003	9.951277e-001	-9.762729e-002	9.951042e-001	-9.722678e-002	-5.803411e-004	-6.298808e-003
5816139.794	-5.034529e-004	-6.379213e-003	9.951575e-001	-9.856708e-002	9.949537e-001	-9.844449e-002	-6.629780e-004	-6.369976e-003
5878678.877	-5.840920e-004	-6.462651e-003	9.949180e-001	-9.955128e-002	9.948128e-001	-9.928118e-002	-6.046485e-004	-6.409460e-003
5941217.961	-6.223337e-004	-6.547667e-003	9.949073e-001	-1.006424e-001	9.948222e-001	-1.002108e-001	-6.934392e-004	-6.489532e-003
6003757.045	-5.819753e-004	-6.658296e-003	9.946800e-001	-1.018336e-001	9.946596e-001	-1.013895e-001	-6.883909e-004	-6.617158e-003
6066296.129	-6.375757e-004	-6.674418e-003	9.945098e-001	-1.029006e-001	9.944343e-001	-1.024319e-001	-6.831187e-004	-6.625195e-003
6128835.213	-6.358530e-004	-6.692452e-003	9.945817e-001	-1.039167e-001	9.944979e-001	-1.036734e-001	-6.710201e-004	-6.666530e-003
6191374.296	-6.935475e-004	-6.839258e-003	9.943925e-001	-1.047844e-001	9.942711e-001	-1.046080e-001	-7.417262e-004	-6.798776e-003
6253913.380	-6.517282e-004	-6.905064e-003	9.941606e-001	-1.060639e-001	9.940159e-001	-1.056069e-001	-7.505949e-004	-6.800839e-003
6316452.464	-6.759132e-004	-6.901611e-003	9.941486e-001	-1.069444e-001	9.941528e-001	-1.065885e-001	-7.213285e-004	-6.901858e-003
6378991.548	-7.029644e-004	-7.050065e-003	9.941936e-001	-1.080722e-001	9.939495e-001	-1.076546e-001	-7.331900e-004	-6.941209e-003
6441530.632	-7.209499e-004	-7.077660e-003	9.940337e-001	-1.091679e-001	9.937392e-001	-1.089160e-001	-7.637067e-004	-7.087858e-003
6504069.715	-7.283098e-004	-7.157510e-003	9.938375e-001	-1.101619e-001	9.937964e-001	-1.099113e-001	-7.849828e-004	-7.123922e-003
6566608.799	-7.315462e-004	-7.211690e-003	9.936303e-001	-1.112338e-001	9.935845e-001	-1.108479e-001	-8.462413e-004	-7.166957e-003
6629147.883	-7.755154e-004	-7.287155e-003	9.935178e-001	-1.123466e-001	9.935631e-001	-1.119767e-001	-8.416042e-004	-7.230401e-003
6691686.967	-7.806580e-004	-7.388872e-003	9.935364e-001	-1.132661e-001	9.931545e-001	-1.130887e-001	-8.780987e-004	-7.256541e-003
6754226.051	-8.100931e-004	-7.416876e-003	9.934454e-001	-1.143895e-001	9.932774e-001	-1.140289e-001	-8.208495e-004	-7.401798e-003
6816765.134	-8.560787e-004	-7.516013e-003	9.931989e-001	-1.154440e-001	9.931333e-001	-1.151707e-001	-8.492543e-004	-7.480720e-003
6879304.218	-8.103689e-004	-7.568507e-003	9.930902e-001	-1.165290e-001	9.929459e-001	-1.161556e-001	-8.585812e-004	-7.514230e-003
6941843.302	-8.130543e-004	-7.609130e-003	9.929132e-001	-1.174216e-001	9.929496e-001	-1.172967e-001	-8.956078e-004	-7.556599e-003
7004382.386	-8.686759e-004	-7.674372e-003	9.927246e-001	-1.186950e-001	9.928426e-001	-1.183864e-001	-9.159907e-004	-7.651037e-003
7066921.470	-8.716208e-004	-7.763473e-003	9.926128e-001	-1.196992e-001	9.927137e-001	-1.192475e-001	-9.210544e-004	-7.722288e-003
7129460.553	-8.591677e-004	-7.870036e-003	9.926445e-001	-1.207082e-001	9.926118e-001	-1.205114e-001	-9.392042e-004	-7.780379e-003
7191999.637	-8.995047e-004	-7.907561e-003	9.923898e-001	-1.218172e-001	9.923320e-001	-1.213745e-001	-9.542237e-004	-7.859208e-003
7254538.721	-8.543789e-004	-7.967515e-003	9.923294e-001	-1.228423e-001	9.923083e-001	-1.225201e-001	-1.010700e-003	-7.887892e-003
7317077.805	-9.489966e-004	-8.015813e-003	9.920565e-001	-1.239458e-001	9.923237e-001	-1.235355e-001	-9.883855e-004	-7.945036e-003
7379616.889	-9.098975e-004	-8.087334e-003	9.922059e-001	-1.249708e-001	9.919438e-001	-1.245038e-001	-1.002837e-003	-8.086390e-003
7442155.972	-9.468770e-004	-8.159633e-003	9.918349e-001	-1.259640e-001	9.917452e-001	-1.257240e-001	-1.036280e-003	-8.124605e-003
7504695.056	-9.466024e-004	-8.235775e-003	9.917473e-001	-1.270181e-001	9.917787e-001	-1.266056e-001	-1.010915e-003	-8.157742e-003
7567234.140	-1.001216e-003	-8.277520e-003	9.917404e-001	-1.281448e-001	9.916062e-001	-1.276311e-001	-1.054281e-003	-8.213935e-003
7629773.224	-9.882152e-004	-8.372957e-003	9.915052e-001	-1.291744e-001	9.914539e-001	-1.287452e-001	-1.092715e-003	-8.280585e-003
7692312.308	-1.037500e-003	-8.433886e-003	9.914668e-001	-1.301764e-001	9.912679e-001	-1.298349e-001	-1.061451e-003	-8.294760e-003
7754851.391	-1.030973e-003	-8.526395e-003	9.911293e-001	-1.311980e-001	9.911276e-001	-1.308265e-001	-1.139990e-003	-8.377320e-003
7817390.475	-1.038691e-003	-8.535433e-003	9.912760e-001	-1.322526e-001	9.910280e-001	-1.319858e-001	-1.093924e-003	-8.498355e-003
7879929.559	-1.088520e-003	-8.658839e-003	9.909320e-001	-1.332531e-001	9.908448e-001	-1.329623e-001	-1.138863e-003	-8.553692e-003
7942468.643	-1.116048e-003	-8.674160e-003	9.907776e-001	-1.343083e-001	9.907380e-001	-1.341444e-001	-1.178274e-003	-8.617177e-003
8005007.727	-1.111504e-003	-8.734257e-003	9.906956e-001	-1.355535e-001	9.906077e-001	-1.350011e-001	-1.205444e-003	-8.725987e-003
8067546.811	-1.111332e-003	-8.806028e-003	9.905118e-001	-1.365858e-001	9.904994e-001	-1.362139e-001	-1.150723e-003	-8.758430e-003
8130085.894	-1.140237e-003	-8.858380e-003	9.903814e-001	-1.375227e-001	9.902033e-001	-1.372531e-001	-1.214767e-003	-8.832458e-003
8192624.978	-1.158278e-003	-8.963272e-003	9.901732e-001	-1.385804e-001	9.900778e-001	-1.382819e-001	-1.196071e-003	-8.890668e-003
8255164.062	-1.176825e-003	-9.039379e-003	9.900917e-001	-1.396852e-001	9.900064e-001	-1.392602e-001	-1.236956e-003	-8.982158e-003
8317703.146	-1.163845e-003	-9.143807e-003	9.900044e-001	-1.407568e-001	9.899846e-001	-1.403509e-001	-1.273230e-003	-9.047786e-003
8380242.230	-1.179860e-003	-9.208278e-003	9.898201e-001	-1.415168e-001	9.899166e-001	-1.413751e-001	-1.265067e-003	-9.085061e-003
8442781.313	-1.225898e-003	-9.210741e-003	9.896966e-001	-1.426074e-001	9.895448e-001	-1.423813e-001	-1.326926e-003	-9.125396e-003
8505320.397	-1.280607e-003	-9.292708e-003	9.894895e-001	-1.438537e-001	9.893783e-001	-1.435937e-001	-1.285281e-003	-9.278204e-003
8567859.481	-1.273046e-003	-9.355819e-003	9.892919e-001	-1.448722e-001	9.892809e-001	-1.444113e-001	-1.296854e-003	-9.271800e-003
8630398.565	-1.268414e-003	-9.412245e-003	9.891725e-001	-1.459371e-001	9.890954e-001	-1.455874e-001	-1.320378e-003	-9.384824e-003
8692937.649	-1.314112e-003	-9.484524e-003	9.888893e-001	-1.469338e-001	9.888732e-001	-1.464813e-001	-1.411906e-003	-9.391214e-003
8755476.732	-1.351701e-003	-9.504556e-003	9.887268e-001	-1.480961e-001	9.888811e-001	-1.476484e-001	-1.381639e-003	-9.454610e-003
8818015.816	-1.360938e-003	-9.629003e-003	9.887146e-001	-1.489648e-001	9.886800e-001	-1.486340e-001	-1.398667e-003	-9.551997e-003
8880554.900	-1.414596e-003	-9.725251e-003	9.885490e-001	-1.501502e-001	9.885422e-001	-1.496665e-001	-1.454704e-003	-9.602009e-003
8943093.984	-1.392397e-003	-9.758187e-003	9.884190e-001	-1.512836e-001	9.882983e-001	-1.506699e-001	-1.409775e-003	-9.662156e-003
9005633.068	-1.416206e-003	-9.833973e-003	9.881704e-001	-1.521981e-001	9.880947e-001	-1.519140e-001	-1.465919e-003	-9.776307e-003
9068172.151	-1.413565e-003	-9.881685e-003	9.880289e-001	-1.532508e-001	9.877907e-001	-1.529535e-001	-1.530529e-003	-9.781610e-003
9130711.235	-1.441913e-003	-9.935059e-003	9.878269e-001	-1.542616e-001	9.878146e-001	-1.537645e-001	-1.475554e-003	-9.877395e-003
9193250.319	-1.458792e-003	-1.004789e-002	9.876740e-001	-1.552782e-001	9.876437e-001	-1.550124e-001	-1.484374e-003	-9.955867e-003
9255789.403	-1.466307e-003	-1.011097e-002	9.874517e-001	-1.564523e-001	9.875542e-001	-1.559731e-001	-1.529323e-003	-9.944184e-003
9318328.487	-1.551934e-003	-1.015997e-002	9.873097e-001	-1.575078e-001	9.874441e-001	-1.572317e-001	-1.568818e-003	-1.008415e-002
9380867.570	-1.584243e-003	-1.019807e-002	9.872399e-001	-1.585178e-001	9.869924e-001	-1.580684e-001	-1.588327e-003	-1.010745e-002
9443406.654	-1.581041e-003	-1.030566e-002	9.869954e-001	-1.594903e-001	9.870271e-001	-1.592504e-001	-1.567368e-003	-1.018838e-002
