!Agilent Technologies,E5061B,MY49102235,A.02.00
!Date: Mon Jul 10 16:59:11 2023
!Data & Calibration Information:
!Freq	S11:SOLT2(ON)	S21:SOLT2(ON)	S12:SOLT2(ON)	S22:SOLT2(ON)
# Hz S RI R 50
5.000	-4.777501e-004	4.218202e-004	1.001831e+000	2.284950e-003	1.000560e+000	-2.901597e-005	-1.204410e-004	-6.297551e-005
62544.084	-6.221749e-005	3.543876e-004	1.000045e+000	-1.418568e-003	1.000070e+000	-9.776431e-004	4.142559e-005	2.685628e-004
125083.168	8.540633e-006	6.169653e-004	1.000243e+000	-2.953806e-003	1.000134e+000	-2.952504e-003	-2.425155e-005	6.145515e-004
187622.251	1.979218e-004	8.556778e-004	9.994405e-001	-3.696177e-003	1.000090e+000	-3.924628e-003	8.866548e-005	9.361539e-004
250161.335	1.000540e-004	1.297240e-003	9.997411e-001	-5.928764e-003	9.997781e-001	-5.728349e-003	8.297427e-005	1.263568e-003
312700.419	1.060512e-004	1.507583e-003	1.000230e+000	-7.133224e-003	9.991255e-001	-6.884953e-003	2.048612e-004	1.571139e-003
375239.503	1.699133e-004	1.846957e-003	9.999091e-001	-8.452835e-003	1.000011e+000	-8.494993e-003	1.040000e-004	1.814260e-003
437778.587	2.154134e-004	2.062130e-003	9.998735e-001	-9.811266e-003	9.989566e-001	-1.032359e-002	2.051472e-004	2.280166e-003
500317.670	2.414749e-004	2.354445e-003	9.998618e-001	-1.141650e-002	9.992691e-001	-1.172663e-002	2.303909e-004	2.534517e-003
562856.754	2.905987e-004	2.761175e-003	9.995714e-001	-1.301302e-002	9.995563e-001	-1.262140e-002	2.178198e-004	2.705952e-003
625395.838	2.865612e-004	3.025540e-003	9.997265e-001	-1.436657e-002	9.989194e-001	-1.413234e-002	3.128054e-004	3.066014e-003
687934.922	1.986913e-004	3.234584e-003	9.999309e-001	-1.549787e-002	1.000044e+000	-1.574979e-002	2.036857e-004	3.316941e-003
750474.006	1.704193e-004	3.517273e-003	9.995487e-001	-1.719134e-002	9.993759e-001	-1.614423e-002	1.463524e-004	3.549584e-003
813013.089	2.157079e-004	3.845764e-003	1.000074e+000	-1.860413e-002	9.989121e-001	-1.800768e-002	2.074784e-004	3.804110e-003
875552.173	2.529315e-004	4.092289e-003	9.995133e-001	-2.014540e-002	9.996527e-001	-1.990308e-002	2.474887e-004	4.098942e-003
938091.257	1.683655e-004	4.412815e-003	9.992739e-001	-2.117324e-002	9.991735e-001	-2.078814e-002	2.106914e-004	4.409932e-003
1000630.341	2.598451e-004	4.784225e-003	9.995649e-001	-2.239640e-002	9.993450e-001	-2.250358e-002	3.069091e-004	4.692488e-003
1063169.425	3.490905e-004	5.041825e-003	1.000093e+000	-2.414042e-002	1.000012e+000	-2.433582e-002	3.619097e-004	4.960665e-003
1125708.508	3.703009e-004	5.317799e-003	9.997915e-001	-2.583156e-002	9.989484e-001	-2.536237e-002	3.850970e-004	5.289679e-003
1188247.592	3.983379e-004	5.587919e-003	9.991987e-001	-2.691491e-002	9.990317e-001	-2.676699e-002	4.379302e-004	5.592740e-003
1250786.676	4.172986e-004	5.887066e-003	9.992481e-001	-2.870268e-002	9.986602e-001	-2.808688e-002	4.633009e-004	5.895998e-003
1313325.760	4.781610e-004	6.198479e-003	9.992410e-001	-2.938799e-002	9.986093e-001	-2.971237e-002	4.671253e-004	6.148827e-003
1375864.844	5.362985e-004	6.471527e-003	9.996935e-001	-3.183542e-002	9.987170e-001	-3.156223e-002	5.136307e-004	6.440127e-003
1438403.927	5.601959e-004	6.749402e-003	9.990489e-001	-3.302900e-002	9.988010e-001	-3.246698e-002	5.551905e-004	6.734406e-003
1500943.011	6.102277e-004	7.061613e-003	9.992806e-001	-3.447877e-002	9.984742e-001	-3.416881e-002	6.172906e-004	7.088097e-003
1563482.095	5.855606e-004	7.391391e-003	9.986270e-001	-3.577183e-002	9.988163e-001	-3.555736e-002	6.219176e-004	7.353758e-003
1626021.179	7.290011e-004	7.719854e-003	9.988818e-001	-3.733289e-002	9.986204e-001	-3.657024e-002	7.327444e-004	7.665803e-003
1688560.263	7.856151e-004	8.004480e-003	9.993035e-001	-3.876779e-002	9.987322e-001	-3.822024e-002	7.530329e-004	7.995940e-003
1751099.346	8.374940e-004	8.400616e-003	9.990273e-001	-4.019465e-002	9.983164e-001	-3.975745e-002	7.827189e-004	8.306825e-003
1813638.430	8.024920e-004	8.679824e-003	9.991219e-001	-4.118640e-002	9.981660e-001	-4.123448e-002	8.088366e-004	8.668743e-003
1876177.514	8.909078e-004	8.937338e-003	9.988382e-001	-4.319475e-002	9.985427e-001	-4.244399e-002	9.015184e-004	8.970630e-003
1938716.598	9.492475e-004	9.311502e-003	9.983802e-001	-4.451450e-002	9.986152e-001	-4.417932e-002	9.717145e-004	9.291376e-003
2001255.682	1.024913e-003	9.669579e-003	9.988934e-001	-4.581478e-002	9.977894e-001	-4.568958e-002	1.004380e-003	9.634542e-003
2063794.765	1.062963e-003	1.005558e-002	9.982400e-001	-4.697293e-002	9.983755e-001	-4.702944e-002	1.116633e-003	9.967824e-003
2126333.849	1.186012e-003	1.027708e-002	9.974579e-001	-4.877549e-002	9.978823e-001	-4.862772e-002	1.092356e-003	1.027948e-002
2188872.933	1.232454e-003	1.070223e-002	9.980729e-001	-5.009780e-002	9.980735e-001	-5.029333e-002	1.234937e-003	1.069609e-002
2251412.017	1.395820e-003	1.103635e-002	9.982200e-001	-5.234595e-002	9.977221e-001	-5.132964e-002	1.379720e-003	1.100968e-002
2313951.101	1.437457e-003	1.139227e-002	9.976258e-001	-5.355745e-002	9.974456e-001	-5.250381e-002	1.474863e-003	1.132568e-002
2376490.184	1.568190e-003	1.175458e-002	9.981792e-001	-5.487490e-002	9.975823e-001	-5.457606e-002	1.584322e-003	1.174288e-002
2439029.268	1.654925e-003	1.208575e-002	9.973948e-001	-5.615488e-002	9.968173e-001	-5.607375e-002	1.654259e-003	1.204806e-002
2501568.352	1.803640e-003	1.255980e-002	9.973329e-001	-5.759105e-002	9.975521e-001	-5.747686e-002	1.853421e-003	1.248653e-002
2564107.436	2.014870e-003	1.290711e-002	9.968011e-001	-5.909607e-002	9.966206e-001	-5.893675e-002	1.972764e-003	1.279211e-002
2626646.520	2.108365e-003	1.321607e-002	9.964884e-001	-6.061565e-002	9.969826e-001	-6.003647e-002	2.156807e-003	1.319544e-002
2689185.604	2.306709e-003	1.357719e-002	9.970734e-001	-6.195696e-002	9.968816e-001	-6.178439e-002	2.329723e-003	1.347748e-002
2751724.687	2.545216e-003	1.385338e-002	9.965517e-001	-6.331292e-002	9.958152e-001	-6.329282e-002	2.475528e-003	1.391960e-002
2814263.771	2.735747e-003	1.421233e-002	9.966104e-001	-6.528673e-002	9.963508e-001	-6.517899e-002	2.681122e-003	1.421901e-002
2876802.855	2.884506e-003	1.453986e-002	9.960897e-001	-6.695031e-002	9.953216e-001	-6.628005e-002	2.903883e-003	1.451696e-002
2939341.939	3.081707e-003	1.487849e-002	9.956627e-001	-6.805116e-002	9.955218e-001	-6.735737e-002	3.063419e-003	1.484071e-002
3001881.023	3.258250e-003	1.521817e-002	9.954897e-001	-6.883094e-002	9.956594e-001	-6.863089e-002	3.257880e-003	1.520931e-002
3064420.106	3.516699e-003	1.546203e-002	9.947596e-001	-7.075189e-002	9.944070e-001	-7.037486e-002	3.491720e-003	1.549368e-002
3126959.190	3.715354e-003	1.580176e-002	9.947752e-001	-7.227160e-002	9.945700e-001	-7.208261e-002	3.732647e-003	1.577308e-002
3189498.274	3.965950e-003	1.612178e-002	9.946041e-001	-7.383578e-002	9.941854e-001	-7.350561e-002	3.918945e-003	1.607063e-002
3252037.358	4.201673e-003	1.639516e-002	9.942233e-001	-7.519666e-002	9.940557e-001	-7.489572e-002	4.183302e-003	1.639302e-002
3314576.442	4.385334e-003	1.663049e-002	9.939693e-001	-7.663687e-002	9.939110e-001	-7.641273e-002	4.341765e-003	1.670379e-002
3377115.525	4.597212e-003	1.700238e-002	9.937854e-001	-7.818059e-002	9.933954e-001	-7.778314e-002	4.572663e-003	1.697027e-002
3439654.609	4.856998e-003	1.732995e-002	9.932024e-001	-7.941601e-002	9.932816e-001	-7.926320e-002	4.826600e-003	1.726223e-002
3502193.693	5.104147e-003	1.753480e-002	9.930677e-001	-8.084918e-002	9.929387e-001	-8.058656e-002	5.071980e-003	1.751596e-002
3564732.777	5.313009e-003	1.786060e-002	9.927724e-001	-8.235464e-002	9.925955e-001	-8.203886e-002	5.331618e-003	1.783437e-002
3627271.861	5.588481e-003	1.814194e-002	9.923547e-001	-8.376175e-002	9.923743e-001	-8.350958e-002	5.564379e-003	1.813724e-002
3689810.944	5.831756e-003	1.841563e-002	9.921551e-001	-8.512535e-002	9.918446e-001	-8.491869e-002	5.785624e-003	1.838501e-002
3752350.028	6.060063e-003	1.873616e-002	9.917729e-001	-8.659194e-002	9.916263e-001	-8.625999e-002	6.116342e-003	1.869940e-002
3814889.112	6.381721e-003	1.899827e-002	9.914157e-001	-8.794893e-002	9.912066e-001	-8.763674e-002	6.376762e-003	1.894788e-002
3877428.196	6.720105e-003	1.929124e-002	9.910620e-001	-8.938393e-002	9.907917e-001	-8.898461e-002	6.638807e-003	1.924374e-002
3939967.280	6.939725e-003	1.950978e-002	9.905466e-001	-9.085023e-002	9.904220e-001	-9.046830e-002	6.944832e-003	1.956086e-002
4002506.363	7.280909e-003	1.979465e-002	9.902498e-001	-9.214227e-002	9.901265e-001	-9.181117e-002	7.244443e-003	1.980254e-002
4065045.447	7.581289e-003	2.004096e-002	9.899673e-001	-9.363965e-002	9.898500e-001	-9.342719e-002	7.560411e-003	2.001311e-002
4127584.531	7.852410e-003	2.031540e-002	9.896642e-001	-9.498716e-002	9.893854e-001	-9.464314e-002	7.866588e-003	2.027371e-002
4190123.615	8.194425e-003	2.055888e-002	9.890545e-001	-9.620924e-002	9.889901e-001	-9.597048e-002	8.155886e-003	2.050288e-002
4252662.699	8.465484e-003	2.077823e-002	9.886874e-001	-9.754644e-002	9.884174e-001	-9.724228e-002	8.463348e-003	2.077259e-002
4315201.782	8.863563e-003	2.095957e-002	9.882641e-001	-9.902567e-002	9.880959e-001	-9.854071e-002	8.784687e-003	2.096255e-002
4377740.866	9.173261e-003	2.117367e-002	9.879387e-001	-1.003795e-001	9.877646e-001	-1.000851e-001	9.185918e-003	2.117055e-002
4440279.950	9.549245e-003	2.141460e-002	9.874957e-001	-1.014660e-001	9.873376e-001	-1.012854e-001	9.503145e-003	2.133991e-002
4502819.034	9.900960e-003	2.150920e-002	9.871423e-001	-1.029084e-001	9.867650e-001	-1.026315e-001	9.844998e-003	2.154643e-002
4565358.118	1.021762e-002	2.175787e-002	9.863444e-001	-1.041466e-001	9.864846e-001	-1.041115e-001	1.021142e-002	2.174228e-002
4627897.201	1.056909e-002	2.187939e-002	9.861514e-001	-1.054312e-001	9.861036e-001	-1.051529e-001	1.051296e-002	2.196084e-002
4690436.285	1.093460e-002	2.206391e-002	9.857024e-001	-1.068417e-001	9.855622e-001	-1.064723e-001	1.087527e-002	2.206810e-002
4752975.369	1.120664e-002	2.215040e-002	9.852047e-001	-1.080899e-001	9.850455e-001	-1.077862e-001	1.121548e-002	2.220314e-002
4815514.453	1.156972e-002	2.230392e-002	9.849024e-001	-1.094161e-001	9.846116e-001	-1.091010e-001	1.156049e-002	2.232962e-002
4878053.537	1.187489e-002	2.249136e-002	9.844506e-001	-1.107793e-001	9.842353e-001	-1.101783e-001	1.188293e-002	2.248374e-002
4940592.620	1.227165e-002	2.258984e-002	9.838669e-001	-1.118634e-001	9.837116e-001	-1.114869e-001	1.222313e-002	2.259006e-002
5003131.704	1.260773e-002	2.267737e-002	9.835219e-001	-1.131296e-001	9.832400e-001	-1.128524e-001	1.248883e-002	2.265282e-002
5065670.788	1.288720e-002	2.277433e-002	9.831082e-001	-1.143846e-001	9.828412e-001	-1.140765e-001	1.288879e-002	2.278416e-002
5128209.872	1.325554e-002	2.289011e-002	9.826313e-001	-1.155192e-001	9.825579e-001	-1.151340e-001	1.320394e-002	2.285808e-002
5190748.956	1.357123e-002	2.291707e-002	9.822225e-001	-1.167902e-001	9.822127e-001	-1.163638e-001	1.352764e-002	2.297138e-002
5253288.039	1.386500e-002	2.304649e-002	9.815684e-001	-1.178968e-001	9.817432e-001	-1.176361e-001	1.391563e-002	2.303403e-002
5315827.123	1.418408e-002	2.311431e-002	9.812977e-001	-1.191718e-001	9.812624e-001	-1.189399e-001	1.421698e-002	2.314085e-002
5378366.207	1.449646e-002	2.318583e-002	9.808052e-001	-1.204032e-001	9.808388e-001	-1.200245e-001	1.448175e-002	2.318727e-002
5440905.291	1.481907e-002	2.323092e-002	9.806700e-001	-1.214671e-001	9.805625e-001	-1.212982e-001	1.481074e-002	2.323933e-002
5503444.375	1.509934e-002	2.328784e-002	9.801163e-001	-1.227641e-001	9.799289e-001	-1.227021e-001	1.509947e-002	2.330950e-002
5565983.458	1.538067e-002	2.336448e-002	9.798355e-001	-1.239278e-001	9.795297e-001	-1.237057e-001	1.546350e-002	2.337375e-002
5628522.542	1.566670e-002	2.339691e-002	9.793880e-001	-1.250238e-001	9.793409e-001	-1.247351e-001	1.564225e-002	2.337812e-002
5691061.626	1.602731e-002	2.346503e-002	9.789810e-001	-1.262028e-001	9.786808e-001	-1.260345e-001	1.595132e-002	2.348057e-002
5753600.710	1.630408e-002	2.349780e-002	9.784677e-001	-1.274979e-001	9.784155e-001	-1.271833e-001	1.628998e-002	2.352379e-002
5816139.794	1.661732e-002	2.356345e-002	9.781932e-001	-1.286038e-001	9.779435e-001	-1.285164e-001	1.652140e-002	2.354620e-002
5878678.877	1.686561e-002	2.359369e-002	9.776669e-001	-1.296748e-001	9.775699e-001	-1.294869e-001	1.687419e-002	2.362680e-002
5941217.961	1.712207e-002	2.363312e-002	9.773976e-001	-1.308791e-001	9.773263e-001	-1.305055e-001	1.708265e-002	2.366893e-002
6003757.045	1.741996e-002	2.360738e-002	9.768737e-001	-1.321803e-001	9.767999e-001	-1.317882e-001	1.737317e-002	2.363210e-002
6066296.129	1.767189e-002	2.369787e-002	9.763978e-001	-1.333016e-001	9.763213e-001	-1.329607e-001	1.765970e-002	2.372436e-002
6128835.213	1.794558e-002	2.378798e-002	9.761576e-001	-1.344973e-001	9.761254e-001	-1.342852e-001	1.794451e-002	2.376561e-002
6191374.296	1.817323e-002	2.373994e-002	9.757502e-001	-1.354356e-001	9.756061e-001	-1.353124e-001	1.816243e-002	2.375567e-002
6253913.380	1.848593e-002	2.377165e-002	9.752203e-001	-1.367709e-001	9.750935e-001	-1.363929e-001	1.844535e-002	2.384814e-002
6316452.464	1.877579e-002	2.387894e-002	9.748934e-001	-1.378120e-001	9.749080e-001	-1.375017e-001	1.874774e-002	2.384871e-002
6378991.548	1.900405e-002	2.381904e-002	9.747318e-001	-1.389952e-001	9.744948e-001	-1.386458e-001	1.902706e-002	2.390425e-002
6441530.632	1.923893e-002	2.388601e-002	9.743135e-001	-1.401911e-001	9.739738e-001	-1.399886e-001	1.924843e-002	2.386317e-002
6504069.715	1.951554e-002	2.390181e-002	9.738186e-001	-1.412961e-001	9.737506e-001	-1.411301e-001	1.950868e-002	2.391509e-002
6566608.799	1.978805e-002	2.392739e-002	9.733604e-001	-1.424923e-001	9.733206e-001	-1.421541e-001	1.971970e-002	2.395594e-002
6629147.883	2.002656e-002	2.395982e-002	9.729392e-001	-1.436928e-001	9.729884e-001	-1.433152e-001	1.999798e-002	2.398187e-002
6691686.967	2.026767e-002	2.393804e-002	9.726927e-001	-1.446976e-001	9.723064e-001	-1.445637e-001	2.023166e-002	2.403933e-002
6754226.051	2.049322e-002	2.399172e-002	9.723693e-001	-1.459274e-001	9.721748e-001	-1.455965e-001	2.053465e-002	2.397912e-002
6816765.134	2.072316e-002	2.397507e-002	9.718762e-001	-1.470572e-001	9.717838e-001	-1.468279e-001	2.078378e-002	2.397899e-002
6879304.218	2.102416e-002	2.400369e-002	9.714982e-001	-1.482019e-001	9.712915e-001	-1.479440e-001	2.103725e-002	2.404183e-002
6941843.302	2.129527e-002	2.405390e-002	9.710557e-001	-1.491924e-001	9.710424e-001	-1.491032e-001	2.125829e-002	2.408163e-002
7004382.386	2.151903e-002	2.406839e-002	9.705876e-001	-1.505225e-001	9.707049e-001	-1.502544e-001	2.152610e-002	2.405748e-002
7066921.470	2.176744e-002	2.407123e-002	9.702705e-001	-1.516120e-001	9.702757e-001	-1.512361e-001	2.177293e-002	2.407058e-002
7129460.553	2.203062e-002	2.403101e-002	9.699753e-001	-1.527198e-001	9.699010e-001	-1.526058e-001	2.198897e-002	2.408685e-002
7191999.637	2.224914e-002	2.407833e-002	9.694896e-001	-1.539064e-001	9.693968e-001	-1.535188e-001	2.225423e-002	2.408798e-002
7254538.721	2.254669e-002	2.407284e-002	9.691558e-001	-1.549805e-001	9.691413e-001	-1.547489e-001	2.246773e-002	2.413192e-002
7317077.805	2.271450e-002	2.411390e-002	9.686466e-001	-1.561763e-001	9.689009e-001	-1.558599e-001	2.273682e-002	2.414021e-002
7379616.889	2.300305e-002	2.409879e-002	9.685324e-001	-1.572647e-001	9.682204e-001	-1.568639e-001	2.297138e-002	2.407937e-002
7442155.972	2.324055e-002	2.409995e-002	9.679536e-001	-1.583364e-001	9.678084e-001	-1.581633e-001	2.320027e-002	2.410281e-002
7504695.056	2.348592e-002	2.408686e-002	9.675554e-001	-1.594855e-001	9.676093e-001	-1.591424e-001	2.346634e-002	2.414645e-002
7567234.140	2.369921e-002	2.412454e-002	9.673014e-001	-1.607204e-001	9.671174e-001	-1.602435e-001	2.369862e-002	2.414789e-002
7629773.224	2.394807e-002	2.408653e-002	9.667803e-001	-1.617598e-001	9.667289e-001	-1.614377e-001	2.390937e-002	2.414515e-002
7692312.308	2.415616e-002	2.410100e-002	9.665625e-001	-1.628629e-001	9.663622e-001	-1.625589e-001	2.418210e-002	2.419108e-002
7754851.391	2.440878e-002	2.406766e-002	9.659428e-001	-1.639286e-001	9.659332e-001	-1.636520e-001	2.436706e-002	2.416584e-002
7817390.475	2.464737e-002	2.411704e-002	9.658255e-001	-1.650244e-001	9.655769e-001	-1.648484e-001	2.465244e-002	2.411190e-002
7879929.559	2.485782e-002	2.406876e-002	9.652611e-001	-1.661399e-001	9.651578e-001	-1.658895e-001	2.486120e-002	2.412105e-002
7942468.643	2.507462e-002	2.410381e-002	9.648677e-001	-1.672620e-001	9.647930e-001	-1.671452e-001	2.507430e-002	2.411814e-002
8005007.727	2.534465e-002	2.409028e-002	9.645322e-001	-1.685540e-001	9.644434e-001	-1.680597e-001	2.528049e-002	2.407091e-002
8067546.811	2.558703e-002	2.406994e-002	9.641234e-001	-1.696465e-001	9.640922e-001	-1.693176e-001	2.559166e-002	2.408821e-002
8130085.894	2.580185e-002	2.407138e-002	9.637195e-001	-1.706438e-001	9.635265e-001	-1.704180e-001	2.575787e-002	2.407134e-002
8192624.978	2.602413e-002	2.404107e-002	9.632982e-001	-1.717472e-001	9.631515e-001	-1.714857e-001	2.604178e-002	2.406512e-002
8255164.062	2.624960e-002	2.401157e-002	9.629459e-001	-1.728955e-001	9.628505e-001	-1.725332e-001	2.624578e-002	2.401713e-002
8317703.146	2.648217e-002	2.395180e-002	9.626225e-001	-1.740091e-001	9.625494e-001	-1.736979e-001	2.644718e-002	2.401624e-002
8380242.230	2.673081e-002	2.393744e-002	9.622068e-001	-1.748538e-001	9.622747e-001	-1.747708e-001	2.669775e-002	2.401552e-002
8442781.313	2.693207e-002	2.398120e-002	9.618619e-001	-1.759561e-001	9.616763e-001	-1.758277e-001	2.689884e-002	2.401673e-002
8505320.397	2.711885e-002	2.394829e-002	9.613906e-001	-1.772983e-001	9.612216e-001	-1.771170e-001	2.716338e-002	2.390928e-002
8567859.481	2.738691e-002	2.391164e-002	9.609501e-001	-1.783317e-001	9.609139e-001	-1.779386e-001	2.740771e-002	2.395413e-002
8630398.565	2.763827e-002	2.389421e-002	9.605704e-001	-1.794744e-001	9.604651e-001	-1.791592e-001	2.763067e-002	2.387992e-002
8692937.649	2.783992e-002	2.388852e-002	9.601130e-001	-1.805334e-001	9.600591e-001	-1.800847e-001	2.778104e-002	2.392167e-002
8755476.732	2.801675e-002	2.389134e-002	9.596959e-001	-1.817077e-001	9.597633e-001	-1.813319e-001	2.805688e-002	2.390094e-002
8818015.816	2.826614e-002	2.382187e-002	9.593845e-001	-1.826110e-001	9.593598e-001	-1.823361e-001	2.826790e-002	2.383893e-002
8880554.900	2.845457e-002	2.374467e-002	9.589997e-001	-1.838551e-001	9.589585e-001	-1.834120e-001	2.846304e-002	2.382613e-002
8943093.984	2.869905e-002	2.375352e-002	9.585940e-001	-1.850211e-001	9.584892e-001	-1.844805e-001	2.873933e-002	2.381183e-002
9005633.068	2.890924e-002	2.370779e-002	9.581567e-001	-1.859438e-001	9.580574e-001	-1.857323e-001	2.891996e-002	2.372833e-002
9068172.151	2.915247e-002	2.368325e-002	9.577722e-001	-1.870527e-001	9.575342e-001	-1.868385e-001	2.908878e-002	2.374929e-002
9130711.235	2.936155e-002	2.366567e-002	9.573792e-001	-1.881105e-001	9.573092e-001	-1.876711e-001	2.937368e-002	2.368241e-002
9193250.319	2.956097e-002	2.358288e-002	9.569769e-001	-1.891014e-001	9.569264e-001	-1.889375e-001	2.961558e-002	2.362173e-002
9255789.403	2.980621e-002	2.355749e-002	9.565488e-001	-1.903763e-001	9.565961e-001	-1.899238e-001	2.981206e-002	2.366287e-002
9318328.487	2.995411e-002	2.354439e-002	9.561593e-001	-1.914337e-001	9.561994e-001	-1.912129e-001	2.999594e-002	2.355206e-002
9380867.570	3.016560e-002	2.351545e-002	9.558128e-001	-1.924580e-001	9.555931e-001	-1.920504e-001	3.019988e-002	2.354379e-002
9443406.654	3.039048e-002	2.343180e-002	9.553443e-001	-1.934964e-001	9.553731e-001	-1.932628e-001	3.045260e-002	2.348683e-002
9505945.738	3.059204e-002	2.337810e-002	9.550294e-001	-1.945311e-001	9.548553e-001	-1.942417e-001	3.060860e-002	2.343709e-002
9568484.822	3.082070e-002	2.334192e-002	9.547196e-001	-1.957755e-001	9.545180e-001	-1.952892e-001	3.086988e-002	2.341539e-002
9631023.906	3.102822e-002	2.329026e-002	9.541867e-001	-1.967542e-001	9.540604e-001	-1.964370e-001	3.104636e-002	2.337107e-002
9693562.989	3.124090e-002	2.327691e-002	9.536742e-001	-1.977466e-001	9.537286e-001	-1.975502e-001	3.122221e-002	2.333967e-002
9756102.073	3.136296e-002	2.321019e-002	9.533827e-001	-1.987113e-001	9.533764e-001	-1.984829e-001	3.145329e-002	2.320230e-002
