!Agilent Technologies,E5061B,MY49102235,A.02.00
!Date: Mon Jul 10 17:02:24 2023
!Data & Calibration Information:
!Freq	S11:SOLT2(ON)	S21:SOLT2(ON)	S12:SOLT2(ON)	S22:SOLT2(ON)
# Hz S RI R 50
5.000	-5.904143e-004	4.252548e-004	1.001816e+000	2.247618e-003	1.000583e+000	-1.258894e-005	-2.144051e-004	-5.745984e-005
62544.084	-5.303053e-005	-3.364145e-005	9.999603e-001	-8.555253e-004	1.000115e+000	-5.358431e-004	3.085868e-005	-1.303629e-004
125083.168	-2.281851e-005	-1.450281e-004	1.000132e+000	-2.252680e-003	1.000196e+000	-2.016741e-003	-3.963301e-005	-1.487888e-004
187622.251	1.519386e-004	-2.912185e-004	9.994344e-001	-2.581284e-003	1.000196e+000	-2.720867e-003	4.989880e-005	-2.191113e-004
250161.335	2.704889e-005	-2.327143e-004	9.998185e-001	-4.425073e-003	9.997935e-001	-4.159871e-003	2.908842e-005	-2.520768e-004
312700.419	2.657558e-005	-3.849845e-004	1.000277e+000	-5.300083e-003	9.992224e-001	-4.886599e-003	1.205165e-004	-3.345048e-004
375239.503	4.371347e-005	-4.133361e-004	1.000032e+000	-6.321782e-003	1.000047e+000	-6.138565e-003	2.809226e-005	-4.559874e-004
437778.587	8.082906e-005	-5.497212e-004	9.999757e-001	-7.462706e-003	9.991805e-001	-7.453919e-003	9.188561e-005	-3.770322e-004
500317.670	7.712122e-005	-6.472644e-004	1.000012e+000	-8.489204e-003	9.993752e-001	-8.721234e-003	1.113746e-004	-4.675954e-004
562856.754	1.173233e-004	-6.137274e-004	9.996489e-001	-9.720356e-003	9.997274e-001	-9.187833e-003	5.389587e-005	-6.754940e-004
625395.838	9.493228e-005	-7.078546e-004	9.997868e-001	-1.075503e-002	9.991523e-001	-1.027409e-002	1.329099e-004	-6.917711e-004
687934.922	-3.849267e-005	-8.705874e-004	1.000150e+000	-1.149694e-002	1.000273e+000	-1.154975e-002	-7.475164e-006	-8.050848e-004
750474.006	-8.191016e-005	-9.421540e-004	9.996994e-001	-1.273796e-002	9.995194e-001	-1.177353e-002	-1.079447e-004	-9.327693e-004
813013.089	-6.909739e-005	-1.004933e-003	1.000101e+000	-1.397117e-002	9.992161e-001	-1.326967e-002	-6.987923e-005	-1.045358e-003
875552.173	-7.351631e-005	-1.119753e-003	9.997754e-001	-1.498085e-002	9.999349e-001	-1.457248e-002	-7.802265e-005	-1.117319e-003
938091.257	-1.648110e-004	-1.161210e-003	9.995601e-001	-1.559096e-002	9.995744e-001	-1.513305e-002	-1.363841e-004	-1.171734e-003
1000630.341	-1.104601e-004	-1.171264e-003	9.996909e-001	-1.640085e-002	9.996848e-001	-1.645010e-002	-7.568185e-005	-1.261979e-003
1063169.425	-5.598419e-005	-1.292040e-003	1.000388e+000	-1.783190e-002	1.000372e+000	-1.786169e-002	-4.893696e-005	-1.353183e-003
1125708.508	-7.679537e-005	-1.385787e-003	1.000035e+000	-1.909451e-002	9.994266e-001	-1.864821e-002	-5.607851e-005	-1.394422e-003
1188247.592	-7.317258e-005	-1.486574e-003	9.996196e-001	-1.985725e-002	9.995910e-001	-1.969593e-002	-3.925546e-005	-1.472684e-003
1250786.676	-9.454366e-005	-1.562227e-003	9.995991e-001	-2.129234e-002	9.993587e-001	-2.054469e-002	-4.481594e-005	-1.532813e-003
1313325.760	-6.536112e-005	-1.624915e-003	9.998548e-001	-2.155394e-002	9.990881e-001	-2.186913e-002	-9.031500e-005	-1.667459e-003
1375864.844	-5.412721e-005	-1.731628e-003	1.000123e+000	-2.369059e-002	9.993890e-001	-2.328020e-002	-6.897855e-005	-1.749933e-003
1438403.927	-6.931432e-005	-1.844888e-003	9.996023e-001	-2.464386e-002	9.994096e-001	-2.389369e-002	-7.700595e-005	-1.830372e-003
1500943.011	-6.726029e-005	-1.905782e-003	9.999137e-001	-2.553951e-002	9.992770e-001	-2.506277e-002	-7.845481e-005	-1.873218e-003
1563482.095	-1.369681e-004	-1.967628e-003	9.992472e-001	-2.633726e-002	9.995576e-001	-2.610826e-002	-1.123823e-004	-1.999735e-003
1626021.179	-3.517222e-005	-2.020051e-003	9.995993e-001	-2.758802e-002	9.993850e-001	-2.691050e-002	-4.139343e-005	-2.070325e-003
1688560.263	-3.756710e-005	-2.131712e-003	1.000009e+000	-2.855770e-002	9.994831e-001	-2.807303e-002	-8.047315e-005	-2.133404e-003
1751099.346	-2.797298e-005	-2.112898e-003	9.997664e-001	-2.961899e-002	9.992271e-001	-2.922821e-002	-9.316508e-005	-2.213299e-003
1813638.430	-1.082643e-004	-2.261398e-003	9.999961e-001	-3.029887e-002	9.991659e-001	-3.028853e-002	-1.046640e-004	-2.277727e-003
1876177.514	-9.633816e-005	-2.397856e-003	9.997810e-001	-3.190932e-002	9.994724e-001	-3.116498e-002	-7.281078e-005	-2.358699e-003
1938716.598	-1.009048e-004	-2.424114e-003	9.991867e-001	-3.281256e-002	9.998248e-001	-3.254399e-002	-6.160491e-005	-2.446934e-003
2001255.682	-1.016360e-004	-2.472385e-003	9.998410e-001	-3.367410e-002	9.990275e-001	-3.342835e-002	-1.136256e-004	-2.528370e-003
2063794.765	-1.186698e-004	-2.535565e-003	9.992722e-001	-3.449794e-002	9.996343e-001	-3.448885e-002	-6.347384e-005	-2.604854e-003
2126333.849	-5.990786e-005	-2.713015e-003	9.986915e-001	-3.588456e-002	9.992152e-001	-3.572011e-002	-1.671042e-004	-2.724455e-003
2188872.933	-1.044322e-004	-2.743110e-003	9.992987e-001	-3.671558e-002	9.992435e-001	-3.673875e-002	-1.155955e-004	-2.749940e-003
2251412.017	-3.435353e-005	-2.841193e-003	9.995838e-001	-3.848832e-002	9.992553e-001	-3.749122e-002	-6.846671e-005	-2.859731e-003
2313951.101	-1.187839e-004	-2.936390e-003	9.990939e-001	-3.920884e-002	9.989939e-001	-3.826080e-002	-7.764008e-005	-2.975019e-003
2376490.184	-8.817812e-005	-3.014448e-003	9.997928e-001	-4.018563e-002	9.991144e-001	-3.991664e-002	-9.820642e-005	-3.017836e-003
2439029.268	-1.333875e-004	-3.124998e-003	9.991301e-001	-4.094496e-002	9.985878e-001	-4.066278e-002	-1.609594e-004	-3.140333e-003
2501568.352	-1.441311e-004	-3.088500e-003	9.991177e-001	-4.178647e-002	9.995263e-001	-4.185220e-002	-1.059695e-004	-3.155856e-003
2564107.436	-8.490623e-005	-3.177457e-003	9.988258e-001	-4.310522e-002	9.986516e-001	-4.298314e-002	-1.377907e-004	-3.306151e-003
2626646.520	-1.652731e-004	-3.313245e-003	9.986290e-001	-4.407144e-002	9.992078e-001	-4.345872e-002	-1.244683e-004	-3.327586e-003
2689185.604	-1.635529e-004	-3.390754e-003	9.993168e-001	-4.498076e-002	9.993341e-001	-4.485021e-002	-1.233113e-004	-3.479513e-003
2751724.687	-9.945813e-005	-3.531151e-003	9.990933e-001	-4.598191e-002	9.983787e-001	-4.581232e-002	-1.883166e-004	-3.462420e-003
2814263.771	-1.020966e-004	-3.589571e-003	9.992680e-001	-4.743530e-002	9.992098e-001	-4.729611e-002	-1.645593e-004	-3.575942e-003
2876802.855	-1.607915e-004	-3.661350e-003	9.990778e-001	-4.880504e-002	9.984935e-001	-4.814641e-002	-1.640057e-004	-3.704336e-003
2939341.939	-1.606627e-004	-3.728223e-003	9.987191e-001	-4.934905e-002	9.987251e-001	-4.883525e-002	-1.954004e-004	-3.770443e-003
3001881.023	-2.246923e-004	-3.777735e-003	9.987677e-001	-4.980292e-002	9.992124e-001	-4.958653e-002	-2.289239e-004	-3.789561e-003
3064420.106	-1.566621e-004	-3.909940e-003	9.983468e-001	-5.143113e-002	9.980415e-001	-5.092846e-002	-2.132715e-004	-3.877599e-003
3126959.190	-1.904256e-004	-3.965444e-003	9.985435e-001	-5.250263e-002	9.984297e-001	-5.233406e-002	-1.952570e-004	-3.987346e-003
3189498.274	-1.466527e-004	-4.028172e-003	9.986227e-001	-5.367556e-002	9.983024e-001	-5.337786e-002	-2.257099e-004	-4.069661e-003
3252037.358	-1.634304e-004	-4.130437e-003	9.984216e-001	-5.467141e-002	9.983942e-001	-5.431021e-002	-2.144277e-004	-4.132041e-003
3314576.442	-1.898515e-004	-4.276942e-003	9.984338e-001	-5.570037e-002	9.984219e-001	-5.550928e-002	-2.674886e-004	-4.186780e-003
3377115.525	-2.347434e-004	-4.266661e-003	9.984836e-001	-5.689887e-002	9.982062e-001	-5.651872e-002	-2.647340e-004	-4.294906e-003
3439654.609	-2.012688e-004	-4.333961e-003	9.981399e-001	-5.775790e-002	9.982852e-001	-5.757252e-002	-2.657831e-004	-4.390824e-003
3502193.693	-2.048141e-004	-4.484633e-003	9.982090e-001	-5.884744e-002	9.982210e-001	-5.851774e-002	-2.609953e-004	-4.513593e-003
3564732.777	-2.406102e-004	-4.534294e-003	9.982010e-001	-5.993406e-002	9.981324e-001	-5.962640e-002	-2.502450e-004	-4.559888e-003
3627271.861	-2.442740e-004	-4.629045e-003	9.980135e-001	-6.096896e-002	9.981426e-001	-6.071728e-002	-2.891957e-004	-4.618844e-003
3689810.944	-2.703704e-004	-4.719941e-003	9.980962e-001	-6.199389e-002	9.978994e-001	-6.172559e-002	-3.262518e-004	-4.738247e-003
3752350.028	-3.125717e-004	-4.757427e-003	9.979930e-001	-6.306979e-002	9.979528e-001	-6.275395e-002	-2.719601e-004	-4.773786e-003
3814889.112	-2.661855e-004	-4.850079e-003	9.978907e-001	-6.410515e-002	9.978006e-001	-6.379514e-002	-2.960098e-004	-4.889916e-003
3877428.196	-2.154675e-004	-4.912722e-003	9.978813e-001	-6.514228e-002	9.976765e-001	-6.475307e-002	-3.345715e-004	-4.957241e-003
3939967.280	-2.972676e-004	-5.042681e-003	9.976095e-001	-6.628432e-002	9.975978e-001	-6.586836e-002	-3.265281e-004	-4.982945e-003
4002506.363	-2.698270e-004	-5.098209e-003	9.976174e-001	-6.723047e-002	9.976107e-001	-6.686009e-002	-3.410202e-004	-5.082752e-003
4065045.447	-2.809374e-004	-5.206085e-003	9.976854e-001	-6.837293e-002	9.976672e-001	-6.816758e-002	-3.338261e-004	-5.203159e-003
4127584.531	-3.437716e-004	-5.239671e-003	9.977198e-001	-6.940123e-002	9.974978e-001	-6.908640e-002	-3.469383e-004	-5.275714e-003
4190123.615	-3.268174e-004	-5.328094e-003	9.974064e-001	-7.026640e-002	9.973948e-001	-7.003102e-002	-3.979837e-004	-5.373889e-003
4252662.699	-3.956723e-004	-5.396524e-003	9.973536e-001	-7.138176e-002	9.971924e-001	-7.101868e-002	-4.108730e-004	-5.398299e-003
4315201.782	-3.391185e-004	-5.519982e-003	9.972876e-001	-7.251654e-002	9.971918e-001	-7.199751e-002	-4.381305e-004	-5.514160e-003
4377740.866	-3.697762e-004	-5.591709e-003	9.973128e-001	-7.362035e-002	9.972157e-001	-7.325790e-002	-3.891650e-004	-5.584847e-003
4440279.950	-3.508891e-004	-5.626441e-003	9.972069e-001	-7.437357e-002	9.971704e-001	-7.422314e-002	-4.035131e-004	-5.695488e-003
4502819.034	-3.468909e-004	-5.798754e-003	9.972295e-001	-7.551677e-002	9.969533e-001	-7.526880e-002	-4.294496e-004	-5.755501e-003
4565358.118	-3.879491e-004	-5.825547e-003	9.967630e-001	-7.653538e-002	9.970130e-001	-7.647713e-002	-4.231525e-004	-5.798556e-003
4627897.201	-3.899724e-004	-5.927161e-003	9.968792e-001	-7.762645e-002	9.969530e-001	-7.731542e-002	-4.758124e-004	-5.850872e-003
4690436.285	-3.646076e-004	-5.989992e-003	9.968079e-001	-7.877323e-002	9.968080e-001	-7.836608e-002	-4.734053e-004	-5.962150e-003
4752975.369	-4.577088e-004	-6.134449e-003	9.966814e-001	-7.976326e-002	9.965873e-001	-7.942021e-002	-4.873229e-004	-6.048694e-003
4815514.453	-4.324052e-004	-6.179887e-003	9.967279e-001	-8.088977e-002	9.964940e-001	-8.056255e-002	-4.942216e-004	-6.145851e-003
4878053.537	-4.826271e-004	-6.203060e-003	9.966200e-001	-8.205356e-002	9.965128e-001	-8.144461e-002	-5.233613e-004	-6.185223e-003
4940592.620	-4.605478e-004	-6.306769e-003	9.963961e-001	-8.292163e-002	9.963176e-001	-8.249816e-002	-5.374548e-004	-6.282686e-003
5003131.704	-4.551723e-004	-6.393440e-003	9.963923e-001	-8.401294e-002	9.961651e-001	-8.369409e-002	-6.135858e-004	-6.414593e-003
5065670.788	-5.314578e-004	-6.482214e-003	9.962941e-001	-8.508588e-002	9.961574e-001	-8.470792e-002	-5.683834e-004	-6.456708e-003
5128209.872	-5.052001e-004	-6.540734e-003	9.961928e-001	-8.601717e-002	9.961570e-001	-8.565636e-002	-5.799953e-004	-6.535154e-003
5190748.956	-5.161237e-004	-6.664559e-003	9.960759e-001	-8.718691e-002	9.961578e-001	-8.669321e-002	-5.950670e-004	-6.592576e-003
5253288.039	-5.516669e-004	-6.716465e-003	9.957875e-001	-8.811434e-002	9.960385e-001	-8.779202e-002	-5.549270e-004	-6.698230e-003
5315827.123	-5.560470e-004	-6.797726e-003	9.958253e-001	-8.917020e-002	9.959318e-001	-8.896279e-002	-5.813573e-004	-6.741991e-003
5378366.207	-5.777950e-004	-6.880028e-003	9.956446e-001	-9.030150e-002	9.958165e-001	-8.986013e-002	-6.313813e-004	-6.843805e-003
5440905.291	-5.777766e-004	-6.946540e-003	9.958307e-001	-9.118946e-002	9.958075e-001	-9.098726e-002	-6.327192e-004	-6.924128e-003
5503444.375	-6.050440e-004	-7.033534e-003	9.956105e-001	-9.239472e-002	9.955214e-001	-9.227527e-002	-6.526280e-004	-7.002328e-003
5565983.458	-6.368961e-004	-7.091313e-003	9.956376e-001	-9.338307e-002	9.954020e-001	-9.316701e-002	-6.048047e-004	-7.058962e-003
5628522.542	-6.410749e-004	-7.216321e-003	9.954653e-001	-9.431817e-002	9.955475e-001	-9.401386e-002	-7.411018e-004	-7.201340e-003
5691061.626	-5.946896e-004	-7.259681e-003	9.953549e-001	-9.536881e-002	9.951609e-001	-9.522357e-002	-7.326935e-004	-7.228573e-003
5753600.710	-6.373490e-004	-7.366022e-003	9.952013e-001	-9.655322e-002	9.952176e-001	-9.620288e-002	-6.827378e-004	-7.288826e-003
5816139.794	-6.043952e-004	-7.419777e-003	9.951743e-001	-9.751370e-002	9.950694e-001	-9.738954e-002	-7.763738e-004	-7.396729e-003
5878678.877	-6.951888e-004	-7.505516e-003	9.949614e-001	-9.850232e-002	9.949707e-001	-9.829189e-002	-7.253038e-004	-7.438584e-003
5941217.961	-7.130203e-004	-7.589444e-003	9.949603e-001	-9.953857e-002	9.950091e-001	-9.916414e-002	-8.072321e-004	-7.532298e-003
6003757.045	-6.841002e-004	-7.724002e-003	9.947472e-001	-1.007715e-001	9.947837e-001	-1.003246e-001	-8.045557e-004	-7.682804e-003
6066296.129	-7.500757e-004	-7.746289e-003	9.945754e-001	-1.017309e-001	9.945748e-001	-1.014143e-001	-7.972056e-004	-7.688052e-003
6128835.213	-7.490548e-004	-7.788502e-003	9.946293e-001	-1.028173e-001	9.946180e-001	-1.026065e-001	-7.915775e-004	-7.746847e-003
6191374.296	-7.998758e-004	-7.936634e-003	9.944601e-001	-1.036961e-001	9.944766e-001	-1.034864e-001	-8.671511e-004	-7.881407e-003
6253913.380	-7.656982e-004	-8.015195e-003	9.942531e-001	-1.049574e-001	9.941637e-001	-1.045229e-001	-8.713025e-004	-7.902569e-003
6316452.464	-7.793877e-004	-8.025410e-003	9.942092e-001	-1.058035e-001	9.943017e-001	-1.055042e-001	-8.547794e-004	-7.998864e-003
6378991.548	-8.125090e-004	-8.166927e-003	9.942873e-001	-1.069170e-001	9.941116e-001	-1.064946e-001	-8.576327e-004	-8.063545e-003
6441530.632	-8.528644e-004	-8.218588e-003	9.941444e-001	-1.079532e-001	9.938777e-001	-1.077119e-001	-8.838642e-004	-8.208507e-003
6504069.715	-8.520517e-004	-8.309135e-003	9.939267e-001	-1.089878e-001	9.939647e-001	-1.087965e-001	-9.010864e-004	-8.264012e-003
6566608.799	-8.501206e-004	-8.382614e-003	9.937406e-001	-1.100992e-001	9.937891e-001	-1.096801e-001	-9.798049e-004	-8.318032e-003
6629147.883	-8.818751e-004	-8.464461e-003	9.935636e-001	-1.111451e-001	9.937145e-001	-1.108173e-001	-9.801265e-004	-8.384912e-003
6691686.967	-9.069784e-004	-8.584180e-003	9.935945e-001	-1.120263e-001	9.932688e-001	-1.119416e-001	-1.018697e-003	-8.438838e-003
6754226.051	-9.438216e-004	-8.607761e-003	9.935480e-001	-1.131658e-001	9.934667e-001	-1.128637e-001	-9.820235e-004	-8.586443e-003
6816765.134	-9.897232e-004	-8.717518e-003	9.933068e-001	-1.142086e-001	9.933310e-001	-1.139574e-001	-9.907954e-004	-8.674335e-003
6879304.218	-9.574336e-004	-8.783845e-003	9.931929e-001	-1.153002e-001	9.931184e-001	-1.149621e-001	-1.011047e-003	-8.717457e-003
6941843.302	-9.570963e-004	-8.835201e-003	9.929910e-001	-1.161877e-001	9.930992e-001	-1.160070e-001	-1.061453e-003	-8.769417e-003
7004382.386	-1.026001e-003	-8.907151e-003	9.928031e-001	-1.174659e-001	9.930332e-001	-1.171167e-001	-1.072846e-003	-8.886469e-003
7066921.470	-1.012898e-003	-9.007223e-003	9.927336e-001	-1.184480e-001	9.929138e-001	-1.180044e-001	-1.079217e-003	-8.954797e-003
7129460.553	-1.001568e-003	-9.119702e-003	9.927647e-001	-1.193770e-001	9.927658e-001	-1.193014e-001	-1.116872e-003	-9.030341e-003
7191999.637	-1.059763e-003	-9.180719e-003	9.924990e-001	-1.205130e-001	9.925288e-001	-1.201332e-001	-1.122301e-003	-9.109697e-003
7254538.721	-1.011538e-003	-9.248765e-003	9.924207e-001	-1.215358e-001	9.925241e-001	-1.212493e-001	-1.167991e-003	-9.160349e-003
7317077.805	-1.107912e-003	-9.309345e-003	9.921530e-001	-1.226167e-001	9.925138e-001	-1.222558e-001	-1.159863e-003	-9.232339e-003
7379616.889	-1.087632e-003	-9.391638e-003	9.923310e-001	-1.236343e-001	9.921116e-001	-1.232190e-001	-1.168291e-003	-9.380396e-003
7442155.972	-1.110463e-003	-9.487473e-003	9.920066e-001	-1.246248e-001	9.919357e-001	-1.244020e-001	-1.211550e-003	-9.425753e-003
7504695.056	-1.105244e-003	-9.566628e-003	9.918670e-001	-1.256394e-001	9.919891e-001	-1.253042e-001	-1.192670e-003	-9.463029e-003
7567234.140	-1.157499e-003	-9.623248e-003	9.918550e-001	-1.267693e-001	9.917804e-001	-1.262900e-001	-1.242433e-003	-9.533351e-003
7629773.224	-1.163622e-003	-9.729822e-003	9.916217e-001	-1.277937e-001	9.916264e-001	-1.274081e-001	-1.270154e-003	-9.619245e-003
7692312.308	-1.216120e-003	-9.797948e-003	9.915911e-001	-1.288023e-001	9.914954e-001	-1.284770e-001	-1.254291e-003	-9.635790e-003
7754851.391	-1.204589e-003	-9.888779e-003	9.912501e-001	-1.297638e-001	9.913593e-001	-1.295093e-001	-1.334710e-003	-9.734357e-003
7817390.475	-1.218854e-003	-9.926123e-003	9.913771e-001	-1.308452e-001	9.912180e-001	-1.306185e-001	-1.286930e-003	-9.869024e-003
7879929.559	-1.273072e-003	-1.004132e-002	9.910828e-001	-1.318901e-001	9.910903e-001	-1.315934e-001	-1.326446e-003	-9.926987e-003
7942468.643	-1.297782e-003	-1.008528e-002	9.909278e-001	-1.328950e-001	9.909609e-001	-1.327587e-001	-1.383003e-003	-1.001026e-002
8005007.727	-1.291408e-003	-1.014680e-002	9.908361e-001	-1.341027e-001	9.908533e-001	-1.336330e-001	-1.400802e-003	-1.011746e-002
8067546.811	-1.294010e-003	-1.023226e-002	9.906937e-001	-1.351683e-001	9.907554e-001	-1.348404e-001	-1.354637e-003	-1.017276e-002
8130085.894	-1.339881e-003	-1.029483e-002	9.905416e-001	-1.361222e-001	9.904553e-001	-1.358426e-001	-1.431225e-003	-1.025076e-002
8192624.978	-1.362443e-003	-1.040754e-002	9.903587e-001	-1.371033e-001	9.903055e-001	-1.368139e-001	-1.404331e-003	-1.031574e-002
8255164.062	-1.373586e-003	-1.049029e-002	9.902222e-001	-1.381945e-001	9.902342e-001	-1.378342e-001	-1.450687e-003	-1.042885e-002
8317703.146	-1.362639e-003	-1.060508e-002	9.901620e-001	-1.392648e-001	9.902037e-001	-1.389036e-001	-1.492707e-003	-1.049287e-002
8380242.230	-1.379239e-003	-1.068989e-002	9.899752e-001	-1.400403e-001	9.901750e-001	-1.398974e-001	-1.488263e-003	-1.055104e-002
8442781.313	-1.445206e-003	-1.069929e-002	9.898715e-001	-1.410611e-001	9.897916e-001	-1.408613e-001	-1.546548e-003	-1.060634e-002
8505320.397	-1.494448e-003	-1.079480e-002	9.896830e-001	-1.423164e-001	9.896410e-001	-1.421048e-001	-1.527533e-003	-1.076433e-002
8567859.481	-1.487877e-003	-1.086108e-002	9.894998e-001	-1.433419e-001	9.895541e-001	-1.429084e-001	-1.528360e-003	-1.076381e-002
8630398.565	-1.477114e-003	-1.093344e-002	9.893326e-001	-1.444245e-001	9.892870e-001	-1.440802e-001	-1.554143e-003	-1.090134e-002
8692937.649	-1.533241e-003	-1.100055e-002	9.890733e-001	-1.454027e-001	9.891297e-001	-1.449687e-001	-1.654728e-003	-1.091158e-002
8755476.732	-1.582754e-003	-1.105343e-002	9.889141e-001	-1.465229e-001	9.890922e-001	-1.461450e-001	-1.629775e-003	-1.099125e-002
8818015.816	-1.574663e-003	-1.118347e-002	9.889166e-001	-1.473461e-001	9.889587e-001	-1.470819e-001	-1.649577e-003	-1.109342e-002
8880554.900	-1.637747e-003	-1.129462e-002	9.887316e-001	-1.485459e-001	9.887725e-001	-1.480996e-001	-1.701985e-003	-1.115356e-002
8943093.984	-1.616989e-003	-1.133152e-002	9.886179e-001	-1.496875e-001	9.885682e-001	-1.490951e-001	-1.673019e-003	-1.121341e-002
9005633.068	-1.658527e-003	-1.143300e-002	9.883952e-001	-1.505747e-001	9.883719e-001	-1.503515e-001	-1.729562e-003	-1.133753e-002
9068172.151	-1.646351e-003	-1.148830e-002	9.882288e-001	-1.516761e-001	9.880767e-001	-1.514012e-001	-1.795464e-003	-1.135992e-002
9130711.235	-1.674285e-003	-1.153958e-002	9.880629e-001	-1.526398e-001	9.880851e-001	-1.521804e-001	-1.746343e-003	-1.147531e-002
9193250.319	-1.711438e-003	-1.166440e-002	9.878897e-001	-1.536011e-001	9.879631e-001	-1.533901e-001	-1.763251e-003	-1.156214e-002
9255789.403	-1.714529e-003	-1.173537e-002	9.876914e-001	-1.547906e-001	9.878655e-001	-1.543409e-001	-1.802936e-003	-1.155449e-002
9318328.487	-1.806526e-003	-1.179379e-002	9.875092e-001	-1.558766e-001	9.877184e-001	-1.555879e-001	-1.848058e-003	-1.171242e-002
9380867.570	-1.822277e-003	-1.185495e-002	9.874378e-001	-1.568446e-001	9.873335e-001	-1.564127e-001	-1.860230e-003	-1.173992e-002
9443406.654	-1.833691e-003	-1.197144e-002	9.872088e-001	-1.578552e-001	9.873430e-001	-1.575966e-001	-1.851023e-003	-1.183839e-002
