!Agilent Technologies,E5061B,MY49102235,A.02.00
!Date: Mon Jul 10 12:05:29 2023
!Data & Calibration Information:
!Freq	S11:SOLT2(ON)	S21:SOLT2(ON)	S12:SOLT2(ON)	S22:SOLT2(ON)
# Hz S RI R 50
5.000	-4.734091e-004	4.485643e-004	1.001608e+000	2.319197e-003	1.000418e+000	-2.278610e-005	-1.209535e-004	-5.823914e-005
62544.084	-6.197036e-005	-6.526149e-006	1.000090e+000	-8.157496e-004	1.000082e+000	-6.653386e-004	9.451865e-006	-9.126671e-005
125083.168	-4.166855e-005	-5.951742e-005	1.000262e+000	-2.233715e-003	1.000097e+000	-2.046314e-003	-5.303872e-005	-6.315584e-005
187622.251	1.461209e-004	-1.618724e-004	9.995073e-001	-2.377878e-003	1.000185e+000	-2.566916e-003	3.642878e-005	-1.026714e-004
250161.335	2.234746e-005	-7.593407e-005	9.998359e-001	-4.104286e-003	9.998019e-001	-3.979790e-003	1.448444e-005	-8.664850e-005
312700.419	3.932885e-006	-1.750789e-004	1.000352e+000	-4.934934e-003	9.992290e-001	-4.599026e-003	1.073633e-004	-1.417322e-004
375239.503	4.978069e-005	-1.716938e-004	9.999829e-001	-5.889635e-003	1.000185e+000	-5.958220e-003	-2.265993e-006	-2.112414e-004
437778.587	8.405330e-005	-2.525010e-004	9.999070e-001	-6.968116e-003	9.992002e-001	-7.167324e-003	7.463301e-005	-8.638362e-005
500317.670	6.056461e-005	-3.004048e-004	1.000013e+000	-8.072902e-003	9.993940e-001	-8.313965e-003	8.508420e-005	-1.410379e-004
562856.754	9.063172e-005	-2.404167e-004	9.997888e-001	-9.113790e-003	9.996001e-001	-8.644388e-003	5.355015e-005	-2.958548e-004
625395.838	7.592053e-005	-2.847766e-004	9.998456e-001	-1.012218e-002	9.991607e-001	-9.678144e-003	1.090245e-004	-2.769600e-004
687934.922	-4.683829e-005	-4.095775e-004	1.000142e+000	-1.082194e-002	1.000327e+000	-1.095671e-002	-3.968582e-005	-3.484623e-004
750474.006	-2.408810e-005	-4.101277e-004	9.997300e-001	-1.205462e-002	9.997111e-001	-1.123854e-002	-4.323701e-005	-3.858547e-004
813013.089	-1.395267e-005	-4.075014e-004	1.000459e+000	-1.300339e-002	9.991818e-001	-1.258939e-002	-2.657073e-005	-4.588143e-004
875552.173	-4.308659e-006	-4.993872e-004	9.998387e-001	-1.413463e-002	9.999337e-001	-1.394927e-002	-1.704909e-005	-4.831997e-004
938091.257	-1.027998e-004	-4.901401e-004	9.995641e-001	-1.478216e-002	9.995196e-001	-1.433570e-002	-8.000023e-005	-5.047476e-004
1000630.341	-5.796756e-005	-4.655421e-004	9.998073e-001	-1.545732e-002	9.997101e-001	-1.563044e-002	-1.856431e-005	-5.550267e-004
1063169.425	-1.101784e-005	-5.216168e-004	1.000474e+000	-1.671385e-002	1.000429e+000	-1.701769e-002	1.952770e-005	-6.088338e-004
1125708.508	-1.003069e-005	-5.875513e-004	1.000157e+000	-1.802627e-002	9.994557e-001	-1.775183e-002	8.822651e-006	-6.013465e-004
1188247.592	-1.747321e-005	-6.477851e-004	9.997089e-001	-1.873797e-002	9.996221e-001	-1.858147e-002	2.062385e-005	-6.310097e-004
1250786.676	-3.681845e-005	-6.650288e-004	9.998514e-001	-1.998010e-002	9.993153e-001	-1.958334e-002	7.185383e-006	-6.492677e-004
1313325.760	-1.916526e-005	-6.923267e-004	9.999604e-001	-2.026616e-002	9.990642e-001	-2.062218e-002	-3.300887e-005	-7.401048e-004
1375864.844	1.362335e-005	-7.652466e-004	1.000171e+000	-2.239268e-002	9.994437e-001	-2.210118e-002	-1.355632e-005	-7.652446e-004
1438403.927	-1.367672e-006	-8.060438e-004	9.996717e-001	-2.313110e-002	9.994612e-001	-2.258039e-002	-2.208602e-005	-8.242821e-004
1500943.011	-8.256914e-006	-8.290941e-004	1.000087e+000	-2.399586e-002	9.991353e-001	-2.380725e-002	-2.911730e-005	-8.125526e-004
1563482.095	-7.531258e-005	-8.655219e-004	9.994037e-001	-2.488664e-002	9.994932e-001	-2.466910e-002	-6.292987e-005	-8.844851e-004
1626021.179	3.258414e-005	-8.663696e-004	9.997385e-001	-2.606513e-002	9.994568e-001	-2.538086e-002	1.954472e-005	-9.096921e-004
1688560.263	3.431410e-005	-9.222383e-004	1.000129e+000	-2.702495e-002	9.996230e-001	-2.647077e-002	4.350800e-006	-9.220754e-004
1751099.346	3.703901e-005	-8.800246e-004	1.000053e+000	-2.781744e-002	9.992653e-001	-2.756516e-002	-2.412925e-005	-9.808088e-004
1813638.430	-4.809053e-005	-9.664659e-004	9.999959e-001	-2.848973e-002	9.992002e-001	-2.860927e-002	-4.418544e-005	-9.697156e-004
1876177.514	-1.828930e-005	-1.058499e-003	9.998056e-001	-3.001923e-002	9.994734e-001	-2.945644e-002	-1.587854e-006	-1.032505e-003
1938716.598	-2.686053e-005	-1.060413e-003	9.993664e-001	-3.099240e-002	9.997828e-001	-3.071440e-002	7.771371e-006	-1.061624e-003
2001255.682	3.663944e-006	-1.050932e-003	9.999459e-001	-3.163210e-002	9.989511e-001	-3.171584e-002	-3.029255e-005	-1.101102e-003
2063794.765	-2.657391e-005	-1.059500e-003	9.994979e-001	-3.250150e-002	9.996098e-001	-3.259771e-002	1.530613e-005	-1.144953e-003
2126333.849	2.263864e-005	-1.201068e-003	9.988194e-001	-3.373940e-002	9.991491e-001	-3.371785e-002	-7.987964e-005	-1.218373e-003
2188872.933	-1.737235e-005	-1.176992e-003	9.995226e-001	-3.452803e-002	9.994622e-001	-3.478622e-002	-2.825965e-005	-1.195595e-003
2251412.017	4.345175e-005	-1.232388e-003	9.997120e-001	-3.619990e-002	9.992697e-001	-3.536983e-002	2.065562e-005	-1.256770e-003
2313951.101	-1.394019e-005	-1.295629e-003	9.992062e-001	-3.698802e-002	9.990326e-001	-3.606539e-002	2.472545e-005	-1.339858e-003
2376490.184	1.078266e-005	-1.322308e-003	9.998475e-001	-3.791040e-002	9.991777e-001	-3.762819e-002	4.931255e-006	-1.324089e-003
2439029.268	-3.429733e-005	-1.381372e-003	9.993319e-001	-3.855422e-002	9.986542e-001	-3.853019e-002	-6.829632e-005	-1.419609e-003
2501568.352	-2.995302e-005	-1.308357e-003	9.993403e-001	-3.944485e-002	9.994649e-001	-3.953517e-002	-1.053659e-005	-1.375278e-003
2564107.436	7.032745e-006	-1.356195e-003	9.989694e-001	-4.054328e-002	9.987087e-001	-4.036031e-002	-2.939322e-005	-1.474369e-003
2626646.520	-4.513179e-005	-1.441382e-003	9.988556e-001	-4.163730e-002	9.993087e-001	-4.111208e-002	-8.217622e-006	-1.452931e-003
2689185.604	-5.326461e-005	-1.464808e-003	9.995608e-001	-4.237491e-002	9.994740e-001	-4.222612e-002	-1.002454e-005	-1.550820e-003
2751724.687	2.720635e-005	-1.575632e-003	9.992369e-001	-4.345270e-002	9.985062e-001	-4.316461e-002	-5.357927e-005	-1.489497e-003
2814263.771	3.639894e-005	-1.578490e-003	9.994537e-001	-4.475530e-002	9.991828e-001	-4.476549e-002	-3.965958e-005	-1.564667e-003
2876802.855	-2.349441e-005	-1.613439e-003	9.992329e-001	-4.590308e-002	9.985630e-001	-4.542417e-002	-3.753450e-005	-1.632936e-003
2939341.939	-2.646298e-005	-1.629057e-003	9.989794e-001	-4.663442e-002	9.988499e-001	-4.602256e-002	-5.986448e-005	-1.667024e-003
3001881.023	-7.114244e-005	-1.645293e-003	9.990580e-001	-4.696780e-002	9.990803e-001	-4.675018e-002	-1.016829e-004	-1.642596e-003
3064420.106	-1.275928e-005	-1.731608e-003	9.986532e-001	-4.834056e-002	9.982675e-001	-4.808100e-002	-7.210803e-005	-1.687841e-003
3126959.190	-3.577166e-005	-1.721683e-003	9.987886e-001	-4.948708e-002	9.985759e-001	-4.933906e-002	-5.216571e-005	-1.749113e-003
3189498.274	8.613834e-006	-1.757633e-003	9.988128e-001	-5.062156e-002	9.984035e-001	-5.035207e-002	-7.713020e-005	-1.792852e-003
3252037.358	9.664181e-006	-1.812278e-003	9.986726e-001	-5.154783e-002	9.985195e-001	-5.123763e-002	-4.685905e-005	-1.811283e-003
3314576.442	-1.324072e-005	-1.912099e-003	9.987002e-001	-5.256959e-002	9.985578e-001	-5.238473e-002	-9.131529e-005	-1.826607e-003
3377115.525	-3.956117e-005	-1.871784e-003	9.986937e-001	-5.364736e-002	9.983100e-001	-5.332456e-002	-9.452182e-005	-1.894858e-003
3439654.609	-2.192353e-005	-1.873801e-003	9.983893e-001	-5.448223e-002	9.984577e-001	-5.434163e-002	-7.735931e-005	-1.937492e-003
3502193.693	-6.475923e-006	-1.989468e-003	9.984826e-001	-5.546780e-002	9.983732e-001	-5.522103e-002	-6.411697e-005	-2.007052e-003
3564732.777	-5.042916e-005	-1.995308e-003	9.984980e-001	-5.652079e-002	9.982984e-001	-5.623564e-002	-6.742026e-005	-2.019439e-003
3627271.861	-2.819691e-005	-2.035012e-003	9.983658e-001	-5.749574e-002	9.983259e-001	-5.731610e-002	-8.661164e-005	-2.035683e-003
3689810.944	-5.608239e-005	-2.088811e-003	9.983842e-001	-5.845725e-002	9.980818e-001	-5.825572e-002	-1.304162e-004	-2.104848e-003
3752350.028	-8.282390e-005	-2.093679e-003	9.982814e-001	-5.951038e-002	9.981202e-001	-5.920780e-002	-5.848223e-005	-2.109692e-003
3814889.112	-4.083275e-005	-2.135208e-003	9.982194e-001	-6.042188e-002	9.980226e-001	-6.016929e-002	-8.616384e-005	-2.177494e-003
3877428.196	2.081092e-005	-2.152574e-003	9.981834e-001	-6.143859e-002	9.978671e-001	-6.109578e-002	-1.166512e-004	-2.191645e-003
3939967.280	-5.351649e-005	-2.236889e-003	9.979585e-001	-6.248964e-002	9.978500e-001	-6.220043e-002	-9.304579e-005	-2.184457e-003
4002506.363	-2.843310e-005	-2.256050e-003	9.979617e-001	-6.338275e-002	9.978410e-001	-6.308189e-002	-9.665492e-005	-2.228473e-003
4065045.447	-2.448926e-005	-2.291198e-003	9.980338e-001	-6.446827e-002	9.978973e-001	-6.429875e-002	-9.577662e-005	-2.309161e-003
4127584.531	-9.302655e-005	-2.325467e-003	9.980619e-001	-6.544816e-002	9.977376e-001	-6.512715e-002	-1.025800e-004	-2.338139e-003
4190123.615	-5.874162e-005	-2.338598e-003	9.977267e-001	-6.627643e-002	9.976773e-001	-6.609267e-002	-1.464387e-004	-2.395501e-003
4252662.699	-1.141600e-004	-2.376919e-003	9.977462e-001	-6.726798e-002	9.974542e-001	-6.698175e-002	-1.675449e-004	-2.376596e-003
4315201.782	-4.424541e-005	-2.449243e-003	9.976746e-001	-6.837684e-002	9.974782e-001	-6.791673e-002	-1.663727e-004	-2.452803e-003
4377740.866	-7.206202e-005	-2.483259e-003	9.976760e-001	-6.942067e-002	9.975331e-001	-6.908409e-002	-1.062117e-004	-2.470922e-003
4440279.950	-5.379179e-005	-2.471284e-003	9.975644e-001	-7.010780e-002	9.974710e-001	-7.002478e-002	-1.273999e-004	-2.535422e-003
4502819.034	-2.959433e-005	-2.603132e-003	9.975996e-001	-7.118628e-002	9.972208e-001	-7.099551e-002	-1.287554e-004	-2.551539e-003
4565358.118	-6.844097e-005	-2.574827e-003	9.971701e-001	-7.217610e-002	9.972772e-001	-7.215639e-002	-1.257470e-004	-2.550253e-003
4627897.201	-6.321168e-005	-2.646018e-003	9.973148e-001	-7.317083e-002	9.972511e-001	-7.291361e-002	-1.771658e-004	-2.557411e-003
4690436.285	-4.113471e-005	-2.648116e-003	9.972504e-001	-7.425894e-002	9.971264e-001	-7.390463e-002	-1.543615e-004	-2.614863e-003
4752975.369	-1.214903e-004	-2.746595e-003	9.971165e-001	-7.519538e-002	9.969345e-001	-7.492056e-002	-1.640722e-004	-2.674495e-003
4815514.453	-8.967127e-005	-2.760646e-003	9.971727e-001	-7.626931e-002	9.968664e-001	-7.599550e-002	-1.693502e-004	-2.720938e-003
4878053.537	-1.346342e-004	-2.734305e-003	9.970947e-001	-7.735708e-002	9.968432e-001	-7.684424e-002	-1.840603e-004	-2.729734e-003
4940592.620	-9.891138e-005	-2.794659e-003	9.968681e-001	-7.823593e-002	9.966934e-001	-7.789069e-002	-1.917107e-004	-2.776770e-003
5003131.704	-8.700096e-005	-2.843004e-003	9.968772e-001	-7.920371e-002	9.965593e-001	-7.894207e-002	-2.641340e-004	-2.856308e-003
5065670.788	-1.494990e-004	-2.889979e-003	9.968050e-001	-8.025936e-002	9.965144e-001	-7.991967e-002	-2.057683e-004	-2.857354e-003
5128209.872	-1.072224e-004	-2.899447e-003	9.966783e-001	-8.109894e-002	9.965921e-001	-8.080070e-002	-2.183546e-004	-2.901398e-003
5190748.956	-1.224311e-004	-2.993014e-003	9.966122e-001	-8.219593e-002	9.965425e-001	-8.176239e-002	-2.193378e-004	-2.906916e-003
5253288.039	-1.436062e-004	-2.987021e-003	9.963128e-001	-8.307431e-002	9.964394e-001	-8.278363e-002	-1.631927e-004	-2.965589e-003
5315827.123	-1.375522e-004	-3.026460e-003	9.963541e-001	-8.406546e-002	9.963586e-001	-8.393266e-002	-1.926312e-004	-2.969106e-003
5378366.207	-1.650395e-004	-3.055376e-003	9.961997e-001	-8.509564e-002	9.962199e-001	-8.477711e-002	-2.311389e-004	-3.022389e-003
5440905.291	-1.417322e-004	-3.093167e-003	9.963973e-001	-8.599288e-002	9.962482e-001	-8.581975e-002	-2.240875e-004	-3.070189e-003
5503444.375	-1.585230e-004	-3.142935e-003	9.962018e-001	-8.711845e-002	9.959896e-001	-8.704426e-002	-2.421161e-004	-3.099700e-003
5565983.458	-1.984234e-004	-3.144364e-003	9.962117e-001	-8.808822e-002	9.958525e-001	-8.785454e-002	-1.802343e-004	-3.118748e-003
5628522.542	-1.918623e-004	-3.230865e-003	9.960870e-001	-8.893272e-002	9.960582e-001	-8.864385e-002	-3.095363e-004	-3.210929e-003
5691061.626	-1.362696e-004	-3.229403e-003	9.959744e-001	-8.996364e-002	9.956590e-001	-8.977507e-002	-2.966401e-004	-3.196777e-003
5753600.710	-1.532287e-004	-3.300497e-003	9.957824e-001	-9.106137e-002	9.957188e-001	-9.072065e-002	-2.257108e-004	-3.227918e-003
5816139.794	-1.276899e-004	-3.306505e-003	9.958313e-001	-9.197397e-002	9.956075e-001	-9.186848e-002	-3.009554e-004	-3.280285e-003
5878678.877	-1.798382e-004	-3.342375e-003	9.956329e-001	-9.289826e-002	9.954970e-001	-9.270916e-002	-2.464836e-004	-3.277653e-003
5941217.961	-2.123346e-004	-3.399894e-003	9.956128e-001	-9.385247e-002	9.955749e-001	-9.354623e-002	-3.247105e-004	-3.317005e-003
6003757.045	-1.731819e-004	-3.481962e-003	9.954012e-001	-9.501298e-002	9.953586e-001	-9.462695e-002	-3.112738e-004	-3.412887e-003
6066296.129	-2.260432e-004	-3.458045e-003	9.952738e-001	-9.599110e-002	9.951252e-001	-9.565168e-002	-3.033806e-004	-3.397143e-003
6128835.213	-2.253006e-004	-3.460375e-003	9.953082e-001	-9.697657e-002	9.952148e-001	-9.680788e-002	-2.921131e-004	-3.419389e-003
6191374.296	-2.610110e-004	-3.565968e-003	9.951336e-001	-9.774227e-002	9.950098e-001	-9.766022e-002	-3.557002e-004	-3.505802e-003
6253913.380	-2.187838e-004	-3.596416e-003	9.949749e-001	-9.895635e-002	9.948073e-001	-9.860338e-002	-3.482576e-004	-3.475995e-003
6316452.464	-2.087929e-004	-3.553921e-003	9.949530e-001	-9.974600e-002	9.949601e-001	-9.948262e-002	-3.090694e-004	-3.538511e-003
6378991.548	-2.421175e-004	-3.677889e-003	9.950158e-001	-1.008064e-001	9.947735e-001	-1.004586e-001	-3.197764e-004	-3.544773e-003
6441530.632	-2.605096e-004	-3.673148e-003	9.949060e-001	-1.017959e-001	9.945428e-001	-1.016452e-001	-3.431535e-004	-3.652982e-003
6504069.715	-2.601806e-004	-3.710632e-003	9.947244e-001	-1.027773e-001	9.945983e-001	-1.026118e-001	-3.447145e-004	-3.660542e-003
6566608.799	-2.395173e-004	-3.750138e-003	9.945509e-001	-1.037961e-001	9.944539e-001	-1.034601e-001	-4.077029e-004	-3.667009e-003
6629147.883	-2.808159e-004	-3.787566e-003	9.943860e-001	-1.048410e-001	9.944223e-001	-1.044886e-001	-3.929495e-004	-3.709015e-003
6691686.967	-2.782948e-004	-3.859232e-003	9.944094e-001	-1.056797e-001	9.940190e-001	-1.055906e-001	-4.284003e-004	-3.700884e-003
6754226.051	-3.198334e-004	-3.846944e-003	9.943740e-001	-1.067116e-001	9.941468e-001	-1.064775e-001	-3.752779e-004	-3.817541e-003
6816765.134	-3.472078e-004	-3.925484e-003	9.941566e-001	-1.076856e-001	9.940526e-001	-1.075062e-001	-3.707096e-004	-3.858918e-003
6879304.218	-2.951651e-004	-3.945277e-003	9.940328e-001	-1.087060e-001	9.938608e-001	-1.084825e-001	-3.851316e-004	-3.856790e-003
6941843.302	-2.893986e-004	-3.948301e-003	9.939099e-001	-1.095360e-001	9.938888e-001	-1.094758e-001	-4.131771e-004	-3.861295e-003
7004382.386	-3.403681e-004	-3.985359e-003	9.937282e-001	-1.107541e-001	9.937990e-001	-1.105432e-001	-4.170809e-004	-3.941312e-003
7066921.470	-3.226283e-004	-4.033558e-003	9.936421e-001	-1.116931e-001	9.937047e-001	-1.113631e-001	-4.250955e-004	-3.973364e-003
7129460.553	-3.123554e-004	-4.115129e-003	9.936788e-001	-1.126327e-001	9.935709e-001	-1.125304e-001	-4.476167e-004	-3.993883e-003
7191999.637	-3.478092e-004	-4.108622e-003	9.934189e-001	-1.136746e-001	9.933375e-001	-1.133076e-001	-4.470603e-004	-4.038332e-003
7254538.721	-2.854540e-004	-4.147291e-003	9.934026e-001	-1.146205e-001	9.933730e-001	-1.143386e-001	-4.767859e-004	-4.041596e-003
7317077.805	-3.765427e-004	-4.164380e-003	9.931489e-001	-1.156574e-001	9.933490e-001	-1.153275e-001	-4.590720e-004	-4.069891e-003
7379616.889	-3.335454e-004	-4.204768e-003	9.932720e-001	-1.165860e-001	9.930051e-001	-1.161964e-001	-4.490389e-004	-4.164682e-003
7442155.972	-3.497845e-004	-4.254791e-003	9.929914e-001	-1.175421e-001	9.928583e-001	-1.173790e-001	-4.819027e-004	-4.179949e-003
7504695.056	-3.489767e-004	-4.293471e-003	9.928740e-001	-1.185256e-001	9.929097e-001	-1.182114e-001	-4.469376e-004	-4.176979e-003
7567234.140	-3.792481e-004	-4.296755e-003	9.928996e-001	-1.195906e-001	9.927081e-001	-1.191732e-001	-4.828396e-004	-4.200734e-003
7629773.224	-3.720645e-004	-4.365883e-003	9.926655e-001	-1.205019e-001	9.925439e-001	-1.202077e-001	-5.066854e-004	-4.243159e-003
7692312.308	-3.954788e-004	-4.391927e-003	9.926532e-001	-1.214952e-001	9.924537e-001	-1.212113e-001	-4.824304e-004	-4.222640e-003
7754851.391	-3.974494e-004	-4.448208e-003	9.923516e-001	-1.223822e-001	9.922972e-001	-1.221352e-001	-5.382562e-004	-4.271733e-003
7817390.475	-3.929471e-004	-4.437867e-003	9.924998e-001	-1.234084e-001	9.922030e-001	-1.232479e-001	-4.823056e-004	-4.359088e-003
7879929.559	-4.305573e-004	-4.504347e-003	9.921789e-001	-1.243533e-001	9.920780e-001	-1.241280e-001	-5.205241e-004	-4.375324e-003
7942468.643	-4.526188e-004	-4.503355e-003	9.920400e-001	-1.253390e-001	9.919561e-001	-1.252554e-001	-5.585570e-004	-4.410472e-003
8005007.727	-4.200334e-004	-4.538615e-003	9.919770e-001	-1.264998e-001	9.918567e-001	-1.260567e-001	-5.712041e-004	-4.479311e-003
8067546.811	-4.199290e-004	-4.580661e-003	9.918245e-001	-1.274893e-001	9.917961e-001	-1.271475e-001	-5.161415e-004	-4.490671e-003
8130085.894	-4.407757e-004	-4.590609e-003	9.917092e-001	-1.283696e-001	9.915072e-001	-1.281637e-001	-5.671323e-004	-4.532342e-003
8192624.978	-4.489169e-004	-4.671584e-003	9.915533e-001	-1.293287e-001	9.913854e-001	-1.290891e-001	-5.356957e-004	-4.555362e-003
8255164.062	-4.549780e-004	-4.704697e-003	9.914662e-001	-1.303450e-001	9.913336e-001	-1.300100e-001	-5.709485e-004	-4.615989e-003
8317703.146	-4.445694e-004	-4.784417e-003	9.914016e-001	-1.313590e-001	9.913286e-001	-1.310487e-001	-5.938477e-004	-4.649912e-003
8380242.230	-4.465068e-004	-4.822080e-003	9.911923e-001	-1.320512e-001	9.913014e-001	-1.320110e-001	-5.715104e-004	-4.648734e-003
8442781.313	-4.833693e-004	-4.793994e-003	9.911379e-001	-1.330422e-001	9.909572e-001	-1.329120e-001	-6.231300e-004	-4.661346e-003
8505320.397	-5.264236e-004	-4.847295e-003	9.909582e-001	-1.342475e-001	9.907844e-001	-1.340827e-001	-5.801670e-004	-4.785565e-003
8567859.481	-5.006466e-004	-4.880199e-003	9.908048e-001	-1.351943e-001	9.907321e-001	-1.347817e-001	-5.775163e-004	-4.745025e-003
8630398.565	-4.903692e-004	-4.896369e-003	9.906362e-001	-1.362553e-001	9.905313e-001	-1.359447e-001	-5.870165e-004	-4.827916e-003
8692937.649	-5.198260e-004	-4.927394e-003	9.903888e-001	-1.371608e-001	9.903804e-001	-1.367146e-001	-6.715856e-004	-4.805877e-003
8755476.732	-5.544631e-004	-4.930122e-003	9.902692e-001	-1.382259e-001	9.903471e-001	-1.379013e-001	-6.390143e-004	-4.830342e-003
8818015.816	-5.440825e-004	-5.019529e-003	9.902686e-001	-1.390223e-001	9.902067e-001	-1.387813e-001	-6.387194e-004	-4.888806e-003
8880554.900	-5.873040e-004	-5.089883e-003	9.901236e-001	-1.401534e-001	9.900279e-001	-1.397101e-001	-6.901664e-004	-4.913222e-003
8943093.984	-5.596382e-004	-5.089249e-003	9.900047e-001	-1.412131e-001	9.898678e-001	-1.406581e-001	-6.320542e-004	-4.946263e-003
9005633.068	-5.748429e-004	-5.134549e-003	9.897933e-001	-1.420140e-001	9.896960e-001	-1.418554e-001	-6.796486e-004	-5.016437e-003
9068172.151	-5.602116e-004	-5.149291e-003	9.896510e-001	-1.430689e-001	9.893712e-001	-1.428362e-001	-7.328422e-004	-4.995745e-003
9130711.235	-5.668791e-004	-5.167669e-003	9.895113e-001	-1.439934e-001	9.894258e-001	-1.435607e-001	-6.707825e-004	-5.069454e-003
9193250.319	-5.791560e-004	-5.251149e-003	9.893662e-001	-1.448904e-001	9.893064e-001	-1.447087e-001	-6.567877e-004	-5.107161e-003
9255789.403	-5.783623e-004	-5.274022e-003	9.891775e-001	-1.460732e-001	9.892516e-001	-1.456372e-001	-6.983605e-004	-5.066884e-003
9318328.487	-6.489134e-004	-5.293717e-003	9.890415e-001	-1.470245e-001	9.891043e-001	-1.468166e-001	-7.221141e-004	-5.168728e-003
9380867.570	-6.781756e-004	-5.301590e-003	9.890000e-001	-1.479646e-001	9.887326e-001	-1.475560e-001	-7.426574e-004	-5.159168e-003
9443406.654	-6.586098e-004	-5.386309e-003	9.887545e-001	-1.488658e-001	9.887666e-001	-1.486898e-001	-7.047181e-004	-5.214922e-003
