!Agilent Technologies,E5061B,MY49102235,A.02.00
!Date: Mon Jul 10 12:08:29 2023
!Data & Calibration Information:
!Freq	S11:SOLT2(ON)	S21:SOLT2(ON)	S12:SOLT2(ON)	S22:SOLT2(ON)
# Hz S RI R 50
5.000	-4.466466e-004	4.271426e-004	1.001667e+000	2.184873e-003	1.000488e+000	1.627340e-005	-1.382123e-004	-6.140155e-005
62544.084	-5.431830e-005	-4.051849e-006	1.000113e+000	-8.593656e-004	1.000071e+000	-5.200350e-004	1.992997e-005	-9.691459e-005
125083.168	-5.242188e-005	-7.335711e-005	1.000321e+000	-2.305741e-003	1.000112e+000	-1.991184e-003	-5.156076e-005	-7.001941e-005
187622.251	1.391484e-004	-1.559234e-004	9.994564e-001	-2.499988e-003	1.000202e+000	-2.602770e-003	2.074685e-005	-9.393466e-005
250161.335	2.226637e-005	-6.502266e-005	9.998351e-001	-4.253855e-003	9.998246e-001	-3.970366e-003	1.275206e-005	-8.366442e-005
312700.419	2.095821e-005	-1.903924e-004	1.000275e+000	-4.963248e-003	9.991886e-001	-4.574113e-003	1.132153e-004	-1.389314e-004
375239.503	3.830413e-005	-1.781281e-004	1.000039e+000	-5.959555e-003	1.000130e+000	-5.779003e-003	-5.541807e-006	-2.319913e-004
437778.587	5.803724e-005	-2.633816e-004	1.000046e+000	-7.062183e-003	9.991538e-001	-7.066696e-003	7.269732e-005	-8.222696e-005
500317.670	7.104009e-005	-2.976889e-004	1.000003e+000	-8.136487e-003	9.993713e-001	-8.281225e-003	7.874551e-005	-1.424343e-004
562856.754	9.482702e-005	-2.335830e-004	9.997355e-001	-9.256504e-003	9.996257e-001	-8.684949e-003	5.193480e-005	-2.838462e-004
625395.838	7.541564e-005	-2.974037e-004	9.998347e-001	-1.012382e-002	9.992602e-001	-9.671330e-003	9.485375e-005	-2.908134e-004
687934.922	-4.376198e-005	-4.078387e-004	1.000178e+000	-1.088622e-002	1.000198e+000	-1.089307e-002	-2.630903e-005	-3.526308e-004
750474.006	-2.601187e-005	-4.262540e-004	9.997995e-001	-1.206513e-002	9.997145e-001	-1.112706e-002	-5.896054e-005	-3.857302e-004
813013.089	-1.778226e-005	-4.264804e-004	1.000325e+000	-1.305966e-002	9.992817e-001	-1.256058e-002	-3.510654e-005	-4.678191e-004
875552.173	-1.235840e-005	-5.022025e-004	9.998539e-001	-1.417991e-002	9.999941e-001	-1.386293e-002	-1.644654e-005	-4.984568e-004
938091.257	-1.190324e-004	-5.042088e-004	9.995501e-001	-1.474301e-002	9.995874e-001	-1.429415e-002	-7.410422e-005	-5.256577e-004
1000630.341	-5.391364e-005	-4.886164e-004	9.998216e-001	-1.556270e-002	9.997839e-001	-1.552450e-002	-3.501764e-005	-5.677533e-004
1063169.425	-8.555471e-006	-5.478723e-004	1.000546e+000	-1.680140e-002	1.000459e+000	-1.694402e-002	7.082159e-006	-6.212345e-004
1125708.508	-1.743946e-005	-5.950924e-004	1.000173e+000	-1.808120e-002	9.995255e-001	-1.757008e-002	-1.885026e-006	-6.107523e-004
1188247.592	-2.804147e-005	-6.536584e-004	9.997548e-001	-1.875385e-002	9.995416e-001	-1.857990e-002	1.700512e-007	-6.497696e-004
1250786.676	-4.190394e-005	-6.962542e-004	9.996879e-001	-2.008626e-002	9.993050e-001	-1.940653e-002	-1.208384e-007	-6.753433e-004
1313325.760	-2.086310e-005	-7.045469e-004	9.998512e-001	-2.022447e-002	9.991274e-001	-2.066770e-002	-4.844216e-005	-7.561347e-004
1375864.844	-7.852754e-007	-7.764801e-004	1.000230e+000	-2.239242e-002	9.993761e-001	-2.200319e-002	-2.688780e-005	-7.862407e-004
1438403.927	-2.254781e-005	-8.246868e-004	9.996627e-001	-2.332481e-002	9.994621e-001	-2.257756e-002	-2.164854e-005	-8.381806e-004
1500943.011	-9.597247e-006	-8.511819e-004	1.000007e+000	-2.414701e-002	9.992424e-001	-2.374583e-002	-3.046512e-005	-8.230163e-004
1563482.095	-8.568577e-005	-8.768157e-004	9.993272e-001	-2.496202e-002	9.995876e-001	-2.467781e-002	-5.234872e-005	-9.059284e-004
1626021.179	2.720674e-005	-8.843007e-004	9.996963e-001	-2.623871e-002	9.993865e-001	-2.536559e-002	5.706486e-006	-9.223721e-004
1688560.263	3.562830e-005	-9.402893e-004	1.000086e+000	-2.716089e-002	9.996163e-001	-2.646258e-002	-4.389976e-006	-9.484616e-004
1751099.346	3.791417e-005	-9.106796e-004	1.000013e+000	-2.797689e-002	9.993327e-001	-2.756476e-002	-3.381325e-005	-1.000946e-003
1813638.430	-6.250777e-005	-9.849928e-004	9.999892e-001	-2.860713e-002	9.991654e-001	-2.844874e-002	-4.602520e-005	-9.957396e-004
1876177.514	-2.673527e-005	-1.082808e-003	9.997641e-001	-3.014028e-002	9.996477e-001	-2.942382e-002	-6.517745e-006	-1.055688e-003
1938716.598	-1.697477e-005	-1.070501e-003	9.994323e-001	-3.101630e-002	9.997741e-001	-3.068587e-002	-1.065808e-005	-1.092534e-003
2001255.682	-1.811070e-005	-1.084875e-003	1.000014e+000	-3.177147e-002	9.990870e-001	-3.160218e-002	-3.644589e-005	-1.124296e-003
2063794.765	-3.890752e-005	-1.080476e-003	9.994419e-001	-3.257608e-002	9.997029e-001	-3.246096e-002	5.103670e-006	-1.166364e-003
2126333.849	1.596385e-006	-1.230001e-003	9.987794e-001	-3.385250e-002	9.992362e-001	-3.354658e-002	-9.247736e-005	-1.237889e-003
2188872.933	-3.210200e-005	-1.214432e-003	9.994836e-001	-3.464908e-002	9.993751e-001	-3.458769e-002	-4.558594e-005	-1.201939e-003
2251412.017	4.064247e-005	-1.270543e-003	9.996253e-001	-3.640665e-002	9.991482e-001	-3.530593e-002	1.748815e-005	-1.284095e-003
2313951.101	-3.063860e-005	-1.316219e-003	9.991388e-001	-3.696516e-002	9.991711e-001	-3.611673e-002	1.659110e-005	-1.363924e-003
2376490.184	-1.047824e-005	-1.351671e-003	9.998551e-001	-3.795385e-002	9.992879e-001	-3.750799e-002	-8.359806e-006	-1.347001e-003
2439029.268	-4.821994e-005	-1.401631e-003	9.992300e-001	-3.860029e-002	9.987170e-001	-3.846478e-002	-7.373190e-005	-1.433151e-003
2501568.352	-3.966115e-005	-1.333173e-003	9.992335e-001	-3.960431e-002	9.995215e-001	-3.954819e-002	-1.458744e-005	-1.396950e-003
2564107.436	2.756422e-005	-1.375938e-003	9.990200e-001	-4.077623e-002	9.987874e-001	-4.045609e-002	-4.032114e-005	-1.484189e-003
2626646.520	-5.774669e-005	-1.463396e-003	9.988604e-001	-4.177575e-002	9.993705e-001	-4.101014e-002	-1.247097e-005	-1.484049e-003
2689185.604	-5.691652e-005	-1.495977e-003	9.995947e-001	-4.238230e-002	9.994435e-001	-4.225021e-002	-2.151086e-005	-1.583367e-003
2751724.687	2.240017e-005	-1.601404e-003	9.992372e-001	-4.342076e-002	9.984942e-001	-4.322031e-002	-7.462261e-005	-1.526265e-003
2814263.771	2.960529e-005	-1.609766e-003	9.995163e-001	-4.476824e-002	9.992022e-001	-4.469071e-002	-5.346252e-005	-1.607696e-003
2876802.855	-4.448179e-005	-1.635062e-003	9.991992e-001	-4.598541e-002	9.984969e-001	-4.536059e-002	-5.014797e-005	-1.670503e-003
2939341.939	-2.840582e-005	-1.651681e-003	9.990261e-001	-4.659929e-002	9.989310e-001	-4.605505e-002	-7.615116e-005	-1.696558e-003
3001881.023	-7.750974e-005	-1.663081e-003	9.990420e-001	-4.702532e-002	9.991620e-001	-4.674639e-002	-1.180359e-004	-1.670086e-003
3064420.106	-1.609996e-005	-1.755153e-003	9.986169e-001	-4.844284e-002	9.982431e-001	-4.790894e-002	-8.214489e-005	-1.716783e-003
3126959.190	-4.276787e-005	-1.765269e-003	9.987389e-001	-4.955181e-002	9.985650e-001	-4.930716e-002	-6.191293e-005	-1.787228e-003
3189498.274	-3.242720e-006	-1.795967e-003	9.988393e-001	-5.066096e-002	9.984386e-001	-5.026131e-002	-9.452478e-005	-1.819498e-003
3252037.358	3.468700e-006	-1.832331e-003	9.986615e-001	-5.160086e-002	9.985657e-001	-5.118709e-002	-5.760841e-005	-1.835443e-003
3314576.442	-1.712853e-005	-1.946155e-003	9.986974e-001	-5.262485e-002	9.986099e-001	-5.229116e-002	-1.187795e-004	-1.864987e-003
3377115.525	-5.328974e-005	-1.902233e-003	9.987380e-001	-5.370299e-002	9.983479e-001	-5.323367e-002	-1.034497e-004	-1.923016e-003
3439654.609	-1.899655e-005	-1.917568e-003	9.983882e-001	-5.452546e-002	9.984839e-001	-5.428701e-002	-1.060075e-004	-1.969885e-003
3502193.693	-2.106394e-005	-2.025714e-003	9.985179e-001	-5.553581e-002	9.984003e-001	-5.514040e-002	-9.362438e-005	-2.048159e-003
3564732.777	-5.094889e-005	-2.030689e-003	9.984845e-001	-5.656815e-002	9.983440e-001	-5.616966e-002	-7.385516e-005	-2.048488e-003
3627271.861	-4.369319e-005	-2.077496e-003	9.983491e-001	-5.758804e-002	9.983553e-001	-5.724140e-002	-1.056876e-004	-2.074703e-003
3689810.944	-5.352057e-005	-2.122640e-003	9.983339e-001	-5.851719e-002	9.981032e-001	-5.818183e-002	-1.425500e-004	-2.131739e-003
3752350.028	-9.449756e-005	-2.121555e-003	9.982887e-001	-5.950225e-002	9.981830e-001	-5.911255e-002	-8.938557e-005	-2.129265e-003
3814889.112	-5.208909e-005	-2.170123e-003	9.982089e-001	-6.047955e-002	9.980274e-001	-6.009741e-002	-1.055194e-004	-2.213843e-003
3877428.196	1.236330e-005	-2.184470e-003	9.981889e-001	-6.149217e-002	9.978768e-001	-6.101362e-002	-1.404818e-004	-2.226263e-003
3939967.280	-7.930793e-005	-2.278625e-003	9.979618e-001	-6.256622e-002	9.978853e-001	-6.208715e-002	-1.214247e-004	-2.208690e-003
4002506.363	-2.869811e-005	-2.290057e-003	9.979785e-001	-6.345015e-002	9.978417e-001	-6.299814e-002	-1.296699e-004	-2.268313e-003
4065045.447	-3.609136e-005	-2.338522e-003	9.980061e-001	-6.452678e-002	9.978855e-001	-6.426602e-002	-1.138419e-004	-2.353263e-003
4127584.531	-9.847413e-005	-2.358514e-003	9.980478e-001	-6.552710e-002	9.977535e-001	-6.508177e-002	-1.214691e-004	-2.366060e-003
4190123.615	-7.502306e-005	-2.379685e-003	9.977655e-001	-6.635431e-002	9.976999e-001	-6.598250e-002	-1.715374e-004	-2.414839e-003
4252662.699	-1.225538e-004	-2.420386e-003	9.977138e-001	-6.731482e-002	9.974959e-001	-6.693523e-002	-1.706760e-004	-2.412833e-003
4315201.782	-6.457571e-005	-2.501721e-003	9.976999e-001	-6.844769e-002	9.974823e-001	-6.783791e-002	-1.904378e-004	-2.488726e-003
4377740.866	-9.345263e-005	-2.520016e-003	9.977068e-001	-6.944177e-002	9.974927e-001	-6.902910e-002	-1.279508e-004	-2.506270e-003
4440279.950	-6.801748e-005	-2.511443e-003	9.976000e-001	-7.019862e-002	9.974545e-001	-6.990779e-002	-1.607708e-004	-2.568973e-003
4502819.034	-4.478689e-005	-2.642960e-003	9.976166e-001	-7.128827e-002	9.972578e-001	-7.092579e-002	-1.658412e-004	-2.588869e-003
4565358.118	-8.342052e-005	-2.609348e-003	9.972047e-001	-7.223157e-002	9.973335e-001	-7.208839e-002	-1.420804e-004	-2.592695e-003
4627897.201	-7.295473e-005	-2.692761e-003	9.972880e-001	-7.320486e-002	9.973111e-001	-7.279680e-002	-2.042728e-004	-2.576910e-003
4690436.285	-5.356328e-005	-2.696752e-003	9.972099e-001	-7.430573e-002	9.971332e-001	-7.384703e-002	-1.876233e-004	-2.667198e-003
4752975.369	-1.323226e-004	-2.790617e-003	9.971432e-001	-7.531676e-002	9.969761e-001	-7.485202e-002	-1.929835e-004	-2.706430e-003
4815514.453	-1.129520e-004	-2.804758e-003	9.971801e-001	-7.631433e-002	9.968790e-001	-7.590000e-002	-1.857608e-004	-2.758246e-003
4878053.537	-1.307369e-004	-2.779463e-003	9.970899e-001	-7.742930e-002	9.968658e-001	-7.674465e-002	-2.137019e-004	-2.759641e-003
4940592.620	-1.151702e-004	-2.829118e-003	9.968678e-001	-7.825121e-002	9.967067e-001	-7.778430e-002	-2.309158e-004	-2.811282e-003
5003131.704	-9.705624e-005	-2.894302e-003	9.968645e-001	-7.928910e-002	9.965593e-001	-7.885603e-002	-2.949004e-004	-2.889482e-003
5065670.788	-1.623392e-004	-2.920291e-003	9.968067e-001	-8.029606e-002	9.965779e-001	-7.982854e-002	-2.304810e-004	-2.888743e-003
5128209.872	-1.160913e-004	-2.937758e-003	9.967353e-001	-8.118058e-002	9.966409e-001	-8.070942e-002	-2.435446e-004	-2.933413e-003
5190748.956	-1.344379e-004	-3.033889e-003	9.966059e-001	-8.226625e-002	9.965969e-001	-8.169101e-002	-2.461797e-004	-2.946849e-003
5253288.039	-1.597733e-004	-3.030762e-003	9.963274e-001	-8.311995e-002	9.964911e-001	-8.270838e-002	-2.032986e-004	-3.002744e-003
5315827.123	-1.518178e-004	-3.078574e-003	9.963625e-001	-8.412091e-002	9.963751e-001	-8.380882e-002	-2.259602e-004	-3.004892e-003
5378366.207	-1.716578e-004	-3.092095e-003	9.961888e-001	-8.517114e-002	9.962581e-001	-8.467487e-002	-2.645848e-004	-3.052399e-003
5440905.291	-1.546499e-004	-3.145312e-003	9.963787e-001	-8.605153e-002	9.962693e-001	-8.575730e-002	-2.458540e-004	-3.117061e-003
5503444.375	-1.761143e-004	-3.188765e-003	9.961898e-001	-8.715179e-002	9.960260e-001	-8.696209e-002	-2.635661e-004	-3.131559e-003
5565983.458	-2.068191e-004	-3.202109e-003	9.962178e-001	-8.814164e-002	9.958941e-001	-8.782470e-002	-2.162103e-004	-3.163151e-003
5628522.542	-2.074894e-004	-3.265889e-003	9.961307e-001	-8.899147e-002	9.960778e-001	-8.858344e-002	-3.402319e-004	-3.244684e-003
5691061.626	-1.336669e-004	-3.277166e-003	9.960052e-001	-9.000623e-002	9.957106e-001	-8.971454e-002	-3.223576e-004	-3.231096e-003
5753600.710	-1.662797e-004	-3.340889e-003	9.958148e-001	-9.107057e-002	9.957604e-001	-9.065919e-002	-2.680261e-004	-3.258475e-003
5816139.794	-1.361305e-004	-3.348496e-003	9.958461e-001	-9.202456e-002	9.956089e-001	-9.180517e-002	-3.464552e-004	-3.312593e-003
5878678.877	-2.032497e-004	-3.405536e-003	9.956293e-001	-9.293274e-002	9.955198e-001	-9.263985e-002	-2.827332e-004	-3.313229e-003
5941217.961	-2.215382e-004	-3.447990e-003	9.956561e-001	-9.392987e-002	9.955865e-001	-9.345169e-002	-3.628423e-004	-3.366255e-003
6003757.045	-1.883989e-004	-3.530920e-003	9.954306e-001	-9.508902e-002	9.953975e-001	-9.454425e-002	-3.461037e-004	-3.456100e-003
6066296.129	-2.280837e-004	-3.515167e-003	9.952535e-001	-9.606359e-002	9.951745e-001	-9.556935e-002	-3.400815e-004	-3.440090e-003
6128835.213	-2.353847e-004	-3.508530e-003	9.953212e-001	-9.703886e-002	9.952607e-001	-9.672306e-002	-3.235225e-004	-3.448530e-003
6191374.296	-2.805872e-004	-3.621870e-003	9.951916e-001	-9.780425e-002	9.950686e-001	-9.753544e-002	-3.820138e-004	-3.540106e-003
6253913.380	-2.313921e-004	-3.650394e-003	9.949748e-001	-9.897028e-002	9.948190e-001	-9.849900e-002	-3.771052e-004	-3.512594e-003
6316452.464	-2.237828e-004	-3.613334e-003	9.949322e-001	-9.979561e-002	9.949691e-001	-9.940580e-002	-3.559175e-004	-3.567636e-003
6378991.548	-2.540046e-004	-3.726880e-003	9.950606e-001	-1.008491e-001	9.947940e-001	-1.003865e-001	-3.390394e-004	-3.582509e-003
6441530.632	-2.690347e-004	-3.728673e-003	9.949241e-001	-1.018594e-001	9.945861e-001	-1.015509e-001	-3.677947e-004	-3.693941e-003
6504069.715	-2.687791e-004	-3.761511e-003	9.947173e-001	-1.028160e-001	9.946763e-001	-1.025364e-001	-3.838330e-004	-3.693075e-003
6566608.799	-2.655631e-004	-3.797430e-003	9.945195e-001	-1.038526e-001	9.945408e-001	-1.033781e-001	-4.275323e-004	-3.710740e-003
6629147.883	-2.796443e-004	-3.835479e-003	9.944067e-001	-1.048705e-001	9.944281e-001	-1.043944e-001	-4.394921e-004	-3.732926e-003
6691686.967	-2.928700e-004	-3.912018e-003	9.944540e-001	-1.057108e-001	9.940331e-001	-1.054829e-001	-4.596113e-004	-3.737807e-003
6754226.051	-3.155151e-004	-3.908568e-003	9.943786e-001	-1.067848e-001	9.942140e-001	-1.063872e-001	-4.109649e-004	-3.846896e-003
6816765.134	-3.526938e-004	-3.972445e-003	9.941310e-001	-1.077424e-001	9.941359e-001	-1.074237e-001	-4.121575e-004	-3.894982e-003
6879304.218	-3.116735e-004	-3.996710e-003	9.940471e-001	-1.087912e-001	9.938969e-001	-1.083627e-001	-4.163879e-004	-3.895825e-003
6941843.302	-3.013998e-004	-3.992625e-003	9.938968e-001	-1.095939e-001	9.939006e-001	-1.093754e-001	-4.586645e-004	-3.895881e-003
7004382.386	-3.568914e-004	-4.030471e-003	9.937364e-001	-1.108234e-001	9.938494e-001	-1.104127e-001	-4.484600e-004	-3.964147e-003
7066921.470	-3.351323e-004	-4.088676e-003	9.936494e-001	-1.117548e-001	9.937174e-001	-1.112357e-001	-4.642671e-004	-4.004356e-003
7129460.553	-3.181619e-004	-4.165060e-003	9.936860e-001	-1.126318e-001	9.936288e-001	-1.124095e-001	-4.813025e-004	-4.046151e-003
7191999.637	-3.595408e-004	-4.162829e-003	9.934255e-001	-1.137273e-001	9.933771e-001	-1.132439e-001	-4.753592e-004	-4.072806e-003
7254538.721	-3.021877e-004	-4.208004e-003	9.934395e-001	-1.146826e-001	9.934171e-001	-1.142598e-001	-5.104602e-004	-4.067765e-003
7317077.805	-3.893812e-004	-4.221275e-003	9.931331e-001	-1.157187e-001	9.934122e-001	-1.152576e-001	-4.966181e-004	-4.092811e-003
7379616.889	-3.501134e-004	-4.255624e-003	9.933040e-001	-1.166380e-001	9.930269e-001	-1.161604e-001	-4.898327e-004	-4.205056e-003
7442155.972	-3.611472e-004	-4.309649e-003	9.929720e-001	-1.175729e-001	9.928719e-001	-1.173082e-001	-5.275680e-004	-4.215419e-003
7504695.056	-3.511443e-004	-4.345363e-003	9.928975e-001	-1.185527e-001	9.929277e-001	-1.180958e-001	-4.928869e-004	-4.212462e-003
7567234.140	-3.981693e-004	-4.354651e-003	9.929110e-001	-1.196535e-001	9.927375e-001	-1.190751e-001	-5.303653e-004	-4.236937e-003
7629773.224	-3.826044e-004	-4.426107e-003	9.926466e-001	-1.205730e-001	9.926081e-001	-1.201212e-001	-5.486459e-004	-4.273691e-003
7692312.308	-4.103277e-004	-4.445597e-003	9.926493e-001	-1.215430e-001	9.925352e-001	-1.211057e-001	-5.286176e-004	-4.248663e-003
7754851.391	-4.076537e-004	-4.506399e-003	9.923587e-001	-1.224699e-001	9.923205e-001	-1.220300e-001	-5.869776e-004	-4.293795e-003
7817390.475	-4.064622e-004	-4.486502e-003	9.925047e-001	-1.234273e-001	9.922831e-001	-1.231442e-001	-5.349660e-004	-4.394455e-003
7879929.559	-4.489091e-004	-4.561400e-003	9.921871e-001	-1.243975e-001	9.921262e-001	-1.239930e-001	-5.641348e-004	-4.407358e-003
7942468.643	-4.566471e-004	-4.551627e-003	9.920465e-001	-1.253676e-001	9.920085e-001	-1.251470e-001	-5.907023e-004	-4.431000e-003
8005007.727	-4.438532e-004	-4.603206e-003	9.920278e-001	-1.265204e-001	9.919140e-001	-1.259590e-001	-6.024080e-004	-4.515076e-003
8067546.811	-4.321620e-004	-4.636195e-003	9.918608e-001	-1.275328e-001	9.918492e-001	-1.270984e-001	-5.510307e-004	-4.523969e-003
8130085.894	-4.517038e-004	-4.659837e-003	9.917412e-001	-1.284077e-001	9.915536e-001	-1.280600e-001	-6.139425e-004	-4.570493e-003
8192624.978	-4.583605e-004	-4.728960e-003	9.915617e-001	-1.293673e-001	9.914720e-001	-1.290463e-001	-5.717335e-004	-4.587228e-003
8255164.062	-4.713756e-004	-4.762999e-003	9.914541e-001	-1.303878e-001	9.913750e-001	-1.299339e-001	-6.029746e-004	-4.652703e-003
8317703.146	-4.550993e-004	-4.838754e-003	9.914046e-001	-1.313860e-001	9.913571e-001	-1.309322e-001	-6.464275e-004	-4.680137e-003
8380242.230	-4.517746e-004	-4.876747e-003	9.912310e-001	-1.321041e-001	9.913278e-001	-1.318987e-001	-6.244595e-004	-4.687889e-003
8442781.313	-5.034172e-004	-4.850415e-003	9.911618e-001	-1.330985e-001	9.909862e-001	-1.328289e-001	-6.647769e-004	-4.694027e-003
8505320.397	-5.290036e-004	-4.896944e-003	9.909594e-001	-1.342938e-001	9.908181e-001	-1.340021e-001	-6.135831e-004	-4.813081e-003
8567859.481	-5.123976e-004	-4.925709e-003	9.907985e-001	-1.352592e-001	9.907572e-001	-1.347118e-001	-6.284391e-004	-4.779281e-003
8630398.565	-4.967627e-004	-4.958481e-003	9.906405e-001	-1.362787e-001	9.905873e-001	-1.358572e-001	-6.323569e-004	-4.855837e-003
8692937.649	-5.300428e-004	-4.973115e-003	9.904158e-001	-1.372066e-001	9.904167e-001	-1.366340e-001	-7.271087e-004	-4.833639e-003
8755476.732	-5.700801e-004	-4.990153e-003	9.902863e-001	-1.382886e-001	9.903948e-001	-1.377659e-001	-6.735390e-004	-4.867382e-003
8818015.816	-5.451790e-004	-5.074222e-003	9.902892e-001	-1.390465e-001	9.902973e-001	-1.386676e-001	-6.817080e-004	-4.924457e-003
8880554.900	-5.909333e-004	-5.143774e-003	9.901183e-001	-1.402046e-001	9.901075e-001	-1.396417e-001	-7.344488e-004	-4.951915e-003
8943093.984	-5.593227e-004	-5.144309e-003	9.899967e-001	-1.412769e-001	9.899223e-001	-1.405944e-001	-6.792480e-004	-4.971532e-003
9005633.068	-5.825086e-004	-5.188802e-003	9.898094e-001	-1.420998e-001	9.897522e-001	-1.417520e-001	-7.271684e-004	-5.050040e-003
9068172.151	-5.698391e-004	-5.207932e-003	9.896645e-001	-1.431087e-001	9.894295e-001	-1.427289e-001	-7.774241e-004	-5.023490e-003
9130711.235	-5.804212e-004	-5.230209e-003	9.895357e-001	-1.440291e-001	9.894857e-001	-1.434568e-001	-7.035087e-004	-5.093567e-003
9193250.319	-5.929033e-004	-5.305077e-003	9.893860e-001	-1.449553e-001	9.893446e-001	-1.446015e-001	-7.020983e-004	-5.141306e-003
9255789.403	-5.853067e-004	-5.330111e-003	9.892144e-001	-1.460883e-001	9.893072e-001	-1.455238e-001	-7.509881e-004	-5.102116e-003
9318328.487	-6.712124e-004	-5.351431e-003	9.890428e-001	-1.470784e-001	9.891690e-001	-1.467373e-001	-7.625181e-004	-5.211573e-003
9380867.570	-6.691577e-004	-5.352522e-003	9.889702e-001	-1.480168e-001	9.887886e-001	-1.474880e-001	-7.774463e-004	-5.185479e-003
9443406.654	-6.688480e-004	-5.443748e-003	9.887535e-001	-1.489139e-001	9.888258e-001	-1.486063e-001	-7.497397e-004	-5.242206e-003
