!Agilent Technologies,E5061B,MY49102235,A.02.00
!Date: Mon Jul 10 11:58:16 2023
!Data & Calibration Information:
!Freq	S11:SOLT2(ON)	S21:SOLT2(ON)	S12:SOLT2(ON)	S22:SOLT2(ON)
# Hz S RI R 50
5.000	-4.842875e-004	4.491154e-004	1.001652e+000	2.302504e-003	1.000469e+000	-2.474651e-005	-1.128444e-004	-5.311415e-005
62544.084	-6.651843e-005	2.845978e-005	1.000004e+000	-8.460651e-004	1.000174e+000	-5.473376e-004	1.982566e-005	-6.955731e-005
125083.168	-3.836136e-005	-4.873843e-006	1.000150e+000	-2.123730e-003	1.000185e+000	-1.935512e-003	-4.318873e-005	-1.752826e-005
187622.251	1.603852e-004	-7.702863e-005	9.994385e-001	-2.197683e-003	1.000140e+000	-2.591423e-003	4.581478e-005	4.178097e-006
250161.335	1.901239e-005	4.126170e-005	9.998140e-001	-3.982719e-003	9.998714e-001	-3.854501e-003	1.955090e-005	3.170614e-005
312700.419	1.778473e-005	-1.550904e-005	1.000275e+000	-4.838137e-003	9.992574e-001	-4.503879e-003	1.164844e-004	2.077085e-005
375239.503	5.381848e-005	1.363136e-005	9.999396e-001	-5.666637e-003	1.000129e+000	-5.629324e-003	1.412569e-005	-4.138423e-005
437778.587	6.659735e-005	-5.609607e-005	1.000046e+000	-6.588036e-003	9.991695e-001	-6.896646e-003	8.252754e-005	1.207323e-004
500317.670	7.996972e-005	-3.931050e-005	9.999560e-001	-7.784627e-003	9.993074e-001	-8.041838e-003	1.056182e-004	1.039541e-004
562856.754	9.936896e-005	5.886848e-005	9.996837e-001	-8.918982e-003	9.997212e-001	-8.454781e-003	5.216108e-005	-1.610018e-005
625395.838	8.113880e-005	2.410351e-005	9.998358e-001	-9.787335e-003	9.990519e-001	-9.448709e-003	1.226624e-004	3.650161e-005
687934.922	-4.330228e-005	-8.049645e-005	1.000172e+000	-1.046126e-002	1.000313e+000	-1.050365e-002	-1.847145e-005	-2.379337e-005
750474.006	-1.746240e-005	-4.513510e-005	9.996556e-001	-1.169836e-002	9.997751e-001	-1.080541e-002	-2.965324e-005	-1.488050e-005
813013.089	-3.685446e-006	-9.677206e-006	1.000320e+000	-1.259529e-002	9.993401e-001	-1.234705e-002	-7.332479e-006	-5.786773e-005
875552.173	-1.181315e-005	-6.455370e-005	9.997095e-001	-1.359608e-002	1.000062e+000	-1.351576e-002	1.333633e-005	-5.389879e-005
938091.257	-9.251027e-005	-3.086643e-005	9.995751e-001	-1.425510e-002	9.996321e-001	-1.390712e-002	-7.234383e-005	-4.564805e-005
1000630.341	-4.738358e-005	2.851233e-005	9.997852e-001	-1.498987e-002	9.998536e-001	-1.504729e-002	-1.424802e-005	-4.582385e-005
1063169.425	1.854221e-006	7.499190e-006	1.000485e+000	-1.620908e-002	1.000416e+000	-1.657472e-002	2.297182e-005	-7.824298e-005
1125708.508	-9.120152e-006	-1.060121e-005	1.000167e+000	-1.745517e-002	9.995319e-001	-1.701570e-002	1.106194e-005	-3.195857e-005
1188247.592	-8.992604e-006	-5.836580e-005	9.995672e-001	-1.799249e-002	9.996229e-001	-1.799145e-002	2.110013e-005	-4.151695e-005
1250786.676	-2.111959e-005	-5.798961e-005	9.996578e-001	-1.936379e-002	9.993242e-001	-1.887810e-002	2.796509e-005	-3.316030e-005
1313325.760	-2.071723e-006	-2.791639e-005	9.999315e-001	-1.942568e-002	9.991854e-001	-2.007489e-002	-2.120819e-005	-8.444631e-005
1375864.844	1.299771e-005	-7.606759e-005	1.000225e+000	-2.158953e-002	9.995521e-001	-2.130139e-002	-1.022314e-007	-8.467209e-005
1438403.927	7.218248e-006	-9.194643e-005	9.996932e-001	-2.240765e-002	9.995124e-001	-2.185492e-002	-4.690367e-007	-1.003942e-004
1500943.011	1.256461e-005	-8.531985e-005	1.000031e+000	-2.327306e-002	9.993017e-001	-2.304945e-002	5.471165e-006	-6.470995e-005
1563482.095	-5.819554e-005	-8.139890e-005	9.992915e-001	-2.405446e-002	9.997176e-001	-2.382963e-002	-2.471986e-005	-9.963076e-005
1626021.179	5.291623e-005	-6.399974e-005	9.997520e-001	-2.529071e-002	9.995323e-001	-2.465751e-002	4.941748e-005	-1.001360e-004
1688560.263	6.039907e-005	-7.525545e-005	1.000128e+000	-2.608696e-002	9.996737e-001	-2.566614e-002	2.733963e-005	-8.462186e-005
1751099.346	7.998633e-005	-1.651628e-005	9.999191e-001	-2.698802e-002	9.992883e-001	-2.670146e-002	1.100599e-006	-1.130600e-004
1813638.430	-2.700334e-005	-6.506701e-005	1.000059e+000	-2.751702e-002	9.992550e-001	-2.764846e-002	-2.444394e-005	-6.599166e-005
1876177.514	-4.007046e-006	-1.123629e-004	9.998309e-001	-2.903092e-002	9.997544e-001	-2.860875e-002	2.563855e-005	-1.050531e-004
1938716.598	1.218775e-005	-9.320321e-005	9.993288e-001	-2.990583e-002	9.998382e-001	-2.968712e-002	3.395500e-005	-9.722782e-005
2001255.682	2.404718e-005	-6.155958e-005	9.999825e-001	-3.059686e-002	9.990071e-001	-3.063292e-002	-4.326945e-006	-9.111439e-005
2063794.765	-3.712969e-006	-3.405131e-005	9.994523e-001	-3.141709e-002	9.997745e-001	-3.136603e-002	4.523490e-005	-1.036175e-004
2126333.849	5.196356e-005	-1.391708e-004	9.988143e-001	-3.254276e-002	9.992914e-001	-3.261649e-002	-4.217265e-005	-1.552704e-004
2188872.933	2.066268e-005	-8.721326e-005	9.994744e-001	-3.335171e-002	9.995189e-001	-3.369293e-002	1.147191e-005	-9.625628e-005
2251412.017	9.335090e-005	-1.241960e-004	9.996110e-001	-3.519339e-002	9.993838e-001	-3.414584e-002	6.175078e-005	-1.318246e-004
2313951.101	3.243552e-005	-1.309465e-004	9.991944e-001	-3.569181e-002	9.991391e-001	-3.499415e-002	6.874747e-005	-1.768634e-004
2376490.184	5.877954e-005	-1.430483e-004	9.999028e-001	-3.665098e-002	9.992627e-001	-3.632155e-002	4.635447e-005	-1.416521e-004
2439029.268	6.150992e-006	-1.559192e-004	9.992813e-001	-3.726779e-002	9.987542e-001	-3.722140e-002	-1.447659e-005	-1.938564e-004
2501568.352	1.075300e-005	-6.537715e-005	9.992524e-001	-3.820351e-002	9.996168e-001	-3.822320e-002	5.163270e-005	-1.237180e-004
2564107.436	7.866783e-005	-6.531804e-005	9.989669e-001	-3.924488e-002	9.988168e-001	-3.920047e-002	2.597837e-005	-1.872214e-004
2626646.520	1.086697e-005	-1.364121e-004	9.988126e-001	-4.032078e-002	9.993472e-001	-3.963312e-002	5.279920e-005	-1.348146e-004
2689185.604	1.702215e-005	-1.240534e-004	9.995822e-001	-4.089597e-002	9.995845e-001	-4.095708e-002	4.267179e-005	-2.119563e-004
2751724.687	9.592425e-005	-1.958912e-004	9.992505e-001	-4.188493e-002	9.985660e-001	-4.178099e-002	7.181183e-006	-1.203511e-004
2814263.771	9.577129e-005	-1.763841e-004	9.993974e-001	-4.319527e-002	9.992855e-001	-4.334980e-002	2.799386e-005	-1.632300e-004
2876802.855	3.975273e-005	-1.852639e-004	9.992033e-001	-4.440150e-002	9.986195e-001	-4.404142e-002	3.882262e-005	-2.067311e-004
2939341.939	4.451047e-005	-1.660523e-004	9.989470e-001	-4.501757e-002	9.989663e-001	-4.459665e-002	1.903105e-005	-1.907405e-004
3001881.023	-7.977819e-007	-1.494538e-004	9.990218e-001	-4.534370e-002	9.992687e-001	-4.528506e-002	-2.104963e-005	-1.461530e-004
3064420.106	7.248452e-005	-2.038969e-004	9.986218e-001	-4.678850e-002	9.982935e-001	-4.658621e-002	1.030435e-005	-1.559682e-004
3126959.190	4.834364e-005	-1.750504e-004	9.988350e-001	-4.783396e-002	9.986568e-001	-4.775417e-002	3.339247e-005	-1.863367e-004
3189498.274	9.850042e-005	-1.644994e-004	9.988831e-001	-4.896443e-002	9.985093e-001	-4.873070e-002	1.170132e-005	-1.898340e-004
3252037.358	1.072000e-004	-1.887803e-004	9.987192e-001	-4.981713e-002	9.986281e-001	-4.961229e-002	5.717665e-005	-1.798443e-004
3314576.442	8.499786e-005	-2.601571e-004	9.987339e-001	-5.077399e-002	9.987234e-001	-5.068447e-002	6.568458e-006	-1.685138e-004
3377115.525	5.327068e-005	-1.881598e-004	9.987571e-001	-5.187554e-002	9.984491e-001	-5.162625e-002	1.306546e-005	-2.005658e-004
3439654.609	8.704598e-005	-1.635303e-004	9.984090e-001	-5.267987e-002	9.985724e-001	-5.257159e-002	1.783415e-005	-2.143049e-004
3502193.693	1.060686e-004	-2.442859e-004	9.985484e-001	-5.365836e-002	9.984842e-001	-5.343762e-002	3.982014e-005	-2.661802e-004
3564732.777	7.480716e-005	-2.231108e-004	9.985527e-001	-5.465380e-002	9.984155e-001	-5.442802e-002	4.526443e-005	-2.387098e-004
3627271.861	7.454332e-005	-2.386732e-004	9.983873e-001	-5.560745e-002	9.984529e-001	-5.545839e-002	2.871583e-005	-2.304292e-004
3689810.944	5.783675e-005	-2.461144e-004	9.984380e-001	-5.653764e-002	9.982126e-001	-5.638992e-002	-1.420364e-005	-2.600515e-004
3752350.028	4.868561e-005	-2.201585e-004	9.983774e-001	-5.752352e-002	9.982967e-001	-5.726679e-002	6.217441e-005	-2.339015e-004
3814889.112	9.161541e-005	-2.361596e-004	9.982668e-001	-5.842084e-002	9.981460e-001	-5.819731e-002	4.483476e-005	-2.752746e-004
3877428.196	1.500760e-004	-2.227044e-004	9.982580e-001	-5.939509e-002	9.980294e-001	-5.912234e-002	1.167614e-005	-2.540826e-004
3939967.280	7.460456e-005	-2.758101e-004	9.980548e-001	-6.040529e-002	9.980374e-001	-6.015628e-002	4.228990e-005	-2.090538e-004
4002506.363	1.135623e-004	-2.674717e-004	9.980605e-001	-6.128369e-002	9.979817e-001	-6.105925e-002	3.231161e-005	-2.354888e-004
4065045.447	1.249776e-004	-2.794285e-004	9.981107e-001	-6.233999e-002	9.980540e-001	-6.222384e-002	5.950840e-005	-2.894110e-004
4127584.531	6.135594e-005	-2.590354e-004	9.981844e-001	-6.328910e-002	9.979214e-001	-6.305407e-002	4.964448e-005	-2.782937e-004
4190123.615	8.784441e-005	-2.465095e-004	9.978585e-001	-6.409106e-002	9.978713e-001	-6.393289e-002	2.157047e-006	-3.013196e-004
4252662.699	3.960989e-005	-2.648747e-004	9.978420e-001	-6.504535e-002	9.976294e-001	-6.479411e-002	-8.828977e-006	-2.570384e-004
4315201.782	1.129702e-004	-3.073486e-004	9.978127e-001	-6.614255e-002	9.976567e-001	-6.572524e-002	-5.868633e-006	-2.983570e-004
4377740.866	9.533515e-005	-3.073395e-004	9.977924e-001	-6.707975e-002	9.976731e-001	-6.685950e-002	6.399871e-005	-2.914046e-004
4440279.950	1.057528e-004	-2.689834e-004	9.976953e-001	-6.777226e-002	9.976159e-001	-6.773179e-002	3.848448e-005	-3.243645e-004
4502819.034	1.497122e-004	-3.618588e-004	9.977201e-001	-6.885851e-002	9.974657e-001	-6.870095e-002	3.947954e-005	-3.149393e-004
4565358.118	1.196123e-004	-3.078524e-004	9.973332e-001	-6.978449e-002	9.974949e-001	-6.984050e-002	5.755159e-005	-2.868351e-004
4627897.201	1.247213e-004	-3.556574e-004	9.974259e-001	-7.075488e-002	9.974738e-001	-7.051656e-002	5.658595e-006	-2.399290e-004
4690436.285	1.491620e-004	-3.141026e-004	9.974066e-001	-7.182782e-002	9.973132e-001	-7.148705e-002	2.919941e-005	-2.862486e-004
4752975.369	8.048349e-005	-3.888103e-004	9.972792e-001	-7.275667e-002	9.971531e-001	-7.250885e-002	3.900092e-005	-3.039305e-004
4815514.453	1.172236e-004	-3.694886e-004	9.973247e-001	-7.375122e-002	9.970970e-001	-7.353773e-002	4.202081e-005	-3.163436e-004
4878053.537	8.052291e-005	-3.108064e-004	9.972379e-001	-7.482218e-002	9.970779e-001	-7.434101e-002	2.200244e-005	-2.914527e-004
4940592.620	1.070221e-004	-3.357557e-004	9.970485e-001	-7.561115e-002	9.969247e-001	-7.532366e-002	1.319834e-005	-3.121793e-004
5003131.704	1.242215e-004	-3.523023e-004	9.969952e-001	-7.663917e-002	9.968083e-001	-7.638341e-002	-4.725332e-005	-3.618805e-004
5065670.788	7.885618e-005	-3.733379e-004	9.969774e-001	-7.759509e-002	9.967473e-001	-7.732103e-002	1.925947e-005	-3.358441e-004
5128209.872	1.269010e-004	-3.471984e-004	9.968909e-001	-7.844042e-002	9.968461e-001	-7.817677e-002	5.730793e-006	-3.434889e-004
5190748.956	1.061406e-004	-4.125698e-004	9.967943e-001	-7.950905e-002	9.967876e-001	-7.914555e-002	2.366257e-005	-3.354555e-004
5253288.039	9.163720e-005	-3.758520e-004	9.965292e-001	-8.033030e-002	9.966946e-001	-8.011026e-002	7.742575e-005	-3.613459e-004
5315827.123	1.065598e-004	-3.823151e-004	9.965352e-001	-8.132634e-002	9.965990e-001	-8.122550e-002	4.982657e-005	-3.309030e-004
5378366.207	8.925683e-005	-3.868814e-004	9.964011e-001	-8.233731e-002	9.964838e-001	-8.201144e-002	3.226621e-005	-3.490324e-004
5440905.291	1.112154e-004	-3.988937e-004	9.965873e-001	-8.313709e-002	9.965387e-001	-8.304277e-002	4.519863e-005	-3.671846e-004
5503444.375	1.093512e-004	-4.142081e-004	9.964046e-001	-8.423905e-002	9.962372e-001	-8.422312e-002	2.744884e-005	-3.582922e-004
5565983.458	7.022668e-005	-3.928711e-004	9.964226e-001	-8.517519e-002	9.961384e-001	-8.500878e-002	8.671506e-005	-3.592186e-004
5628522.542	7.976872e-005	-4.371629e-004	9.963346e-001	-8.605317e-002	9.963120e-001	-8.582184e-002	-2.259642e-005	-4.142026e-004
5691061.626	1.415749e-004	-4.155019e-004	9.961674e-001	-8.698928e-002	9.959696e-001	-8.690323e-002	-8.868061e-006	-3.727701e-004
5753600.710	1.337041e-004	-4.459323e-004	9.960306e-001	-8.809570e-002	9.960153e-001	-8.781542e-002	6.173842e-005	-3.669787e-004
5816139.794	1.676223e-004	-4.156589e-004	9.960715e-001	-8.897466e-002	9.959340e-001	-8.892983e-002	-1.908496e-005	-3.942655e-004
5878678.877	1.086611e-004	-4.303554e-004	9.958630e-001	-8.985441e-002	9.958085e-001	-8.969801e-002	5.543542e-005	-3.541631e-004
5941217.961	8.931701e-005	-4.465030e-004	9.958835e-001	-9.074072e-002	9.958778e-001	-9.048147e-002	-1.284016e-005	-3.790326e-004
6003757.045	1.347560e-004	-5.026862e-004	9.956937e-001	-9.187543e-002	9.956660e-001	-9.155710e-002	1.122143e-005	-4.471701e-004
6066296.129	1.086411e-004	-4.497255e-004	9.955181e-001	-9.286588e-002	9.954960e-001	-9.257894e-002	1.597169e-005	-3.845410e-004
6128835.213	1.126108e-004	-4.209077e-004	9.956190e-001	-9.381249e-002	9.955902e-001	-9.369432e-002	3.558037e-005	-3.711341e-004
6191374.296	8.151607e-005	-5.071040e-004	9.954643e-001	-9.449123e-002	9.953260e-001	-9.444081e-002	-1.073960e-005	-4.424599e-004
6253913.380	1.230067e-004	-5.068562e-004	9.952454e-001	-9.571152e-002	9.951518e-001	-9.538968e-002	-7.154582e-006	-3.775771e-004
6316452.464	1.338393e-004	-4.344970e-004	9.952258e-001	-9.649393e-002	9.953014e-001	-9.624972e-002	2.489255e-005	-4.007947e-004
6378991.548	1.060071e-004	-5.173314e-004	9.953236e-001	-9.752788e-002	9.951307e-001	-9.720436e-002	3.651652e-005	-3.893217e-004
6441530.632	9.651083e-005	-4.904470e-004	9.952155e-001	-9.849489e-002	9.949082e-001	-9.836480e-002	1.950170e-005	-4.624898e-004
6504069.715	1.118320e-004	-4.913409e-004	9.949747e-001	-9.941847e-002	9.949822e-001	-9.927457e-002	2.634363e-005	-4.491196e-004
6566608.799	1.324504e-004	-4.978046e-004	9.948387e-001	-1.004317e-001	9.948429e-001	-1.001043e-001	-3.179653e-005	-4.200852e-004
6629147.883	1.146543e-004	-5.140100e-004	9.947285e-001	-1.013747e-001	9.947764e-001	-1.011071e-001	-1.652999e-005	-4.300906e-004
6691686.967	1.112799e-004	-5.504646e-004	9.948017e-001	-1.022003e-001	9.944051e-001	-1.021679e-001	-3.129874e-005	-3.923399e-004
6754226.051	8.347292e-005	-5.206363e-004	9.947283e-001	-1.032542e-001	9.945630e-001	-1.030109e-001	2.309792e-005	-4.743463e-004
6816765.134	6.626471e-005	-5.551014e-004	9.944898e-001	-1.041719e-001	9.944558e-001	-1.040258e-001	2.574972e-005	-4.796712e-004
6879304.218	1.081608e-004	-5.434124e-004	9.944094e-001	-1.051912e-001	9.942694e-001	-1.049740e-001	3.209854e-005	-4.592582e-004
6941843.302	1.260228e-004	-5.112326e-004	9.942470e-001	-1.059663e-001	9.942831e-001	-1.059248e-001	5.795641e-006	-4.255007e-004
7004382.386	8.699223e-005	-5.205667e-004	9.940284e-001	-1.071242e-001	9.942463e-001	-1.069401e-001	1.521854e-005	-4.715862e-004
7066921.470	1.129536e-004	-5.387152e-004	9.940138e-001	-1.080280e-001	9.941768e-001	-1.077244e-001	1.611030e-005	-4.791986e-004
7129460.553	1.349343e-004	-5.823817e-004	9.940527e-001	-1.089189e-001	9.940311e-001	-1.088894e-001	9.676507e-006	-4.758823e-004
7191999.637	1.053419e-004	-5.655394e-004	9.938424e-001	-1.099411e-001	9.938005e-001	-1.096548e-001	7.301562e-006	-4.750841e-004
7254538.721	1.702347e-004	-5.709893e-004	9.938082e-001	-1.108829e-001	9.938028e-001	-1.106637e-001	-1.793511e-005	-4.564978e-004
7317077.805	9.096816e-005	-5.538263e-004	9.935106e-001	-1.118813e-001	9.938097e-001	-1.116122e-001	-6.286870e-007	-4.560003e-004
7379616.889	1.334332e-004	-5.626487e-004	9.937138e-001	-1.127964e-001	9.934647e-001	-1.124528e-001	2.266806e-005	-5.201785e-004
7442155.972	1.301558e-004	-5.881243e-004	9.934205e-001	-1.136925e-001	9.933175e-001	-1.135919e-001	-5.546783e-006	-5.005950e-004
7504695.056	1.486834e-004	-5.913834e-004	9.933225e-001	-1.146358e-001	9.934082e-001	-1.143429e-001	3.770379e-005	-4.686722e-004
7567234.140	1.125270e-004	-5.637329e-004	9.933337e-001	-1.156687e-001	9.932000e-001	-1.153001e-001	1.095879e-005	-4.723577e-004
7629773.224	1.339632e-004	-6.090904e-004	9.930764e-001	-1.166014e-001	9.930813e-001	-1.163281e-001	7.883771e-007	-4.691403e-004
7692312.308	1.072349e-004	-5.967788e-004	9.930695e-001	-1.175446e-001	9.929936e-001	-1.172790e-001	3.730614e-005	-4.184288e-004
7754851.391	1.216128e-004	-6.239061e-004	9.928240e-001	-1.184111e-001	9.928025e-001	-1.181927e-001	-2.280848e-005	-4.477142e-004
7817390.475	1.297558e-004	-5.848866e-004	9.929604e-001	-1.193570e-001	9.927472e-001	-1.192559e-001	3.882700e-005	-5.095441e-004
7879929.559	9.789728e-005	-6.268741e-004	9.926277e-001	-1.203034e-001	9.925908e-001	-1.201035e-001	1.053286e-005	-4.975874e-004
7942468.643	9.729853e-005	-5.956953e-004	9.925117e-001	-1.212141e-001	9.925024e-001	-1.211812e-001	-9.456205e-006	-4.968759e-004
8005007.727	1.168707e-004	-5.892247e-004	9.924591e-001	-1.223828e-001	9.924260e-001	-1.219447e-001	-1.613122e-005	-5.390052e-004
8067546.811	1.439150e-004	-5.995671e-004	9.923413e-001	-1.233373e-001	9.923468e-001	-1.230688e-001	4.972754e-005	-5.167392e-004
8130085.894	1.189320e-004	-5.831810e-004	9.922141e-001	-1.242017e-001	9.920825e-001	-1.239987e-001	-2.855211e-006	-5.302739e-004
8192624.978	1.238975e-004	-6.388062e-004	9.920503e-001	-1.251252e-001	9.919783e-001	-1.249043e-001	4.125742e-005	-5.234582e-004
8255164.062	1.193523e-004	-6.345908e-004	9.919712e-001	-1.260757e-001	9.919039e-001	-1.258270e-001	2.080966e-005	-5.545694e-004
8317703.146	1.524177e-004	-6.789615e-004	9.919006e-001	-1.270564e-001	9.919115e-001	-1.267950e-001	-4.468775e-006	-5.632790e-004
8380242.230	1.565702e-004	-6.908829e-004	9.917527e-001	-1.277480e-001	9.918755e-001	-1.277518e-001	2.569942e-005	-5.239301e-004
8442781.313	1.301646e-004	-6.397159e-004	9.916855e-001	-1.287088e-001	9.915549e-001	-1.286057e-001	-1.199888e-005	-5.117472e-004
8505320.397	1.022325e-004	-6.521727e-004	9.915175e-001	-1.298423e-001	9.914215e-001	-1.297468e-001	4.331294e-005	-6.044277e-004
8567859.481	1.344314e-004	-6.558666e-004	9.913167e-001	-1.307882e-001	9.913377e-001	-1.304798e-001	4.728788e-005	-5.348077e-004
8630398.565	1.534704e-004	-6.552985e-004	9.911899e-001	-1.317788e-001	9.911784e-001	-1.315548e-001	5.210216e-005	-5.799314e-004
8692937.649	1.269030e-004	-6.486949e-004	9.909968e-001	-1.326857e-001	9.910345e-001	-1.323297e-001	-2.420714e-005	-5.267817e-004
8755476.732	1.001847e-004	-6.136867e-004	9.908715e-001	-1.337332e-001	9.909930e-001	-1.334281e-001	2.107397e-005	-5.297428e-004
8818015.816	1.234110e-004	-6.784930e-004	9.908827e-001	-1.344258e-001	9.908754e-001	-1.342512e-001	1.962672e-005	-5.616069e-004
8880554.900	9.786814e-005	-7.235676e-004	9.907169e-001	-1.356009e-001	9.907157e-001	-1.352127e-001	-1.094595e-005	-5.512973e-004
8943093.984	1.285510e-004	-6.907147e-004	9.905850e-001	-1.366102e-001	9.905418e-001	-1.361116e-001	4.882226e-005	-5.471127e-004
9005633.068	1.138616e-004	-7.138226e-004	9.904244e-001	-1.373803e-001	9.903771e-001	-1.372664e-001	7.383521e-006	-5.955877e-004
9068172.151	1.535766e-004	-6.905403e-004	9.903000e-001	-1.383910e-001	9.901257e-001	-1.382398e-001	-3.379746e-005	-5.513311e-004
9130711.235	1.392955e-004	-6.783101e-004	9.901559e-001	-1.392860e-001	9.901379e-001	-1.389082e-001	4.408038e-005	-5.843359e-004
9193250.319	1.381181e-004	-7.283389e-004	9.900206e-001	-1.401694e-001	9.900104e-001	-1.400330e-001	5.892187e-005	-5.980695e-004
9255789.403	1.585755e-004	-7.274074e-004	9.898366e-001	-1.412999e-001	9.899547e-001	-1.409342e-001	2.790222e-005	-5.269063e-004
9318328.487	8.050983e-005	-7.148647e-004	9.897222e-001	-1.422518e-001	9.898206e-001	-1.420799e-001	2.736777e-005	-6.024497e-004
9380867.570	8.402605e-005	-6.854122e-004	9.896657e-001	-1.431230e-001	9.894870e-001	-1.428145e-001	2.024392e-005	-5.673981e-004
9443406.654	1.099285e-004	-7.404983e-004	9.894254e-001	-1.440513e-001	9.895074e-001	-1.438959e-001	6.339652e-005	-5.826019e-004
9505945.738	1.056198e-004	-7.549836e-004	9.894285e-001	-1.449086e-001	9.892343e-001	-1.447338e-001	-2.491086e-006	-6.106692e-004
9568484.822	1.266197e-004	-7.692014e-004	9.893288e-001	-1.460937e-001	9.891957e-001	-1.456339e-001	7.572254e-005	-5.783069e-004
