!Agilent Technologies,E5061B,MY49102235,A.02.00
!Date: Mon Jul 10 16:38:18 2023
!Data & Calibration Information:
!Freq	S11:SOLT2(ON)	S21:SOLT2(ON)	S12:SOLT2(ON)	S22:SOLT2(ON)
# Hz S RI R 50
5.000	-4.742104e-004	4.284482e-004	1.001684e+000	2.305404e-003	1.000494e+000	-5.806545e-005	-1.290827e-004	-5.733795e-005
62544.084	-5.999845e-005	5.309733e-005	1.000010e+000	-7.855716e-004	1.000103e+000	-6.507608e-004	1.236992e-005	-5.175489e-005
125083.168	-2.243135e-005	1.182123e-006	1.000199e+000	-2.024992e-003	1.000152e+000	-1.990932e-003	-5.446728e-005	8.715367e-006
187622.251	1.577736e-004	-5.666862e-005	9.994584e-001	-2.211399e-003	1.000217e+000	-2.722373e-003	3.014312e-005	2.862324e-005
250161.335	3.983474e-005	7.588501e-005	9.998446e-001	-3.971368e-003	9.998116e-001	-3.875841e-003	3.173689e-005	6.962343e-005
312700.419	2.991091e-005	2.317493e-005	1.000227e+000	-4.930383e-003	9.993302e-001	-4.491215e-003	1.299809e-004	4.871865e-005
375239.503	8.874365e-005	4.727849e-005	9.998940e-001	-5.604685e-003	1.000000e+000	-5.636557e-003	3.311186e-005	7.110473e-006
437778.587	9.014878e-005	-1.458666e-005	9.999925e-001	-6.688312e-003	9.990668e-001	-7.037744e-003	9.070369e-005	2.019190e-004
500317.670	9.780227e-005	-2.446852e-005	1.000036e+000	-7.623506e-003	9.993356e-001	-8.091931e-003	1.105504e-004	1.612610e-004
562856.754	1.400550e-004	9.746390e-005	9.996747e-001	-8.781756e-003	9.996552e-001	-8.382222e-003	6.830281e-005	2.557567e-005
625395.838	1.229006e-004	6.368955e-005	9.997881e-001	-9.702265e-003	9.992112e-001	-9.395582e-003	1.360558e-004	8.020185e-005
687934.922	-2.014014e-006	-1.924408e-005	1.000104e+000	-1.035350e-002	1.000365e+000	-1.054529e-002	-7.319190e-006	3.978827e-005
750474.006	-6.599177e-005	-1.807311e-005	9.997252e-001	-1.149445e-002	9.996291e-001	-1.079815e-002	-7.258202e-005	-1.226489e-005
813013.089	-4.046662e-005	1.031166e-005	1.000292e+000	-1.259428e-002	9.992294e-001	-1.214461e-002	-5.073268e-005	-3.328211e-005
875552.173	-4.893426e-005	-3.205644e-005	9.997593e-001	-1.360875e-002	1.000022e+000	-1.345347e-002	-3.553997e-005	-2.679863e-005
938091.257	-1.458667e-004	-1.462759e-006	9.995355e-001	-1.425699e-002	9.996537e-001	-1.380742e-002	-1.020387e-004	-2.108298e-005
1000630.341	-6.984648e-005	6.445104e-005	9.997588e-001	-1.495940e-002	9.997287e-001	-1.511453e-002	-4.499986e-005	-3.853678e-005
1063169.425	-3.098842e-005	4.485832e-005	1.000465e+000	-1.610879e-002	1.000394e+000	-1.648051e-002	-1.183629e-005	-4.814796e-005
1125708.508	-4.734154e-005	1.626106e-005	1.000140e+000	-1.741108e-002	9.994394e-001	-1.697080e-002	-1.136200e-005	-1.456645e-006
1188247.592	-3.467357e-005	-1.876290e-005	9.996720e-001	-1.803076e-002	9.995704e-001	-1.800634e-002	-2.338238e-006	5.129737e-006
1250786.676	-5.453954e-005	-2.525555e-006	9.997072e-001	-1.944393e-002	9.993247e-001	-1.886484e-002	-8.869659e-006	1.331136e-005
1313325.760	-2.041500e-005	3.424778e-006	9.998447e-001	-1.959336e-002	9.991902e-001	-1.998655e-002	-3.746613e-005	-4.678884e-005
1375864.844	-9.661023e-006	-3.220016e-005	1.000245e+000	-2.152210e-002	9.994219e-001	-2.132120e-002	-2.557490e-005	-5.211780e-005
1438403.927	-1.181477e-005	-5.083599e-005	9.996805e-001	-2.239983e-002	9.996145e-001	-2.171711e-002	-1.634426e-005	-4.990221e-005
1500943.011	-9.859174e-006	-4.600637e-005	9.999140e-001	-2.318973e-002	9.992233e-001	-2.290585e-002	-5.505467e-006	-2.023917e-005
1563482.095	-6.756453e-005	-3.661475e-005	9.992069e-001	-2.398660e-002	9.996382e-001	-2.383172e-002	-3.253109e-005	-6.467801e-005
1626021.179	3.494203e-005	-1.266951e-005	9.996836e-001	-2.525152e-002	9.994422e-001	-2.452692e-002	2.893173e-005	-5.558191e-005
1688560.263	4.022510e-005	-3.250923e-005	1.000089e+000	-2.601956e-002	9.996357e-001	-2.562498e-002	1.059016e-005	-3.715596e-005
1751099.346	5.779045e-005	3.130521e-005	9.998586e-001	-2.690240e-002	9.992818e-001	-2.666700e-002	-1.043701e-005	-6.162672e-005
1813638.430	-2.930945e-005	-1.258673e-005	1.000117e+000	-2.757924e-002	9.993587e-001	-2.763324e-002	-2.049279e-005	-3.200258e-005
1876177.514	-6.240915e-006	-8.636406e-005	9.997128e-001	-2.900029e-002	9.994105e-001	-2.846121e-002	8.756668e-006	-6.455171e-005
1938716.598	-7.276164e-006	-3.814876e-005	9.992958e-001	-2.988732e-002	9.998331e-001	-2.962705e-002	2.378362e-005	-5.864185e-005
2001255.682	1.654548e-006	-1.632644e-005	9.999201e-001	-3.068718e-002	9.990575e-001	-3.054370e-002	-1.028119e-005	-6.951260e-005
2063794.765	-1.797593e-005	1.048278e-005	9.993392e-001	-3.149365e-002	9.996903e-001	-3.139227e-002	4.513213e-005	-7.013958e-005
2126333.849	4.904572e-005	-9.375633e-005	9.986948e-001	-3.267054e-002	9.992548e-001	-3.266448e-002	-4.222429e-005	-1.205078e-004
2188872.933	-1.696359e-006	-4.233909e-005	9.994999e-001	-3.335757e-002	9.994885e-001	-3.364701e-002	-1.287355e-006	-6.317460e-005
2251412.017	6.923612e-005	-6.625595e-005	9.996050e-001	-3.517465e-002	9.993111e-001	-3.404729e-002	6.518397e-005	-8.796229e-005
2313951.101	3.924032e-006	-7.418855e-005	9.992103e-001	-3.562112e-002	9.991246e-001	-3.487389e-002	6.013351e-005	-1.297385e-004
2376490.184	3.531967e-005	-8.772615e-005	9.998888e-001	-3.661651e-002	9.993752e-001	-3.633133e-002	4.514136e-005	-9.232959e-005
2439029.268	-2.314168e-007	-1.104346e-004	9.993230e-001	-3.728666e-002	9.987378e-001	-3.719826e-002	-5.011702e-006	-1.397477e-004
2501568.352	1.115370e-005	-6.394978e-006	9.993492e-001	-3.811937e-002	9.995510e-001	-3.833669e-002	5.402193e-005	-8.256424e-005
2564107.436	7.104647e-005	-1.939105e-005	9.989840e-001	-3.928170e-002	9.988368e-001	-3.918089e-002	2.371468e-005	-1.349569e-004
2626646.520	6.329454e-007	-8.173798e-005	9.987566e-001	-4.027477e-002	9.993836e-001	-3.964038e-002	5.881979e-005	-9.164480e-005
2689185.604	1.039175e-006	-6.841983e-005	9.996183e-001	-4.094066e-002	9.994369e-001	-4.086622e-002	5.077670e-005	-1.657035e-004
2751724.687	7.518210e-005	-1.333096e-004	9.992196e-001	-4.190981e-002	9.986957e-001	-4.191468e-002	9.551195e-006	-8.177733e-005
2814263.771	8.311208e-005	-1.174799e-004	9.994416e-001	-4.319210e-002	9.991828e-001	-4.332103e-002	2.562879e-005	-1.157717e-004
2876802.855	3.711448e-005	-1.211316e-004	9.992640e-001	-4.439567e-002	9.986829e-001	-4.403598e-002	3.873152e-005	-1.509941e-004
2939341.939	2.884050e-005	-9.061918e-005	9.991200e-001	-4.493166e-002	9.990329e-001	-4.455644e-002	6.535741e-006	-1.491814e-004
3001881.023	-3.536146e-006	-7.860906e-005	9.990763e-001	-4.535639e-002	9.992667e-001	-4.530794e-002	-2.339273e-005	-9.857984e-005
3064420.106	5.233495e-005	-1.402790e-004	9.985424e-001	-4.674616e-002	9.983377e-001	-4.651922e-002	2.179933e-005	-1.103274e-004
3126959.190	3.512654e-005	-1.171685e-004	9.987909e-001	-4.785781e-002	9.986617e-001	-4.775276e-002	4.487591e-005	-1.436276e-004
3189498.274	7.656827e-005	-1.019104e-004	9.988562e-001	-4.890174e-002	9.985368e-001	-4.872807e-002	1.784632e-005	-1.435747e-004
3252037.358	9.035540e-005	-1.232562e-004	9.987071e-001	-4.984782e-002	9.986471e-001	-4.960215e-002	5.153949e-005	-1.293715e-004
3314576.442	7.130132e-005	-1.862252e-004	9.987342e-001	-5.078028e-002	9.987051e-001	-5.067827e-002	3.427179e-006	-1.195365e-004
3377115.525	3.446333e-005	-1.274222e-004	9.987692e-001	-5.189012e-002	9.984281e-001	-5.161078e-002	1.179675e-005	-1.456905e-004
3439654.609	7.851399e-005	-9.035702e-005	9.984264e-001	-5.261952e-002	9.985638e-001	-5.257223e-002	2.115706e-005	-1.590559e-004
3502193.693	7.575689e-005	-1.741890e-004	9.985209e-001	-5.365070e-002	9.985099e-001	-5.338801e-002	4.445613e-005	-2.019737e-004
3564732.777	4.820124e-005	-1.494348e-004	9.985128e-001	-5.464453e-002	9.984615e-001	-5.440826e-002	5.506172e-005	-1.780316e-004
3627271.861	6.338820e-005	-1.709098e-004	9.983834e-001	-5.561723e-002	9.984690e-001	-5.541695e-002	2.967562e-005	-1.727385e-004
3689810.944	4.909826e-005	-1.796385e-004	9.984330e-001	-5.650413e-002	9.982186e-001	-5.637503e-002	-1.029800e-005	-2.010258e-004
3752350.028	2.561147e-005	-1.459390e-004	9.983464e-001	-5.748459e-002	9.982751e-001	-5.725625e-002	6.219860e-005	-1.682056e-004
3814889.112	6.424570e-005	-1.621132e-004	9.982751e-001	-5.842418e-002	9.981534e-001	-5.822103e-002	4.060281e-005	-2.113331e-004
3877428.196	1.208880e-004	-1.481785e-004	9.982473e-001	-5.939782e-002	9.980042e-001	-5.910337e-002	1.972114e-005	-1.945131e-004
3939967.280	5.301065e-005	-1.961062e-004	9.980206e-001	-6.043716e-002	9.979953e-001	-6.013997e-002	4.521982e-005	-1.503592e-004
4002506.363	9.642468e-005	-1.807999e-004	9.980565e-001	-6.127459e-002	9.979778e-001	-6.102779e-002	4.608378e-005	-1.701266e-004
4065045.447	1.015865e-004	-1.876868e-004	9.981313e-001	-6.232412e-002	9.980400e-001	-6.223957e-002	5.710999e-005	-2.147313e-004
4127584.531	4.484644e-005	-1.922590e-004	9.981429e-001	-6.329873e-002	9.979012e-001	-6.304333e-002	6.163855e-005	-2.044111e-004
4190123.615	7.385231e-005	-1.671034e-004	9.978121e-001	-6.409550e-002	9.978432e-001	-6.391350e-002	1.434973e-005	-2.294385e-004
4252662.699	1.386869e-005	-1.791405e-004	9.978059e-001	-6.505340e-002	9.976113e-001	-6.480678e-002	4.927018e-006	-1.946764e-004
4315201.782	9.036716e-005	-2.214709e-004	9.977659e-001	-6.609983e-002	9.976479e-001	-6.570037e-002	2.304203e-006	-2.298439e-004
4377740.866	6.304869e-005	-2.244314e-004	9.977958e-001	-6.711140e-002	9.976662e-001	-6.684630e-002	6.710287e-005	-2.102853e-004
4440279.950	8.984030e-005	-1.862149e-004	9.977240e-001	-6.780263e-002	9.976290e-001	-6.773569e-002	5.461575e-005	-2.446762e-004
4502819.034	1.250951e-004	-2.703922e-004	9.977042e-001	-6.885446e-002	9.974044e-001	-6.866744e-002	5.413171e-005	-2.277939e-004
4565358.118	8.777929e-005	-2.067628e-004	9.973072e-001	-6.974759e-002	9.975072e-001	-6.984250e-002	7.222888e-005	-1.991138e-004
4627897.201	1.052656e-004	-2.528307e-004	9.973872e-001	-7.074057e-002	9.974303e-001	-7.051892e-002	2.925300e-005	-1.706356e-004
4690436.285	1.250822e-004	-2.190391e-004	9.973732e-001	-7.182874e-002	9.972963e-001	-7.149227e-002	4.779005e-005	-2.164271e-004
4752975.369	6.210743e-005	-2.891430e-004	9.972570e-001	-7.275340e-002	9.971457e-001	-7.251096e-002	4.435475e-005	-2.289946e-004
4815514.453	7.890418e-005	-2.783108e-004	9.973023e-001	-7.375397e-002	9.970566e-001	-7.349883e-002	5.415562e-005	-2.377420e-004
4878053.537	5.777196e-005	-2.058282e-004	9.972247e-001	-7.482205e-002	9.970838e-001	-7.432157e-002	2.835669e-005	-2.031630e-004
4940592.620	7.775363e-005	-2.395912e-004	9.969931e-001	-7.563205e-002	9.969140e-001	-7.533162e-002	3.591076e-005	-2.325279e-004
5003131.704	9.414491e-005	-2.496216e-004	9.969973e-001	-7.658730e-002	9.967661e-001	-7.635829e-002	-3.649108e-005	-2.905567e-004
5065670.788	4.955326e-005	-2.731826e-004	9.969561e-001	-7.754993e-002	9.967695e-001	-7.734051e-002	3.135030e-005	-2.402826e-004
5128209.872	9.684170e-005	-2.395128e-004	9.968301e-001	-7.841900e-002	9.968326e-001	-7.818756e-002	2.721208e-005	-2.568552e-004
5190748.956	9.708370e-005	-2.990823e-004	9.967940e-001	-7.948522e-002	9.968027e-001	-7.908920e-002	3.461719e-005	-2.319249e-004
5253288.039	7.500813e-005	-2.667546e-004	9.965093e-001	-8.030812e-002	9.966875e-001	-8.014963e-002	8.976311e-005	-2.643610e-004
5315827.123	9.178424e-005	-2.747050e-004	9.965531e-001	-8.132999e-002	9.965678e-001	-8.121170e-002	7.367613e-005	-2.323170e-004
5378366.207	6.571602e-005	-2.731206e-004	9.963865e-001	-8.232242e-002	9.965070e-001	-8.202079e-002	4.021424e-005	-2.573186e-004
5440905.291	8.790569e-005	-2.756887e-004	9.965958e-001	-8.313873e-002	9.965191e-001	-8.306682e-002	7.051212e-005	-2.700268e-004
5503444.375	7.215047e-005	-2.959365e-004	9.963842e-001	-8.423376e-002	9.962831e-001	-8.424016e-002	4.723234e-005	-2.619724e-004
5565983.458	4.260629e-005	-2.652860e-004	9.963701e-001	-8.520455e-002	9.961097e-001	-8.503884e-002	1.193221e-004	-2.528030e-004
5628522.542	5.808942e-005	-3.194340e-004	9.962698e-001	-8.600871e-002	9.962789e-001	-8.580757e-002	6.200060e-006	-3.106979e-004
5691061.626	1.236689e-004	-2.890757e-004	9.962008e-001	-8.698115e-002	9.959501e-001	-8.689065e-002	1.426190e-005	-2.647499e-004
5753600.710	1.133394e-004	-3.226191e-004	9.959988e-001	-8.808466e-002	9.959873e-001	-8.782755e-002	8.293741e-005	-2.569429e-004
5816139.794	1.441349e-004	-2.900715e-004	9.960654e-001	-8.897784e-002	9.959334e-001	-8.891195e-002	6.062824e-006	-2.903539e-004
5878678.877	9.186362e-005	-3.041345e-004	9.958503e-001	-8.983998e-002	9.957825e-001	-8.973041e-002	8.120103e-005	-2.509292e-004
5941217.961	7.264974e-005	-3.179049e-004	9.958690e-001	-9.074280e-002	9.958311e-001	-9.049488e-002	2.028693e-005	-2.734529e-004
6003757.045	1.165695e-004	-3.721938e-004	9.956421e-001	-9.190702e-002	9.956135e-001	-9.153784e-002	4.052102e-005	-3.429193e-004
6066296.129	8.109541e-005	-3.150507e-004	9.955175e-001	-9.283573e-002	9.954866e-001	-9.260167e-002	4.778700e-005	-2.689499e-004
6128835.213	8.008371e-005	-2.802340e-004	9.955858e-001	-9.380033e-002	9.956002e-001	-9.369718e-002	5.873443e-005	-2.606848e-004
6191374.296	5.562965e-005	-3.616977e-004	9.953952e-001	-9.451791e-002	9.953156e-001	-9.446767e-002	2.628160e-005	-3.190000e-004
6253913.380	9.214032e-005	-3.608829e-004	9.952093e-001	-9.573701e-002	9.951203e-001	-9.539247e-002	2.183345e-005	-2.578214e-004
6316452.464	1.031413e-004	-2.942736e-004	9.951948e-001	-9.648167e-002	9.952982e-001	-9.627199e-002	6.205432e-005	-2.785445e-004
6378991.548	8.618445e-005	-3.713429e-004	9.952648e-001	-9.750656e-002	9.950934e-001	-9.721935e-002	7.633307e-005	-2.727116e-004
6441530.632	7.828885e-005	-3.395026e-004	9.951735e-001	-9.849678e-002	9.948815e-001	-9.834861e-002	5.463773e-005	-3.487980e-004
6504069.715	8.881490e-005	-3.448234e-004	9.949763e-001	-9.938621e-002	9.949668e-001	-9.928288e-002	6.277570e-005	-3.099307e-004
6566608.799	1.109900e-004	-3.524186e-004	9.947921e-001	-1.003857e-001	9.947918e-001	-1.001241e-001	2.055733e-005	-2.987745e-004
6629147.883	8.908824e-005	-3.555459e-004	9.946741e-001	-1.013874e-001	9.947888e-001	-1.011020e-001	2.450415e-005	-2.966220e-004
6691686.967	7.706360e-005	-3.972064e-004	9.947361e-001	-1.022047e-001	9.943876e-001	-1.021698e-001	4.311110e-006	-2.665927e-004
6754226.051	5.541691e-005	-3.594386e-004	9.946704e-001	-1.032424e-001	9.945650e-001	-1.029901e-001	7.068499e-005	-3.489615e-004
6816765.134	4.018282e-005	-3.915878e-004	9.944538e-001	-1.041427e-001	9.944704e-001	-1.039861e-001	6.701308e-005	-3.578824e-004
6879304.218	9.009266e-005	-3.781637e-004	9.943671e-001	-1.051802e-001	9.942201e-001	-1.049444e-001	7.300325e-005	-3.271567e-004
6941843.302	1.102818e-004	-3.452784e-004	9.942185e-001	-1.059395e-001	9.942777e-001	-1.059541e-001	4.262148e-005	-3.003024e-004
7004382.386	7.595373e-005	-3.550700e-004	9.940408e-001	-1.071167e-001	9.942362e-001	-1.069416e-001	6.061148e-005	-3.415795e-004
7066921.470	9.382239e-005	-3.778965e-004	9.939478e-001	-1.080198e-001	9.941337e-001	-1.077578e-001	6.021044e-005	-3.439067e-004
7129460.553	1.055156e-004	-4.227619e-004	9.940100e-001	-1.089258e-001	9.939998e-001	-1.089014e-001	4.743719e-005	-3.373813e-004
7191999.637	8.136028e-005	-3.880922e-004	9.937800e-001	-1.099618e-001	9.937605e-001	-1.096344e-001	5.383305e-005	-3.480044e-004
7254538.721	1.432816e-004	-3.916755e-004	9.937683e-001	-1.108417e-001	9.937811e-001	-1.106811e-001	3.245842e-005	-3.158104e-004
7317077.805	7.951295e-005	-3.807886e-004	9.935004e-001	-1.118540e-001	9.937953e-001	-1.115945e-001	6.426477e-005	-3.098192e-004
7379616.889	1.198007e-004	-3.744517e-004	9.936889e-001	-1.127677e-001	9.934343e-001	-1.124648e-001	7.441172e-005	-3.788517e-004
7442155.972	1.090917e-004	-4.039554e-004	9.933685e-001	-1.136640e-001	9.933248e-001	-1.135956e-001	4.807795e-005	-3.536934e-004
7504695.056	1.265870e-004	-4.145098e-004	9.932608e-001	-1.146455e-001	9.933472e-001	-1.143927e-001	9.493742e-005	-3.152308e-004
7567234.140	1.041630e-004	-3.869302e-004	9.932604e-001	-1.156701e-001	9.931548e-001	-1.153091e-001	6.638432e-005	-3.187287e-004
7629773.224	1.142378e-004	-4.245276e-004	9.930575e-001	-1.165861e-001	9.930536e-001	-1.163374e-001	5.357865e-005	-3.336674e-004
7692312.308	9.534710e-005	-4.000809e-004	9.930593e-001	-1.174907e-001	9.929542e-001	-1.172912e-001	9.152212e-005	-2.752804e-004
7754851.391	1.062022e-004	-4.414723e-004	9.927488e-001	-1.183647e-001	9.927987e-001	-1.182134e-001	4.095148e-005	-3.104664e-004
7817390.475	1.163300e-004	-3.964318e-004	9.929079e-001	-1.193545e-001	9.927282e-001	-1.192424e-001	1.081240e-004	-3.582055e-004
7879929.559	9.324179e-005	-4.259288e-004	9.926347e-001	-1.203005e-001	9.925616e-001	-1.200900e-001	8.230930e-005	-3.403898e-004
7942468.643	8.120735e-005	-3.966768e-004	9.924752e-001	-1.212432e-001	9.924998e-001	-1.211836e-001	4.652988e-005	-3.396887e-004
8005007.727	1.153914e-004	-3.946242e-004	9.924496e-001	-1.223694e-001	9.923731e-001	-1.219804e-001	4.295393e-005	-3.811277e-004
8067546.811	1.324395e-004	-4.035276e-004	9.923075e-001	-1.233319e-001	9.923292e-001	-1.230552e-001	1.245814e-004	-3.557718e-004
8130085.894	1.198691e-004	-3.915183e-004	9.921727e-001	-1.241856e-001	9.920466e-001	-1.239973e-001	7.365705e-005	-3.598830e-004
8192624.978	1.134810e-004	-4.310800e-004	9.919986e-001	-1.251106e-001	9.919386e-001	-1.249300e-001	1.130907e-004	-3.648093e-004
8255164.062	1.201308e-004	-4.375723e-004	9.919193e-001	-1.261130e-001	9.918609e-001	-1.258114e-001	8.932402e-005	-3.918074e-004
8317703.146	1.495645e-004	-4.807949e-004	9.918562e-001	-1.270656e-001	9.918793e-001	-1.268052e-001	6.850897e-005	-4.007938e-004
8380242.230	1.497442e-004	-4.925396e-004	9.916941e-001	-1.277451e-001	9.918761e-001	-1.277388e-001	1.077750e-004	-3.701695e-004
8442781.313	1.231724e-004	-4.281939e-004	9.916485e-001	-1.286949e-001	9.915446e-001	-1.286387e-001	6.375313e-005	-3.414749e-004
8505320.397	9.863246e-005	-4.433320e-004	9.914504e-001	-1.298647e-001	9.913721e-001	-1.297415e-001	1.231968e-004	-4.306733e-004
8567859.481	1.200734e-004	-4.455005e-004	9.913052e-001	-1.307839e-001	9.913459e-001	-1.304872e-001	1.361654e-004	-3.662771e-004
8630398.565	1.516098e-004	-4.444509e-004	9.911706e-001	-1.317632e-001	9.911326e-001	-1.315507e-001	1.296594e-004	-4.177898e-004
8692937.649	1.211392e-004	-4.391854e-004	9.909440e-001	-1.326929e-001	9.909561e-001	-1.323393e-001	5.813419e-005	-3.555187e-004
8755476.732	9.326735e-005	-4.029970e-004	9.908217e-001	-1.337160e-001	9.909527e-001	-1.334012e-001	1.018321e-004	-3.554571e-004
8818015.816	1.324462e-004	-4.527942e-004	9.908237e-001	-1.344927e-001	9.908454e-001	-1.342533e-001	1.119100e-004	-3.876857e-004
8880554.900	9.289167e-005	-4.978055e-004	9.906899e-001	-1.355699e-001	9.906894e-001	-1.352201e-001	7.628415e-005	-3.841110e-004
8943093.984	1.222772e-004	-4.583123e-004	9.905683e-001	-1.365767e-001	9.904653e-001	-1.361128e-001	1.444034e-004	-3.701586e-004
9005633.068	1.141777e-004	-4.787286e-004	9.903986e-001	-1.373875e-001	9.903243e-001	-1.372742e-001	1.022932e-004	-4.185946e-004
9068172.151	1.602554e-004	-4.668672e-004	9.902290e-001	-1.383643e-001	9.900472e-001	-1.382717e-001	5.228291e-005	-3.664163e-004
9130711.235	1.467597e-004	-4.543159e-004	9.900981e-001	-1.392795e-001	9.901030e-001	-1.389172e-001	1.298724e-004	-3.979611e-004
9193250.319	1.333331e-004	-4.937199e-004	9.899729e-001	-1.401594e-001	9.900049e-001	-1.400780e-001	1.596701e-004	-4.182232e-004
9255789.403	1.628677e-004	-4.909696e-004	9.897677e-001	-1.412771e-001	9.899286e-001	-1.409239e-001	1.333944e-004	-3.451588e-004
9318328.487	8.977149e-005	-4.914569e-004	9.896748e-001	-1.422363e-001	9.898175e-001	-1.420981e-001	1.162515e-004	-4.209571e-004
9380867.570	8.839861e-005	-4.489630e-004	9.896364e-001	-1.431582e-001	9.894588e-001	-1.428219e-001	1.170895e-004	-3.698266e-004
9443406.654	1.117383e-004	-5.025126e-004	9.894181e-001	-1.440097e-001	9.894807e-001	-1.439082e-001	1.659470e-004	-3.963970e-004
9505945.738	1.179997e-004	-5.192978e-004	9.893726e-001	-1.449142e-001	9.892005e-001	-1.447566e-001	1.039331e-004	-4.150156e-004
9568484.822	1.347309e-004	-5.147348e-004	9.893219e-001	-1.460874e-001	9.891735e-001	-1.456406e-001	1.664380e-004	-3.978039e-004
