!Agilent Technologies,E5061B,MY49102235,A.02.00
!Date: Mon Jul 03 11:20:26 2023
!Data & Calibration Information:
!Freq	S11:SOLT2(ON)	S21:SOLT2(ON)	S12:SOLT2(ON)	S22:SOLT2(ON)
# Hz S RI R 50
40000000.000	-2.836439e-002	-3.359428e-002	7.527111e-001	-6.571212e-001	7.528138e-001	-6.562635e-001	-3.265238e-002	-2.845182e-002
40031269.543	-2.840518e-002	-3.366698e-002	7.524082e-001	-6.575353e-001	7.524857e-001	-6.565665e-001	-3.267019e-002	-2.842153e-002
40062539.087	-2.847563e-002	-3.366588e-002	7.517613e-001	-6.576884e-001	7.520441e-001	-6.569934e-001	-3.266463e-002	-2.845498e-002
40093808.630	-2.851224e-002	-3.365166e-002	7.514964e-001	-6.582463e-001	7.516738e-001	-6.575991e-001	-3.275922e-002	-2.842003e-002
40125078.174	-2.859274e-002	-3.363587e-002	7.511263e-001	-6.586228e-001	7.512219e-001	-6.579432e-001	-3.273387e-002	-2.836020e-002
40156347.717	-2.855092e-002	-3.366569e-002	7.508621e-001	-6.591792e-001	7.508645e-001	-6.585399e-001	-3.285566e-002	-2.841631e-002
40187617.261	-2.862615e-002	-3.374586e-002	7.504767e-001	-6.594293e-001	7.506530e-001	-6.589134e-001	-3.287826e-002	-2.854433e-002
40218886.804	-2.862155e-002	-3.368663e-002	7.500834e-001	-6.600299e-001	7.501416e-001	-6.591388e-001	-3.287632e-002	-2.848555e-002
40250156.348	-2.869132e-002	-3.368627e-002	7.497447e-001	-6.602931e-001	7.498676e-001	-6.596988e-001	-3.300044e-002	-2.850922e-002
40281425.891	-2.876271e-002	-3.372587e-002	7.493689e-001	-6.607961e-001	7.494412e-001	-6.600786e-001	-3.301589e-002	-2.846495e-002
40312695.435	-2.875531e-002	-3.371805e-002	7.489268e-001	-6.613937e-001	7.490961e-001	-6.604410e-001	-3.300854e-002	-2.847452e-002
40343964.978	-2.878205e-002	-3.366058e-002	7.486178e-001	-6.614989e-001	7.486871e-001	-6.608995e-001	-3.310625e-002	-2.841876e-002
40375234.522	-2.880073e-002	-3.367624e-002	7.481204e-001	-6.620577e-001	7.484037e-001	-6.612245e-001	-3.315531e-002	-2.844493e-002
40406504.065	-2.891266e-002	-3.365323e-002	7.476831e-001	-6.622962e-001	7.479437e-001	-6.618297e-001	-3.313379e-002	-2.852413e-002
40437773.609	-2.900341e-002	-3.376854e-002	7.476472e-001	-6.627657e-001	7.476919e-001	-6.621102e-001	-3.318452e-002	-2.852399e-002
40469043.152	-2.893244e-002	-3.376463e-002	7.471304e-001	-6.632421e-001	7.473354e-001	-6.625389e-001	-3.328625e-002	-2.844792e-002
40500312.695	-2.903264e-002	-3.383672e-002	7.465514e-001	-6.637308e-001	7.469281e-001	-6.629748e-001	-3.333928e-002	-2.843567e-002
40531582.239	-2.903295e-002	-3.374891e-002	7.462389e-001	-6.638506e-001	7.464235e-001	-6.636578e-001	-3.340081e-002	-2.842391e-002
40562851.782	-2.909463e-002	-3.372355e-002	7.458107e-001	-6.644217e-001	7.460152e-001	-6.638265e-001	-3.333684e-002	-2.856255e-002
40594121.326	-2.910725e-002	-3.377415e-002	7.457149e-001	-6.649958e-001	7.457228e-001	-6.641575e-001	-3.341763e-002	-2.843017e-002
40625390.869	-2.914347e-002	-3.372083e-002	7.452933e-001	-6.653228e-001	7.455524e-001	-6.647759e-001	-3.350728e-002	-2.851590e-002
40656660.413	-2.919757e-002	-3.377294e-002	7.448565e-001	-6.657441e-001	7.451581e-001	-6.649825e-001	-3.350483e-002	-2.846306e-002
40687929.956	-2.920488e-002	-3.376125e-002	7.447548e-001	-6.663593e-001	7.448179e-001	-6.654450e-001	-3.355683e-002	-2.849244e-002
40719199.500	-2.927952e-002	-3.369615e-002	7.440299e-001	-6.665065e-001	7.442464e-001	-6.661154e-001	-3.353187e-002	-2.849766e-002
40750469.043	-2.933050e-002	-3.376034e-002	7.436050e-001	-6.668114e-001	7.438777e-001	-6.663813e-001	-3.373745e-002	-2.846370e-002
40781738.587	-2.928080e-002	-3.386000e-002	7.433686e-001	-6.674613e-001	7.435290e-001	-6.668268e-001	-3.379192e-002	-2.846304e-002
40813008.130	-2.940242e-002	-3.381924e-002	7.431667e-001	-6.677605e-001	7.430540e-001	-6.672517e-001	-3.377584e-002	-2.846906e-002
40844277.674	-2.941088e-002	-3.376367e-002	7.426051e-001	-6.682241e-001	7.427080e-001	-6.675862e-001	-3.388862e-002	-2.846031e-002
40875547.217	-2.943528e-002	-3.383391e-002	7.421541e-001	-6.687584e-001	7.424864e-001	-6.679002e-001	-3.387247e-002	-2.847213e-002
40906816.760	-2.948624e-002	-3.376814e-002	7.419930e-001	-6.691297e-001	7.419818e-001	-6.683846e-001	-3.381333e-002	-2.850432e-002
40938086.304	-2.959226e-002	-3.384554e-002	7.413474e-001	-6.695687e-001	7.418017e-001	-6.689283e-001	-3.398404e-002	-2.848247e-002
40969355.847	-2.964561e-002	-3.380528e-002	7.409330e-001	-6.698555e-001	7.413001e-001	-6.692869e-001	-3.403827e-002	-2.843928e-002
41000625.391	-2.966045e-002	-3.377439e-002	7.405185e-001	-6.702200e-001	7.407419e-001	-6.696251e-001	-3.402164e-002	-2.843814e-002
41031894.934	-2.953041e-002	-3.373005e-002	7.405019e-001	-6.706326e-001	7.404873e-001	-6.702200e-001	-3.412089e-002	-2.845582e-002
41063164.478	-2.970489e-002	-3.379319e-002	7.400487e-001	-6.711502e-001	7.402150e-001	-6.705876e-001	-3.411524e-002	-2.849646e-002
41094434.021	-2.975656e-002	-3.385335e-002	7.395941e-001	-6.714690e-001	7.397673e-001	-6.708695e-001	-3.419994e-002	-2.847940e-002
41125703.565	-2.975751e-002	-3.384289e-002	7.393009e-001	-6.719612e-001	7.394727e-001	-6.712210e-001	-3.424959e-002	-2.844533e-002
41156973.108	-2.976062e-002	-3.387587e-002	7.389319e-001	-6.721968e-001	7.388793e-001	-6.717903e-001	-3.429484e-002	-2.846980e-002
41188242.652	-2.983574e-002	-3.377707e-002	7.385048e-001	-6.729525e-001	7.386412e-001	-6.721505e-001	-3.424593e-002	-2.850503e-002
41219512.195	-2.984123e-002	-3.391407e-002	7.380836e-001	-6.732544e-001	7.381670e-001	-6.725494e-001	-3.435681e-002	-2.854414e-002
41250781.739	-2.994570e-002	-3.387748e-002	7.375147e-001	-6.738665e-001	7.377852e-001	-6.730353e-001	-3.437649e-002	-2.846177e-002
41282051.282	-2.993889e-002	-3.393416e-002	7.373246e-001	-6.740751e-001	7.374205e-001	-6.734175e-001	-3.449452e-002	-2.851345e-002
41313320.826	-3.003083e-002	-3.382526e-002	7.368400e-001	-6.743718e-001	7.370759e-001	-6.737657e-001	-3.450366e-002	-2.850765e-002
41344590.369	-3.009250e-002	-3.392803e-002	7.363828e-001	-6.746523e-001	7.367789e-001	-6.743144e-001	-3.449746e-002	-2.842538e-002
41375859.912	-3.019821e-002	-3.387377e-002	7.361930e-001	-6.752499e-001	7.361174e-001	-6.746123e-001	-3.453935e-002	-2.847623e-002
41407129.456	-3.014986e-002	-3.389521e-002	7.359045e-001	-6.755288e-001	7.358936e-001	-6.748847e-001	-3.467847e-002	-2.840897e-002
41438398.999	-3.017316e-002	-3.397701e-002	7.355683e-001	-6.761859e-001	7.356419e-001	-6.754530e-001	-3.472321e-002	-2.842123e-002
41469668.543	-3.026523e-002	-3.379588e-002	7.349868e-001	-6.765701e-001	7.351392e-001	-6.759721e-001	-3.471465e-002	-2.845426e-002
41500938.086	-3.027617e-002	-3.391675e-002	7.347047e-001	-6.768701e-001	7.348902e-001	-6.762447e-001	-3.477045e-002	-2.854383e-002
41532207.630	-3.029100e-002	-3.392672e-002	7.342976e-001	-6.773084e-001	7.344832e-001	-6.766662e-001	-3.480671e-002	-2.847834e-002
41563477.173	-3.030301e-002	-3.396993e-002	7.338419e-001	-6.777993e-001	7.340560e-001	-6.770125e-001	-3.478534e-002	-2.852599e-002
41594746.717	-3.030325e-002	-3.394771e-002	7.334313e-001	-6.781844e-001	7.336605e-001	-6.775216e-001	-3.488442e-002	-2.843113e-002
41626016.260	-3.050870e-002	-3.400245e-002	7.331177e-001	-6.785544e-001	7.332824e-001	-6.778981e-001	-3.495870e-002	-2.844917e-002
41657285.804	-3.042748e-002	-3.398063e-002	7.327723e-001	-6.790467e-001	7.329220e-001	-6.782699e-001	-3.494874e-002	-2.845878e-002
41688555.347	-3.044068e-002	-3.395733e-002	7.323569e-001	-6.793506e-001	7.325496e-001	-6.788160e-001	-3.501521e-002	-2.845328e-002
41719824.891	-3.047417e-002	-3.389786e-002	7.320164e-001	-6.798488e-001	7.321539e-001	-6.790630e-001	-3.508298e-002	-2.840328e-002
41751094.434	-3.059152e-002	-3.383723e-002	7.316512e-001	-6.801032e-001	7.316722e-001	-6.797763e-001	-3.508162e-002	-2.851353e-002
41782363.977	-3.054026e-002	-3.397893e-002	7.313134e-001	-6.806338e-001	7.314573e-001	-6.799111e-001	-3.528187e-002	-2.845002e-002
41813633.521	-3.065657e-002	-3.398586e-002	7.307446e-001	-6.809007e-001	7.311166e-001	-6.803308e-001	-3.515656e-002	-2.839230e-002
41844903.064	-3.070972e-002	-3.395111e-002	7.306182e-001	-6.812793e-001	7.306019e-001	-6.808611e-001	-3.530514e-002	-2.844628e-002
41876172.608	-3.071295e-002	-3.397637e-002	7.299168e-001	-6.818178e-001	7.304059e-001	-6.812451e-001	-3.539052e-002	-2.840474e-002
41907442.151	-3.079995e-002	-3.393091e-002	7.296863e-001	-6.821724e-001	7.299672e-001	-6.816973e-001	-3.540438e-002	-2.842390e-002
41938711.695	-3.072602e-002	-3.397308e-002	7.292207e-001	-6.826279e-001	7.295662e-001	-6.819625e-001	-3.532976e-002	-2.846754e-002
41969981.238	-3.080935e-002	-3.406174e-002	7.289274e-001	-6.830055e-001	7.290466e-001	-6.825854e-001	-3.539093e-002	-2.840149e-002
42001250.782	-3.084192e-002	-3.394615e-002	7.285838e-001	-6.835302e-001	7.287384e-001	-6.826461e-001	-3.547330e-002	-2.841242e-002
42032520.325	-3.086484e-002	-3.392678e-002	7.281238e-001	-6.838791e-001	7.285301e-001	-6.830857e-001	-3.556811e-002	-2.839800e-002
42063789.869	-3.096910e-002	-3.399315e-002	7.278360e-001	-6.842319e-001	7.278958e-001	-6.837405e-001	-3.567217e-002	-2.841985e-002
42095059.412	-3.097432e-002	-3.400337e-002	7.273867e-001	-6.846702e-001	7.276737e-001	-6.841334e-001	-3.565254e-002	-2.835892e-002
42126328.956	-3.106397e-002	-3.400866e-002	7.269821e-001	-6.849346e-001	7.271263e-001	-6.844155e-001	-3.571621e-002	-2.841534e-002
42157598.499	-3.101340e-002	-3.404258e-002	7.265981e-001	-6.854850e-001	7.267284e-001	-6.850216e-001	-3.573781e-002	-2.838853e-002
42188868.043	-3.108149e-002	-3.405011e-002	7.263449e-001	-6.857327e-001	7.264711e-001	-6.853417e-001	-3.580951e-002	-2.836864e-002
42220137.586	-3.105953e-002	-3.403428e-002	7.258091e-001	-6.863556e-001	7.260409e-001	-6.855973e-001	-3.583669e-002	-2.839727e-002
42251407.129	-3.118271e-002	-3.406778e-002	7.255840e-001	-6.868109e-001	7.256123e-001	-6.861689e-001	-3.593186e-002	-2.833448e-002
42282676.673	-3.118443e-002	-3.406228e-002	7.250520e-001	-6.870770e-001	7.251658e-001	-6.864680e-001	-3.591124e-002	-2.835944e-002
42313946.216	-3.125749e-002	-3.402199e-002	7.247761e-001	-6.875919e-001	7.249240e-001	-6.869955e-001	-3.596536e-002	-2.837199e-002
42345215.760	-3.136606e-002	-3.411129e-002	7.242771e-001	-6.879634e-001	7.244190e-001	-6.874235e-001	-3.610627e-002	-2.833085e-002
42376485.303	-3.136871e-002	-3.410011e-002	7.238454e-001	-6.883709e-001	7.239878e-001	-6.877155e-001	-3.607327e-002	-2.829246e-002
42407754.847	-3.137262e-002	-3.404530e-002	7.234180e-001	-6.887384e-001	7.236795e-001	-6.881483e-001	-3.609958e-002	-2.831020e-002
42439024.390	-3.143738e-002	-3.411951e-002	7.231133e-001	-6.891534e-001	7.232742e-001	-6.884087e-001	-3.619802e-002	-2.839432e-002
42470293.934	-3.140483e-002	-3.412628e-002	7.227567e-001	-6.895787e-001	7.230077e-001	-6.889555e-001	-3.619229e-002	-2.837473e-002
42501563.477	-3.150582e-002	-3.402537e-002	7.224491e-001	-6.898514e-001	7.226349e-001	-6.894635e-001	-3.618397e-002	-2.835762e-002
42532833.021	-3.146014e-002	-3.407119e-002	7.220326e-001	-6.903086e-001	7.223159e-001	-6.899088e-001	-3.632786e-002	-2.837589e-002
42564102.564	-3.157213e-002	-3.408792e-002	7.215976e-001	-6.908604e-001	7.217630e-001	-6.902473e-001	-3.638035e-002	-2.839034e-002
42595372.108	-3.157950e-002	-3.408139e-002	7.210736e-001	-6.912842e-001	7.214184e-001	-6.907166e-001	-3.646835e-002	-2.835837e-002
42626641.651	-3.164039e-002	-3.421467e-002	7.208110e-001	-6.914543e-001	7.210394e-001	-6.909298e-001	-3.648388e-002	-2.834107e-002
42657911.194	-3.168621e-002	-3.412340e-002	7.203919e-001	-6.920214e-001	7.206457e-001	-6.914619e-001	-3.650584e-002	-2.832763e-002
42689180.738	-3.177332e-002	-3.407599e-002	7.201059e-001	-6.923609e-001	7.202257e-001	-6.918448e-001	-3.660847e-002	-2.835312e-002
42720450.281	-3.180124e-002	-3.416898e-002	7.194583e-001	-6.925990e-001	7.197476e-001	-6.921700e-001	-3.655566e-002	-2.832652e-002
42751719.825	-3.181485e-002	-3.424428e-002	7.192298e-001	-6.931439e-001	7.196319e-001	-6.924965e-001	-3.658073e-002	-2.834979e-002
42782989.368	-3.194857e-002	-3.414792e-002	7.188514e-001	-6.937731e-001	7.190636e-001	-6.930768e-001	-3.671016e-002	-2.828174e-002
42814258.912	-3.186783e-002	-3.414799e-002	7.186434e-001	-6.939910e-001	7.187339e-001	-6.934517e-001	-3.671315e-002	-2.843881e-002
42845528.455	-3.198153e-002	-3.411136e-002	7.180771e-001	-6.945207e-001	7.183370e-001	-6.938538e-001	-3.676066e-002	-2.829789e-002
42876797.999	-3.192151e-002	-3.417072e-002	7.177785e-001	-6.947100e-001	7.178860e-001	-6.942980e-001	-3.683638e-002	-2.837776e-002
42908067.542	-3.205565e-002	-3.418014e-002	7.173228e-001	-6.950117e-001	7.176267e-001	-6.945168e-001	-3.688033e-002	-2.839963e-002
42939337.086	-3.200960e-002	-3.412883e-002	7.169343e-001	-6.954949e-001	7.169403e-001	-6.950323e-001	-3.686195e-002	-2.841406e-002
42970606.629	-3.212206e-002	-3.422370e-002	7.164933e-001	-6.959621e-001	7.166315e-001	-6.954274e-001	-3.699614e-002	-2.844375e-002
43001876.173	-3.215395e-002	-3.420723e-002	7.161440e-001	-6.964691e-001	7.163647e-001	-6.959073e-001	-3.704700e-002	-2.826195e-002
43033145.716	-3.208746e-002	-3.415833e-002	7.156001e-001	-6.968417e-001	7.158856e-001	-6.963286e-001	-3.710305e-002	-2.829376e-002
43064415.260	-3.216638e-002	-3.423177e-002	7.152464e-001	-6.971389e-001	7.156410e-001	-6.966777e-001	-3.712931e-002	-2.835736e-002
43095684.803	-3.225804e-002	-3.418811e-002	7.148657e-001	-6.976515e-001	7.151272e-001	-6.970923e-001	-3.719624e-002	-2.834271e-002
43126954.346	-3.222605e-002	-3.417464e-002	7.145805e-001	-6.980230e-001	7.147380e-001	-6.975056e-001	-3.725856e-002	-2.827065e-002
43158223.890	-3.231265e-002	-3.422863e-002	7.141822e-001	-6.982664e-001	7.142878e-001	-6.978241e-001	-3.732836e-002	-2.827269e-002
43189493.433	-3.235268e-002	-3.427357e-002	7.139221e-001	-6.989156e-001	7.137750e-001	-6.983769e-001	-3.734527e-002	-2.823565e-002
43220762.977	-3.238610e-002	-3.419739e-002	7.134146e-001	-6.992736e-001	7.135866e-001	-6.985659e-001	-3.739963e-002	-2.832449e-002
43252032.520	-3.246437e-002	-3.430230e-002	7.129414e-001	-6.996098e-001	7.130995e-001	-6.991656e-001	-3.736479e-002	-2.833142e-002
43283302.064	-3.250434e-002	-3.419628e-002	7.125890e-001	-6.999460e-001	7.126755e-001	-6.993983e-001	-3.739144e-002	-2.824858e-002
43314571.607	-3.257962e-002	-3.430728e-002	7.122297e-001	-7.004268e-001	7.126126e-001	-6.998499e-001	-3.751453e-002	-2.816409e-002
43345841.151	-3.254291e-002	-3.426209e-002	7.117699e-001	-7.007828e-001	7.120364e-001	-7.002782e-001	-3.755462e-002	-2.820180e-002
43377110.694	-3.265997e-002	-3.430373e-002	7.114119e-001	-7.011342e-001	7.115300e-001	-7.007093e-001	-3.763167e-002	-2.825315e-002
43408380.238	-3.260632e-002	-3.434689e-002	7.111113e-001	-7.017467e-001	7.111482e-001	-7.009830e-001	-3.760469e-002	-2.826450e-002
43439649.781	-3.266146e-002	-3.433269e-002	7.105709e-001	-7.020222e-001	7.106413e-001	-7.015067e-001	-3.762039e-002	-2.823933e-002
43470919.325	-3.276938e-002	-3.431982e-002	7.101152e-001	-7.025158e-001	7.105296e-001	-7.019792e-001	-3.767783e-002	-2.814797e-002
43502188.868	-3.279165e-002	-3.435797e-002	7.098153e-001	-7.028984e-001	7.098925e-001	-7.022880e-001	-3.776467e-002	-2.818278e-002
43533458.412	-3.276446e-002	-3.427189e-002	7.094055e-001	-7.031169e-001	7.095268e-001	-7.026053e-001	-3.773952e-002	-2.824279e-002
43564727.955	-3.288615e-002	-3.430009e-002	7.090938e-001	-7.034802e-001	7.091868e-001	-7.032687e-001	-3.787333e-002	-2.825558e-002
43595997.498	-3.288837e-002	-3.437006e-002	7.086292e-001	-7.038802e-001	7.086588e-001	-7.034299e-001	-3.792688e-002	-2.821315e-002
43627267.042	-3.291599e-002	-3.439166e-002	7.083551e-001	-7.043209e-001	7.083803e-001	-7.039343e-001	-3.798337e-002	-2.815799e-002
43658536.585	-3.292639e-002	-3.440215e-002	7.078421e-001	-7.046978e-001	7.079620e-001	-7.042761e-001	-3.802453e-002	-2.819070e-002
43689806.129	-3.292142e-002	-3.441823e-002	7.073597e-001	-7.051326e-001	7.076154e-001	-7.046660e-001	-3.804245e-002	-2.824066e-002
43721075.672	-3.311084e-002	-3.426606e-002	7.069563e-001	-7.054645e-001	7.072073e-001	-7.050956e-001	-3.807649e-002	-2.823643e-002
43752345.216	-3.305468e-002	-3.441181e-002	7.067877e-001	-7.060023e-001	7.067236e-001	-7.055646e-001	-3.810317e-002	-2.817012e-002
43783614.759	-3.308108e-002	-3.442610e-002	7.061958e-001	-7.063002e-001	7.064749e-001	-7.058752e-001	-3.817263e-002	-2.823080e-002
43814884.303	-3.324213e-002	-3.437581e-002	7.059117e-001	-7.066838e-001	7.060375e-001	-7.062282e-001	-3.825536e-002	-2.814450e-002
43846153.846	-3.316599e-002	-3.442932e-002	7.055834e-001	-7.070952e-001	7.057840e-001	-7.066745e-001	-3.831816e-002	-2.817203e-002
43877423.390	-3.324473e-002	-3.443603e-002	7.050017e-001	-7.076798e-001	7.052228e-001	-7.070580e-001	-3.827832e-002	-2.817583e-002
43908692.933	-3.333389e-002	-3.434201e-002	7.045566e-001	-7.080552e-001	7.049591e-001	-7.073675e-001	-3.838244e-002	-2.810517e-002
43939962.477	-3.336097e-002	-3.437592e-002	7.043603e-001	-7.084416e-001	7.044853e-001	-7.078909e-001	-3.841835e-002	-2.812380e-002
43971232.020	-3.337403e-002	-3.443158e-002	7.037696e-001	-7.087486e-001	7.040400e-001	-7.083036e-001	-3.844843e-002	-2.813119e-002
44002501.563	-3.340880e-002	-3.447163e-002	7.033445e-001	-7.090083e-001	7.037269e-001	-7.084857e-001	-3.849172e-002	-2.806471e-002
44033771.107	-3.342820e-002	-3.446903e-002	7.030291e-001	-7.095887e-001	7.033153e-001	-7.089262e-001	-3.854783e-002	-2.809537e-002
44065040.650	-3.345834e-002	-3.436027e-002	7.027073e-001	-7.099392e-001	7.029116e-001	-7.094136e-001	-3.851906e-002	-2.804265e-002
44096310.194	-3.358245e-002	-3.443239e-002	7.023568e-001	-7.102803e-001	7.024415e-001	-7.097477e-001	-3.861698e-002	-2.811523e-002
44127579.737	-3.359426e-002	-3.447496e-002	7.019000e-001	-7.107454e-001	7.021008e-001	-7.100575e-001	-3.865261e-002	-2.812329e-002
44158849.281	-3.358808e-002	-3.444357e-002	7.014759e-001	-7.110100e-001	7.017682e-001	-7.106154e-001	-3.869848e-002	-2.810996e-002
44190118.824	-3.367586e-002	-3.445438e-002	7.010520e-001	-7.114249e-001	7.013704e-001	-7.110445e-001	-3.876696e-002	-2.808286e-002
44221388.368	-3.374953e-002	-3.446265e-002	7.008008e-001	-7.119095e-001	7.008065e-001	-7.113513e-001	-3.891347e-002	-2.806344e-002
44252657.911	-3.377477e-002	-3.445390e-002	7.002824e-001	-7.122532e-001	7.004497e-001	-7.118630e-001	-3.879548e-002	-2.808804e-002
44283927.455	-3.382271e-002	-3.447646e-002	6.998522e-001	-7.125785e-001	7.001062e-001	-7.121269e-001	-3.900896e-002	-2.813312e-002
44315196.998	-3.386126e-002	-3.446812e-002	6.995875e-001	-7.131064e-001	6.997266e-001	-7.125145e-001	-3.891938e-002	-2.814382e-002
44346466.542	-3.388698e-002	-3.448211e-002	6.990276e-001	-7.134568e-001	6.992749e-001	-7.129707e-001	-3.905162e-002	-2.806975e-002
44377736.085	-3.391652e-002	-3.446901e-002	6.986791e-001	-7.136359e-001	6.987270e-001	-7.132850e-001	-3.917469e-002	-2.802437e-002
44409005.629	-3.393324e-002	-3.441917e-002	6.981532e-001	-7.142752e-001	6.983712e-001	-7.136364e-001	-3.911302e-002	-2.806641e-002
44440275.172	-3.395733e-002	-3.456324e-002	6.977547e-001	-7.145069e-001	6.981090e-001	-7.141162e-001	-3.919435e-002	-2.800998e-002
44471544.715	-3.404969e-002	-3.455225e-002	6.973715e-001	-7.149561e-001	6.977489e-001	-7.144790e-001	-3.917506e-002	-2.800364e-002
44502814.259	-3.399507e-002	-3.458605e-002	6.970264e-001	-7.151603e-001	6.971004e-001	-7.148848e-001	-3.920496e-002	-2.801097e-002
44534083.802	-3.414869e-002	-3.449602e-002	6.965365e-001	-7.158145e-001	6.967742e-001	-7.152175e-001	-3.927168e-002	-2.807083e-002
44565353.346	-3.419801e-002	-3.449440e-002	6.962007e-001	-7.162245e-001	6.965123e-001	-7.156186e-001	-3.938716e-002	-2.792036e-002
44596622.889	-3.423603e-002	-3.456574e-002	6.958582e-001	-7.164975e-001	6.960769e-001	-7.159939e-001	-3.939127e-002	-2.798216e-002
44627892.433	-3.422109e-002	-3.454331e-002	6.954270e-001	-7.168592e-001	6.956253e-001	-7.164096e-001	-3.950491e-002	-2.804946e-002
44659161.976	-3.429004e-002	-3.450511e-002	6.948452e-001	-7.173023e-001	6.952776e-001	-7.167680e-001	-3.949785e-002	-2.796563e-002
44690431.520	-3.429822e-002	-3.461786e-002	6.946232e-001	-7.177040e-001	6.947828e-001	-7.171284e-001	-3.955151e-002	-2.795760e-002
