!Agilent Technologies,E5061B,MY49102235,A.02.00
!Date: Mon Jul 03 11:18:15 2023
!Data & Calibration Information:
!Freq	S11:SOLT2(ON)	S21:SOLT2(ON)	S12:SOLT2(ON)	S22:SOLT2(ON)
# Hz S RI R 50
40000000.000	7.938138e-002	-3.770830e-002	6.446929e-001	-6.522359e-001	6.447639e-001	-6.514905e-001	7.449424e-002	-4.127709e-002
40031269.543	7.936540e-002	-3.784566e-002	6.443407e-001	-6.525627e-001	6.444526e-001	-6.517056e-001	7.451124e-002	-4.132892e-002
40062539.087	7.934581e-002	-3.791484e-002	6.437157e-001	-6.526817e-001	6.439826e-001	-6.520658e-001	7.450834e-002	-4.147561e-002
40093808.630	7.932774e-002	-3.797453e-002	6.433732e-001	-6.531674e-001	6.435854e-001	-6.525724e-001	7.447604e-002	-4.152437e-002
40125078.174	7.930019e-002	-3.803453e-002	6.430097e-001	-6.534361e-001	6.430801e-001	-6.528227e-001	7.453668e-002	-4.152647e-002
40156347.717	7.935600e-002	-3.816591e-002	6.427037e-001	-6.539036e-001	6.427095e-001	-6.533128e-001	7.443002e-002	-4.168810e-002
40187617.261	7.932399e-002	-3.828985e-002	6.422981e-001	-6.541176e-001	6.424686e-001	-6.536778e-001	7.443354e-002	-4.186403e-002
40218886.804	7.934654e-002	-3.831489e-002	6.418542e-001	-6.546409e-001	6.419239e-001	-6.538427e-001	7.445828e-002	-4.190556e-002
40250156.348	7.932944e-002	-3.838975e-002	6.414889e-001	-6.548115e-001	6.415856e-001	-6.543200e-001	7.435008e-002	-4.200523e-002
40281425.891	7.929828e-002	-3.850987e-002	6.410840e-001	-6.552544e-001	6.411320e-001	-6.545916e-001	7.437338e-002	-4.203543e-002
40312695.435	7.933325e-002	-3.859020e-002	6.405871e-001	-6.557607e-001	6.407632e-001	-6.549036e-001	7.439495e-002	-4.214437e-002
40343964.978	7.933248e-002	-3.860961e-002	6.402559e-001	-6.558190e-001	6.403304e-001	-6.552463e-001	7.435225e-002	-4.217671e-002
40375234.522	7.935237e-002	-3.870662e-002	6.397311e-001	-6.562602e-001	6.400018e-001	-6.555420e-001	7.430482e-002	-4.228417e-002
40406504.065	7.927964e-002	-3.873453e-002	6.392665e-001	-6.564546e-001	6.395237e-001	-6.560567e-001	7.434195e-002	-4.243986e-002
40437773.609	7.922316e-002	-3.892209e-002	6.391641e-001	-6.568834e-001	6.392408e-001	-6.562493e-001	7.429034e-002	-4.254451e-002
40469043.152	7.930170e-002	-3.899799e-002	6.386253e-001	-6.572221e-001	6.388401e-001	-6.565888e-001	7.426805e-002	-4.255357e-002
40500312.695	7.922863e-002	-3.914513e-002	6.380718e-001	-6.576408e-001	6.384204e-001	-6.569474e-001	7.422299e-002	-4.260497e-002
40531582.239	7.926387e-002	-3.915186e-002	6.377188e-001	-6.576843e-001	6.378503e-001	-6.575549e-001	7.419683e-002	-4.267632e-002
40562851.782	7.924159e-002	-3.918908e-002	6.372625e-001	-6.581878e-001	6.374464e-001	-6.576459e-001	7.425952e-002	-4.292003e-002
40594121.326	7.925717e-002	-3.933856e-002	6.370869e-001	-6.586591e-001	6.371328e-001	-6.579326e-001	7.423398e-002	-4.286422e-002
40625390.869	7.926618e-002	-3.935398e-002	6.366396e-001	-6.589295e-001	6.369123e-001	-6.584631e-001	7.415724e-002	-4.304164e-002
40656660.413	7.923607e-002	-3.945762e-002	6.361525e-001	-6.592811e-001	6.364805e-001	-6.586001e-001	7.417441e-002	-4.305866e-002
40687929.956	7.926971e-002	-3.953593e-002	6.360143e-001	-6.598280e-001	6.360992e-001	-6.589554e-001	7.414037e-002	-4.317194e-002
40719199.500	7.922979e-002	-3.956382e-002	6.352919e-001	-6.598546e-001	6.354938e-001	-6.595384e-001	7.420348e-002	-4.327198e-002
40750469.043	7.920556e-002	-3.969563e-002	6.348675e-001	-6.601068e-001	6.351043e-001	-6.597533e-001	7.402668e-002	-4.331826e-002
40781738.587	7.925757e-002	-3.987555e-002	6.345714e-001	-6.607383e-001	6.347118e-001	-6.601562e-001	7.398991e-002	-4.339377e-002
40813008.130	7.917993e-002	-3.991604e-002	6.343187e-001	-6.609150e-001	6.342094e-001	-6.604446e-001	7.403354e-002	-4.348692e-002
40844277.674	7.922022e-002	-3.992290e-002	6.337279e-001	-6.612823e-001	6.338552e-001	-6.607687e-001	7.396154e-002	-4.355204e-002
40875547.217	7.920799e-002	-4.006343e-002	6.332930e-001	-6.617591e-001	6.336066e-001	-6.610056e-001	7.398729e-002	-4.366331e-002
40906816.760	7.919799e-002	-4.008932e-002	6.330677e-001	-6.620246e-001	6.330986e-001	-6.613562e-001	7.406423e-002	-4.379296e-002
40938086.304	7.911793e-002	-4.023230e-002	6.323964e-001	-6.623868e-001	6.328185e-001	-6.618238e-001	7.392758e-002	-4.385453e-002
40969355.847	7.912592e-002	-4.026482e-002	6.319796e-001	-6.626265e-001	6.323026e-001	-6.620998e-001	7.391049e-002	-4.389193e-002
41000625.391	7.912401e-002	-4.032355e-002	6.315230e-001	-6.628885e-001	6.317587e-001	-6.623675e-001	7.392010e-002	-4.397551e-002
41031894.934	7.928719e-002	-4.037879e-002	6.314289e-001	-6.632304e-001	6.314401e-001	-6.628801e-001	7.387452e-002	-4.405582e-002
41063164.478	7.913794e-002	-4.048893e-002	6.309496e-001	-6.636494e-001	6.311460e-001	-6.631628e-001	7.388995e-002	-4.419323e-002
41094434.021	7.911062e-002	-4.061819e-002	6.305145e-001	-6.639434e-001	6.306395e-001	-6.633847e-001	7.383271e-002	-4.426302e-002
41125703.565	7.913460e-002	-4.070493e-002	6.301470e-001	-6.643290e-001	6.303561e-001	-6.636852e-001	7.380501e-002	-4.430677e-002
41156973.108	7.917166e-002	-4.081724e-002	6.297907e-001	-6.644927e-001	6.297316e-001	-6.641419e-001	7.377384e-002	-4.442442e-002
41188242.652	7.912713e-002	-4.078911e-002	6.293029e-001	-6.651489e-001	6.294506e-001	-6.644329e-001	7.384847e-002	-4.455226e-002
41219512.195	7.913898e-002	-4.100653e-002	6.288555e-001	-6.653858e-001	6.289978e-001	-6.647496e-001	7.374964e-002	-4.465951e-002
41250781.739	7.907361e-002	-4.102778e-002	6.282629e-001	-6.658618e-001	6.285520e-001	-6.651564e-001	7.376962e-002	-4.467560e-002
41282051.282	7.909234e-002	-4.116866e-002	6.280478e-001	-6.660511e-001	6.281536e-001	-6.654779e-001	7.366703e-002	-4.480404e-002
41313320.826	7.905788e-002	-4.113599e-002	6.275343e-001	-6.662643e-001	6.277961e-001	-6.657449e-001	7.369632e-002	-4.489620e-002
41344590.369	7.900850e-002	-4.131222e-002	6.270959e-001	-6.664805e-001	6.274243e-001	-6.661938e-001	7.371742e-002	-4.490789e-002
41375859.912	7.895049e-002	-4.132556e-002	6.267995e-001	-6.670255e-001	6.267465e-001	-6.663964e-001	7.368432e-002	-4.503423e-002
41407129.456	7.900618e-002	-4.143800e-002	6.265150e-001	-6.672109e-001	6.264881e-001	-6.666437e-001	7.357842e-002	-4.504197e-002
41438398.999	7.902121e-002	-4.159464e-002	6.261313e-001	-6.677792e-001	6.262211e-001	-6.670986e-001	7.355649e-002	-4.514911e-002
41469668.543	7.897667e-002	-4.149578e-002	6.255369e-001	-6.680677e-001	6.256983e-001	-6.675573e-001	7.358770e-002	-4.526688e-002
41500938.086	7.898392e-002	-4.171105e-002	6.252154e-001	-6.682998e-001	6.254177e-001	-6.677690e-001	7.354105e-002	-4.541035e-002
41532207.630	7.899907e-002	-4.179198e-002	6.247713e-001	-6.686672e-001	6.249646e-001	-6.681057e-001	7.353639e-002	-4.546679e-002
41563477.173	7.900932e-002	-4.190659e-002	6.243125e-001	-6.690691e-001	6.245212e-001	-6.683574e-001	7.356568e-002	-4.558097e-002
41594746.717	7.904659e-002	-4.197226e-002	6.238643e-001	-6.693485e-001	6.241101e-001	-6.687929e-001	7.349607e-002	-4.557679e-002
41626016.260	7.885190e-002	-4.206787e-002	6.235225e-001	-6.696936e-001	6.237063e-001	-6.691009e-001	7.345432e-002	-4.567744e-002
41657285.804	7.896471e-002	-4.217798e-002	6.231503e-001	-6.700762e-001	6.233004e-001	-6.693734e-001	7.348365e-002	-4.578336e-002
41688555.347	7.897972e-002	-4.220052e-002	6.226991e-001	-6.703094e-001	6.229043e-001	-6.698269e-001	7.344091e-002	-4.585792e-002
41719824.891	7.898356e-002	-4.222168e-002	6.223266e-001	-6.707399e-001	6.224890e-001	-6.700107e-001	7.339849e-002	-4.589545e-002
41751094.434	7.889720e-002	-4.222271e-002	6.219342e-001	-6.709303e-001	6.219967e-001	-6.706202e-001	7.341657e-002	-4.609778e-002
41782363.977	7.897310e-002	-4.245796e-002	6.215830e-001	-6.713535e-001	6.217312e-001	-6.707341e-001	7.324569e-002	-4.611100e-002
41813633.521	7.888357e-002	-4.254135e-002	6.210084e-001	-6.715794e-001	6.213552e-001	-6.710483e-001	7.338688e-002	-4.616229e-002
41844903.064	7.887031e-002	-4.257582e-002	6.207917e-001	-6.718770e-001	6.207892e-001	-6.714859e-001	7.327667e-002	-4.626951e-002
41876172.608	7.887992e-002	-4.270933e-002	6.200925e-001	-6.723010e-001	6.205664e-001	-6.718253e-001	7.319720e-002	-4.630910e-002
41907442.151	7.883095e-002	-4.271729e-002	6.198456e-001	-6.725818e-001	6.201119e-001	-6.721881e-001	7.318901e-002	-4.642166e-002
41938711.695	7.892480e-002	-4.284795e-002	6.193546e-001	-6.729579e-001	6.196908e-001	-6.723546e-001	7.328618e-002	-4.655379e-002
41969981.238	7.886326e-002	-4.300490e-002	6.190376e-001	-6.732971e-001	6.191445e-001	-6.728820e-001	7.325673e-002	-4.660808e-002
42001250.782	7.888364e-002	-4.296966e-002	6.186290e-001	-6.736787e-001	6.188215e-001	-6.729280e-001	7.320899e-002	-4.669263e-002
42032520.325	7.887013e-002	-4.303854e-002	6.181694e-001	-6.739850e-001	6.185822e-001	-6.732870e-001	7.312764e-002	-4.675980e-002
42063789.869	7.880574e-002	-4.316951e-002	6.178390e-001	-6.742658e-001	6.178847e-001	-6.738275e-001	7.306245e-002	-4.685743e-002
42095059.412	7.882462e-002	-4.326483e-002	6.173733e-001	-6.746273e-001	6.176720e-001	-6.741480e-001	7.309891e-002	-4.687298e-002
42126328.956	7.876273e-002	-4.333258e-002	6.169735e-001	-6.748237e-001	6.171039e-001	-6.743650e-001	7.302816e-002	-4.702464e-002
42157598.499	7.883527e-002	-4.345998e-002	6.165399e-001	-6.752594e-001	6.166868e-001	-6.748332e-001	7.305391e-002	-4.708885e-002
42188868.043	7.880166e-002	-4.354743e-002	6.162659e-001	-6.754718e-001	6.163505e-001	-6.750969e-001	7.300231e-002	-4.714892e-002
42220137.586	7.884869e-002	-4.359855e-002	6.156915e-001	-6.759744e-001	6.159249e-001	-6.752892e-001	7.297273e-002	-4.727487e-002
42251407.129	7.876569e-002	-4.371397e-002	6.154065e-001	-6.763457e-001	6.154553e-001	-6.757523e-001	7.292085e-002	-4.728714e-002
42282676.673	7.878934e-002	-4.379183e-002	6.148891e-001	-6.765718e-001	6.150186e-001	-6.760069e-001	7.294988e-002	-4.741226e-002
42313946.216	7.874133e-002	-4.382047e-002	6.145710e-001	-6.769784e-001	6.147294e-001	-6.764521e-001	7.291503e-002	-4.750543e-002
42345215.760	7.865529e-002	-4.397515e-002	6.140436e-001	-6.772581e-001	6.142027e-001	-6.768022e-001	7.280668e-002	-4.753288e-002
42376485.303	7.867763e-002	-4.405580e-002	6.136109e-001	-6.776161e-001	6.137517e-001	-6.769832e-001	7.286530e-002	-4.761684e-002
42407754.847	7.870333e-002	-4.409517e-002	6.131808e-001	-6.778760e-001	6.133788e-001	-6.773579e-001	7.284553e-002	-4.770125e-002
42439024.390	7.864359e-002	-4.423147e-002	6.128236e-001	-6.782373e-001	6.130009e-001	-6.775539e-001	7.277479e-002	-4.786561e-002
42470293.934	7.869978e-002	-4.433330e-002	6.124332e-001	-6.785621e-001	6.126692e-001	-6.780171e-001	7.278926e-002	-4.792897e-002
42501563.477	7.863766e-002	-4.430494e-002	6.121093e-001	-6.787898e-001	6.122784e-001	-6.784390e-001	7.280369e-002	-4.800720e-002
42532833.021	7.870538e-002	-4.443729e-002	6.116472e-001	-6.791156e-001	6.118876e-001	-6.788335e-001	7.267065e-002	-4.809682e-002
42564102.564	7.863119e-002	-4.452370e-002	6.111984e-001	-6.796355e-001	6.113349e-001	-6.790633e-001	7.266804e-002	-4.820991e-002
42595372.108	7.866833e-002	-4.458804e-002	6.106580e-001	-6.799639e-001	6.109571e-001	-6.794697e-001	7.259037e-002	-4.826687e-002
42626641.651	7.859565e-002	-4.480752e-002	6.104029e-001	-6.800977e-001	6.105816e-001	-6.796016e-001	7.258149e-002	-4.832068e-002
42657911.194	7.858966e-002	-4.478846e-002	6.099253e-001	-6.805381e-001	6.101562e-001	-6.799918e-001	7.259930e-002	-4.840922e-002
42689180.738	7.854919e-002	-4.482218e-002	6.095824e-001	-6.808066e-001	6.097243e-001	-6.803666e-001	7.250822e-002	-4.850338e-002
42720450.281	7.851867e-002	-4.498579e-002	6.089751e-001	-6.809556e-001	6.092489e-001	-6.805789e-001	7.256723e-002	-4.856884e-002
42751719.825	7.853767e-002	-4.514274e-002	6.086831e-001	-6.814321e-001	6.090990e-001	-6.808418e-001	7.256580e-002	-4.870487e-002
42782989.368	7.843611e-002	-4.512500e-002	6.082836e-001	-6.819617e-001	6.084962e-001	-6.813308e-001	7.247156e-002	-4.870752e-002
42814258.912	7.854446e-002	-4.522695e-002	6.080345e-001	-6.821289e-001	6.080988e-001	-6.816403e-001	7.245620e-002	-4.894629e-002
42845528.455	7.847359e-002	-4.525210e-002	6.074471e-001	-6.825422e-001	6.077141e-001	-6.819269e-001	7.245811e-002	-4.890243e-002
42876797.999	7.852627e-002	-4.539706e-002	6.071331e-001	-6.826621e-001	6.072492e-001	-6.823201e-001	7.238139e-002	-4.905804e-002
42908067.542	7.842790e-002	-4.546415e-002	6.066582e-001	-6.829238e-001	6.069566e-001	-6.824573e-001	7.233253e-002	-4.918744e-002
42939337.086	7.850107e-002	-4.552550e-002	6.062214e-001	-6.833200e-001	6.062685e-001	-6.828811e-001	7.237244e-002	-4.924929e-002
42970606.629	7.842217e-002	-4.568172e-002	6.057847e-001	-6.836973e-001	6.059192e-001	-6.832375e-001	7.225800e-002	-4.937593e-002
43001876.173	7.840807e-002	-4.574270e-002	6.053917e-001	-6.840867e-001	6.056047e-001	-6.835949e-001	7.226675e-002	-4.930754e-002
43033145.716	7.849631e-002	-4.578323e-002	6.048535e-001	-6.843769e-001	6.051128e-001	-6.839305e-001	7.221173e-002	-4.941807e-002
43064415.260	7.845570e-002	-4.593586e-002	6.044687e-001	-6.846233e-001	6.048407e-001	-6.842110e-001	7.219142e-002	-4.956896e-002
43095684.803	7.837631e-002	-4.596413e-002	6.040308e-001	-6.850431e-001	6.043218e-001	-6.845140e-001	7.213623e-002	-4.963601e-002
43126954.346	7.844214e-002	-4.603211e-002	6.037184e-001	-6.853202e-001	6.038704e-001	-6.848473e-001	7.211465e-002	-4.963704e-002
43158223.890	7.838464e-002	-4.615960e-002	6.033222e-001	-6.854887e-001	6.034161e-001	-6.851323e-001	7.207932e-002	-4.972879e-002
43189493.433	7.835917e-002	-4.629253e-002	6.030161e-001	-6.860648e-001	6.028636e-001	-6.855591e-001	7.205971e-002	-4.978499e-002
43220762.977	7.836650e-002	-4.630068e-002	6.025166e-001	-6.863283e-001	6.026863e-001	-6.857323e-001	7.201646e-002	-4.996758e-002
43252032.520	7.829479e-002	-4.646376e-002	6.020145e-001	-6.866354e-001	6.021741e-001	-6.862255e-001	7.205965e-002	-5.007386e-002
43283302.064	7.829228e-002	-4.643396e-002	6.016061e-001	-6.868797e-001	6.017258e-001	-6.863580e-001	7.204295e-002	-5.008074e-002
43314571.607	7.823799e-002	-4.662353e-002	6.012568e-001	-6.872732e-001	6.015979e-001	-6.867665e-001	7.197117e-002	-5.007557e-002
43345841.151	7.829089e-002	-4.665998e-002	6.007504e-001	-6.875347e-001	6.010383e-001	-6.870796e-001	7.193805e-002	-5.019824e-002
43377110.694	7.820689e-002	-4.676701e-002	6.003717e-001	-6.878357e-001	6.005068e-001	-6.874365e-001	7.187389e-002	-5.032447e-002
43408380.238	7.826924e-002	-4.691525e-002	6.000328e-001	-6.883388e-001	6.001152e-001	-6.876360e-001	7.191492e-002	-5.042703e-002
43439649.781	7.823064e-002	-4.696820e-002	5.994747e-001	-6.885250e-001	5.995806e-001	-6.880496e-001	7.190669e-002	-5.051874e-002
43470919.325	7.817229e-002	-4.702895e-002	5.989917e-001	-6.889318e-001	5.994182e-001	-6.884603e-001	7.188278e-002	-5.050599e-002
43502188.868	7.815239e-002	-4.715921e-002	5.987187e-001	-6.892338e-001	5.987820e-001	-6.886815e-001	7.182100e-002	-5.062020e-002
43533458.412	7.821622e-002	-4.716902e-002	5.982730e-001	-6.893852e-001	5.984031e-001	-6.889471e-001	7.183357e-002	-5.078387e-002
43564727.955	7.811444e-002	-4.724938e-002	5.979180e-001	-6.896942e-001	5.979951e-001	-6.894997e-001	7.173921e-002	-5.087171e-002
43595997.498	7.812545e-002	-4.741643e-002	5.974592e-001	-6.900093e-001	5.974642e-001	-6.895738e-001	7.170096e-002	-5.090982e-002
43627267.042	7.811068e-002	-4.750738e-002	5.971467e-001	-6.903686e-001	5.971650e-001	-6.900089e-001	7.166629e-002	-5.094671e-002
43658536.585	7.811693e-002	-4.761671e-002	5.966004e-001	-6.906732e-001	5.967421e-001	-6.902857e-001	7.163054e-002	-5.105403e-002
43689806.129	7.815134e-002	-4.770868e-002	5.961385e-001	-6.910092e-001	5.963661e-001	-6.905796e-001	7.163885e-002	-5.120074e-002
43721075.672	7.802723e-002	-4.762472e-002	5.956773e-001	-6.912750e-001	5.959298e-001	-6.909455e-001	7.160843e-002	-5.127793e-002
43752345.216	7.809010e-002	-4.785931e-002	5.955135e-001	-6.917022e-001	5.954346e-001	-6.913102e-001	7.160474e-002	-5.131378e-002
43783614.759	7.807805e-002	-4.793638e-002	5.948999e-001	-6.919553e-001	5.951345e-001	-6.915666e-001	7.153954e-002	-5.144779e-002
43814884.303	7.794898e-002	-4.796612e-002	5.945678e-001	-6.922476e-001	5.947061e-001	-6.918192e-001	7.148333e-002	-5.146277e-002
43846153.846	7.802742e-002	-4.811312e-002	5.942328e-001	-6.925674e-001	5.943840e-001	-6.921956e-001	7.142494e-002	-5.156680e-002
43877423.390	7.797450e-002	-4.819445e-002	5.935925e-001	-6.930251e-001	5.938414e-001	-6.924716e-001	7.146692e-002	-5.165808e-002
43908692.933	7.793109e-002	-4.817281e-002	5.931342e-001	-6.933500e-001	5.935245e-001	-6.927079e-001	7.139795e-002	-5.167668e-002
43939962.477	7.791274e-002	-4.827787e-002	5.929079e-001	-6.936643e-001	5.930593e-001	-6.931678e-001	7.136946e-002	-5.180300e-002
43971232.020	7.792613e-002	-4.843454e-002	5.923356e-001	-6.939016e-001	5.925713e-001	-6.934643e-001	7.135829e-002	-5.190912e-002
44002501.563	7.790225e-002	-4.853994e-002	5.918897e-001	-6.940699e-001	5.922279e-001	-6.936131e-001	7.134828e-002	-5.190603e-002
44033771.107	7.791041e-002	-4.863130e-002	5.915351e-001	-6.945655e-001	5.918016e-001	-6.939501e-001	7.128345e-002	-5.204587e-002
44065040.650	7.791019e-002	-4.861415e-002	5.911913e-001	-6.948583e-001	5.914065e-001	-6.943263e-001	7.132839e-002	-5.207781e-002
44096310.194	7.781182e-002	-4.874401e-002	5.908181e-001	-6.951227e-001	5.909145e-001	-6.946089e-001	7.123111e-002	-5.222946e-002
44127579.737	7.781643e-002	-4.887092e-002	5.903457e-001	-6.954594e-001	5.905525e-001	-6.948594e-001	7.120701e-002	-5.232678e-002
44158849.281	7.782490e-002	-4.892501e-002	5.899115e-001	-6.956949e-001	5.901934e-001	-6.952980e-001	7.117732e-002	-5.240582e-002
44190118.824	7.776999e-002	-4.901592e-002	5.894543e-001	-6.960186e-001	5.897822e-001	-6.956494e-001	7.111377e-002	-5.246615e-002
44221388.368	7.771235e-002	-4.908753e-002	5.891553e-001	-6.964396e-001	5.891604e-001	-6.958862e-001	7.103514e-002	-5.252164e-002
44252657.911	7.772528e-002	-4.917149e-002	5.886506e-001	-6.966858e-001	5.887993e-001	-6.963029e-001	7.112654e-002	-5.265789e-002
44283927.455	7.770835e-002	-4.927128e-002	5.882070e-001	-6.969287e-001	5.884382e-001	-6.965416e-001	7.092494e-002	-5.277448e-002
44315196.998	7.768121e-002	-4.933816e-002	5.878714e-001	-6.973723e-001	5.880400e-001	-6.968221e-001	7.102084e-002	-5.285037e-002
44346466.542	7.767187e-002	-4.944005e-002	5.873204e-001	-6.976434e-001	5.875750e-001	-6.971873e-001	7.091438e-002	-5.287725e-002
44377736.085	7.766216e-002	-4.949297e-002	5.869509e-001	-6.977513e-001	5.870353e-001	-6.974078e-001	7.083118e-002	-5.292058e-002
44409005.629	7.767495e-002	-4.955335e-002	5.864284e-001	-6.982819e-001	5.866462e-001	-6.976847e-001	7.089520e-002	-5.305867e-002
44440275.172	7.764477e-002	-4.976702e-002	5.860024e-001	-6.984741e-001	5.863606e-001	-6.980850e-001	7.081385e-002	-5.311175e-002
44471544.715	7.760298e-002	-4.983327e-002	5.855484e-001	-6.988355e-001	5.859430e-001	-6.983658e-001	7.085402e-002	-5.318828e-002
44502814.259	7.766280e-002	-4.994072e-002	5.852610e-001	-6.989494e-001	5.853059e-001	-6.986827e-001	7.084363e-002	-5.328912e-002
44534083.802	7.754829e-002	-4.993888e-002	5.847078e-001	-6.995307e-001	5.849827e-001	-6.989531e-001	7.075480e-002	-5.342827e-002
44565353.346	7.752428e-002	-5.001313e-002	5.843442e-001	-6.998000e-001	5.846591e-001	-6.992488e-001	7.069131e-002	-5.335612e-002
44596622.889	7.748802e-002	-5.014059e-002	5.839902e-001	-7.000131e-001	5.842091e-001	-6.995624e-001	7.069243e-002	-5.350762e-002
44627892.433	7.753378e-002	-5.021826e-002	5.835303e-001	-7.003307e-001	5.837564e-001	-6.999157e-001	7.057645e-002	-5.366322e-002
44659161.976	7.749086e-002	-5.026825e-002	5.829544e-001	-7.006527e-001	5.833943e-001	-7.001590e-001	7.060358e-002	-5.367668e-002
44690431.520	7.748114e-002	-5.046594e-002	5.827065e-001	-7.009817e-001	5.828850e-001	-7.004713e-001	7.057249e-002	-5.375911e-002
44721701.063	7.746973e-002	-5.046994e-002	5.824105e-001	-7.012847e-001	5.824795e-001	-7.009701e-001	7.056943e-002	-5.378478e-002
44752970.607	7.735250e-002	-5.065478e-002	5.818226e-001	-7.016160e-001	5.819615e-001	-7.012907e-001	7.055699e-002	-5.396702e-002
