!Agilent Technologies,E5061B,MY49102235,A.02.00
!Date: Mon Jul 03 11:13:05 2023
!Data & Calibration Information:
!Freq	S11:SOLT2(ON)	S21:SOLT2(ON)	S12:SOLT2(ON)	S22:SOLT2(ON)
# Hz S RI R 50
40000000.000	5.988194e-002	-4.243183e-002	6.641890e-001	-6.476501e-001	6.642452e-001	-6.469320e-001	5.460844e-002	-4.451283e-002
40031269.543	5.985431e-002	-4.255753e-002	6.638466e-001	-6.479969e-001	6.639169e-001	-6.471567e-001	5.462256e-002	-4.454224e-002
40062539.087	5.981508e-002	-4.261245e-002	6.631928e-001	-6.480984e-001	6.634640e-001	-6.475133e-001	5.460807e-002	-4.467275e-002
40093808.630	5.979263e-002	-4.266939e-002	6.629026e-001	-6.486043e-001	6.630680e-001	-6.480504e-001	5.456234e-002	-4.470180e-002
40125078.174	5.975812e-002	-4.270754e-002	6.625344e-001	-6.489041e-001	6.625861e-001	-6.482927e-001	5.460587e-002	-4.469972e-002
40156347.717	5.980153e-002	-4.282950e-002	6.622309e-001	-6.493943e-001	6.622322e-001	-6.488113e-001	5.450369e-002	-4.484564e-002
40187617.261	5.975275e-002	-4.294948e-002	6.618468e-001	-6.495776e-001	6.619662e-001	-6.491645e-001	5.448385e-002	-4.501556e-002
40218886.804	5.976171e-002	-4.295386e-002	6.614031e-001	-6.501077e-001	6.614559e-001	-6.493321e-001	5.451286e-002	-4.504706e-002
40250156.348	5.973903e-002	-4.302309e-002	6.610848e-001	-6.503017e-001	6.611045e-001	-6.498380e-001	5.438235e-002	-4.513745e-002
40281425.891	5.969542e-002	-4.313058e-002	6.606712e-001	-6.507669e-001	6.607164e-001	-6.501103e-001	5.440126e-002	-4.514913e-002
40312695.435	5.971928e-002	-4.319943e-002	6.602207e-001	-6.512663e-001	6.603165e-001	-6.504493e-001	5.441007e-002	-4.524589e-002
40343964.978	5.970171e-002	-4.321112e-002	6.598608e-001	-6.513538e-001	6.599186e-001	-6.508064e-001	5.435343e-002	-4.525930e-002
40375234.522	5.970789e-002	-4.328703e-002	6.593409e-001	-6.518198e-001	6.595678e-001	-6.511109e-001	5.430017e-002	-4.535945e-002
40406504.065	5.962334e-002	-4.331461e-002	6.588807e-001	-6.520138e-001	6.591132e-001	-6.516357e-001	5.433000e-002	-4.550354e-002
40437773.609	5.956375e-002	-4.349809e-002	6.587826e-001	-6.524370e-001	6.588298e-001	-6.518465e-001	5.427837e-002	-4.559297e-002
40469043.152	5.964432e-002	-4.355449e-002	6.582969e-001	-6.528086e-001	6.584708e-001	-6.521977e-001	5.423512e-002	-4.558484e-002
40500312.695	5.954944e-002	-4.369242e-002	6.577068e-001	-6.532278e-001	6.580470e-001	-6.525630e-001	5.418352e-002	-4.562386e-002
40531582.239	5.957806e-002	-4.367463e-002	6.573755e-001	-6.532690e-001	6.574902e-001	-6.531831e-001	5.415317e-002	-4.568748e-002
40562851.782	5.955118e-002	-4.370917e-002	6.569182e-001	-6.537755e-001	6.570699e-001	-6.533034e-001	5.419349e-002	-4.592099e-002
40594121.326	5.955301e-002	-4.384817e-002	6.567820e-001	-6.543113e-001	6.567844e-001	-6.535742e-001	5.415761e-002	-4.585725e-002
40625390.869	5.954140e-002	-4.385893e-002	6.563486e-001	-6.545325e-001	6.565693e-001	-6.541157e-001	5.407390e-002	-4.600186e-002
40656660.413	5.950400e-002	-4.394841e-002	6.558704e-001	-6.549120e-001	6.561473e-001	-6.542874e-001	5.407916e-002	-4.602030e-002
40687929.956	5.952611e-002	-4.400782e-002	6.557286e-001	-6.554249e-001	6.557811e-001	-6.546515e-001	5.404228e-002	-4.611879e-002
40719199.500	5.947398e-002	-4.402513e-002	6.550301e-001	-6.555487e-001	6.552138e-001	-6.552286e-001	5.408380e-002	-4.620192e-002
40750469.043	5.943929e-002	-4.414444e-002	6.545848e-001	-6.557687e-001	6.548074e-001	-6.554614e-001	5.391019e-002	-4.622874e-002
40781738.587	5.949055e-002	-4.431411e-002	6.543284e-001	-6.563853e-001	6.544365e-001	-6.558788e-001	5.386655e-002	-4.630899e-002
40813008.130	5.940155e-002	-4.433953e-002	6.540713e-001	-6.566053e-001	6.539069e-001	-6.562071e-001	5.389157e-002	-4.638200e-002
40844277.674	5.942540e-002	-4.433888e-002	6.534950e-001	-6.569998e-001	6.535743e-001	-6.565263e-001	5.381453e-002	-4.644089e-002
40875547.217	5.940490e-002	-4.446341e-002	6.530434e-001	-6.574745e-001	6.533357e-001	-6.567611e-001	5.383109e-002	-4.653316e-002
40906816.760	5.938159e-002	-4.448220e-002	6.528524e-001	-6.577541e-001	6.528498e-001	-6.571216e-001	5.389226e-002	-4.664370e-002
40938086.304	5.929529e-002	-4.460617e-002	6.521941e-001	-6.581484e-001	6.525925e-001	-6.575863e-001	5.374634e-002	-4.668530e-002
40969355.847	5.928347e-002	-4.464353e-002	6.517598e-001	-6.583650e-001	6.520585e-001	-6.578937e-001	5.371602e-002	-4.672036e-002
41000625.391	5.927924e-002	-4.467708e-002	6.513401e-001	-6.586690e-001	6.515472e-001	-6.581687e-001	5.372552e-002	-4.679402e-002
41031894.934	5.942639e-002	-4.472530e-002	6.512522e-001	-6.590037e-001	6.512293e-001	-6.586736e-001	5.366471e-002	-4.685676e-002
41063164.478	5.927500e-002	-4.482768e-002	6.507941e-001	-6.594574e-001	6.509362e-001	-6.589859e-001	5.367308e-002	-4.698612e-002
41094434.021	5.923527e-002	-4.494593e-002	6.503541e-001	-6.597424e-001	6.504438e-001	-6.592016e-001	5.360247e-002	-4.704001e-002
41125703.565	5.925276e-002	-4.501250e-002	6.500289e-001	-6.601518e-001	6.501836e-001	-6.595235e-001	5.356577e-002	-4.706541e-002
41156973.108	5.927233e-002	-4.510956e-002	6.496493e-001	-6.603221e-001	6.495566e-001	-6.599917e-001	5.353158e-002	-4.716853e-002
41188242.652	5.921879e-002	-4.508257e-002	6.491657e-001	-6.610029e-001	6.493003e-001	-6.602860e-001	5.359384e-002	-4.728688e-002
41219512.195	5.922515e-002	-4.527414e-002	6.487508e-001	-6.612604e-001	6.488250e-001	-6.606298e-001	5.349404e-002	-4.738114e-002
41250781.739	5.914877e-002	-4.529213e-002	6.481490e-001	-6.617337e-001	6.484293e-001	-6.610541e-001	5.349703e-002	-4.738789e-002
41282051.282	5.915524e-002	-4.541171e-002	6.479423e-001	-6.619216e-001	6.480412e-001	-6.613705e-001	5.338640e-002	-4.749810e-002
41313320.826	5.910453e-002	-4.538068e-002	6.474390e-001	-6.621561e-001	6.476753e-001	-6.616626e-001	5.339465e-002	-4.757515e-002
41344590.369	5.904719e-002	-4.554658e-002	6.470278e-001	-6.623772e-001	6.473205e-001	-6.621407e-001	5.341188e-002	-4.757825e-002
41375859.912	5.897580e-002	-4.554495e-002	6.467466e-001	-6.629199e-001	6.466570e-001	-6.623498e-001	5.337820e-002	-4.768849e-002
41407129.456	5.903032e-002	-4.564101e-002	6.464627e-001	-6.631287e-001	6.463990e-001	-6.625992e-001	5.325323e-002	-4.768472e-002
41438398.999	5.903423e-002	-4.579276e-002	6.460957e-001	-6.637200e-001	6.461448e-001	-6.630739e-001	5.323220e-002	-4.778381e-002
41469668.543	5.897660e-002	-4.567560e-002	6.454869e-001	-6.640128e-001	6.456384e-001	-6.635364e-001	5.324482e-002	-4.788636e-002
41500938.086	5.896890e-002	-4.586925e-002	6.451905e-001	-6.642519e-001	6.453790e-001	-6.637487e-001	5.319757e-002	-4.801939e-002
41532207.630	5.897974e-002	-4.594088e-002	6.447388e-001	-6.646332e-001	6.449163e-001	-6.641113e-001	5.317440e-002	-4.804773e-002
41563477.173	5.898136e-002	-4.605996e-002	6.443099e-001	-6.650632e-001	6.444759e-001	-6.644027e-001	5.319462e-002	-4.815112e-002
41594746.717	5.900039e-002	-4.610510e-002	6.438807e-001	-6.653412e-001	6.440870e-001	-6.648139e-001	5.311348e-002	-4.813476e-002
41626016.260	5.880502e-002	-4.618850e-002	6.435460e-001	-6.656993e-001	6.436731e-001	-6.651225e-001	5.306116e-002	-4.822843e-002
41657285.804	5.890058e-002	-4.628048e-002	6.431771e-001	-6.660902e-001	6.432765e-001	-6.654272e-001	5.308374e-002	-4.831357e-002
41688555.347	5.890945e-002	-4.630261e-002	6.427254e-001	-6.663604e-001	6.428888e-001	-6.658836e-001	5.303231e-002	-4.838115e-002
41719824.891	5.890352e-002	-4.630992e-002	6.423762e-001	-6.667697e-001	6.424666e-001	-6.661015e-001	5.298327e-002	-4.840635e-002
41751094.434	5.880046e-002	-4.629792e-002	6.419901e-001	-6.669601e-001	6.419919e-001	-6.666941e-001	5.298875e-002	-4.859133e-002
41782363.977	5.887442e-002	-4.651565e-002	6.416444e-001	-6.674257e-001	6.417301e-001	-6.668240e-001	5.281090e-002	-4.859950e-002
41813633.521	5.878113e-002	-4.658666e-002	6.410736e-001	-6.676447e-001	6.413857e-001	-6.671473e-001	5.294302e-002	-4.862500e-002
41844903.064	5.874466e-002	-4.662809e-002	6.408759e-001	-6.679539e-001	6.408590e-001	-6.676187e-001	5.282352e-002	-4.872488e-002
41876172.608	5.875145e-002	-4.672949e-002	6.401825e-001	-6.684071e-001	6.406110e-001	-6.679527e-001	5.274413e-002	-4.874737e-002
41907442.151	5.868589e-002	-4.673537e-002	6.399635e-001	-6.686844e-001	6.401739e-001	-6.683365e-001	5.272360e-002	-4.884990e-002
41938711.695	5.878118e-002	-4.684682e-002	6.394681e-001	-6.690929e-001	6.397805e-001	-6.685188e-001	5.281484e-002	-4.897436e-002
41969981.238	5.870503e-002	-4.699370e-002	6.391565e-001	-6.694110e-001	6.392331e-001	-6.690659e-001	5.276677e-002	-4.900249e-002
42001250.782	5.870968e-002	-4.695383e-002	6.387607e-001	-6.698087e-001	6.389270e-001	-6.691166e-001	5.271431e-002	-4.907317e-002
42032520.325	5.869126e-002	-4.700511e-002	6.382981e-001	-6.701319e-001	6.386665e-001	-6.694745e-001	5.261676e-002	-4.912939e-002
42063789.869	5.861625e-002	-4.711837e-002	6.380016e-001	-6.704232e-001	6.380227e-001	-6.700275e-001	5.254102e-002	-4.922417e-002
42095059.412	5.862451e-002	-4.721374e-002	6.375558e-001	-6.708164e-001	6.377977e-001	-6.703485e-001	5.257103e-002	-4.922527e-002
42126328.956	5.854935e-002	-4.726379e-002	6.371272e-001	-6.710075e-001	6.372367e-001	-6.705854e-001	5.249849e-002	-4.935151e-002
42157598.499	5.861122e-002	-4.737583e-002	6.367079e-001	-6.714536e-001	6.368458e-001	-6.710655e-001	5.250715e-002	-4.940635e-002
42188868.043	5.856890e-002	-4.745687e-002	6.364557e-001	-6.716837e-001	6.365127e-001	-6.713305e-001	5.244401e-002	-4.945448e-002
42220137.586	5.861128e-002	-4.749219e-002	6.358992e-001	-6.722300e-001	6.361034e-001	-6.715545e-001	5.240718e-002	-4.956454e-002
42251407.129	5.851076e-002	-4.759255e-002	6.356217e-001	-6.725902e-001	6.356316e-001	-6.720477e-001	5.234152e-002	-4.955681e-002
42282676.673	5.852247e-002	-4.766187e-002	6.351149e-001	-6.728370e-001	6.351859e-001	-6.722950e-001	5.236710e-002	-4.966638e-002
42313946.216	5.847038e-002	-4.767664e-002	6.347772e-001	-6.732536e-001	6.349101e-001	-6.727430e-001	5.232197e-002	-4.975153e-002
42345215.760	5.837311e-002	-4.782445e-002	6.342770e-001	-6.735616e-001	6.344197e-001	-6.731134e-001	5.220299e-002	-4.977124e-002
42376485.303	5.838365e-002	-4.789253e-002	6.338441e-001	-6.739065e-001	6.339781e-001	-6.733110e-001	5.224639e-002	-4.983722e-002
42407754.847	5.839456e-002	-4.791795e-002	6.334313e-001	-6.741869e-001	6.336052e-001	-6.736879e-001	5.222201e-002	-4.990850e-002
42439024.390	5.833739e-002	-4.803382e-002	6.330840e-001	-6.745355e-001	6.332242e-001	-6.739297e-001	5.214106e-002	-5.006241e-002
42470293.934	5.837959e-002	-4.811706e-002	6.327028e-001	-6.749133e-001	6.329007e-001	-6.743613e-001	5.215262e-002	-5.010389e-002
42501563.477	5.830924e-002	-4.808655e-002	6.323732e-001	-6.751223e-001	6.325104e-001	-6.748231e-001	5.215235e-002	-5.017242e-002
42532833.021	5.836522e-002	-4.820314e-002	6.319355e-001	-6.755014e-001	6.321836e-001	-6.752189e-001	5.201523e-002	-5.024729e-002
42564102.564	5.828139e-002	-4.828368e-002	6.314868e-001	-6.759949e-001	6.316343e-001	-6.754536e-001	5.199843e-002	-5.034376e-002
42595372.108	5.830281e-002	-4.833616e-002	6.309503e-001	-6.763533e-001	6.312529e-001	-6.758678e-001	5.191991e-002	-5.038762e-002
42626641.651	5.822490e-002	-4.853894e-002	6.307293e-001	-6.764981e-001	6.308743e-001	-6.760295e-001	5.190320e-002	-5.043287e-002
42657911.194	5.820851e-002	-4.850686e-002	6.302443e-001	-6.769350e-001	6.304569e-001	-6.764522e-001	5.190201e-002	-5.050717e-002
42689180.738	5.815261e-002	-4.852918e-002	6.299266e-001	-6.772412e-001	6.300372e-001	-6.767969e-001	5.181364e-002	-5.058927e-002
42720450.281	5.811212e-002	-4.868500e-002	6.293170e-001	-6.773925e-001	6.295596e-001	-6.770463e-001	5.186088e-002	-5.064421e-002
42751719.825	5.812844e-002	-4.881953e-002	6.290453e-001	-6.778767e-001	6.294005e-001	-6.773237e-001	5.184711e-002	-5.075057e-002
42782989.368	5.802332e-002	-4.880019e-002	6.286070e-001	-6.784125e-001	6.288473e-001	-6.778192e-001	5.174466e-002	-5.075126e-002
42814258.912	5.811431e-002	-4.886946e-002	6.284105e-001	-6.786017e-001	6.284535e-001	-6.781413e-001	5.172825e-002	-5.096713e-002
42845528.455	5.803173e-002	-4.889985e-002	6.278271e-001	-6.790151e-001	6.280689e-001	-6.784836e-001	5.171104e-002	-5.091446e-002
42876797.999	5.807941e-002	-4.902871e-002	6.275347e-001	-6.791595e-001	6.276010e-001	-6.788313e-001	5.163445e-002	-5.105752e-002
42908067.542	5.796906e-002	-4.908439e-002	6.270665e-001	-6.793954e-001	6.273259e-001	-6.790294e-001	5.157964e-002	-5.116978e-002
42939337.086	5.803271e-002	-4.913030e-002	6.266424e-001	-6.798481e-001	6.266597e-001	-6.794419e-001	5.160670e-002	-5.121938e-002
42970606.629	5.794424e-002	-4.927629e-002	6.261929e-001	-6.802208e-001	6.263014e-001	-6.797995e-001	5.148677e-002	-5.133279e-002
43001876.173	5.792199e-002	-4.932380e-002	6.258211e-001	-6.806494e-001	6.260000e-001	-6.801712e-001	5.147739e-002	-5.123948e-002
43033145.716	5.800008e-002	-4.934970e-002	6.252775e-001	-6.809305e-001	6.255435e-001	-6.805216e-001	5.141419e-002	-5.134577e-002
43064415.260	5.794268e-002	-4.948792e-002	6.249039e-001	-6.811904e-001	6.252585e-001	-6.808106e-001	5.139200e-002	-5.147644e-002
43095684.803	5.786110e-002	-4.950841e-002	6.245228e-001	-6.816264e-001	6.247488e-001	-6.811318e-001	5.132773e-002	-5.152934e-002
43126954.346	5.792704e-002	-4.956710e-002	6.241849e-001	-6.819054e-001	6.243167e-001	-6.814774e-001	5.129078e-002	-5.152146e-002
43158223.890	5.784993e-002	-4.967935e-002	6.238011e-001	-6.821020e-001	6.238767e-001	-6.817616e-001	5.124285e-002	-5.160112e-002
43189493.433	5.781074e-002	-4.980382e-002	6.234776e-001	-6.826925e-001	6.233228e-001	-6.822409e-001	5.121843e-002	-5.163720e-002
43220762.977	5.780418e-002	-4.978160e-002	6.230007e-001	-6.829777e-001	6.231713e-001	-6.823997e-001	5.117699e-002	-5.180236e-002
43252032.520	5.773307e-002	-4.994501e-002	6.225246e-001	-6.832743e-001	6.226359e-001	-6.829071e-001	5.120146e-002	-5.189659e-002
43283302.064	5.771217e-002	-4.990180e-002	6.221144e-001	-6.835279e-001	6.222058e-001	-6.830537e-001	5.118173e-002	-5.189175e-002
43314571.607	5.765063e-002	-5.008247e-002	6.217825e-001	-6.839507e-001	6.220772e-001	-6.834696e-001	5.109420e-002	-5.187859e-002
43345841.151	5.769986e-002	-5.010674e-002	6.212756e-001	-6.842319e-001	6.215241e-001	-6.837865e-001	5.105586e-002	-5.198160e-002
43377110.694	5.760114e-002	-5.020110e-002	6.209086e-001	-6.845382e-001	6.209983e-001	-6.841664e-001	5.097947e-002	-5.208997e-002
43408380.238	5.766064e-002	-5.033173e-002	6.205743e-001	-6.850373e-001	6.206253e-001	-6.843631e-001	5.101226e-002	-5.218164e-002
43439649.781	5.761635e-002	-5.037437e-002	6.200378e-001	-6.852351e-001	6.201110e-001	-6.848103e-001	5.100682e-002	-5.225326e-002
43470919.325	5.753950e-002	-5.043049e-002	6.195931e-001	-6.856825e-001	6.199521e-001	-6.852315e-001	5.096762e-002	-5.223465e-002
43502188.868	5.752073e-002	-5.053948e-002	6.192660e-001	-6.860049e-001	6.193272e-001	-6.854741e-001	5.089394e-002	-5.233091e-002
43533458.412	5.757236e-002	-5.053269e-002	6.188696e-001	-6.861629e-001	6.189567e-001	-6.857254e-001	5.090100e-002	-5.247047e-002
43564727.955	5.745421e-002	-5.060830e-002	6.184917e-001	-6.864540e-001	6.185729e-001	-6.863062e-001	5.079776e-002	-5.255422e-002
43595997.498	5.746403e-002	-5.075674e-002	6.180481e-001	-6.868072e-001	6.180534e-001	-6.864042e-001	5.074478e-002	-5.257708e-002
43627267.042	5.743454e-002	-5.083806e-002	6.177665e-001	-6.871766e-001	6.177381e-001	-6.868501e-001	5.070538e-002	-5.259158e-002
43658536.585	5.744086e-002	-5.092698e-002	6.172357e-001	-6.874766e-001	6.173496e-001	-6.871247e-001	5.066283e-002	-5.269431e-002
43689806.129	5.745966e-002	-5.101084e-002	6.167517e-001	-6.878465e-001	6.169494e-001	-6.874308e-001	5.065912e-002	-5.282419e-002
43721075.672	5.731787e-002	-5.090819e-002	6.163049e-001	-6.881061e-001	6.165152e-001	-6.878258e-001	5.062536e-002	-5.289125e-002
43752345.216	5.737793e-002	-5.113131e-002	6.161633e-001	-6.885645e-001	6.160394e-001	-6.882025e-001	5.061591e-002	-5.290233e-002
43783614.759	5.735057e-002	-5.120348e-002	6.155479e-001	-6.888229e-001	6.157925e-001	-6.884732e-001	5.053927e-002	-5.302718e-002
43814884.303	5.722133e-002	-5.122241e-002	6.152229e-001	-6.891485e-001	6.153263e-001	-6.887226e-001	5.047883e-002	-5.302694e-002
43846153.846	5.728626e-002	-5.134798e-002	6.149054e-001	-6.894504e-001	6.150538e-001	-6.891214e-001	5.041183e-002	-5.311245e-002
43877423.390	5.723450e-002	-5.141554e-002	6.142792e-001	-6.899576e-001	6.144852e-001	-6.894145e-001	5.044697e-002	-5.319289e-002
43908692.933	5.716661e-002	-5.138322e-002	6.137945e-001	-6.902661e-001	6.142049e-001	-6.896678e-001	5.036684e-002	-5.319876e-002
43939962.477	5.714413e-002	-5.147293e-002	6.136271e-001	-6.905909e-001	6.137298e-001	-6.901249e-001	5.033327e-002	-5.331242e-002
43971232.020	5.715235e-002	-5.161047e-002	6.130640e-001	-6.908317e-001	6.132562e-001	-6.904679e-001	5.030363e-002	-5.339517e-002
44002501.563	5.712590e-002	-5.171534e-002	6.126026e-001	-6.910574e-001	6.128973e-001	-6.906139e-001	5.028828e-002	-5.338756e-002
44033771.107	5.712419e-002	-5.177835e-002	6.122685e-001	-6.915475e-001	6.124972e-001	-6.909475e-001	5.022174e-002	-5.350017e-002
44065040.650	5.710368e-002	-5.175390e-002	6.119145e-001	-6.918153e-001	6.121105e-001	-6.913736e-001	5.026327e-002	-5.352333e-002
44096310.194	5.699470e-002	-5.187468e-002	6.115673e-001	-6.921109e-001	6.116400e-001	-6.916268e-001	5.015866e-002	-5.365849e-002
44127579.737	5.700473e-002	-5.198655e-002	6.110838e-001	-6.924945e-001	6.112808e-001	-6.918877e-001	5.012605e-002	-5.373862e-002
44158849.281	5.699991e-002	-5.203421e-002	6.106864e-001	-6.927253e-001	6.109309e-001	-6.923676e-001	5.008497e-002	-5.380013e-002
44190118.824	5.693068e-002	-5.210531e-002	6.102044e-001	-6.930587e-001	6.104961e-001	-6.927528e-001	5.001696e-002	-5.384582e-002
44221388.368	5.686569e-002	-5.216748e-002	6.099457e-001	-6.934918e-001	6.099311e-001	-6.929876e-001	4.991299e-002	-5.389090e-002
44252657.911	5.687306e-002	-5.223623e-002	6.094217e-001	-6.937497e-001	6.095585e-001	-6.933950e-001	5.000588e-002	-5.401018e-002
44283927.455	5.684426e-002	-5.232580e-002	6.089986e-001	-6.940101e-001	6.092141e-001	-6.936259e-001	4.979799e-002	-5.411033e-002
44315196.998	5.679417e-002	-5.238110e-002	6.086829e-001	-6.944550e-001	6.088152e-001	-6.939474e-001	4.988687e-002	-5.417465e-002
44346466.542	5.678878e-002	-5.246240e-002	6.081348e-001	-6.947491e-001	6.083475e-001	-6.943294e-001	4.976189e-002	-5.419040e-002
44377736.085	5.677204e-002	-5.251390e-002	6.077730e-001	-6.948787e-001	6.078132e-001	-6.945690e-001	4.967905e-002	-5.421731e-002
44409005.629	5.677270e-002	-5.254309e-002	6.072518e-001	-6.954145e-001	6.074463e-001	-6.948243e-001	4.972879e-002	-5.434075e-002
44440275.172	5.673880e-002	-5.274485e-002	6.068580e-001	-6.956053e-001	6.071490e-001	-6.952598e-001	4.965025e-002	-5.437333e-002
44471544.715	5.668371e-002	-5.280316e-002	6.064365e-001	-6.959826e-001	6.067752e-001	-6.955578e-001	4.967995e-002	-5.443818e-002
44502814.259	5.673471e-002	-5.289914e-002	6.060958e-001	-6.961090e-001	6.061304e-001	-6.958848e-001	4.965420e-002	-5.452703e-002
44534083.802	5.660870e-002	-5.288152e-002	6.055898e-001	-6.967010e-001	6.058418e-001	-6.961919e-001	4.956338e-002	-5.464771e-002
44565353.346	5.658621e-002	-5.294672e-002	6.052199e-001	-6.970110e-001	6.054999e-001	-6.965040e-001	4.949247e-002	-5.455837e-002
44596622.889	5.652821e-002	-5.305754e-002	6.048530e-001	-6.972243e-001	6.050572e-001	-6.968057e-001	4.948288e-002	-5.470058e-002
44627892.433	5.656897e-002	-5.313697e-002	6.044305e-001	-6.975409e-001	6.045940e-001	-6.971554e-001	4.936800e-002	-5.483613e-002
44659161.976	5.651259e-002	-5.316301e-002	6.038440e-001	-6.979034e-001	6.042617e-001	-6.974432e-001	4.937562e-002	-5.483832e-002
44690431.520	5.650587e-002	-5.333999e-002	6.036152e-001	-6.982211e-001	6.037446e-001	-6.977353e-001	4.934361e-002	-5.489882e-002
44721701.063	5.647763e-002	-5.333824e-002	6.033109e-001	-6.985480e-001	6.033564e-001	-6.982698e-001	4.932826e-002	-5.491322e-002
44752970.607	5.635691e-002	-5.350090e-002	6.027394e-001	-6.988820e-001	6.028546e-001	-6.986010e-001	4.931542e-002	-5.508988e-002
