!Agilent Technologies,E5061B,MY49102235,A.02.00
!Date: Mon Jul 03 11:20:50 2023
!Data & Calibration Information:
!Freq	S11:SOLT2(ON)	S21:SOLT2(ON)	S12:SOLT2(ON)	S22:SOLT2(ON)
# Hz S RI R 50
40000000.000	-3.008396e-002	-3.580941e-002	7.544769e-001	-6.549013e-001	7.545747e-001	-6.540449e-001	-3.455677e-002	-3.049869e-002
40031269.543	-3.012176e-002	-3.587725e-002	7.541636e-001	-6.553182e-001	7.542585e-001	-6.543557e-001	-3.458569e-002	-3.048070e-002
40062539.087	-3.018987e-002	-3.588179e-002	7.535135e-001	-6.555018e-001	7.538301e-001	-6.547639e-001	-3.458593e-002	-3.052039e-002
40093808.630	-3.024243e-002	-3.586344e-002	7.532647e-001	-6.560592e-001	7.534543e-001	-6.553939e-001	-3.466646e-002	-3.046592e-002
40125078.174	-3.031229e-002	-3.585143e-002	7.528938e-001	-6.564100e-001	7.529845e-001	-6.556950e-001	-3.465449e-002	-3.040453e-002
40156347.717	-3.029001e-002	-3.589736e-002	7.526497e-001	-6.569684e-001	7.526604e-001	-6.562983e-001	-3.476599e-002	-3.048048e-002
40187617.261	-3.036258e-002	-3.596439e-002	7.522665e-001	-6.572129e-001	7.524643e-001	-6.566716e-001	-3.480111e-002	-3.059612e-002
40218886.804	-3.036643e-002	-3.590340e-002	7.518798e-001	-6.578351e-001	7.519298e-001	-6.569353e-001	-3.480370e-002	-3.054364e-002
40250156.348	-3.043122e-002	-3.591571e-002	7.515609e-001	-6.580718e-001	7.516459e-001	-6.574840e-001	-3.493299e-002	-3.057537e-002
40281425.891	-3.049515e-002	-3.594361e-002	7.511616e-001	-6.586006e-001	7.512626e-001	-6.578483e-001	-3.494908e-002	-3.053207e-002
40312695.435	-3.050413e-002	-3.594314e-002	7.507495e-001	-6.591819e-001	7.508964e-001	-6.582229e-001	-3.493975e-002	-3.053048e-002
40343964.978	-3.053515e-002	-3.589146e-002	7.504083e-001	-6.593046e-001	7.504951e-001	-6.586575e-001	-3.504101e-002	-3.047746e-002
40375234.522	-3.055428e-002	-3.589190e-002	7.499012e-001	-6.598575e-001	7.502129e-001	-6.590064e-001	-3.509733e-002	-3.049641e-002
40406504.065	-3.066134e-002	-3.587938e-002	7.494840e-001	-6.601038e-001	7.497311e-001	-6.596339e-001	-3.507595e-002	-3.058310e-002
40437773.609	-3.076778e-002	-3.599167e-002	7.494277e-001	-6.605594e-001	7.494818e-001	-6.598824e-001	-3.512361e-002	-3.058261e-002
40469043.152	-3.069696e-002	-3.598465e-002	7.489370e-001	-6.610199e-001	7.491250e-001	-6.603007e-001	-3.523719e-002	-3.050548e-002
40500312.695	-3.079672e-002	-3.607071e-002	7.483600e-001	-6.615209e-001	7.487591e-001	-6.607298e-001	-3.528783e-002	-3.049473e-002
40531582.239	-3.080341e-002	-3.597095e-002	7.480655e-001	-6.616331e-001	7.482195e-001	-6.614233e-001	-3.534947e-002	-3.047730e-002
40562851.782	-3.085634e-002	-3.594978e-002	7.476233e-001	-6.622045e-001	7.477998e-001	-6.615902e-001	-3.529040e-002	-3.062983e-002
40594121.326	-3.087653e-002	-3.600133e-002	7.475178e-001	-6.627929e-001	7.475501e-001	-6.619540e-001	-3.537404e-002	-3.048661e-002
40625390.869	-3.091871e-002	-3.595914e-002	7.471210e-001	-6.630951e-001	7.473949e-001	-6.625606e-001	-3.547098e-002	-3.058190e-002
40656660.413	-3.096364e-002	-3.600951e-002	7.466695e-001	-6.635223e-001	7.469906e-001	-6.627742e-001	-3.547241e-002	-3.052854e-002
40687929.956	-3.098448e-002	-3.599628e-002	7.465551e-001	-6.641380e-001	7.466305e-001	-6.632023e-001	-3.552891e-002	-3.054850e-002
40719199.500	-3.106018e-002	-3.593006e-002	7.458700e-001	-6.642982e-001	7.460939e-001	-6.638733e-001	-3.550977e-002	-3.055983e-002
40750469.043	-3.111094e-002	-3.599284e-002	7.454458e-001	-6.645847e-001	7.457303e-001	-6.641654e-001	-3.570015e-002	-3.052718e-002
40781738.587	-3.105848e-002	-3.610023e-002	7.451992e-001	-6.652510e-001	7.453920e-001	-6.646072e-001	-3.577718e-002	-3.052804e-002
40813008.130	-3.119600e-002	-3.604984e-002	7.449801e-001	-6.655581e-001	7.448862e-001	-6.650275e-001	-3.575624e-002	-3.053025e-002
40844277.674	-3.120511e-002	-3.599869e-002	7.444487e-001	-6.660090e-001	7.445419e-001	-6.653713e-001	-3.587319e-002	-3.053222e-002
40875547.217	-3.122959e-002	-3.606679e-002	7.439855e-001	-6.665661e-001	7.443422e-001	-6.656502e-001	-3.585025e-002	-3.053832e-002
40906816.760	-3.128395e-002	-3.600298e-002	7.438362e-001	-6.669122e-001	7.438501e-001	-6.661448e-001	-3.579830e-002	-3.057566e-002
40938086.304	-3.139344e-002	-3.608041e-002	7.432049e-001	-6.673603e-001	7.436392e-001	-6.666715e-001	-3.597382e-002	-3.055390e-002
40969355.847	-3.144395e-002	-3.604173e-002	7.427787e-001	-6.676189e-001	7.431512e-001	-6.670381e-001	-3.602955e-002	-3.051106e-002
41000625.391	-3.145880e-002	-3.601043e-002	7.423522e-001	-6.679913e-001	7.426235e-001	-6.673546e-001	-3.601078e-002	-3.051543e-002
41031894.934	-3.133665e-002	-3.597101e-002	7.423337e-001	-6.684228e-001	7.423428e-001	-6.679829e-001	-3.612032e-002	-3.052179e-002
41063164.478	-3.150674e-002	-3.603535e-002	7.418969e-001	-6.689226e-001	7.420917e-001	-6.683564e-001	-3.611630e-002	-3.056878e-002
41094434.021	-3.156515e-002	-3.609555e-002	7.414526e-001	-6.692798e-001	7.416011e-001	-6.686311e-001	-3.620299e-002	-3.053888e-002
41125703.565	-3.156730e-002	-3.608324e-002	7.411413e-001	-6.697474e-001	7.413500e-001	-6.689722e-001	-3.625733e-002	-3.051663e-002
41156973.108	-3.156762e-002	-3.612816e-002	7.407954e-001	-6.699498e-001	7.407387e-001	-6.695344e-001	-3.629760e-002	-3.053439e-002
41188242.652	-3.165875e-002	-3.602253e-002	7.403772e-001	-6.707394e-001	7.405122e-001	-6.699074e-001	-3.626252e-002	-3.058558e-002
41219512.195	-3.165831e-002	-3.615190e-002	7.399443e-001	-6.710469e-001	7.400558e-001	-6.702790e-001	-3.637162e-002	-3.061313e-002
41250781.739	-3.177058e-002	-3.612455e-002	7.393660e-001	-6.716035e-001	7.396790e-001	-6.707749e-001	-3.638445e-002	-3.053681e-002
41282051.282	-3.176060e-002	-3.617942e-002	7.391864e-001	-6.718574e-001	7.393001e-001	-6.711717e-001	-3.650991e-002	-3.058928e-002
41313320.826	-3.186372e-002	-3.607340e-002	7.387132e-001	-6.721509e-001	7.389751e-001	-6.715095e-001	-3.652934e-002	-3.058311e-002
41344590.369	-3.191979e-002	-3.617717e-002	7.382502e-001	-6.724148e-001	7.386846e-001	-6.720607e-001	-3.652259e-002	-3.049630e-002
41375859.912	-3.202619e-002	-3.612182e-002	7.380731e-001	-6.730213e-001	7.379968e-001	-6.723756e-001	-3.656882e-002	-3.055011e-002
41407129.456	-3.198055e-002	-3.614780e-002	7.377778e-001	-6.732543e-001	7.377528e-001	-6.726304e-001	-3.670602e-002	-3.048326e-002
41438398.999	-3.200591e-002	-3.623109e-002	7.374388e-001	-6.739679e-001	7.375373e-001	-6.732045e-001	-3.675257e-002	-3.050497e-002
41469668.543	-3.211325e-002	-3.604384e-002	7.368765e-001	-6.743432e-001	7.370393e-001	-6.737149e-001	-3.675211e-002	-3.053308e-002
41500938.086	-3.212506e-002	-3.617016e-002	7.365795e-001	-6.746484e-001	7.368049e-001	-6.739746e-001	-3.680408e-002	-3.061637e-002
41532207.630	-3.213041e-002	-3.618622e-002	7.361708e-001	-6.750842e-001	7.363961e-001	-6.744352e-001	-3.684121e-002	-3.055406e-002
41563477.173	-3.215359e-002	-3.622543e-002	7.357409e-001	-6.755498e-001	7.359661e-001	-6.747664e-001	-3.682655e-002	-3.060347e-002
41594746.717	-3.215561e-002	-3.620884e-002	7.353396e-001	-6.759236e-001	7.355571e-001	-6.752568e-001	-3.693366e-002	-3.050634e-002
41626016.260	-3.236371e-002	-3.625533e-002	7.350164e-001	-6.763277e-001	7.351851e-001	-6.756512e-001	-3.700936e-002	-3.051905e-002
41657285.804	-3.228410e-002	-3.624668e-002	7.346762e-001	-6.767824e-001	7.348346e-001	-6.760422e-001	-3.700156e-002	-3.053690e-002
41688555.347	-3.230360e-002	-3.621507e-002	7.342568e-001	-6.771146e-001	7.344516e-001	-6.765381e-001	-3.706898e-002	-3.053092e-002
41719824.891	-3.233622e-002	-3.615947e-002	7.339441e-001	-6.776192e-001	7.340801e-001	-6.768222e-001	-3.714542e-002	-3.048476e-002
41751094.434	-3.246417e-002	-3.609596e-002	7.335560e-001	-6.778527e-001	7.335820e-001	-6.775100e-001	-3.713239e-002	-3.059152e-002
41782363.977	-3.240334e-002	-3.623241e-002	7.332207e-001	-6.783941e-001	7.333635e-001	-6.776398e-001	-3.734696e-002	-3.053345e-002
41813633.521	-3.252241e-002	-3.625109e-002	7.326543e-001	-6.786710e-001	7.330353e-001	-6.780587e-001	-3.723025e-002	-3.048131e-002
41844903.064	-3.258606e-002	-3.621718e-002	7.325356e-001	-6.790380e-001	7.325108e-001	-6.785812e-001	-3.737212e-002	-3.052233e-002
41876172.608	-3.258288e-002	-3.624859e-002	7.318367e-001	-6.795790e-001	7.323302e-001	-6.789929e-001	-3.746519e-002	-3.048156e-002
41907442.151	-3.268033e-002	-3.619433e-002	7.316181e-001	-6.799079e-001	7.318876e-001	-6.794407e-001	-3.748063e-002	-3.050696e-002
41938711.695	-3.260772e-002	-3.623158e-002	7.311259e-001	-6.803773e-001	7.315035e-001	-6.796931e-001	-3.739778e-002	-3.055413e-002
41969981.238	-3.269704e-002	-3.632670e-002	7.308323e-001	-6.807707e-001	7.309847e-001	-6.803554e-001	-3.746564e-002	-3.047388e-002
42001250.782	-3.272526e-002	-3.621503e-002	7.304739e-001	-6.812412e-001	7.306744e-001	-6.803967e-001	-3.755423e-002	-3.049327e-002
42032520.325	-3.274503e-002	-3.619164e-002	7.300504e-001	-6.816389e-001	7.304666e-001	-6.808166e-001	-3.766059e-002	-3.048028e-002
42063789.869	-3.285734e-002	-3.625808e-002	7.297590e-001	-6.820058e-001	7.298543e-001	-6.815081e-001	-3.776220e-002	-3.051017e-002
42095059.412	-3.285882e-002	-3.626836e-002	7.293285e-001	-6.824432e-001	7.296488e-001	-6.818659e-001	-3.774389e-002	-3.043889e-002
42126328.956	-3.295703e-002	-3.627392e-002	7.289218e-001	-6.826924e-001	7.290896e-001	-6.821511e-001	-3.781590e-002	-3.048855e-002
42157598.499	-3.291100e-002	-3.630499e-002	7.285296e-001	-6.832282e-001	7.287151e-001	-6.827415e-001	-3.782947e-002	-3.046421e-002
42188868.043	-3.297197e-002	-3.632454e-002	7.282861e-001	-6.834909e-001	7.284316e-001	-6.830614e-001	-3.790529e-002	-3.044657e-002
42220137.586	-3.296219e-002	-3.629364e-002	7.277471e-001	-6.841229e-001	7.279989e-001	-6.833463e-001	-3.794274e-002	-3.048611e-002
42251407.129	-3.307208e-002	-3.633773e-002	7.275085e-001	-6.845612e-001	7.275560e-001	-6.838838e-001	-3.803257e-002	-3.041601e-002
42282676.673	-3.309231e-002	-3.633739e-002	7.270003e-001	-6.848499e-001	7.271315e-001	-6.841982e-001	-3.800547e-002	-3.044081e-002
42313946.216	-3.317234e-002	-3.628611e-002	7.267369e-001	-6.853605e-001	7.268890e-001	-6.847219e-001	-3.807762e-002	-3.044485e-002
42345215.760	-3.327828e-002	-3.638236e-002	7.262257e-001	-6.857077e-001	7.263972e-001	-6.851650e-001	-3.820691e-002	-3.041579e-002
42376485.303	-3.327639e-002	-3.637606e-002	7.258029e-001	-6.861283e-001	7.259891e-001	-6.854307e-001	-3.818463e-002	-3.038431e-002
42407754.847	-3.327905e-002	-3.632316e-002	7.253789e-001	-6.864736e-001	7.256700e-001	-6.858795e-001	-3.820521e-002	-3.039330e-002
42439024.390	-3.335760e-002	-3.639250e-002	7.250727e-001	-6.869032e-001	7.252472e-001	-6.861727e-001	-3.832443e-002	-3.047961e-002
42470293.934	-3.332307e-002	-3.639891e-002	7.247011e-001	-6.873101e-001	7.249843e-001	-6.867009e-001	-3.830794e-002	-3.045858e-002
42501563.477	-3.342319e-002	-3.630264e-002	7.244317e-001	-6.876009e-001	7.246041e-001	-6.872112e-001	-3.830908e-002	-3.043982e-002
42532833.021	-3.339910e-002	-3.634183e-002	7.240060e-001	-6.880319e-001	7.242665e-001	-6.876673e-001	-3.846127e-002	-3.046033e-002
42564102.564	-3.349974e-002	-3.636562e-002	7.235650e-001	-6.886146e-001	7.237548e-001	-6.879691e-001	-3.850845e-002	-3.046926e-002
42595372.108	-3.350976e-002	-3.635314e-002	7.230576e-001	-6.890261e-001	7.234113e-001	-6.884543e-001	-3.859549e-002	-3.044243e-002
42626641.651	-3.357694e-002	-3.648501e-002	7.228032e-001	-6.892158e-001	7.230227e-001	-6.886377e-001	-3.863262e-002	-3.044029e-002
42657911.194	-3.363353e-002	-3.639860e-002	7.223943e-001	-6.897635e-001	7.226637e-001	-6.891733e-001	-3.865184e-002	-3.042266e-002
42689180.738	-3.371119e-002	-3.635518e-002	7.220751e-001	-6.901245e-001	7.222195e-001	-6.895817e-001	-3.874412e-002	-3.044640e-002
42720450.281	-3.375371e-002	-3.644346e-002	7.214357e-001	-6.903213e-001	7.217643e-001	-6.899166e-001	-3.870425e-002	-3.041599e-002
42751719.825	-3.375904e-002	-3.651710e-002	7.212282e-001	-6.908915e-001	7.216424e-001	-6.901877e-001	-3.872746e-002	-3.044242e-002
42782989.368	-3.389394e-002	-3.642917e-002	7.208310e-001	-6.915017e-001	7.210886e-001	-6.907775e-001	-3.886625e-002	-3.037339e-002
42814258.912	-3.381256e-002	-3.643015e-002	7.206196e-001	-6.917278e-001	7.207327e-001	-6.911805e-001	-3.887509e-002	-3.052461e-002
42845528.455	-3.392782e-002	-3.639665e-002	7.200834e-001	-6.922604e-001	7.203666e-001	-6.915662e-001	-3.891722e-002	-3.038462e-002
42876797.999	-3.388138e-002	-3.644703e-002	7.197834e-001	-6.924569e-001	7.198969e-001	-6.920219e-001	-3.900581e-002	-3.047870e-002
42908067.542	-3.401639e-002	-3.646450e-002	7.193483e-001	-6.927386e-001	7.196317e-001	-6.922360e-001	-3.904222e-002	-3.049691e-002
42939337.086	-3.396201e-002	-3.641283e-002	7.189335e-001	-6.932402e-001	7.189411e-001	-6.927406e-001	-3.903020e-002	-3.049741e-002
42970606.629	-3.408193e-002	-3.651070e-002	7.185184e-001	-6.936906e-001	7.186476e-001	-6.931280e-001	-3.916773e-002	-3.053731e-002
43001876.173	-3.411982e-002	-3.649312e-002	7.181564e-001	-6.941941e-001	7.184017e-001	-6.936185e-001	-3.921629e-002	-3.035500e-002
43033145.716	-3.405776e-002	-3.644306e-002	7.176113e-001	-6.945893e-001	7.179167e-001	-6.940552e-001	-3.928895e-002	-3.038661e-002
43064415.260	-3.413514e-002	-3.651122e-002	7.172516e-001	-6.948907e-001	7.176516e-001	-6.943848e-001	-3.930384e-002	-3.044983e-002
43095684.803	-3.423972e-002	-3.648244e-002	7.169022e-001	-6.953898e-001	7.171630e-001	-6.947895e-001	-3.938056e-002	-3.043432e-002
43126954.346	-3.420135e-002	-3.646487e-002	7.166040e-001	-6.957455e-001	7.167525e-001	-6.952032e-001	-3.942950e-002	-3.036185e-002
43158223.890	-3.429030e-002	-3.650958e-002	7.161983e-001	-6.959682e-001	7.163211e-001	-6.955378e-001	-3.951111e-002	-3.036213e-002
43189493.433	-3.433095e-002	-3.656068e-002	7.159367e-001	-6.966519e-001	7.158219e-001	-6.961096e-001	-3.954166e-002	-3.032068e-002
43220762.977	-3.436793e-002	-3.648865e-002	7.155078e-001	-6.969967e-001	7.156432e-001	-6.962906e-001	-3.958965e-002	-3.042107e-002
43252032.520	-3.445124e-002	-3.659780e-002	7.149809e-001	-6.973510e-001	7.151357e-001	-6.968739e-001	-3.955883e-002	-3.042728e-002
43283302.064	-3.449157e-002	-3.648374e-002	7.146057e-001	-6.976575e-001	7.147244e-001	-6.971051e-001	-3.959028e-002	-3.034483e-002
43314571.607	-3.457262e-002	-3.659868e-002	7.142696e-001	-6.981599e-001	7.146634e-001	-6.975712e-001	-3.971425e-002	-3.026294e-002
43345841.151	-3.453809e-002	-3.654730e-002	7.138241e-001	-6.985135e-001	7.140793e-001	-6.979838e-001	-3.975208e-002	-3.029392e-002
43377110.694	-3.465748e-002	-3.658970e-002	7.134409e-001	-6.988640e-001	7.135968e-001	-6.984160e-001	-3.982779e-002	-3.034270e-002
43408380.238	-3.460592e-002	-3.663630e-002	7.131363e-001	-6.994779e-001	7.132257e-001	-6.987074e-001	-3.980917e-002	-3.036478e-002
43439649.781	-3.466741e-002	-3.661323e-002	7.126075e-001	-6.997359e-001	7.126954e-001	-6.991971e-001	-3.983128e-002	-3.033918e-002
43470919.325	-3.477232e-002	-3.661510e-002	7.121616e-001	-7.002425e-001	7.126022e-001	-6.996912e-001	-3.989350e-002	-3.024724e-002
43502188.868	-3.479504e-002	-3.665235e-002	7.118920e-001	-7.006255e-001	7.119579e-001	-7.000079e-001	-3.997424e-002	-3.027693e-002
43533458.412	-3.477651e-002	-3.656907e-002	7.114791e-001	-7.008221e-001	7.116212e-001	-7.003166e-001	-3.996934e-002	-3.034580e-002
43564727.955	-3.490480e-002	-3.659538e-002	7.111675e-001	-7.012040e-001	7.112744e-001	-7.009900e-001	-4.009951e-002	-3.035853e-002
43595997.498	-3.489579e-002	-3.666749e-002	7.106609e-001	-7.016110e-001	7.107156e-001	-7.011632e-001	-4.015277e-002	-3.031048e-002
43627267.042	-3.493284e-002	-3.668872e-002	7.104312e-001	-7.020383e-001	7.104518e-001	-7.016555e-001	-4.020963e-002	-3.025808e-002
43658536.585	-3.494927e-002	-3.669639e-002	7.098888e-001	-7.024509e-001	7.100118e-001	-7.019702e-001	-4.024859e-002	-3.028558e-002
43689806.129	-3.495516e-002	-3.671369e-002	7.094267e-001	-7.028521e-001	7.096758e-001	-7.023499e-001	-4.027657e-002	-3.033954e-002
43721075.672	-3.513762e-002	-3.656464e-002	7.090587e-001	-7.031773e-001	7.092704e-001	-7.027827e-001	-4.030992e-002	-3.033451e-002
43752345.216	-3.507530e-002	-3.670893e-002	7.088589e-001	-7.037092e-001	7.087939e-001	-7.032550e-001	-4.034292e-002	-3.026356e-002
43783614.759	-3.511774e-002	-3.672697e-002	7.082764e-001	-7.040426e-001	7.085546e-001	-7.036020e-001	-4.041348e-002	-3.033044e-002
43814884.303	-3.528474e-002	-3.667978e-002	7.080101e-001	-7.044263e-001	7.081178e-001	-7.039241e-001	-4.050019e-002	-3.024474e-002
43846153.846	-3.519953e-002	-3.673332e-002	7.076781e-001	-7.048054e-001	7.078671e-001	-7.043795e-001	-4.055807e-002	-3.026678e-002
43877423.390	-3.528350e-002	-3.673699e-002	7.070857e-001	-7.053989e-001	7.073147e-001	-7.047649e-001	-4.052767e-002	-3.027040e-002
43908692.933	-3.537767e-002	-3.664771e-002	7.066428e-001	-7.057841e-001	7.070722e-001	-7.050649e-001	-4.063943e-002	-3.020214e-002
43939962.477	-3.541678e-002	-3.666809e-002	7.064583e-001	-7.061420e-001	7.066073e-001	-7.055781e-001	-4.067508e-002	-3.023206e-002
43971232.020	-3.542056e-002	-3.673364e-002	7.058994e-001	-7.064566e-001	7.061372e-001	-7.060052e-001	-4.070069e-002	-3.023447e-002
44002501.563	-3.546205e-002	-3.676945e-002	7.054693e-001	-7.067260e-001	7.058310e-001	-7.061902e-001	-4.075751e-002	-3.015694e-002
44033771.107	-3.547791e-002	-3.676342e-002	7.051330e-001	-7.073274e-001	7.054116e-001	-7.066067e-001	-4.080856e-002	-3.020032e-002
44065040.650	-3.551173e-002	-3.666029e-002	7.048064e-001	-7.076565e-001	7.050229e-001	-7.071080e-001	-4.079470e-002	-3.014066e-002
44096310.194	-3.563815e-002	-3.674132e-002	7.044844e-001	-7.080041e-001	7.045531e-001	-7.074363e-001	-4.088491e-002	-3.021234e-002
44127579.737	-3.565691e-002	-3.677672e-002	7.040101e-001	-7.084344e-001	7.042093e-001	-7.077627e-001	-4.092449e-002	-3.022086e-002
44158849.281	-3.566306e-002	-3.675584e-002	7.035895e-001	-7.087503e-001	7.039074e-001	-7.082987e-001	-4.097418e-002	-3.020903e-002
44190118.824	-3.575100e-002	-3.675703e-002	7.031660e-001	-7.091796e-001	7.035149e-001	-7.087328e-001	-4.104806e-002	-3.018785e-002
44221388.368	-3.581452e-002	-3.677589e-002	7.029047e-001	-7.096281e-001	7.029260e-001	-7.090643e-001	-4.118799e-002	-3.016226e-002
44252657.911	-3.585320e-002	-3.675830e-002	7.023986e-001	-7.099620e-001	7.025908e-001	-7.095325e-001	-4.108255e-002	-3.019558e-002
44283927.455	-3.589527e-002	-3.679057e-002	7.019789e-001	-7.102849e-001	7.022434e-001	-7.098490e-001	-4.129505e-002	-3.023816e-002
44315196.998	-3.593632e-002	-3.678010e-002	7.017079e-001	-7.108108e-001	7.018562e-001	-7.102326e-001	-4.120973e-002	-3.023435e-002
44346466.542	-3.596567e-002	-3.680340e-002	7.011689e-001	-7.111859e-001	7.013986e-001	-7.106614e-001	-4.134867e-002	-3.016509e-002
44377736.085	-3.600564e-002	-3.678288e-002	7.008100e-001	-7.113425e-001	7.008826e-001	-7.109640e-001	-4.147077e-002	-3.012700e-002
44409005.629	-3.601797e-002	-3.672021e-002	7.003247e-001	-7.119943e-001	7.005046e-001	-7.113165e-001	-4.141851e-002	-3.016075e-002
44440275.172	-3.605004e-002	-3.687883e-002	6.999062e-001	-7.122424e-001	7.002496e-001	-7.117841e-001	-4.149635e-002	-3.011362e-002
44471544.715	-3.614524e-002	-3.686972e-002	6.995077e-001	-7.126920e-001	6.998887e-001	-7.121685e-001	-4.148470e-002	-3.010744e-002
44502814.259	-3.607514e-002	-3.689671e-002	6.991886e-001	-7.128723e-001	6.992547e-001	-7.125748e-001	-4.151054e-002	-3.011333e-002
44534083.802	-3.623702e-002	-3.681361e-002	6.986833e-001	-7.135472e-001	6.989497e-001	-7.129139e-001	-4.158244e-002	-3.017603e-002
44565353.346	-3.629131e-002	-3.681339e-002	6.983795e-001	-7.139135e-001	6.986720e-001	-7.132779e-001	-4.170695e-002	-3.001677e-002
44596622.889	-3.633724e-002	-3.686981e-002	6.979918e-001	-7.141882e-001	6.982387e-001	-7.136630e-001	-4.170211e-002	-3.007817e-002
44627892.433	-3.632665e-002	-3.685705e-002	6.975736e-001	-7.145683e-001	6.977661e-001	-7.140846e-001	-4.181986e-002	-3.015401e-002
44659161.976	-3.640813e-002	-3.682279e-002	6.970200e-001	-7.150052e-001	6.974499e-001	-7.144481e-001	-4.182572e-002	-3.006704e-002
44690431.520	-3.641220e-002	-3.693641e-002	6.967980e-001	-7.154242e-001	6.969670e-001	-7.148488e-001	-4.188172e-002	-3.006402e-002
