!Agilent Technologies,E5061B,MY49102235,A.02.00
!Date: Mon Jul 03 11:18:48 2023
!Data & Calibration Information:
!Freq	S11:SOLT2(ON)	S21:SOLT2(ON)	S12:SOLT2(ON)	S22:SOLT2(ON)
# Hz S RI R 50
40000000.000	8.843859e-002	-9.013388e-003	6.355073e-001	-6.806795e-001	6.356329e-001	-6.799339e-001	8.568460e-002	-1.374148e-002
40031269.543	8.846770e-002	-9.139888e-003	6.351445e-001	-6.810387e-001	6.352538e-001	-6.801777e-001	8.574346e-002	-1.380157e-002
40062539.087	8.846374e-002	-9.208772e-003	6.344511e-001	-6.811293e-001	6.347772e-001	-6.804982e-001	8.577059e-002	-1.395158e-002
40093808.630	8.847717e-002	-9.268548e-003	6.340968e-001	-6.816248e-001	6.343278e-001	-6.810286e-001	8.578180e-002	-1.398036e-002
40125078.174	8.849030e-002	-9.310510e-003	6.337216e-001	-6.819034e-001	6.337701e-001	-6.812555e-001	8.586618e-002	-1.398648e-002
40156347.717	8.858715e-002	-9.459126e-003	6.333458e-001	-6.823809e-001	6.333731e-001	-6.817304e-001	8.579843e-002	-1.415084e-002
40187617.261	8.858464e-002	-9.570374e-003	6.329343e-001	-6.825583e-001	6.331102e-001	-6.821205e-001	8.583153e-002	-1.433884e-002
40218886.804	8.865223e-002	-9.599263e-003	6.324429e-001	-6.831124e-001	6.325151e-001	-6.822825e-001	8.589233e-002	-1.438262e-002
40250156.348	8.865770e-002	-9.658500e-003	6.320433e-001	-6.833035e-001	6.321656e-001	-6.827552e-001	8.581220e-002	-1.448233e-002
40281425.891	8.866761e-002	-9.785611e-003	6.315812e-001	-6.837293e-001	6.316819e-001	-6.830326e-001	8.588084e-002	-1.451068e-002
40312695.435	8.873436e-002	-9.867868e-003	6.310838e-001	-6.842255e-001	6.312801e-001	-6.833253e-001	8.593054e-002	-1.463603e-002
40343964.978	8.876495e-002	-9.895117e-003	6.306970e-001	-6.842914e-001	6.308222e-001	-6.836851e-001	8.592051e-002	-1.465382e-002
40375234.522	8.881783e-002	-9.983007e-003	6.301183e-001	-6.847203e-001	6.304566e-001	-6.839895e-001	8.591291e-002	-1.477023e-002
40406504.065	8.876728e-002	-1.001537e-002	6.296390e-001	-6.849394e-001	6.299393e-001	-6.844942e-001	8.598847e-002	-1.492570e-002
40437773.609	8.876502e-002	-1.019762e-002	6.295217e-001	-6.853656e-001	6.296042e-001	-6.846939e-001	8.597695e-002	-1.504787e-002
40469043.152	8.886865e-002	-1.027150e-002	6.289468e-001	-6.856981e-001	6.291906e-001	-6.850366e-001	8.599028e-002	-1.503313e-002
40500312.695	8.883206e-002	-1.041897e-002	6.283397e-001	-6.861218e-001	6.287228e-001	-6.854145e-001	8.597091e-002	-1.510257e-002
40531582.239	8.891166e-002	-1.042504e-002	6.279722e-001	-6.861476e-001	6.281090e-001	-6.859846e-001	8.598044e-002	-1.517286e-002
40562851.782	8.891327e-002	-1.045693e-002	6.274816e-001	-6.866532e-001	6.276726e-001	-6.860947e-001	8.607648e-002	-1.542152e-002
40594121.326	8.897087e-002	-1.061136e-002	6.272749e-001	-6.871521e-001	6.273264e-001	-6.863825e-001	8.609435e-002	-1.536613e-002
40625390.869	8.900618e-002	-1.062066e-002	6.268038e-001	-6.873980e-001	6.270709e-001	-6.869176e-001	8.604254e-002	-1.554173e-002
40656660.413	8.901190e-002	-1.073680e-002	6.262798e-001	-6.877514e-001	6.266091e-001	-6.870694e-001	8.609795e-002	-1.556851e-002
40687929.956	8.908320e-002	-1.078735e-002	6.260762e-001	-6.882916e-001	6.261845e-001	-6.874174e-001	8.610731e-002	-1.568505e-002
40719199.500	8.907748e-002	-1.082509e-002	6.253351e-001	-6.883311e-001	6.255674e-001	-6.879876e-001	8.620068e-002	-1.578731e-002
40750469.043	8.909156e-002	-1.095524e-002	6.248760e-001	-6.885936e-001	6.251535e-001	-6.882275e-001	8.605747e-002	-1.582822e-002
40781738.587	8.917473e-002	-1.113635e-002	6.245608e-001	-6.891896e-001	6.247217e-001	-6.886110e-001	8.606318e-002	-1.591275e-002
40813008.130	8.912969e-002	-1.116896e-002	6.242823e-001	-6.894246e-001	6.241638e-001	-6.889498e-001	8.613149e-002	-1.600184e-002
40844277.674	8.919868e-002	-1.117855e-002	6.236384e-001	-6.897710e-001	6.237774e-001	-6.892367e-001	8.610058e-002	-1.607038e-002
40875547.217	8.921975e-002	-1.132432e-002	6.231394e-001	-6.902169e-001	6.234965e-001	-6.894744e-001	8.616303e-002	-1.619547e-002
40906816.760	8.925960e-002	-1.134528e-002	6.229175e-001	-6.905240e-001	6.229370e-001	-6.898194e-001	8.627362e-002	-1.630723e-002
40938086.304	8.920276e-002	-1.148590e-002	6.221840e-001	-6.908858e-001	6.226319e-001	-6.902779e-001	8.616806e-002	-1.636348e-002
40969355.847	8.924342e-002	-1.149990e-002	6.217423e-001	-6.910879e-001	6.220943e-001	-6.905568e-001	8.619501e-002	-1.641817e-002
41000625.391	8.928002e-002	-1.157035e-002	6.212438e-001	-6.913554e-001	6.215141e-001	-6.908156e-001	8.623854e-002	-1.651561e-002
41031894.934	8.948608e-002	-1.162902e-002	6.211081e-001	-6.917218e-001	6.211621e-001	-6.913374e-001	8.622407e-002	-1.658980e-002
41063164.478	8.936700e-002	-1.174361e-002	6.206312e-001	-6.921710e-001	6.208137e-001	-6.916170e-001	8.627316e-002	-1.673183e-002
41094434.021	8.936516e-002	-1.186824e-002	6.201570e-001	-6.924280e-001	6.202844e-001	-6.918344e-001	8.625645e-002	-1.680859e-002
41125703.565	8.943236e-002	-1.195262e-002	6.197527e-001	-6.928273e-001	6.199741e-001	-6.921548e-001	8.625586e-002	-1.684393e-002
41156973.108	8.949380e-002	-1.206085e-002	6.193550e-001	-6.929747e-001	6.193130e-001	-6.925710e-001	8.627106e-002	-1.697515e-002
41188242.652	8.949335e-002	-1.203189e-002	6.188225e-001	-6.936512e-001	6.189991e-001	-6.929036e-001	8.637850e-002	-1.710366e-002
41219512.195	8.953760e-002	-1.224571e-002	6.183684e-001	-6.938940e-001	6.184843e-001	-6.932346e-001	8.631247e-002	-1.720969e-002
41250781.739	8.950232e-002	-1.226650e-002	6.177029e-001	-6.943544e-001	6.180575e-001	-6.936130e-001	8.636469e-002	-1.722665e-002
41282051.282	8.954589e-002	-1.240879e-002	6.174802e-001	-6.945525e-001	6.176072e-001	-6.939129e-001	8.629861e-002	-1.736994e-002
41313320.826	8.955871e-002	-1.237682e-002	6.169247e-001	-6.947775e-001	6.171951e-001	-6.942180e-001	8.636416e-002	-1.745679e-002
41344590.369	8.954225e-002	-1.256039e-002	6.164634e-001	-6.949466e-001	6.168075e-001	-6.946791e-001	8.642724e-002	-1.746772e-002
41375859.912	8.951321e-002	-1.256163e-002	6.161465e-001	-6.955035e-001	6.160771e-001	-6.948499e-001	8.643338e-002	-1.760311e-002
41407129.456	8.961068e-002	-1.268054e-002	6.157939e-001	-6.957015e-001	6.157857e-001	-6.951200e-001	8.635835e-002	-1.760763e-002
41438398.999	8.965978e-002	-1.283207e-002	6.153833e-001	-6.962666e-001	6.154883e-001	-6.955521e-001	8.638319e-002	-1.772269e-002
41469668.543	8.965947e-002	-1.273012e-002	6.147498e-001	-6.965913e-001	6.149397e-001	-6.960297e-001	8.643135e-002	-1.784129e-002
41500938.086	8.969156e-002	-1.294192e-002	6.144080e-001	-6.967770e-001	6.146294e-001	-6.962177e-001	8.641875e-002	-1.798117e-002
41532207.630	8.974330e-002	-1.302201e-002	6.139203e-001	-6.971401e-001	6.141637e-001	-6.965800e-001	8.645804e-002	-1.804246e-002
41563477.173	8.978669e-002	-1.314108e-002	6.134274e-001	-6.975632e-001	6.136554e-001	-6.968056e-001	8.651964e-002	-1.816185e-002
41594746.717	8.985821e-002	-1.321114e-002	6.129439e-001	-6.978292e-001	6.132148e-001	-6.972420e-001	8.648548e-002	-1.816111e-002
41626016.260	8.968889e-002	-1.329779e-002	6.125871e-001	-6.981789e-001	6.127798e-001	-6.975575e-001	8.648395e-002	-1.826897e-002
41657285.804	8.984949e-002	-1.341121e-002	6.121782e-001	-6.985502e-001	6.123292e-001	-6.978387e-001	8.653661e-002	-1.837622e-002
41688555.347	8.989623e-002	-1.343054e-002	6.116806e-001	-6.988405e-001	6.118940e-001	-6.982903e-001	8.654077e-002	-1.846132e-002
41719824.891	8.993888e-002	-1.346001e-002	6.112670e-001	-6.992255e-001	6.114375e-001	-6.984969e-001	8.653958e-002	-1.850089e-002
41751094.434	8.987983e-002	-1.345432e-002	6.108366e-001	-6.994369e-001	6.109121e-001	-6.990644e-001	8.657616e-002	-1.869927e-002
41782363.977	9.000126e-002	-1.369059e-002	6.104563e-001	-6.998576e-001	6.106271e-001	-6.992115e-001	8.645198e-002	-1.871363e-002
41813633.521	8.994667e-002	-1.376719e-002	6.098427e-001	-7.000369e-001	6.102186e-001	-6.995409e-001	8.663480e-002	-1.876812e-002
41844903.064	8.996378e-002	-1.381650e-002	6.096254e-001	-7.003768e-001	6.096333e-001	-6.999294e-001	8.655610e-002	-1.888238e-002
41876172.608	9.000864e-002	-1.394457e-002	6.088515e-001	-7.007798e-001	6.093516e-001	-7.002924e-001	8.651267e-002	-1.892002e-002
41907442.151	8.999320e-002	-1.396189e-002	6.085722e-001	-7.010848e-001	6.088523e-001	-7.006646e-001	8.654454e-002	-1.903716e-002
41938711.695	9.012284e-002	-1.408983e-002	6.080635e-001	-7.014592e-001	6.084344e-001	-7.008393e-001	8.666469e-002	-1.918001e-002
41969981.238	9.009394e-002	-1.423199e-002	6.076958e-001	-7.017863e-001	6.078294e-001	-7.013500e-001	8.668687e-002	-1.923486e-002
42001250.782	9.014497e-002	-1.420416e-002	6.072517e-001	-7.021491e-001	6.074714e-001	-7.013822e-001	8.666582e-002	-1.932086e-002
42032520.325	9.017910e-002	-1.427759e-002	6.067610e-001	-7.024858e-001	6.072030e-001	-7.017446e-001	8.662079e-002	-1.939441e-002
42063789.869	9.013963e-002	-1.440687e-002	6.063984e-001	-7.027606e-001	6.064831e-001	-7.022982e-001	8.660291e-002	-1.949443e-002
42095059.412	9.019953e-002	-1.449897e-002	6.059016e-001	-7.030905e-001	6.062165e-001	-7.025967e-001	8.666070e-002	-1.951526e-002
42126328.956	9.016808e-002	-1.456668e-002	6.054752e-001	-7.033039e-001	6.056016e-001	-7.028248e-001	8.662805e-002	-1.967298e-002
42157598.499	9.027563e-002	-1.468931e-002	6.049842e-001	-7.037306e-001	6.051509e-001	-7.032817e-001	8.669005e-002	-1.973201e-002
42188868.043	9.026818e-002	-1.478971e-002	6.047007e-001	-7.039363e-001	6.048066e-001	-7.035423e-001	8.667063e-002	-1.980250e-002
42220137.586	9.036182e-002	-1.483387e-002	6.040739e-001	-7.044581e-001	6.043240e-001	-7.037504e-001	8.668076e-002	-1.992933e-002
42251407.129	9.031732e-002	-1.494033e-002	6.037664e-001	-7.048578e-001	6.038339e-001	-7.042153e-001	8.666410e-002	-1.994783e-002
42282676.673	9.036976e-002	-1.502067e-002	6.032012e-001	-7.050333e-001	6.033541e-001	-7.044488e-001	8.673029e-002	-2.008145e-002
42313946.216	9.036428e-002	-1.504823e-002	6.028285e-001	-7.054753e-001	6.030265e-001	-7.048955e-001	8.672932e-002	-2.017843e-002
42345215.760	9.029786e-002	-1.520155e-002	6.023263e-001	-7.057637e-001	6.024626e-001	-7.052472e-001	8.665523e-002	-2.020526e-002
42376485.303	9.036487e-002	-1.528977e-002	6.018462e-001	-7.060948e-001	6.020182e-001	-7.054392e-001	8.675265e-002	-2.028706e-002
42407754.847	9.043233e-002	-1.533830e-002	6.013559e-001	-7.063286e-001	6.016017e-001	-7.058269e-001	8.677519e-002	-2.039773e-002
42439024.390	9.039686e-002	-1.546395e-002	6.009765e-001	-7.067151e-001	6.011777e-001	-7.060025e-001	8.673491e-002	-2.053936e-002
42470293.934	9.049122e-002	-1.556655e-002	6.005520e-001	-7.070409e-001	6.007919e-001	-7.064546e-001	8.677911e-002	-2.062521e-002
42501563.477	9.047430e-002	-1.554228e-002	6.001658e-001	-7.072854e-001	6.003715e-001	-7.069126e-001	8.683586e-002	-2.071079e-002
42532833.021	9.056587e-002	-1.566846e-002	5.997093e-001	-7.075893e-001	5.999722e-001	-7.072822e-001	8.672840e-002	-2.079121e-002
42564102.564	9.052888e-002	-1.575820e-002	5.991810e-001	-7.081133e-001	5.993943e-001	-7.075001e-001	8.677331e-002	-2.090567e-002
42595372.108	9.059815e-002	-1.582440e-002	5.986246e-001	-7.084234e-001	5.989436e-001	-7.079174e-001	8.672349e-002	-2.097008e-002
42626641.651	9.056130e-002	-1.605088e-002	5.983376e-001	-7.085869e-001	5.985234e-001	-7.080476e-001	8.675291e-002	-2.102836e-002
42657911.194	9.059264e-002	-1.602296e-002	5.978240e-001	-7.090103e-001	5.980845e-001	-7.084530e-001	8.680684e-002	-2.112287e-002
42689180.738	9.058197e-002	-1.605753e-002	5.974435e-001	-7.092935e-001	5.976046e-001	-7.088030e-001	8.675274e-002	-2.121570e-002
42720450.281	9.058813e-002	-1.622975e-002	5.968101e-001	-7.094152e-001	5.970904e-001	-7.090466e-001	8.684944e-002	-2.130057e-002
42751719.825	9.063444e-002	-1.638054e-002	5.964787e-001	-7.098827e-001	5.969216e-001	-7.093090e-001	8.688536e-002	-2.143692e-002
42782989.368	9.058171e-002	-1.636178e-002	5.960219e-001	-7.104236e-001	5.962741e-001	-7.097737e-001	8.682806e-002	-2.144186e-002
42814258.912	9.071930e-002	-1.645439e-002	5.957588e-001	-7.106065e-001	5.958634e-001	-7.100663e-001	8.683842e-002	-2.168311e-002
42845528.455	9.069089e-002	-1.649245e-002	5.951072e-001	-7.110099e-001	5.954251e-001	-7.103905e-001	8.688530e-002	-2.164091e-002
42876797.999	9.077397e-002	-1.664868e-002	5.947862e-001	-7.111200e-001	5.949043e-001	-7.107762e-001	8.683873e-002	-2.180851e-002
42908067.542	9.070983e-002	-1.670598e-002	5.942767e-001	-7.113588e-001	5.946056e-001	-7.109150e-001	8.683710e-002	-2.194722e-002
42939337.086	9.083512e-002	-1.677938e-002	5.938195e-001	-7.117770e-001	5.938868e-001	-7.112952e-001	8.690031e-002	-2.201437e-002
42970606.629	9.077926e-002	-1.691820e-002	5.933163e-001	-7.121598e-001	5.934967e-001	-7.116481e-001	8.681695e-002	-2.214216e-002
43001876.173	9.080445e-002	-1.698762e-002	5.929278e-001	-7.125571e-001	5.931215e-001	-7.120403e-001	8.687332e-002	-2.206492e-002
43033145.716	9.093108e-002	-1.703666e-002	5.923103e-001	-7.128461e-001	5.926277e-001	-7.123737e-001	8.685303e-002	-2.218556e-002
43064415.260	9.091994e-002	-1.717495e-002	5.919129e-001	-7.130671e-001	5.922846e-001	-7.126545e-001	8.687148e-002	-2.234158e-002
43095684.803	9.087143e-002	-1.721375e-002	5.914628e-001	-7.134948e-001	5.917390e-001	-7.129481e-001	8.685520e-002	-2.242112e-002
43126954.346	9.098163e-002	-1.728486e-002	5.911011e-001	-7.137775e-001	5.912616e-001	-7.133102e-001	8.686827e-002	-2.241684e-002
43158223.890	9.095063e-002	-1.741272e-002	5.906634e-001	-7.139615e-001	5.907805e-001	-7.135723e-001	8.685797e-002	-2.250880e-002
43189493.433	9.095098e-002	-1.755921e-002	5.903144e-001	-7.145363e-001	5.902086e-001	-7.140072e-001	8.688680e-002	-2.257925e-002
43220762.977	9.100933e-002	-1.754616e-002	5.897727e-001	-7.147906e-001	5.899732e-001	-7.141461e-001	8.688397e-002	-2.277205e-002
43252032.520	9.096723e-002	-1.772614e-002	5.892424e-001	-7.150574e-001	5.894180e-001	-7.146383e-001	8.695074e-002	-2.288530e-002
43283302.064	9.098713e-002	-1.768500e-002	5.888202e-001	-7.153111e-001	5.889260e-001	-7.147737e-001	8.697443e-002	-2.290544e-002
43314571.607	9.096791e-002	-1.787821e-002	5.884350e-001	-7.156978e-001	5.887671e-001	-7.152014e-001	8.693432e-002	-2.289739e-002
43345841.151	9.106778e-002	-1.792777e-002	5.878634e-001	-7.159685e-001	5.881694e-001	-7.154893e-001	8.694490e-002	-2.301456e-002
43377110.694	9.101663e-002	-1.802670e-002	5.874874e-001	-7.162716e-001	5.875978e-001	-7.158589e-001	8.691171e-002	-2.314855e-002
43408380.238	9.111702e-002	-1.817495e-002	5.870970e-001	-7.167921e-001	5.871903e-001	-7.160619e-001	8.697801e-002	-2.326015e-002
43439649.781	9.112175e-002	-1.823782e-002	5.865194e-001	-7.169457e-001	5.866298e-001	-7.164712e-001	8.702081e-002	-2.336316e-002
43470919.325	9.108697e-002	-1.830342e-002	5.859893e-001	-7.173926e-001	5.864179e-001	-7.168775e-001	8.702744e-002	-2.335746e-002
43502188.868	9.111159e-002	-1.842842e-002	5.856556e-001	-7.176803e-001	5.857669e-001	-7.171032e-001	8.700140e-002	-2.346933e-002
43533458.412	9.120776e-002	-1.842720e-002	5.852115e-001	-7.177946e-001	5.853425e-001	-7.173184e-001	8.705010e-002	-2.363534e-002
43564727.955	9.113757e-002	-1.851260e-002	5.848047e-001	-7.181183e-001	5.849082e-001	-7.179084e-001	8.699392e-002	-2.373556e-002
43595997.498	9.118317e-002	-1.868463e-002	5.843029e-001	-7.184339e-001	5.843385e-001	-7.179878e-001	8.698687e-002	-2.377320e-002
43627267.042	9.119373e-002	-1.877669e-002	5.839611e-001	-7.188109e-001	5.839973e-001	-7.184129e-001	8.699521e-002	-2.381160e-002
43658536.585	9.124210e-002	-1.890143e-002	5.833956e-001	-7.190872e-001	5.835387e-001	-7.186615e-001	8.698978e-002	-2.393356e-002
43689806.129	9.131497e-002	-1.898933e-002	5.828567e-001	-7.194091e-001	5.831367e-001	-7.189605e-001	8.704838e-002	-2.406971e-002
43721075.672	9.122391e-002	-1.888947e-002	5.823882e-001	-7.196736e-001	5.826604e-001	-7.193283e-001	8.703810e-002	-2.417481e-002
43752345.216	9.133608e-002	-1.914713e-002	5.821796e-001	-7.201417e-001	5.821163e-001	-7.196906e-001	8.708102e-002	-2.420216e-002
43783614.759	9.134790e-002	-1.921877e-002	5.815400e-001	-7.203470e-001	5.818002e-001	-7.199408e-001	8.704493e-002	-2.435043e-002
43814884.303	9.127137e-002	-1.925197e-002	5.811608e-001	-7.206787e-001	5.813074e-001	-7.201877e-001	8.702952e-002	-2.436658e-002
43846153.846	9.137053e-002	-1.940440e-002	5.807742e-001	-7.209904e-001	5.809719e-001	-7.206029e-001	8.701255e-002	-2.447462e-002
43877423.390	9.136483e-002	-1.948035e-002	5.801291e-001	-7.214376e-001	5.803695e-001	-7.208498e-001	8.709116e-002	-2.457631e-002
43908692.933	9.134224e-002	-1.945615e-002	5.796125e-001	-7.217508e-001	5.800586e-001	-7.210985e-001	8.705793e-002	-2.459825e-002
43939962.477	9.136557e-002	-1.955817e-002	5.793884e-001	-7.220684e-001	5.795376e-001	-7.215435e-001	8.707149e-002	-2.473809e-002
43971232.020	9.141884e-002	-1.972444e-002	5.787719e-001	-7.222857e-001	5.790291e-001	-7.218546e-001	8.708441e-002	-2.483856e-002
44002501.563	9.142582e-002	-1.983731e-002	5.783080e-001	-7.224852e-001	5.786425e-001	-7.219675e-001	8.711356e-002	-2.484786e-002
44033771.107	9.148333e-002	-1.992088e-002	5.778923e-001	-7.229781e-001	5.781840e-001	-7.223171e-001	8.708633e-002	-2.498862e-002
44065040.650	9.151231e-002	-1.990862e-002	5.775109e-001	-7.232446e-001	5.777355e-001	-7.227024e-001	8.718295e-002	-2.503479e-002
44096310.194	9.143115e-002	-2.003531e-002	5.771003e-001	-7.235187e-001	5.772059e-001	-7.229619e-001	8.710782e-002	-2.518605e-002
44127579.737	9.148559e-002	-2.017025e-002	5.765771e-001	-7.238507e-001	5.768359e-001	-7.232007e-001	8.711859e-002	-2.529322e-002
44158849.281	9.153392e-002	-2.023213e-002	5.761263e-001	-7.240810e-001	5.764110e-001	-7.236695e-001	8.712038e-002	-2.537877e-002
44190118.824	9.151904e-002	-2.032119e-002	5.756191e-001	-7.244286e-001	5.759418e-001	-7.240377e-001	8.709939e-002	-2.544900e-002
44221388.368	9.147910e-002	-2.039653e-002	5.752822e-001	-7.248121e-001	5.753470e-001	-7.242403e-001	8.705773e-002	-2.550644e-002
44252657.911	9.154008e-002	-2.047473e-002	5.747458e-001	-7.250709e-001	5.749149e-001	-7.246512e-001	8.718390e-002	-2.565392e-002
44283927.455	9.155165e-002	-2.059295e-002	5.742860e-001	-7.252844e-001	5.745385e-001	-7.248820e-001	8.701754e-002	-2.576656e-002
44315196.998	9.156167e-002	-2.065025e-002	5.739100e-001	-7.257490e-001	5.741119e-001	-7.251525e-001	8.714914e-002	-2.585054e-002
44346466.542	9.158841e-002	-2.075413e-002	5.733360e-001	-7.260113e-001	5.735950e-001	-7.255245e-001	8.708299e-002	-2.588812e-002
44377736.085	9.161529e-002	-2.081379e-002	5.728947e-001	-7.261238e-001	5.730003e-001	-7.257605e-001	8.703176e-002	-2.593075e-002
44409005.629	9.166639e-002	-2.087583e-002	5.723520e-001	-7.266468e-001	5.726039e-001	-7.259925e-001	8.713255e-002	-2.607228e-002
44440275.172	9.166427e-002	-2.108705e-002	5.719005e-001	-7.268287e-001	5.722674e-001	-7.264279e-001	8.710499e-002	-2.613400e-002
44471544.715	9.167109e-002	-2.115967e-002	5.714426e-001	-7.272054e-001	5.718147e-001	-7.266865e-001	8.717980e-002	-2.622683e-002
44502814.259	9.175732e-002	-2.127119e-002	5.710884e-001	-7.272965e-001	5.711544e-001	-7.269999e-001	8.720434e-002	-2.633455e-002
44534083.802	9.167223e-002	-2.126145e-002	5.705001e-001	-7.278566e-001	5.707915e-001	-7.272679e-001	8.714154e-002	-2.648640e-002
44565353.346	9.169401e-002	-2.134491e-002	5.700939e-001	-7.281579e-001	5.704234e-001	-7.275821e-001	8.712003e-002	-2.641439e-002
44596622.889	9.167713e-002	-2.148156e-002	5.696942e-001	-7.283937e-001	5.699292e-001	-7.278886e-001	8.715582e-002	-2.657977e-002
44627892.433	9.177846e-002	-2.156240e-002	5.692300e-001	-7.286641e-001	5.694444e-001	-7.282360e-001	8.707025e-002	-2.672875e-002
44659161.976	9.176582e-002	-2.160614e-002	5.686080e-001	-7.289968e-001	5.690370e-001	-7.284791e-001	8.714032e-002	-2.675777e-002
44690431.520	9.179514e-002	-2.181889e-002	5.682976e-001	-7.293201e-001	5.685264e-001	-7.287876e-001	8.714702e-002	-2.684351e-002
44721701.063	9.181001e-002	-2.182230e-002	5.679605e-001	-7.296101e-001	5.680678e-001	-7.292605e-001	8.717632e-002	-2.687599e-002
44752970.607	9.173320e-002	-2.200396e-002	5.673689e-001	-7.299178e-001	5.674951e-001	-7.296050e-001	8.719846e-002	-2.706637e-002
