!Agilent Technologies,E5061B,MY49102235,A.02.00
!Date: Mon Jul 03 11:21:38 2023
!Data & Calibration Information:
!Freq	S11:SOLT2(ON)	S21:SOLT2(ON)	S12:SOLT2(ON)	S22:SOLT2(ON)
# Hz S RI R 50
40000000.000	-3.166388e-002	-3.788549e-002	7.561023e-001	-6.528635e-001	7.562117e-001	-6.519663e-001	-3.632264e-002	-3.241202e-002
40031269.543	-3.170863e-002	-3.795331e-002	7.558084e-001	-6.532563e-001	7.559334e-001	-6.522563e-001	-3.634955e-002	-3.239086e-002
40062539.087	-3.177566e-002	-3.795612e-002	7.551818e-001	-6.534455e-001	7.554723e-001	-6.526881e-001	-3.634902e-002	-3.242520e-002
40093808.630	-3.183208e-002	-3.794175e-002	7.548911e-001	-6.539907e-001	7.551233e-001	-6.532999e-001	-3.643925e-002	-3.238689e-002
40125078.174	-3.190436e-002	-3.792778e-002	7.545491e-001	-6.543555e-001	7.546462e-001	-6.536176e-001	-3.642597e-002	-3.231260e-002
40156347.717	-3.187643e-002	-3.796517e-002	7.543079e-001	-6.549284e-001	7.543079e-001	-6.542045e-001	-3.654858e-002	-3.238652e-002
40187617.261	-3.195422e-002	-3.803921e-002	7.539026e-001	-6.551854e-001	7.541040e-001	-6.545817e-001	-3.657772e-002	-3.251321e-002
40218886.804	-3.196312e-002	-3.798283e-002	7.535226e-001	-6.557828e-001	7.536116e-001	-6.548522e-001	-3.658063e-002	-3.245813e-002
40250156.348	-3.203137e-002	-3.799184e-002	7.532087e-001	-6.560286e-001	7.533104e-001	-6.553736e-001	-3.671367e-002	-3.248768e-002
40281425.891	-3.209234e-002	-3.802743e-002	7.528075e-001	-6.565317e-001	7.529114e-001	-6.557484e-001	-3.673536e-002	-3.243764e-002
40312695.435	-3.210350e-002	-3.802222e-002	7.523912e-001	-6.571281e-001	7.525638e-001	-6.561391e-001	-3.672559e-002	-3.244114e-002
40343964.978	-3.214114e-002	-3.796364e-002	7.520686e-001	-6.572334e-001	7.521736e-001	-6.565758e-001	-3.683267e-002	-3.239383e-002
40375234.522	-3.216102e-002	-3.797471e-002	7.515945e-001	-6.577888e-001	7.518801e-001	-6.569321e-001	-3.688738e-002	-3.241598e-002
40406504.065	-3.227135e-002	-3.795941e-002	7.511335e-001	-6.580411e-001	7.514490e-001	-6.575382e-001	-3.687206e-002	-3.249411e-002
40437773.609	-3.237321e-002	-3.808556e-002	7.510964e-001	-6.585185e-001	7.511687e-001	-6.577880e-001	-3.692750e-002	-3.249506e-002
40469043.152	-3.230213e-002	-3.807484e-002	7.506023e-001	-6.589656e-001	7.508433e-001	-6.582212e-001	-3.703699e-002	-3.242931e-002
40500312.695	-3.240614e-002	-3.815495e-002	7.500153e-001	-6.594831e-001	7.504301e-001	-6.586746e-001	-3.708879e-002	-3.240482e-002
40531582.239	-3.241886e-002	-3.806412e-002	7.497366e-001	-6.595738e-001	7.499217e-001	-6.593314e-001	-3.716018e-002	-3.239579e-002
40562851.782	-3.248230e-002	-3.803441e-002	7.492763e-001	-6.601536e-001	7.494964e-001	-6.595222e-001	-3.710061e-002	-3.254608e-002
40594121.326	-3.250110e-002	-3.809222e-002	7.491938e-001	-6.607054e-001	7.492400e-001	-6.598518e-001	-3.718287e-002	-3.240856e-002
40625390.869	-3.253437e-002	-3.804579e-002	7.488133e-001	-6.610399e-001	7.490775e-001	-6.604525e-001	-3.728054e-002	-3.249664e-002
40656660.413	-3.259406e-002	-3.808996e-002	7.483653e-001	-6.614579e-001	7.486807e-001	-6.606590e-001	-3.729599e-002	-3.244359e-002
40687929.956	-3.261942e-002	-3.808340e-002	7.482511e-001	-6.620858e-001	7.483371e-001	-6.611015e-001	-3.734161e-002	-3.246871e-002
40719199.500	-3.268662e-002	-3.802524e-002	7.475293e-001	-6.622125e-001	7.477964e-001	-6.617869e-001	-3.732453e-002	-3.248046e-002
40750469.043	-3.275040e-002	-3.807992e-002	7.471253e-001	-6.625007e-001	7.474196e-001	-6.620261e-001	-3.752420e-002	-3.244958e-002
40781738.587	-3.269963e-002	-3.819299e-002	7.468861e-001	-6.632020e-001	7.470594e-001	-6.625065e-001	-3.759213e-002	-3.245191e-002
40813008.130	-3.283076e-002	-3.814707e-002	7.467054e-001	-6.634764e-001	7.466017e-001	-6.629397e-001	-3.758593e-002	-3.245060e-002
40844277.674	-3.283468e-002	-3.808934e-002	7.461222e-001	-6.639514e-001	7.462727e-001	-6.632795e-001	-3.770914e-002	-3.245419e-002
40875547.217	-3.287383e-002	-3.817153e-002	7.456797e-001	-6.644576e-001	7.460654e-001	-6.635739e-001	-3.768864e-002	-3.245635e-002
40906816.760	-3.293069e-002	-3.810279e-002	7.455360e-001	-6.648093e-001	7.455625e-001	-6.640350e-001	-3.763511e-002	-3.249147e-002
40938086.304	-3.304255e-002	-3.817516e-002	7.449082e-001	-6.652854e-001	7.453411e-001	-6.645656e-001	-3.782049e-002	-3.247282e-002
40969355.847	-3.309343e-002	-3.813985e-002	7.445023e-001	-6.655392e-001	7.448647e-001	-6.649243e-001	-3.786777e-002	-3.243461e-002
41000625.391	-3.311758e-002	-3.811239e-002	7.440796e-001	-6.659226e-001	7.443439e-001	-6.652761e-001	-3.784968e-002	-3.243713e-002
41031894.934	-3.299558e-002	-3.807265e-002	7.440314e-001	-6.663273e-001	7.440750e-001	-6.658691e-001	-3.795472e-002	-3.244997e-002
41063164.478	-3.316675e-002	-3.812949e-002	7.435913e-001	-6.668441e-001	7.438350e-001	-6.662444e-001	-3.796517e-002	-3.248838e-002
41094434.021	-3.322769e-002	-3.818836e-002	7.431875e-001	-6.671900e-001	7.433225e-001	-6.665119e-001	-3.805065e-002	-3.245983e-002
41125703.565	-3.323706e-002	-3.819425e-002	7.428788e-001	-6.676725e-001	7.430978e-001	-6.668673e-001	-3.810832e-002	-3.244100e-002
41156973.108	-3.323604e-002	-3.822594e-002	7.425356e-001	-6.678739e-001	7.424934e-001	-6.674378e-001	-3.816101e-002	-3.245987e-002
41188242.652	-3.331992e-002	-3.812021e-002	7.421080e-001	-6.686427e-001	7.422449e-001	-6.677823e-001	-3.811138e-002	-3.250861e-002
41219512.195	-3.332497e-002	-3.825788e-002	7.416692e-001	-6.689633e-001	7.417865e-001	-6.681887e-001	-3.823193e-002	-3.253717e-002
41250781.739	-3.344501e-002	-3.822988e-002	7.411060e-001	-6.695378e-001	7.414225e-001	-6.686607e-001	-3.825102e-002	-3.246892e-002
41282051.282	-3.343530e-002	-3.827943e-002	7.409176e-001	-6.697786e-001	7.410316e-001	-6.690335e-001	-3.837619e-002	-3.251228e-002
41313320.826	-3.353431e-002	-3.817504e-002	7.404433e-001	-6.700624e-001	7.407491e-001	-6.694090e-001	-3.840357e-002	-3.251018e-002
41344590.369	-3.360154e-002	-3.828133e-002	7.400043e-001	-6.703191e-001	7.404226e-001	-6.699457e-001	-3.838869e-002	-3.242795e-002
41375859.912	-3.370709e-002	-3.822318e-002	7.397921e-001	-6.709327e-001	7.397316e-001	-6.702472e-001	-3.844485e-002	-3.248146e-002
41407129.456	-3.366473e-002	-3.824950e-002	7.395308e-001	-6.712036e-001	7.395170e-001	-6.705204e-001	-3.859487e-002	-3.241103e-002
41438398.999	-3.370202e-002	-3.833593e-002	7.392084e-001	-6.718817e-001	7.393194e-001	-6.710875e-001	-3.863597e-002	-3.243629e-002
41469668.543	-3.379598e-002	-3.815448e-002	7.386176e-001	-6.722423e-001	7.387880e-001	-6.716181e-001	-3.863518e-002	-3.246468e-002
41500938.086	-3.381727e-002	-3.828837e-002	7.383191e-001	-6.725511e-001	7.385725e-001	-6.718609e-001	-3.869154e-002	-3.254292e-002
41532207.630	-3.382009e-002	-3.829233e-002	7.379283e-001	-6.729921e-001	7.381338e-001	-6.722990e-001	-3.873451e-002	-3.248027e-002
41563477.173	-3.384403e-002	-3.833720e-002	7.374897e-001	-6.734890e-001	7.377197e-001	-6.726408e-001	-3.871511e-002	-3.252744e-002
41594746.717	-3.384566e-002	-3.831310e-002	7.371063e-001	-6.738399e-001	7.373662e-001	-6.731333e-001	-3.883219e-002	-3.244048e-002
41626016.260	-3.406158e-002	-3.836904e-002	7.367584e-001	-6.742326e-001	7.369604e-001	-6.735411e-001	-3.890442e-002	-3.244782e-002
41657285.804	-3.398525e-002	-3.835283e-002	7.364465e-001	-6.747053e-001	7.366100e-001	-6.739102e-001	-3.890287e-002	-3.246297e-002
41688555.347	-3.401121e-002	-3.832689e-002	7.360010e-001	-6.750383e-001	7.362624e-001	-6.744455e-001	-3.895965e-002	-3.245934e-002
41719824.891	-3.404246e-002	-3.826971e-002	7.357126e-001	-6.755204e-001	7.358553e-001	-6.747101e-001	-3.904414e-002	-3.241955e-002
41751094.434	-3.417134e-002	-3.820978e-002	7.353350e-001	-6.757913e-001	7.354046e-001	-6.753854e-001	-3.904441e-002	-3.252623e-002
41782363.977	-3.411194e-002	-3.835834e-002	7.349910e-001	-6.763067e-001	7.351692e-001	-6.755180e-001	-3.925697e-002	-3.246460e-002
41813633.521	-3.423771e-002	-3.836318e-002	7.344525e-001	-6.765715e-001	7.348216e-001	-6.759447e-001	-3.913968e-002	-3.240755e-002
41844903.064	-3.429992e-002	-3.833094e-002	7.342751e-001	-6.769514e-001	7.342953e-001	-6.764806e-001	-3.927962e-002	-3.244948e-002
41876172.608	-3.430389e-002	-3.835946e-002	7.336055e-001	-6.774969e-001	7.341338e-001	-6.768854e-001	-3.937381e-002	-3.241454e-002
41907442.151	-3.441098e-002	-3.830916e-002	7.333889e-001	-6.778299e-001	7.336872e-001	-6.773252e-001	-3.939903e-002	-3.244413e-002
41938711.695	-3.432663e-002	-3.835399e-002	7.329419e-001	-6.782920e-001	7.333041e-001	-6.775695e-001	-3.932304e-002	-3.248546e-002
41969981.238	-3.441771e-002	-3.844899e-002	7.326423e-001	-6.786782e-001	7.327745e-001	-6.782126e-001	-3.939262e-002	-3.241981e-002
42001250.782	-3.445256e-002	-3.833224e-002	7.322725e-001	-6.791700e-001	7.324815e-001	-6.783009e-001	-3.948072e-002	-3.242570e-002
42032520.325	-3.448607e-002	-3.831131e-002	7.318488e-001	-6.795443e-001	7.322809e-001	-6.786989e-001	-3.957710e-002	-3.241880e-002
42063789.869	-3.459837e-002	-3.837962e-002	7.315523e-001	-6.799110e-001	7.316307e-001	-6.793461e-001	-3.969225e-002	-3.243824e-002
42095059.412	-3.460418e-002	-3.839699e-002	7.311217e-001	-6.803706e-001	7.314552e-001	-6.797307e-001	-3.967691e-002	-3.237818e-002
42126328.956	-3.469700e-002	-3.839402e-002	7.307162e-001	-6.806166e-001	7.308885e-001	-6.800302e-001	-3.973822e-002	-3.242862e-002
42157598.499	-3.465324e-002	-3.843119e-002	7.303222e-001	-6.811076e-001	7.305218e-001	-6.806271e-001	-3.976258e-002	-3.240005e-002
42188868.043	-3.472422e-002	-3.844358e-002	7.300888e-001	-6.813965e-001	7.302165e-001	-6.809331e-001	-3.984185e-002	-3.238703e-002
42220137.586	-3.470793e-002	-3.841252e-002	7.295471e-001	-6.820048e-001	7.298263e-001	-6.812036e-001	-3.987907e-002	-3.242662e-002
42251407.129	-3.482742e-002	-3.846649e-002	7.293253e-001	-6.824604e-001	7.293774e-001	-6.817623e-001	-3.997479e-002	-3.235597e-002
42282676.673	-3.484392e-002	-3.845829e-002	7.288167e-001	-6.827534e-001	7.289529e-001	-6.820814e-001	-3.996299e-002	-3.237939e-002
42313946.216	-3.492595e-002	-3.841605e-002	7.285369e-001	-6.832358e-001	7.287309e-001	-6.825887e-001	-4.001708e-002	-3.238805e-002
42345215.760	-3.503655e-002	-3.851488e-002	7.280403e-001	-6.836058e-001	7.282519e-001	-6.830389e-001	-4.017289e-002	-3.234794e-002
42376485.303	-3.504205e-002	-3.850214e-002	7.276290e-001	-6.840452e-001	7.277999e-001	-6.833056e-001	-4.014635e-002	-3.231804e-002
42407754.847	-3.504427e-002	-3.844791e-002	7.271908e-001	-6.843495e-001	7.274939e-001	-6.837413e-001	-4.017388e-002	-3.233577e-002
42439024.390	-3.512304e-002	-3.851939e-002	7.268941e-001	-6.848084e-001	7.271013e-001	-6.840097e-001	-4.028256e-002	-3.242069e-002
42470293.934	-3.508986e-002	-3.852345e-002	7.265642e-001	-6.852130e-001	7.268108e-001	-6.845691e-001	-4.026953e-002	-3.239237e-002
42501563.477	-3.519357e-002	-3.843689e-002	7.262491e-001	-6.854956e-001	7.264539e-001	-6.850729e-001	-4.028303e-002	-3.238169e-002
42532833.021	-3.515999e-002	-3.847144e-002	7.258397e-001	-6.859588e-001	7.261123e-001	-6.855355e-001	-4.043013e-002	-3.239202e-002
42564102.564	-3.527537e-002	-3.849735e-002	7.254208e-001	-6.865089e-001	7.256055e-001	-6.858453e-001	-4.048424e-002	-3.241142e-002
42595372.108	-3.528908e-002	-3.848412e-002	7.249073e-001	-6.869317e-001	7.252596e-001	-6.863243e-001	-4.056906e-002	-3.238821e-002
42626641.651	-3.535490e-002	-3.861547e-002	7.246436e-001	-6.871215e-001	7.248936e-001	-6.865241e-001	-4.060496e-002	-3.237537e-002
42657911.194	-3.541047e-002	-3.852791e-002	7.242282e-001	-6.876651e-001	7.244957e-001	-6.870308e-001	-4.062593e-002	-3.236028e-002
42689180.738	-3.548753e-002	-3.849242e-002	7.239358e-001	-6.880054e-001	7.240927e-001	-6.874436e-001	-4.072422e-002	-3.239138e-002
42720450.281	-3.553729e-002	-3.857824e-002	7.232909e-001	-6.882176e-001	7.236360e-001	-6.877521e-001	-4.068179e-002	-3.235235e-002
42751719.825	-3.555138e-002	-3.865606e-002	7.230493e-001	-6.887939e-001	7.235322e-001	-6.880782e-001	-4.071123e-002	-3.238488e-002
42782989.368	-3.568500e-002	-3.857494e-002	7.226745e-001	-6.893873e-001	7.229462e-001	-6.886717e-001	-4.084977e-002	-3.231642e-002
42814258.912	-3.561360e-002	-3.856715e-002	7.224955e-001	-6.896251e-001	7.225804e-001	-6.890557e-001	-4.086269e-002	-3.247327e-002
42845528.455	-3.572871e-002	-3.853325e-002	7.219358e-001	-6.901438e-001	7.222397e-001	-6.894317e-001	-4.091176e-002	-3.233241e-002
42876797.999	-3.567804e-002	-3.858263e-002	7.216384e-001	-6.903410e-001	7.217586e-001	-6.898999e-001	-4.099288e-002	-3.241032e-002
42908067.542	-3.581512e-002	-3.860139e-002	7.211938e-001	-6.906372e-001	7.215049e-001	-6.900952e-001	-4.103586e-002	-3.243892e-002
42939337.086	-3.577081e-002	-3.854569e-002	7.207993e-001	-6.911352e-001	7.208418e-001	-6.905875e-001	-4.102987e-002	-3.244020e-002
42970606.629	-3.589000e-002	-3.864690e-002	7.203412e-001	-6.915860e-001	7.205404e-001	-6.910135e-001	-4.116652e-002	-3.247874e-002
43001876.173	-3.593184e-002	-3.863020e-002	7.200310e-001	-6.920943e-001	7.202740e-001	-6.914933e-001	-4.122532e-002	-3.229217e-002
43033145.716	-3.587227e-002	-3.858246e-002	7.194777e-001	-6.924857e-001	7.198084e-001	-6.918894e-001	-4.129244e-002	-3.233610e-002
43064415.260	-3.595048e-002	-3.865622e-002	7.191465e-001	-6.927603e-001	7.195528e-001	-6.922524e-001	-4.131948e-002	-3.239937e-002
43095684.803	-3.604367e-002	-3.861814e-002	7.187675e-001	-6.932650e-001	7.190623e-001	-6.926433e-001	-4.139438e-002	-3.238052e-002
43126954.346	-3.602496e-002	-3.860833e-002	7.184830e-001	-6.936255e-001	7.186569e-001	-6.930494e-001	-4.145487e-002	-3.231155e-002
43158223.890	-3.611287e-002	-3.865676e-002	7.180673e-001	-6.938461e-001	7.182141e-001	-6.934074e-001	-4.153128e-002	-3.230818e-002
43189493.433	-3.615540e-002	-3.870748e-002	7.178190e-001	-6.945327e-001	7.177046e-001	-6.939529e-001	-4.156425e-002	-3.226585e-002
43220762.977	-3.619835e-002	-3.862290e-002	7.173724e-001	-6.949019e-001	7.175523e-001	-6.941555e-001	-4.161156e-002	-3.236423e-002
43252032.520	-3.628006e-002	-3.874023e-002	7.168784e-001	-6.952498e-001	7.170367e-001	-6.947475e-001	-4.158339e-002	-3.237147e-002
43283302.064	-3.633120e-002	-3.863136e-002	7.165189e-001	-6.955526e-001	7.166067e-001	-6.949423e-001	-4.162394e-002	-3.229618e-002
43314571.607	-3.640385e-002	-3.874643e-002	7.161822e-001	-6.960399e-001	7.165744e-001	-6.954175e-001	-4.175329e-002	-3.220051e-002
43345841.151	-3.637082e-002	-3.868702e-002	7.156886e-001	-6.963948e-001	7.159998e-001	-6.958350e-001	-4.179490e-002	-3.224152e-002
43377110.694	-3.650300e-002	-3.874122e-002	7.153568e-001	-6.967510e-001	7.154897e-001	-6.962625e-001	-4.186752e-002	-3.229650e-002
43408380.238	-3.644379e-002	-3.878444e-002	7.150331e-001	-6.973546e-001	7.151360e-001	-6.965486e-001	-4.185250e-002	-3.230527e-002
43439649.781	-3.650289e-002	-3.876218e-002	7.145046e-001	-6.976331e-001	7.146225e-001	-6.970473e-001	-4.186772e-002	-3.229022e-002
43470919.325	-3.661730e-002	-3.876105e-002	7.140526e-001	-6.981131e-001	7.145088e-001	-6.975447e-001	-4.194347e-002	-3.220022e-002
43502188.868	-3.665042e-002	-3.880248e-002	7.137541e-001	-6.984997e-001	7.139023e-001	-6.978463e-001	-4.202532e-002	-3.222446e-002
43533458.412	-3.662467e-002	-3.870530e-002	7.133867e-001	-6.987155e-001	7.135316e-001	-6.981789e-001	-4.201636e-002	-3.229880e-002
43564727.955	-3.676117e-002	-3.874628e-002	7.130570e-001	-6.990858e-001	7.131925e-001	-6.988432e-001	-4.214522e-002	-3.229817e-002
43595997.498	-3.675319e-002	-3.882086e-002	7.125805e-001	-6.994847e-001	7.126472e-001	-6.989841e-001	-4.220441e-002	-3.225824e-002
43627267.042	-3.679708e-002	-3.883767e-002	7.123351e-001	-6.999222e-001	7.124125e-001	-6.994854e-001	-4.226358e-002	-3.220993e-002
43658536.585	-3.680816e-002	-3.885130e-002	7.118157e-001	-7.002996e-001	7.119861e-001	-6.998286e-001	-4.231541e-002	-3.223066e-002
43689806.129	-3.681008e-002	-3.887252e-002	7.113450e-001	-7.007506e-001	7.116315e-001	-7.001972e-001	-4.233430e-002	-3.228845e-002
43721075.672	-3.700455e-002	-3.872187e-002	7.109627e-001	-7.010821e-001	7.112327e-001	-7.006357e-001	-4.238726e-002	-3.228546e-002
43752345.216	-3.694132e-002	-3.886789e-002	7.108040e-001	-7.016070e-001	7.107645e-001	-7.011296e-001	-4.240356e-002	-3.221525e-002
43783614.759	-3.698588e-002	-3.888276e-002	7.102141e-001	-7.019126e-001	7.105205e-001	-7.014415e-001	-4.248240e-002	-3.228412e-002
43814884.303	-3.715177e-002	-3.882602e-002	7.099558e-001	-7.023074e-001	7.100606e-001	-7.017938e-001	-4.257288e-002	-3.219811e-002
43846153.846	-3.708356e-002	-3.888045e-002	7.096191e-001	-7.026939e-001	7.098175e-001	-7.022449e-001	-4.263428e-002	-3.220537e-002
43877423.390	-3.715779e-002	-3.888946e-002	7.090051e-001	-7.032583e-001	7.092786e-001	-7.026194e-001	-4.260967e-002	-3.222108e-002
43908692.933	-3.725983e-002	-3.880141e-002	7.085869e-001	-7.036584e-001	7.090110e-001	-7.029120e-001	-4.270987e-002	-3.215621e-002
43939962.477	-3.729145e-002	-3.883143e-002	7.084087e-001	-7.040178e-001	7.085499e-001	-7.034359e-001	-4.276096e-002	-3.217921e-002
43971232.020	-3.730423e-002	-3.890131e-002	7.078356e-001	-7.043391e-001	7.081153e-001	-7.038612e-001	-4.279701e-002	-3.218454e-002
44002501.563	-3.734008e-002	-3.893120e-002	7.073957e-001	-7.045868e-001	7.078010e-001	-7.040250e-001	-4.284826e-002	-3.210395e-002
44033771.107	-3.737091e-002	-3.893014e-002	7.070808e-001	-7.051981e-001	7.073751e-001	-7.044399e-001	-4.290042e-002	-3.215019e-002
44065040.650	-3.740236e-002	-3.882111e-002	7.067577e-001	-7.055487e-001	7.070112e-001	-7.049509e-001	-4.288607e-002	-3.208381e-002
44096310.194	-3.753797e-002	-3.890966e-002	7.064380e-001	-7.058470e-001	7.065222e-001	-7.052978e-001	-4.298772e-002	-3.216810e-002
44127579.737	-3.754487e-002	-3.893541e-002	7.059564e-001	-7.063045e-001	7.061768e-001	-7.055924e-001	-4.302975e-002	-3.217503e-002
44158849.281	-3.755493e-002	-3.891205e-002	7.055669e-001	-7.066016e-001	7.058761e-001	-7.061316e-001	-4.307755e-002	-3.215882e-002
44190118.824	-3.764734e-002	-3.892273e-002	7.051272e-001	-7.070110e-001	7.054651e-001	-7.065736e-001	-4.314964e-002	-3.214238e-002
44221388.368	-3.771904e-002	-3.893452e-002	7.048837e-001	-7.074922e-001	7.049258e-001	-7.068919e-001	-4.330041e-002	-3.212063e-002
44252657.911	-3.776246e-002	-3.891862e-002	7.043851e-001	-7.078362e-001	7.045644e-001	-7.073933e-001	-4.319930e-002	-3.213869e-002
44283927.455	-3.780858e-002	-3.894857e-002	7.039379e-001	-7.081547e-001	7.042297e-001	-7.076452e-001	-4.340804e-002	-3.218756e-002
44315196.998	-3.784703e-002	-3.893566e-002	7.036953e-001	-7.087010e-001	7.038449e-001	-7.080483e-001	-4.332699e-002	-3.219027e-002
44346466.542	-3.788364e-002	-3.896231e-002	7.031473e-001	-7.090348e-001	7.034035e-001	-7.085124e-001	-4.346415e-002	-3.212433e-002
44377736.085	-3.791821e-002	-3.894239e-002	7.027748e-001	-7.092240e-001	7.028497e-001	-7.088065e-001	-4.359184e-002	-3.208448e-002
44409005.629	-3.793087e-002	-3.888886e-002	7.023080e-001	-7.098483e-001	7.024940e-001	-7.091625e-001	-4.354084e-002	-3.211814e-002
44440275.172	-3.796834e-002	-3.903684e-002	7.018750e-001	-7.101093e-001	7.022459e-001	-7.096250e-001	-4.362124e-002	-3.205880e-002
44471544.715	-3.806148e-002	-3.903081e-002	7.014984e-001	-7.105492e-001	7.018854e-001	-7.100008e-001	-4.361263e-002	-3.205957e-002
44502814.259	-3.800445e-002	-3.907330e-002	7.011618e-001	-7.107645e-001	7.012505e-001	-7.104113e-001	-4.363974e-002	-3.206587e-002
44534083.802	-3.816996e-002	-3.897739e-002	7.006532e-001	-7.114311e-001	7.009523e-001	-7.107520e-001	-4.371961e-002	-3.212615e-002
44565353.346	-3.822531e-002	-3.898570e-002	7.003449e-001	-7.117761e-001	7.006821e-001	-7.111257e-001	-4.383552e-002	-3.198230e-002
44596622.889	-3.826542e-002	-3.904309e-002	6.999905e-001	-7.120577e-001	7.002406e-001	-7.115278e-001	-4.384010e-002	-3.203861e-002
44627892.433	-3.826186e-002	-3.902770e-002	6.995698e-001	-7.124253e-001	6.998084e-001	-7.119317e-001	-4.396131e-002	-3.210527e-002
44659161.976	-3.835040e-002	-3.898262e-002	6.989922e-001	-7.128663e-001	6.994719e-001	-7.122972e-001	-4.397403e-002	-3.202090e-002
44690431.520	-3.835007e-002	-3.911093e-002	6.987707e-001	-7.132671e-001	6.989857e-001	-7.126496e-001	-4.402354e-002	-3.201669e-002
