!Agilent Technologies,E5061B,MY49102235,A.02.00
!Date: Mon Jul 03 11:22:07 2023
!Data & Calibration Information:
!Freq	S11:SOLT2(ON)	S21:SOLT2(ON)	S12:SOLT2(ON)	S22:SOLT2(ON)
# Hz S RI R 50
40000000.000	-3.209232e-002	-3.846318e-002	7.565523e-001	-6.523188e-001	7.566775e-001	-6.514049e-001	-3.680677e-002	-3.292919e-002
40031269.543	-3.214858e-002	-3.853349e-002	7.562652e-001	-6.527086e-001	7.563743e-001	-6.516812e-001	-3.682838e-002	-3.290687e-002
40062539.087	-3.220873e-002	-3.852566e-002	7.555865e-001	-6.528952e-001	7.559378e-001	-6.521150e-001	-3.684591e-002	-3.294351e-002
40093808.630	-3.226727e-002	-3.851975e-002	7.553607e-001	-6.534616e-001	7.555630e-001	-6.527411e-001	-3.691796e-002	-3.289843e-002
40125078.174	-3.234732e-002	-3.850062e-002	7.549927e-001	-6.538185e-001	7.551017e-001	-6.530613e-001	-3.691727e-002	-3.283567e-002
40156347.717	-3.231507e-002	-3.854835e-002	7.547373e-001	-6.543652e-001	7.547573e-001	-6.536319e-001	-3.703730e-002	-3.290945e-002
40187617.261	-3.239519e-002	-3.861468e-002	7.543642e-001	-6.546333e-001	7.545489e-001	-6.540286e-001	-3.705748e-002	-3.303047e-002
40218886.804	-3.240255e-002	-3.856263e-002	7.539687e-001	-6.552380e-001	7.540740e-001	-6.542745e-001	-3.707270e-002	-3.297001e-002
40250156.348	-3.247181e-002	-3.856568e-002	7.536761e-001	-6.554749e-001	7.537650e-001	-6.548308e-001	-3.720391e-002	-3.300443e-002
40281425.891	-3.253294e-002	-3.860488e-002	7.532707e-001	-6.559867e-001	7.533588e-001	-6.551906e-001	-3.721848e-002	-3.296159e-002
40312695.435	-3.253872e-002	-3.859743e-002	7.528213e-001	-6.565744e-001	7.530181e-001	-6.555669e-001	-3.722487e-002	-3.296054e-002
40343964.978	-3.258197e-002	-3.854324e-002	7.525067e-001	-6.567068e-001	7.526553e-001	-6.559859e-001	-3.731849e-002	-3.291224e-002
40375234.522	-3.260752e-002	-3.855227e-002	7.520400e-001	-6.572466e-001	7.523314e-001	-6.563421e-001	-3.738514e-002	-3.293222e-002
40406504.065	-3.271478e-002	-3.853423e-002	7.515876e-001	-6.574838e-001	7.518871e-001	-6.569471e-001	-3.736222e-002	-3.301681e-002
40437773.609	-3.281818e-002	-3.865517e-002	7.515429e-001	-6.579758e-001	7.516222e-001	-6.572092e-001	-3.741998e-002	-3.301984e-002
40469043.152	-3.273761e-002	-3.865035e-002	7.510416e-001	-6.584121e-001	7.512719e-001	-6.576576e-001	-3.752856e-002	-3.293668e-002
40500312.695	-3.285088e-002	-3.872854e-002	7.505047e-001	-6.589202e-001	7.508931e-001	-6.580925e-001	-3.759037e-002	-3.292723e-002
40531582.239	-3.285506e-002	-3.864408e-002	7.501852e-001	-6.590365e-001	7.503995e-001	-6.587535e-001	-3.765412e-002	-3.291398e-002
40562851.782	-3.292540e-002	-3.861922e-002	7.497718e-001	-6.596146e-001	7.499685e-001	-6.589321e-001	-3.759424e-002	-3.306449e-002
40594121.326	-3.294128e-002	-3.866618e-002	7.496607e-001	-6.601480e-001	7.497156e-001	-6.592948e-001	-3.768579e-002	-3.293070e-002
40625390.869	-3.298125e-002	-3.862186e-002	7.492511e-001	-6.604901e-001	7.495487e-001	-6.598842e-001	-3.777644e-002	-3.302346e-002
40656660.413	-3.303878e-002	-3.867441e-002	7.488345e-001	-6.609144e-001	7.491441e-001	-6.600805e-001	-3.779141e-002	-3.296783e-002
40687929.956	-3.305987e-002	-3.866366e-002	7.486992e-001	-6.615202e-001	7.488050e-001	-6.605123e-001	-3.783348e-002	-3.299233e-002
40719199.500	-3.314101e-002	-3.860217e-002	7.480292e-001	-6.616631e-001	7.482637e-001	-6.612001e-001	-3.782195e-002	-3.300980e-002
40750469.043	-3.319329e-002	-3.865981e-002	7.475810e-001	-6.619775e-001	7.478857e-001	-6.614778e-001	-3.802347e-002	-3.296752e-002
40781738.587	-3.315256e-002	-3.877495e-002	7.473524e-001	-6.626469e-001	7.475416e-001	-6.619171e-001	-3.809952e-002	-3.296987e-002
40813008.130	-3.327127e-002	-3.872451e-002	7.471516e-001	-6.629320e-001	7.470676e-001	-6.623493e-001	-3.808626e-002	-3.296781e-002
40844277.674	-3.329342e-002	-3.867659e-002	7.465925e-001	-6.633847e-001	7.467385e-001	-6.627147e-001	-3.820118e-002	-3.297080e-002
40875547.217	-3.333871e-002	-3.874737e-002	7.461653e-001	-6.639254e-001	7.465363e-001	-6.629725e-001	-3.819159e-002	-3.297852e-002
40906816.760	-3.338501e-002	-3.868531e-002	7.459881e-001	-6.642752e-001	7.460415e-001	-6.634709e-001	-3.814348e-002	-3.301973e-002
40938086.304	-3.348473e-002	-3.876116e-002	7.453647e-001	-6.647263e-001	7.458345e-001	-6.639737e-001	-3.832041e-002	-3.299419e-002
40969355.847	-3.354821e-002	-3.871679e-002	7.449297e-001	-6.649946e-001	7.453251e-001	-6.643616e-001	-3.836668e-002	-3.295151e-002
41000625.391	-3.356482e-002	-3.869022e-002	7.445241e-001	-6.653770e-001	7.448007e-001	-6.646851e-001	-3.836225e-002	-3.295096e-002
41031894.934	-3.344613e-002	-3.865784e-002	7.445008e-001	-6.657589e-001	7.445593e-001	-6.652931e-001	-3.846864e-002	-3.297138e-002
41063164.478	-3.361745e-002	-3.871739e-002	7.440749e-001	-6.662767e-001	7.442898e-001	-6.656585e-001	-3.846319e-002	-3.301515e-002
41094434.021	-3.368116e-002	-3.877239e-002	7.436595e-001	-6.666393e-001	7.437975e-001	-6.659148e-001	-3.855904e-002	-3.298318e-002
41125703.565	-3.368677e-002	-3.876939e-002	7.433385e-001	-6.671098e-001	7.435636e-001	-6.662887e-001	-3.861709e-002	-3.296588e-002
41156973.108	-3.369251e-002	-3.881481e-002	7.430110e-001	-6.673181e-001	7.429390e-001	-6.668531e-001	-3.866121e-002	-3.298451e-002
41188242.652	-3.378470e-002	-3.870843e-002	7.425676e-001	-6.681019e-001	7.427385e-001	-6.672045e-001	-3.862626e-002	-3.303068e-002
41219512.195	-3.378452e-002	-3.883299e-002	7.421346e-001	-6.684075e-001	7.422666e-001	-6.676172e-001	-3.874596e-002	-3.305789e-002
41250781.739	-3.389938e-002	-3.881107e-002	7.416030e-001	-6.689669e-001	7.419126e-001	-6.680776e-001	-3.876204e-002	-3.298368e-002
41282051.282	-3.389003e-002	-3.886210e-002	7.414038e-001	-6.692012e-001	7.415155e-001	-6.684710e-001	-3.888931e-002	-3.303601e-002
41313320.826	-3.399383e-002	-3.875828e-002	7.409233e-001	-6.695007e-001	7.411809e-001	-6.688324e-001	-3.890832e-002	-3.303083e-002
41344590.369	-3.405410e-002	-3.886678e-002	7.404805e-001	-6.697774e-001	7.409094e-001	-6.693789e-001	-3.890909e-002	-3.294862e-002
41375859.912	-3.417033e-002	-3.881089e-002	7.402743e-001	-6.703899e-001	7.402174e-001	-6.696917e-001	-3.895516e-002	-3.300506e-002
41407129.456	-3.411776e-002	-3.883601e-002	7.399730e-001	-6.706365e-001	7.400251e-001	-6.699390e-001	-3.910401e-002	-3.293565e-002
41438398.999	-3.415907e-002	-3.891516e-002	7.396582e-001	-6.712901e-001	7.397911e-001	-6.705039e-001	-3.914398e-002	-3.295755e-002
41469668.543	-3.426419e-002	-3.874238e-002	7.390934e-001	-6.716944e-001	7.392857e-001	-6.710456e-001	-3.914673e-002	-3.298170e-002
41500938.086	-3.427776e-002	-3.885665e-002	7.388000e-001	-6.719931e-001	7.390278e-001	-6.712931e-001	-3.920242e-002	-3.306057e-002
41532207.630	-3.429315e-002	-3.887752e-002	7.384284e-001	-6.724286e-001	7.386103e-001	-6.717235e-001	-3.924444e-002	-3.300687e-002
41563477.173	-3.430806e-002	-3.891871e-002	7.379817e-001	-6.729210e-001	7.381956e-001	-6.720621e-001	-3.923498e-002	-3.304759e-002
41594746.717	-3.431338e-002	-3.889498e-002	7.375713e-001	-6.732857e-001	7.378200e-001	-6.725381e-001	-3.935180e-002	-3.295512e-002
41626016.260	-3.452247e-002	-3.894757e-002	7.372457e-001	-6.736897e-001	7.374476e-001	-6.729561e-001	-3.941464e-002	-3.297268e-002
41657285.804	-3.445896e-002	-3.893502e-002	7.369325e-001	-6.741457e-001	7.371209e-001	-6.733009e-001	-3.941443e-002	-3.299042e-002
41688555.347	-3.447976e-002	-3.891401e-002	7.364970e-001	-6.744428e-001	7.367250e-001	-6.738399e-001	-3.947789e-002	-3.298309e-002
41719824.891	-3.451609e-002	-3.885505e-002	7.361848e-001	-6.749657e-001	7.363572e-001	-6.741221e-001	-3.956276e-002	-3.293806e-002
41751094.434	-3.463013e-002	-3.878789e-002	7.358026e-001	-6.752216e-001	7.358577e-001	-6.747933e-001	-3.956200e-002	-3.304323e-002
41782363.977	-3.457623e-002	-3.893987e-002	7.354526e-001	-6.757250e-001	7.356577e-001	-6.749371e-001	-3.978017e-002	-3.298356e-002
41813633.521	-3.470808e-002	-3.895225e-002	7.349467e-001	-6.760241e-001	7.353089e-001	-6.753681e-001	-3.965838e-002	-3.293212e-002
41844903.064	-3.476359e-002	-3.891605e-002	7.347850e-001	-6.763690e-001	7.348049e-001	-6.758868e-001	-3.980552e-002	-3.298240e-002
41876172.608	-3.477672e-002	-3.894520e-002	7.341048e-001	-6.769321e-001	7.346127e-001	-6.762668e-001	-3.989029e-002	-3.294540e-002
41907442.151	-3.487728e-002	-3.889046e-002	7.338792e-001	-6.772668e-001	7.341810e-001	-6.767361e-001	-3.992560e-002	-3.296293e-002
41938711.695	-3.480324e-002	-3.893534e-002	7.334068e-001	-6.777365e-001	7.337892e-001	-6.770094e-001	-3.984680e-002	-3.301332e-002
41969981.238	-3.488904e-002	-3.903141e-002	7.331165e-001	-6.781217e-001	7.332486e-001	-6.776302e-001	-3.991983e-002	-3.293891e-002
42001250.782	-3.492459e-002	-3.891610e-002	7.327557e-001	-6.785909e-001	7.329785e-001	-6.776831e-001	-3.999874e-002	-3.294807e-002
42032520.325	-3.495658e-002	-3.889593e-002	7.323364e-001	-6.789844e-001	7.327582e-001	-6.781008e-001	-4.010810e-002	-3.294184e-002
42063789.869	-3.506345e-002	-3.896338e-002	7.320467e-001	-6.793395e-001	7.321487e-001	-6.787761e-001	-4.022166e-002	-3.296205e-002
42095059.412	-3.507146e-002	-3.897641e-002	7.316283e-001	-6.797918e-001	7.319583e-001	-6.791535e-001	-4.020221e-002	-3.290098e-002
42126328.956	-3.516723e-002	-3.898330e-002	7.312233e-001	-6.800195e-001	7.313900e-001	-6.794366e-001	-4.027723e-002	-3.295797e-002
42157598.499	-3.513116e-002	-3.901540e-002	7.308339e-001	-6.805572e-001	7.310279e-001	-6.800331e-001	-4.029289e-002	-3.293145e-002
42188868.043	-3.520409e-002	-3.902350e-002	7.305848e-001	-6.808337e-001	7.307242e-001	-6.803553e-001	-4.037882e-002	-3.290996e-002
42220137.586	-3.518644e-002	-3.900290e-002	7.300497e-001	-6.814541e-001	7.303056e-001	-6.806207e-001	-4.040757e-002	-3.293998e-002
42251407.129	-3.529930e-002	-3.904864e-002	7.298296e-001	-6.818871e-001	7.298937e-001	-6.811814e-001	-4.051166e-002	-3.287775e-002
42282676.673	-3.532163e-002	-3.904318e-002	7.293203e-001	-6.821730e-001	7.294556e-001	-6.814942e-001	-4.048848e-002	-3.290641e-002
42313946.216	-3.540036e-002	-3.900156e-002	7.290352e-001	-6.826834e-001	7.292243e-001	-6.820049e-001	-4.055004e-002	-3.291506e-002
42345215.760	-3.550947e-002	-3.910228e-002	7.285398e-001	-6.830306e-001	7.287490e-001	-6.824457e-001	-4.069597e-002	-3.287601e-002
42376485.303	-3.552085e-002	-3.908671e-002	7.281453e-001	-6.834633e-001	7.283037e-001	-6.827150e-001	-4.067742e-002	-3.284500e-002
42407754.847	-3.551900e-002	-3.903127e-002	7.277055e-001	-6.838044e-001	7.279707e-001	-6.831622e-001	-4.070798e-002	-3.286301e-002
42439024.390	-3.560317e-002	-3.910263e-002	7.273963e-001	-6.842244e-001	7.275936e-001	-6.834293e-001	-4.081535e-002	-3.294893e-002
42470293.934	-3.557114e-002	-3.912345e-002	7.270521e-001	-6.846426e-001	7.273266e-001	-6.839678e-001	-4.081132e-002	-3.293190e-002
42501563.477	-3.567198e-002	-3.902134e-002	7.267418e-001	-6.849318e-001	7.269628e-001	-6.844763e-001	-4.080771e-002	-3.290702e-002
42532833.021	-3.564536e-002	-3.906649e-002	7.263343e-001	-6.853807e-001	7.266382e-001	-6.849212e-001	-4.096695e-002	-3.291818e-002
42564102.564	-3.576114e-002	-3.907304e-002	7.259009e-001	-6.859472e-001	7.261117e-001	-6.852456e-001	-4.101788e-002	-3.293535e-002
42595372.108	-3.575742e-002	-3.907162e-002	7.253963e-001	-6.863684e-001	7.257709e-001	-6.857483e-001	-4.110990e-002	-3.290660e-002
42626641.651	-3.583129e-002	-3.920659e-002	7.251591e-001	-6.865660e-001	7.253855e-001	-6.859182e-001	-4.114080e-002	-3.290439e-002
42657911.194	-3.588997e-002	-3.911792e-002	7.247232e-001	-6.870792e-001	7.250119e-001	-6.864567e-001	-4.115998e-002	-3.289103e-002
42689180.738	-3.598044e-002	-3.908080e-002	7.244279e-001	-6.874357e-001	7.245768e-001	-6.868422e-001	-4.126226e-002	-3.290983e-002
42720450.281	-3.601701e-002	-3.916763e-002	7.237882e-001	-6.876433e-001	7.241222e-001	-6.871538e-001	-4.122613e-002	-3.287948e-002
42751719.825	-3.603237e-002	-3.924738e-002	7.235612e-001	-6.882083e-001	7.240267e-001	-6.874882e-001	-4.125288e-002	-3.291310e-002
42782989.368	-3.617164e-002	-3.915638e-002	7.231972e-001	-6.888367e-001	7.234616e-001	-6.880564e-001	-4.139780e-002	-3.284288e-002
42814258.912	-3.609652e-002	-3.916410e-002	7.230065e-001	-6.890483e-001	7.230964e-001	-6.884550e-001	-4.140544e-002	-3.299343e-002
42845528.455	-3.621365e-002	-3.912295e-002	7.224531e-001	-6.895768e-001	7.227471e-001	-6.888435e-001	-4.146042e-002	-3.285973e-002
42876797.999	-3.616311e-002	-3.917612e-002	7.221584e-001	-6.897608e-001	7.222852e-001	-6.893069e-001	-4.153416e-002	-3.294579e-002
42908067.542	-3.629866e-002	-3.918718e-002	7.216726e-001	-6.900629e-001	7.220264e-001	-6.895221e-001	-4.157958e-002	-3.296236e-002
42939337.086	-3.625536e-002	-3.914127e-002	7.213128e-001	-6.905454e-001	7.214039e-001	-6.900108e-001	-4.157895e-002	-3.296779e-002
42970606.629	-3.638154e-002	-3.923462e-002	7.208765e-001	-6.910161e-001	7.210393e-001	-6.904479e-001	-4.170694e-002	-3.300535e-002
43001876.173	-3.641913e-002	-3.922317e-002	7.205274e-001	-6.915039e-001	7.208035e-001	-6.909035e-001	-4.177123e-002	-3.282519e-002
43033145.716	-3.636528e-002	-3.917137e-002	7.199871e-001	-6.919157e-001	7.203261e-001	-6.913144e-001	-4.183638e-002	-3.285328e-002
43064415.260	-3.644550e-002	-3.924359e-002	7.196633e-001	-6.921901e-001	7.200728e-001	-6.916647e-001	-4.186700e-002	-3.292183e-002
43095684.803	-3.654001e-002	-3.921216e-002	7.193076e-001	-6.926926e-001	7.195820e-001	-6.920462e-001	-4.194427e-002	-3.291065e-002
43126954.346	-3.650817e-002	-3.919803e-002	7.189935e-001	-6.930401e-001	7.191729e-001	-6.924686e-001	-4.200678e-002	-3.283860e-002
43158223.890	-3.660848e-002	-3.924927e-002	7.186063e-001	-6.932763e-001	7.187258e-001	-6.928105e-001	-4.207697e-002	-3.283551e-002
43189493.433	-3.664529e-002	-3.929575e-002	7.183287e-001	-6.939514e-001	7.182387e-001	-6.933679e-001	-4.210361e-002	-3.280046e-002
43220762.977	-3.669416e-002	-3.921974e-002	7.178669e-001	-6.943065e-001	7.180647e-001	-6.935436e-001	-4.215798e-002	-3.289208e-002
43252032.520	-3.677377e-002	-3.933089e-002	7.173920e-001	-6.946525e-001	7.175747e-001	-6.941458e-001	-4.214117e-002	-3.289537e-002
43283302.064	-3.681694e-002	-3.921976e-002	7.170186e-001	-6.949683e-001	7.171511e-001	-6.943472e-001	-4.217541e-002	-3.282386e-002
43314571.607	-3.689603e-002	-3.934206e-002	7.167043e-001	-6.954729e-001	7.170859e-001	-6.948320e-001	-4.230068e-002	-3.273135e-002
43345841.151	-3.687825e-002	-3.927919e-002	7.162115e-001	-6.958309e-001	7.165218e-001	-6.952279e-001	-4.234543e-002	-3.277209e-002
43377110.694	-3.699966e-002	-3.933550e-002	7.158760e-001	-6.961832e-001	7.160056e-001	-6.956727e-001	-4.241978e-002	-3.282073e-002
43408380.238	-3.694466e-002	-3.937671e-002	7.155856e-001	-6.967944e-001	7.156299e-001	-6.959523e-001	-4.241547e-002	-3.283639e-002
43439649.781	-3.701056e-002	-3.935679e-002	7.150249e-001	-6.970474e-001	7.151418e-001	-6.964661e-001	-4.243141e-002	-3.281470e-002
43470919.325	-3.712015e-002	-3.935447e-002	7.145660e-001	-6.975717e-001	7.150136e-001	-6.969507e-001	-4.249313e-002	-3.272604e-002
43502188.868	-3.714385e-002	-3.939851e-002	7.142987e-001	-6.979340e-001	7.144263e-001	-6.972542e-001	-4.258090e-002	-3.275013e-002
43533458.412	-3.712741e-002	-3.930425e-002	7.138953e-001	-6.981315e-001	7.140631e-001	-6.975874e-001	-4.257545e-002	-3.281531e-002
43564727.955	-3.726281e-002	-3.932996e-002	7.135824e-001	-6.985174e-001	7.137158e-001	-6.982377e-001	-4.271245e-002	-3.283080e-002
43595997.498	-3.725869e-002	-3.940824e-002	7.130955e-001	-6.989159e-001	7.131764e-001	-6.983984e-001	-4.276861e-002	-3.279016e-002
43627267.042	-3.729481e-002	-3.943866e-002	7.128735e-001	-6.993532e-001	7.129239e-001	-6.989031e-001	-4.282579e-002	-3.273400e-002
43658536.585	-3.731056e-002	-3.943865e-002	7.123450e-001	-6.997179e-001	7.125041e-001	-6.992367e-001	-4.287635e-002	-3.276233e-002
43689806.129	-3.731904e-002	-3.945908e-002	7.118793e-001	-7.001688e-001	7.121483e-001	-6.996288e-001	-4.289457e-002	-3.281297e-002
43721075.672	-3.750514e-002	-3.931268e-002	7.114998e-001	-7.005080e-001	7.117272e-001	-7.000472e-001	-4.293771e-002	-3.282163e-002
43752345.216	-3.744935e-002	-3.945818e-002	7.113493e-001	-7.010163e-001	7.112817e-001	-7.005441e-001	-4.297583e-002	-3.274345e-002
43783614.759	-3.749676e-002	-3.947822e-002	7.107366e-001	-7.013492e-001	7.110290e-001	-7.008424e-001	-4.304265e-002	-3.280693e-002
43814884.303	-3.765260e-002	-3.941579e-002	7.104804e-001	-7.017063e-001	7.105923e-001	-7.011972e-001	-4.314433e-002	-3.272847e-002
43846153.846	-3.758823e-002	-3.947776e-002	7.101383e-001	-7.021170e-001	7.103558e-001	-7.016370e-001	-4.320165e-002	-3.274460e-002
43877423.390	-3.767193e-002	-3.948598e-002	7.095384e-001	-7.027091e-001	7.097950e-001	-7.020148e-001	-4.317523e-002	-3.275322e-002
43908692.933	-3.775925e-002	-3.939070e-002	7.091128e-001	-7.030748e-001	7.095187e-001	-7.023146e-001	-4.327634e-002	-3.268998e-002
43939962.477	-3.779968e-002	-3.941950e-002	7.089226e-001	-7.034519e-001	7.090941e-001	-7.028278e-001	-4.332540e-002	-3.270818e-002
43971232.020	-3.781552e-002	-3.948915e-002	7.083516e-001	-7.037581e-001	7.086251e-001	-7.032580e-001	-4.335746e-002	-3.270912e-002
44002501.563	-3.786534e-002	-3.952313e-002	7.079321e-001	-7.040182e-001	7.083084e-001	-7.034188e-001	-4.341245e-002	-3.264102e-002
44033771.107	-3.787419e-002	-3.951786e-002	7.076087e-001	-7.045964e-001	7.079216e-001	-7.038389e-001	-4.346798e-002	-3.267766e-002
44065040.650	-3.791879e-002	-3.941882e-002	7.073149e-001	-7.049691e-001	7.075170e-001	-7.043672e-001	-4.345362e-002	-3.262028e-002
44096310.194	-3.804258e-002	-3.949907e-002	7.069630e-001	-7.052854e-001	7.070580e-001	-7.046996e-001	-4.355488e-002	-3.270083e-002
44127579.737	-3.806035e-002	-3.952952e-002	7.065007e-001	-7.057371e-001	7.067033e-001	-7.049973e-001	-4.359619e-002	-3.271001e-002
44158849.281	-3.807148e-002	-3.950204e-002	7.061126e-001	-7.060271e-001	7.064288e-001	-7.055699e-001	-4.365305e-002	-3.268536e-002
44190118.824	-3.816375e-002	-3.951582e-002	7.056729e-001	-7.064192e-001	7.060086e-001	-7.060182e-001	-4.372418e-002	-3.266472e-002
44221388.368	-3.823946e-002	-3.952504e-002	7.054168e-001	-7.069169e-001	7.054586e-001	-7.062951e-001	-4.387256e-002	-3.264796e-002
44252657.911	-3.827247e-002	-3.951959e-002	7.049237e-001	-7.072773e-001	7.051051e-001	-7.067926e-001	-4.376886e-002	-3.267427e-002
44283927.455	-3.831025e-002	-3.954884e-002	7.044988e-001	-7.075666e-001	7.047783e-001	-7.070640e-001	-4.398303e-002	-3.271467e-002
44315196.998	-3.836819e-002	-3.952746e-002	7.042125e-001	-7.081206e-001	7.043711e-001	-7.074801e-001	-4.389763e-002	-3.272822e-002
44346466.542	-3.839811e-002	-3.955602e-002	7.036698e-001	-7.084780e-001	7.039510e-001	-7.078998e-001	-4.403440e-002	-3.265695e-002
44377736.085	-3.843937e-002	-3.953695e-002	7.033322e-001	-7.086673e-001	7.034311e-001	-7.082035e-001	-4.417154e-002	-3.261235e-002
44409005.629	-3.845952e-002	-3.947639e-002	7.028331e-001	-7.092959e-001	7.030611e-001	-7.085703e-001	-4.411678e-002	-3.264547e-002
44440275.172	-3.849082e-002	-3.964292e-002	7.024225e-001	-7.095187e-001	7.028210e-001	-7.090337e-001	-4.420067e-002	-3.259914e-002
44471544.715	-3.857930e-002	-3.962132e-002	7.020472e-001	-7.099753e-001	7.024390e-001	-7.094305e-001	-4.419290e-002	-3.258271e-002
44502814.259	-3.852608e-002	-3.966022e-002	7.016878e-001	-7.101555e-001	7.017836e-001	-7.098284e-001	-4.422271e-002	-3.259607e-002
44534083.802	-3.869279e-002	-3.957433e-002	7.012004e-001	-7.108526e-001	7.015158e-001	-7.101804e-001	-4.429688e-002	-3.265683e-002
44565353.346	-3.874932e-002	-3.957624e-002	7.008943e-001	-7.111850e-001	7.012239e-001	-7.105345e-001	-4.441835e-002	-3.251347e-002
44596622.889	-3.879000e-002	-3.963664e-002	7.005496e-001	-7.114752e-001	7.008050e-001	-7.109258e-001	-4.442220e-002	-3.256176e-002
44627892.433	-3.878319e-002	-3.961566e-002	7.001198e-001	-7.118602e-001	7.003437e-001	-7.113258e-001	-4.454153e-002	-3.264245e-002
44659161.976	-3.885783e-002	-3.958848e-002	6.995380e-001	-7.122895e-001	7.000132e-001	-7.116777e-001	-4.455169e-002	-3.255826e-002
44690431.520	-3.887292e-002	-3.970548e-002	6.993261e-001	-7.126986e-001	6.995202e-001	-7.120776e-001	-4.460416e-002	-3.254123e-002
