!Agilent Technologies,E5061B,MY49102235,A.02.00
!Date: Mon Jul 03 11:19:26 2023
!Data & Calibration Information:
!Freq	S11:SOLT2(ON)	S21:SOLT2(ON)	S12:SOLT2(ON)	S22:SOLT2(ON)
# Hz S RI R 50
40000000.000	-9.411426e-003	-1.124643e-002	7.334461e-001	-6.792929e-001	7.335478e-001	-6.784906e-001	-1.182116e-002	-7.811979e-003
40031269.543	-9.431593e-003	-1.130720e-002	7.331091e-001	-6.797214e-001	7.332084e-001	-6.787958e-001	-1.180740e-002	-7.781033e-003
40062539.087	-9.462796e-003	-1.129640e-002	7.324434e-001	-6.799149e-001	7.327535e-001	-6.792302e-001	-1.178047e-002	-7.834751e-003
40093808.630	-9.478420e-003	-1.127849e-002	7.321400e-001	-6.804803e-001	7.323395e-001	-6.798573e-001	-1.182041e-002	-7.781106e-003
40125078.174	-9.522510e-003	-1.124239e-002	7.317528e-001	-6.808365e-001	7.318466e-001	-6.801839e-001	-1.178115e-002	-7.691060e-003
40156347.717	-9.465066e-003	-1.128310e-002	7.314778e-001	-6.814062e-001	7.314711e-001	-6.807665e-001	-1.186187e-002	-7.772439e-003
40187617.261	-9.511945e-003	-1.134498e-002	7.310665e-001	-6.816549e-001	7.312340e-001	-6.811632e-001	-1.186933e-002	-7.889573e-003
40218886.804	-9.490779e-003	-1.128029e-002	7.306512e-001	-6.822597e-001	7.306739e-001	-6.814512e-001	-1.182921e-002	-7.828799e-003
40250156.348	-9.513842e-003	-1.127870e-002	7.302772e-001	-6.825462e-001	7.303582e-001	-6.819997e-001	-1.193024e-002	-7.857141e-003
40281425.891	-9.549283e-003	-1.130138e-002	7.298680e-001	-6.830559e-001	7.299319e-001	-6.823640e-001	-1.191687e-002	-7.794234e-003
40312695.435	-9.517255e-003	-1.129734e-002	7.293899e-001	-6.836472e-001	7.295353e-001	-6.827462e-001	-1.188436e-002	-7.810661e-003
40343964.978	-9.519865e-003	-1.123340e-002	7.290477e-001	-6.837633e-001	7.291384e-001	-6.831648e-001	-1.193595e-002	-7.749779e-003
40375234.522	-9.506608e-003	-1.123670e-002	7.285152e-001	-6.843382e-001	7.288089e-001	-6.835423e-001	-1.197226e-002	-7.777226e-003
40406504.065	-9.594358e-003	-1.120259e-002	7.280628e-001	-6.845842e-001	7.283274e-001	-6.841394e-001	-1.191823e-002	-7.855636e-003
40437773.609	-9.665276e-003	-1.131717e-002	7.279807e-001	-6.850773e-001	7.280321e-001	-6.844096e-001	-1.193900e-002	-7.861063e-003
40469043.152	-9.557659e-003	-1.130389e-002	7.274431e-001	-6.855397e-001	7.276551e-001	-6.848410e-001	-1.199870e-002	-7.762570e-003
40500312.695	-9.636998e-003	-1.138247e-002	7.268474e-001	-6.860411e-001	7.272530e-001	-6.852982e-001	-1.202573e-002	-7.752498e-003
40531582.239	-9.602515e-003	-1.128053e-002	7.265061e-001	-6.861464e-001	7.266806e-001	-6.859777e-001	-1.206130e-002	-7.724229e-003
40562851.782	-9.632416e-003	-1.124952e-002	7.260759e-001	-6.867148e-001	7.262415e-001	-6.861614e-001	-1.197274e-002	-7.885847e-003
40594121.326	-9.617928e-003	-1.129350e-002	7.259016e-001	-6.873010e-001	7.259496e-001	-6.865086e-001	-1.201482e-002	-7.733895e-003
40625390.869	-9.627263e-003	-1.124520e-002	7.254843e-001	-6.876479e-001	7.257440e-001	-6.871031e-001	-1.207970e-002	-7.831055e-003
40656660.413	-9.659564e-003	-1.127688e-002	7.249952e-001	-6.880726e-001	7.253103e-001	-6.873423e-001	-1.205103e-002	-7.770476e-003
40687929.956	-9.643053e-003	-1.125944e-002	7.248556e-001	-6.886803e-001	7.249397e-001	-6.877989e-001	-1.207030e-002	-7.797770e-003
40719199.500	-9.676123e-003	-1.119087e-002	7.241164e-001	-6.888370e-001	7.243575e-001	-6.884700e-001	-1.201829e-002	-7.797383e-003
40750469.043	-9.705412e-003	-1.124289e-002	7.236926e-001	-6.891435e-001	7.239761e-001	-6.887473e-001	-1.218332e-002	-7.750268e-003
40781738.587	-9.627155e-003	-1.134968e-002	7.234097e-001	-6.898272e-001	7.235630e-001	-6.892223e-001	-1.221215e-002	-7.749398e-003
40813008.130	-9.720060e-003	-1.129580e-002	7.231573e-001	-6.901199e-001	7.230387e-001	-6.896466e-001	-1.217162e-002	-7.752604e-003
40844277.674	-9.702934e-003	-1.122067e-002	7.225687e-001	-6.905861e-001	7.226849e-001	-6.900005e-001	-1.225406e-002	-7.740902e-003
40875547.217	-9.708961e-003	-1.129349e-002	7.221047e-001	-6.911399e-001	7.224591e-001	-6.903196e-001	-1.220866e-002	-7.751291e-003
40906816.760	-9.723788e-003	-1.122229e-002	7.219102e-001	-6.914787e-001	7.218966e-001	-6.907800e-001	-1.212161e-002	-7.793731e-003
40938086.304	-9.811600e-003	-1.129427e-002	7.212493e-001	-6.919473e-001	7.216803e-001	-6.913187e-001	-1.226863e-002	-7.758117e-003
40969355.847	-9.816461e-003	-1.124504e-002	7.208054e-001	-6.922233e-001	7.211575e-001	-6.916958e-001	-1.228080e-002	-7.722384e-003
41000625.391	-9.806009e-003	-1.121236e-002	7.203541e-001	-6.925980e-001	7.205785e-001	-6.920432e-001	-1.222531e-002	-7.719516e-003
41031894.934	-9.645997e-003	-1.117331e-002	7.202925e-001	-6.930192e-001	7.203070e-001	-6.926364e-001	-1.230082e-002	-7.720030e-003
41063164.478	-9.790832e-003	-1.121240e-002	7.197959e-001	-6.935387e-001	7.199956e-001	-6.930036e-001	-1.226699e-002	-7.764894e-003
41094434.021	-9.827545e-003	-1.126368e-002	7.193635e-001	-6.938902e-001	7.194874e-001	-6.932825e-001	-1.232759e-002	-7.735295e-003
41125703.565	-9.794807e-003	-1.126137e-002	7.190089e-001	-6.943751e-001	7.192195e-001	-6.936443e-001	-1.235267e-002	-7.709223e-003
41156973.108	-9.773284e-003	-1.128738e-002	7.186354e-001	-6.946062e-001	7.185613e-001	-6.942183e-001	-1.235242e-002	-7.729877e-003
41188242.652	-9.825105e-003	-1.118003e-002	7.181581e-001	-6.954038e-001	7.183369e-001	-6.945917e-001	-1.227754e-002	-7.774747e-003
41219512.195	-9.795861e-003	-1.130766e-002	7.177293e-001	-6.957090e-001	7.178093e-001	-6.949850e-001	-1.237498e-002	-7.802851e-003
41250781.739	-9.873670e-003	-1.127266e-002	7.171196e-001	-6.962697e-001	7.174222e-001	-6.954666e-001	-1.235299e-002	-7.721176e-003
41282051.282	-9.843029e-003	-1.131227e-002	7.169092e-001	-6.965364e-001	7.170124e-001	-6.958643e-001	-1.244244e-002	-7.767573e-003
41313320.826	-9.897126e-003	-1.120062e-002	7.163947e-001	-6.968060e-001	7.166582e-001	-6.962251e-001	-1.241566e-002	-7.754663e-003
41344590.369	-9.940646e-003	-1.129611e-002	7.159235e-001	-6.970834e-001	7.163058e-001	-6.967713e-001	-1.237850e-002	-7.675858e-003
41375859.912	-1.001324e-002	-1.123536e-002	7.156858e-001	-6.976938e-001	7.156091e-001	-6.970858e-001	-1.239783e-002	-7.729898e-003
41407129.456	-9.932120e-003	-1.125541e-002	7.153746e-001	-6.979748e-001	7.153528e-001	-6.973664e-001	-1.251746e-002	-7.650961e-003
41438398.999	-9.930405e-003	-1.132152e-002	7.149966e-001	-6.986531e-001	7.150857e-001	-6.979438e-001	-1.251327e-002	-7.671646e-003
41469668.543	-9.993781e-003	-1.114297e-002	7.144085e-001	-6.990428e-001	7.145572e-001	-6.984666e-001	-1.248061e-002	-7.700657e-003
41500938.086	-9.973223e-003	-1.125526e-002	7.140666e-001	-6.993561e-001	7.142889e-001	-6.987194e-001	-1.250293e-002	-7.775935e-003
41532207.630	-9.958416e-003	-1.126453e-002	7.136637e-001	-6.997923e-001	7.138391e-001	-6.991821e-001	-1.251348e-002	-7.715086e-003
41563477.173	-9.951935e-003	-1.130068e-002	7.131777e-001	-7.002914e-001	7.133734e-001	-6.995374e-001	-1.246202e-002	-7.760775e-003
41594746.717	-9.908447e-003	-1.127918e-002	7.127251e-001	-7.006698e-001	7.129661e-001	-7.000134e-001	-1.253644e-002	-7.663745e-003
41626016.260	-1.010967e-002	-1.131392e-002	7.124066e-001	-7.010828e-001	7.125504e-001	-7.004246e-001	-1.257480e-002	-7.682412e-003
41657285.804	-9.982992e-003	-1.130057e-002	7.120229e-001	-7.015181e-001	7.121643e-001	-7.007901e-001	-1.254212e-002	-7.685792e-003
41688555.347	-9.973441e-003	-1.126972e-002	7.115691e-001	-7.018555e-001	7.117378e-001	-7.013407e-001	-1.256132e-002	-7.676983e-003
41719824.891	-9.975705e-003	-1.119800e-002	7.112125e-001	-7.023773e-001	7.113374e-001	-7.015992e-001	-1.260254e-002	-7.628878e-003
41751094.434	-1.006698e-002	-1.112751e-002	7.108109e-001	-7.026260e-001	7.108275e-001	-7.023171e-001	-1.257490e-002	-7.739885e-003
41782363.977	-9.982601e-003	-1.127398e-002	7.104573e-001	-7.031634e-001	7.105736e-001	-7.024733e-001	-1.274603e-002	-7.667031e-003
41813633.521	-1.007265e-002	-1.126326e-002	7.098648e-001	-7.034362e-001	7.102058e-001	-7.028793e-001	-1.259445e-002	-7.618236e-003
41844903.064	-1.009887e-002	-1.122779e-002	7.096890e-001	-7.038101e-001	7.096570e-001	-7.034082e-001	-1.271136e-002	-7.651082e-003
41876172.608	-1.005867e-002	-1.125791e-002	7.089582e-001	-7.043837e-001	7.094168e-001	-7.037942e-001	-1.276327e-002	-7.608672e-003
41907442.151	-1.013679e-002	-1.119460e-002	7.087168e-001	-7.047046e-001	7.089717e-001	-7.042802e-001	-1.275298e-002	-7.638252e-003
41938711.695	-1.002679e-002	-1.124031e-002	7.081933e-001	-7.051918e-001	7.085570e-001	-7.045294e-001	-1.263970e-002	-7.680167e-003
41969981.238	-1.009110e-002	-1.132117e-002	7.078775e-001	-7.055666e-001	7.079946e-001	-7.051626e-001	-1.267015e-002	-7.620845e-003
42001250.782	-1.008282e-002	-1.120156e-002	7.074754e-001	-7.060518e-001	7.076619e-001	-7.052605e-001	-1.271526e-002	-7.619386e-003
42032520.325	-1.008061e-002	-1.117475e-002	7.070019e-001	-7.064262e-001	7.074282e-001	-7.056949e-001	-1.279209e-002	-7.609311e-003
42063789.869	-1.015532e-002	-1.123223e-002	7.067003e-001	-7.068026e-001	7.067543e-001	-7.063474e-001	-1.285499e-002	-7.613986e-003
42095059.412	-1.013330e-002	-1.124642e-002	7.062229e-001	-7.072409e-001	7.065354e-001	-7.067250e-001	-1.280919e-002	-7.559216e-003
42126328.956	-1.019620e-002	-1.123697e-002	7.057934e-001	-7.075147e-001	7.059426e-001	-7.070346e-001	-1.284473e-002	-7.610185e-003
42157598.499	-1.011542e-002	-1.126421e-002	7.053642e-001	-7.080446e-001	7.055134e-001	-7.075924e-001	-1.282117e-002	-7.578089e-003
42188868.043	-1.015370e-002	-1.127426e-002	7.050984e-001	-7.083415e-001	7.052045e-001	-7.079418e-001	-1.287829e-002	-7.562077e-003
42220137.586	-1.009894e-002	-1.124097e-002	7.045262e-001	-7.089646e-001	7.047602e-001	-7.082304e-001	-1.287283e-002	-7.593414e-003
42251407.129	-1.019110e-002	-1.127837e-002	7.042527e-001	-7.094022e-001	7.042927e-001	-7.087637e-001	-1.293486e-002	-7.526513e-003
42282676.673	-1.017041e-002	-1.126377e-002	7.037163e-001	-7.096990e-001	7.038283e-001	-7.090829e-001	-1.287764e-002	-7.551646e-003
42313946.216	-1.021606e-002	-1.121074e-002	7.033977e-001	-7.102116e-001	7.035600e-001	-7.096368e-001	-1.290396e-002	-7.557353e-003
42345215.760	-1.029427e-002	-1.130203e-002	7.028622e-001	-7.105590e-001	7.030244e-001	-7.100567e-001	-1.301433e-002	-7.514951e-003
42376485.303	-1.026389e-002	-1.128669e-002	7.024310e-001	-7.109996e-001	7.025581e-001	-7.103308e-001	-1.295454e-002	-7.489207e-003
42407754.847	-1.023474e-002	-1.123490e-002	7.019765e-001	-7.113311e-001	7.022204e-001	-7.107927e-001	-1.294772e-002	-7.495721e-003
42439024.390	-1.028599e-002	-1.129952e-002	7.016267e-001	-7.117617e-001	7.018044e-001	-7.110773e-001	-1.302779e-002	-7.578488e-003
42470293.934	-1.022445e-002	-1.130375e-002	7.012539e-001	-7.121980e-001	7.014865e-001	-7.116238e-001	-1.297975e-002	-7.559319e-003
42501563.477	-1.029162e-002	-1.119631e-002	7.009289e-001	-7.124802e-001	7.010811e-001	-7.121475e-001	-1.294684e-002	-7.539542e-003
42532833.021	-1.022331e-002	-1.123748e-002	7.004623e-001	-7.129383e-001	7.007300e-001	-7.126046e-001	-1.307208e-002	-7.554315e-003
42564102.564	-1.029941e-002	-1.123952e-002	7.000100e-001	-7.135217e-001	7.001687e-001	-7.129129e-001	-1.308317e-002	-7.567403e-003
42595372.108	-1.027776e-002	-1.122664e-002	6.994621e-001	-7.139404e-001	6.997792e-001	-7.134048e-001	-1.314369e-002	-7.543251e-003
42626641.651	-1.030440e-002	-1.136487e-002	6.991852e-001	-7.141314e-001	6.993744e-001	-7.136127e-001	-1.313766e-002	-7.524563e-003
42657911.194	-1.033350e-002	-1.126349e-002	6.987160e-001	-7.146873e-001	6.989491e-001	-7.141229e-001	-1.311251e-002	-7.504064e-003
42689180.738	-1.037746e-002	-1.120636e-002	6.983715e-001	-7.150322e-001	6.985299e-001	-7.145165e-001	-1.318417e-002	-7.532488e-003
42720450.281	-1.039987e-002	-1.129671e-002	6.977353e-001	-7.152591e-001	6.980107e-001	-7.148762e-001	-1.311456e-002	-7.502765e-003
42751719.825	-1.037630e-002	-1.137186e-002	6.974620e-001	-7.158195e-001	6.978826e-001	-7.151838e-001	-1.309734e-002	-7.529701e-003
42782989.368	-1.047425e-002	-1.126871e-002	6.970576e-001	-7.164350e-001	6.972730e-001	-7.157468e-001	-1.320263e-002	-7.457522e-003
42814258.912	-1.036299e-002	-1.127701e-002	6.968071e-001	-7.166695e-001	6.968937e-001	-7.161521e-001	-1.317604e-002	-7.615494e-003
42845528.455	-1.043832e-002	-1.121950e-002	6.962103e-001	-7.172078e-001	6.964860e-001	-7.165719e-001	-1.318243e-002	-7.459852e-003
42876797.999	-1.035675e-002	-1.127844e-002	6.958926e-001	-7.173880e-001	6.959996e-001	-7.170132e-001	-1.323908e-002	-7.549761e-003
42908067.542	-1.047920e-002	-1.127682e-002	6.954245e-001	-7.176965e-001	6.957130e-001	-7.172507e-001	-1.325020e-002	-7.586201e-003
42939337.086	-1.038326e-002	-1.122947e-002	6.949877e-001	-7.181994e-001	6.949981e-001	-7.177330e-001	-1.320712e-002	-7.575015e-003
42970606.629	-1.047624e-002	-1.130778e-002	6.945471e-001	-7.186591e-001	6.946472e-001	-7.181658e-001	-1.331223e-002	-7.616176e-003
43001876.173	-1.047727e-002	-1.129743e-002	6.941367e-001	-7.191613e-001	6.943448e-001	-7.186193e-001	-1.331601e-002	-7.428773e-003
43033145.716	-1.038456e-002	-1.124083e-002	6.935654e-001	-7.195381e-001	6.938586e-001	-7.190545e-001	-1.334772e-002	-7.458437e-003
43064415.260	-1.043136e-002	-1.130781e-002	6.931914e-001	-7.198555e-001	6.935757e-001	-7.194187e-001	-1.334199e-002	-7.520833e-003
43095684.803	-1.050062e-002	-1.126992e-002	6.927693e-001	-7.203656e-001	6.930519e-001	-7.198011e-001	-1.337970e-002	-7.503287e-003
43126954.346	-1.043461e-002	-1.124310e-002	6.924664e-001	-7.207291e-001	6.926136e-001	-7.202206e-001	-1.341575e-002	-7.433233e-003
43158223.890	-1.048998e-002	-1.128498e-002	6.920421e-001	-7.209645e-001	6.921289e-001	-7.205741e-001	-1.344182e-002	-7.425441e-003
43189493.433	-1.050107e-002	-1.133894e-002	6.917355e-001	-7.216674e-001	6.915698e-001	-7.211310e-001	-1.343935e-002	-7.387965e-003
43220762.977	-1.050952e-002	-1.124946e-002	6.912469e-001	-7.220019e-001	6.913918e-001	-7.213240e-001	-1.345852e-002	-7.483995e-003
43252032.520	-1.055604e-002	-1.135479e-002	6.907209e-001	-7.223641e-001	6.908607e-001	-7.219269e-001	-1.339941e-002	-7.496204e-003
43283302.064	-1.057394e-002	-1.123158e-002	6.903226e-001	-7.226754e-001	6.903867e-001	-7.221209e-001	-1.339082e-002	-7.424150e-003
43314571.607	-1.061692e-002	-1.134135e-002	6.899732e-001	-7.231681e-001	6.903115e-001	-7.226172e-001	-1.348073e-002	-7.331922e-003
43345841.151	-1.054885e-002	-1.129166e-002	6.894351e-001	-7.235402e-001	6.897177e-001	-7.230314e-001	-1.349042e-002	-7.361883e-003
43377110.694	-1.064237e-002	-1.132083e-002	6.890689e-001	-7.238891e-001	6.891791e-001	-7.234921e-001	-1.353638e-002	-7.409904e-003
43408380.238	-1.056217e-002	-1.137916e-002	6.887107e-001	-7.245057e-001	6.887600e-001	-7.237443e-001	-1.348613e-002	-7.425933e-003
43439649.781	-1.057943e-002	-1.135602e-002	6.881330e-001	-7.247501e-001	6.882147e-001	-7.242691e-001	-1.346581e-002	-7.408692e-003
43470919.325	-1.065641e-002	-1.133242e-002	6.876677e-001	-7.252611e-001	6.880745e-001	-7.247545e-001	-1.348563e-002	-7.312572e-003
43502188.868	-1.065601e-002	-1.137692e-002	6.873781e-001	-7.256594e-001	6.873939e-001	-7.250662e-001	-1.353833e-002	-7.342294e-003
43533458.412	-1.059166e-002	-1.127682e-002	6.869311e-001	-7.258729e-001	6.870405e-001	-7.254082e-001	-1.349462e-002	-7.405377e-003
43564727.955	-1.069528e-002	-1.129874e-002	6.865712e-001	-7.262613e-001	6.866562e-001	-7.260674e-001	-1.359318e-002	-7.415879e-003
43595997.498	-1.065789e-002	-1.137528e-002	6.860413e-001	-7.266565e-001	6.861105e-001	-7.262151e-001	-1.360947e-002	-7.374097e-003
43627267.042	-1.067726e-002	-1.139578e-002	6.857854e-001	-7.271045e-001	6.858072e-001	-7.267553e-001	-1.363861e-002	-7.318771e-003
43658536.585	-1.064800e-002	-1.140262e-002	6.852295e-001	-7.275040e-001	6.853355e-001	-7.270804e-001	-1.365348e-002	-7.343699e-003
43689806.129	-1.061862e-002	-1.140920e-002	6.847073e-001	-7.279460e-001	6.849611e-001	-7.274477e-001	-1.363350e-002	-7.393906e-003
43721075.672	-1.077452e-002	-1.125217e-002	6.842812e-001	-7.282701e-001	6.845243e-001	-7.279076e-001	-1.364576e-002	-7.395590e-003
43752345.216	-1.068053e-002	-1.139546e-002	6.841025e-001	-7.287918e-001	6.840051e-001	-7.283770e-001	-1.363357e-002	-7.323089e-003
43783614.759	-1.068655e-002	-1.140149e-002	6.834716e-001	-7.291135e-001	6.837371e-001	-7.287068e-001	-1.368205e-002	-7.391990e-003
43814884.303	-1.080702e-002	-1.134443e-002	6.831578e-001	-7.294745e-001	6.832562e-001	-7.290357e-001	-1.372586e-002	-7.306957e-003
43846153.846	-1.071691e-002	-1.140482e-002	6.828060e-001	-7.299128e-001	6.829864e-001	-7.295011e-001	-1.375694e-002	-7.332656e-003
43877423.390	-1.075809e-002	-1.140344e-002	6.821706e-001	-7.304792e-001	6.824136e-001	-7.298790e-001	-1.368759e-002	-7.331607e-003
43908692.933	-1.081746e-002	-1.130059e-002	6.816919e-001	-7.308662e-001	6.821052e-001	-7.301852e-001	-1.376297e-002	-7.266407e-003
43939962.477	-1.082444e-002	-1.132155e-002	6.814891e-001	-7.312490e-001	6.816104e-001	-7.306987e-001	-1.376650e-002	-7.291434e-003
43971232.020	-1.079672e-002	-1.138987e-002	6.808877e-001	-7.315406e-001	6.811278e-001	-7.311271e-001	-1.375874e-002	-7.296451e-003
44002501.563	-1.080194e-002	-1.141371e-002	6.804125e-001	-7.318285e-001	6.807709e-001	-7.313192e-001	-1.377308e-002	-7.212393e-003
44033771.107	-1.079152e-002	-1.141424e-002	6.800813e-001	-7.324234e-001	6.803617e-001	-7.317525e-001	-1.379543e-002	-7.258864e-003
44065040.650	-1.079529e-002	-1.130235e-002	6.797249e-001	-7.327871e-001	6.799196e-001	-7.322326e-001	-1.374092e-002	-7.200622e-003
44096310.194	-1.089245e-002	-1.136790e-002	6.793490e-001	-7.331025e-001	6.794022e-001	-7.326088e-001	-1.380928e-002	-7.278389e-003
44127579.737	-1.086681e-002	-1.140777e-002	6.788376e-001	-7.335511e-001	6.790476e-001	-7.328820e-001	-1.382114e-002	-7.287849e-003
44158849.281	-1.084350e-002	-1.137925e-002	6.784021e-001	-7.338491e-001	6.786987e-001	-7.334689e-001	-1.383024e-002	-7.275876e-003
44190118.824	-1.090076e-002	-1.137957e-002	6.779645e-001	-7.342648e-001	6.782437e-001	-7.338906e-001	-1.387662e-002	-7.254925e-003
44221388.368	-1.094253e-002	-1.138933e-002	6.776619e-001	-7.347651e-001	6.776366e-001	-7.342134e-001	-1.397571e-002	-7.219725e-003
44252657.911	-1.094495e-002	-1.136219e-002	6.771110e-001	-7.350993e-001	6.772514e-001	-7.347065e-001	-1.383837e-002	-7.264505e-003
44283927.455	-1.094649e-002	-1.138772e-002	6.766608e-001	-7.354415e-001	6.769147e-001	-7.350122e-001	-1.401975e-002	-7.303553e-003
44315196.998	-1.097115e-002	-1.137648e-002	6.763852e-001	-7.359577e-001	6.764883e-001	-7.353907e-001	-1.390036e-002	-7.301474e-003
44346466.542	-1.096436e-002	-1.139474e-002	6.757725e-001	-7.363392e-001	6.760126e-001	-7.358397e-001	-1.399897e-002	-7.235558e-003
44377736.085	-1.096627e-002	-1.136796e-002	6.753901e-001	-7.365221e-001	6.754424e-001	-7.361590e-001	-1.409144e-002	-7.180925e-003
44409005.629	-1.094905e-002	-1.131464e-002	6.748772e-001	-7.371647e-001	6.750517e-001	-7.364994e-001	-1.400333e-002	-7.224257e-003
44440275.172	-1.095131e-002	-1.146282e-002	6.744345e-001	-7.373834e-001	6.747735e-001	-7.369962e-001	-1.404870e-002	-7.180748e-003
44471544.715	-1.100401e-002	-1.144289e-002	6.740048e-001	-7.378542e-001	6.743632e-001	-7.373883e-001	-1.399737e-002	-7.173237e-003
44502814.259	-1.091854e-002	-1.147289e-002	6.736303e-001	-7.380404e-001	6.736836e-001	-7.377763e-001	-1.398784e-002	-7.185973e-003
44534083.802	-1.104276e-002	-1.138050e-002	6.731057e-001	-7.386985e-001	6.733525e-001	-7.381173e-001	-1.404289e-002	-7.246947e-003
44565353.346	-1.106176e-002	-1.137163e-002	6.727481e-001	-7.390871e-001	6.730424e-001	-7.385083e-001	-1.412124e-002	-7.078812e-003
44596622.889	-1.108101e-002	-1.143230e-002	6.723681e-001	-7.393634e-001	6.725886e-001	-7.388971e-001	-1.409051e-002	-7.150918e-003
44627892.433	-1.103396e-002	-1.141534e-002	6.718961e-001	-7.397462e-001	6.720985e-001	-7.393219e-001	-1.417235e-002	-7.216839e-003
44659161.976	-1.107759e-002	-1.137283e-002	6.712998e-001	-7.401844e-001	6.717123e-001	-7.396726e-001	-1.414022e-002	-7.141161e-003
44690431.520	-1.105631e-002	-1.149777e-002	6.710338e-001	-7.405628e-001	6.711945e-001	-7.400412e-001	-1.414530e-002	-7.131298e-003
