!Agilent Technologies,E5061B,MY49102235,A.02.00
!Date: Mon Jul 03 11:21:13 2023
!Data & Calibration Information:
!Freq	S11:SOLT2(ON)	S21:SOLT2(ON)	S12:SOLT2(ON)	S22:SOLT2(ON)
# Hz S RI R 50
40000000.000	-3.104118e-002	-3.706327e-002	7.554546e-001	-6.536563e-001	7.555908e-001	-6.528110e-001	-3.563178e-002	-3.167221e-002
40031269.543	-3.108745e-002	-3.712974e-002	7.551746e-001	-6.540761e-001	7.552483e-001	-6.530842e-001	-3.565581e-002	-3.165287e-002
40062539.087	-3.116254e-002	-3.713322e-002	7.544968e-001	-6.542488e-001	7.548136e-001	-6.535165e-001	-3.565960e-002	-3.167847e-002
40093808.630	-3.120321e-002	-3.711450e-002	7.542385e-001	-6.548209e-001	7.544592e-001	-6.541448e-001	-3.574326e-002	-3.164566e-002
40125078.174	-3.127993e-002	-3.710400e-002	7.538865e-001	-6.551678e-001	7.539571e-001	-6.544409e-001	-3.572682e-002	-3.156862e-002
40156347.717	-3.125388e-002	-3.714580e-002	7.536506e-001	-6.557035e-001	7.536516e-001	-6.550215e-001	-3.583923e-002	-3.164569e-002
40187617.261	-3.133818e-002	-3.721775e-002	7.532522e-001	-6.559725e-001	7.534487e-001	-6.554414e-001	-3.587630e-002	-3.177286e-002
40218886.804	-3.133839e-002	-3.715116e-002	7.528821e-001	-6.565685e-001	7.529409e-001	-6.556749e-001	-3.588864e-002	-3.171674e-002
40250156.348	-3.139471e-002	-3.716510e-002	7.525457e-001	-6.568543e-001	7.526212e-001	-6.562117e-001	-3.601142e-002	-3.174512e-002
40281425.891	-3.147151e-002	-3.719723e-002	7.521502e-001	-6.573438e-001	7.522521e-001	-6.565822e-001	-3.603036e-002	-3.169445e-002
40312695.435	-3.147160e-002	-3.719277e-002	7.517405e-001	-6.579448e-001	7.519070e-001	-6.569728e-001	-3.603317e-002	-3.170433e-002
40343964.978	-3.150595e-002	-3.714152e-002	7.514109e-001	-6.580573e-001	7.515111e-001	-6.574144e-001	-3.612216e-002	-3.165327e-002
40375234.522	-3.153372e-002	-3.714944e-002	7.509305e-001	-6.585988e-001	7.511970e-001	-6.577538e-001	-3.618981e-002	-3.167814e-002
40406504.065	-3.164146e-002	-3.713201e-002	7.504682e-001	-6.588429e-001	7.507788e-001	-6.583476e-001	-3.617500e-002	-3.176026e-002
40437773.609	-3.174256e-002	-3.725648e-002	7.504124e-001	-6.593214e-001	7.504909e-001	-6.586062e-001	-3.622084e-002	-3.175408e-002
40469043.152	-3.166677e-002	-3.724529e-002	7.499475e-001	-6.597806e-001	7.501471e-001	-6.590461e-001	-3.632808e-002	-3.168367e-002
40500312.695	-3.176608e-002	-3.731533e-002	7.493512e-001	-6.602679e-001	7.497636e-001	-6.594653e-001	-3.638383e-002	-3.166865e-002
40531582.239	-3.178331e-002	-3.723419e-002	7.490665e-001	-6.603751e-001	7.492427e-001	-6.601458e-001	-3.645269e-002	-3.165343e-002
40562851.782	-3.184070e-002	-3.720679e-002	7.486527e-001	-6.609422e-001	7.488126e-001	-6.603606e-001	-3.639100e-002	-3.180098e-002
40594121.326	-3.186907e-002	-3.725675e-002	7.485219e-001	-6.615202e-001	7.485832e-001	-6.606605e-001	-3.647656e-002	-3.166427e-002
40625390.869	-3.189565e-002	-3.721170e-002	7.481224e-001	-6.618485e-001	7.484023e-001	-6.612775e-001	-3.656187e-002	-3.176737e-002
40656660.413	-3.195307e-002	-3.725869e-002	7.476659e-001	-6.622651e-001	7.479962e-001	-6.614990e-001	-3.657508e-002	-3.169904e-002
40687929.956	-3.198289e-002	-3.725598e-002	7.475888e-001	-6.628838e-001	7.476553e-001	-6.619353e-001	-3.662848e-002	-3.172780e-002
40719199.500	-3.204788e-002	-3.719332e-002	7.468683e-001	-6.630090e-001	7.471154e-001	-6.626042e-001	-3.660724e-002	-3.174386e-002
40750469.043	-3.210773e-002	-3.724321e-002	7.464686e-001	-6.633505e-001	7.467270e-001	-6.628698e-001	-3.680749e-002	-3.170197e-002
40781738.587	-3.205831e-002	-3.735635e-002	7.462409e-001	-6.639859e-001	7.463782e-001	-6.633413e-001	-3.687570e-002	-3.171028e-002
40813008.130	-3.217796e-002	-3.731247e-002	7.460071e-001	-6.642858e-001	7.459151e-001	-6.637460e-001	-3.686556e-002	-3.170776e-002
40844277.674	-3.219905e-002	-3.726066e-002	7.454690e-001	-6.647399e-001	7.455811e-001	-6.640979e-001	-3.698405e-002	-3.170284e-002
40875547.217	-3.223003e-002	-3.732419e-002	7.450258e-001	-6.652879e-001	7.453595e-001	-6.644044e-001	-3.696452e-002	-3.172011e-002
40906816.760	-3.228762e-002	-3.727171e-002	7.448677e-001	-6.656448e-001	7.448707e-001	-6.648554e-001	-3.691092e-002	-3.175447e-002
40938086.304	-3.239719e-002	-3.734461e-002	7.442049e-001	-6.660905e-001	7.446723e-001	-6.654030e-001	-3.709335e-002	-3.172552e-002
40969355.847	-3.244624e-002	-3.730671e-002	7.438059e-001	-6.663504e-001	7.441730e-001	-6.657833e-001	-3.714618e-002	-3.168771e-002
41000625.391	-3.246647e-002	-3.728861e-002	7.434073e-001	-6.667216e-001	7.436704e-001	-6.661107e-001	-3.713170e-002	-3.169365e-002
41031894.934	-3.234408e-002	-3.723671e-002	7.433452e-001	-6.671334e-001	7.433736e-001	-6.667064e-001	-3.723608e-002	-3.170746e-002
41063164.478	-3.252460e-002	-3.729462e-002	7.429032e-001	-6.676424e-001	7.431112e-001	-6.670544e-001	-3.723339e-002	-3.173962e-002
41094434.021	-3.257531e-002	-3.735749e-002	7.425071e-001	-6.679989e-001	7.426340e-001	-6.673567e-001	-3.732277e-002	-3.172425e-002
41125703.565	-3.257368e-002	-3.735105e-002	7.421697e-001	-6.684681e-001	7.424007e-001	-6.676962e-001	-3.738382e-002	-3.170586e-002
41156973.108	-3.258914e-002	-3.738872e-002	7.418365e-001	-6.687141e-001	7.417947e-001	-6.682580e-001	-3.742650e-002	-3.171055e-002
41188242.652	-3.266156e-002	-3.729104e-002	7.414158e-001	-6.694770e-001	7.415548e-001	-6.686426e-001	-3.739173e-002	-3.176956e-002
41219512.195	-3.267820e-002	-3.742688e-002	7.409929e-001	-6.698021e-001	7.411100e-001	-6.690202e-001	-3.750310e-002	-3.178998e-002
41250781.739	-3.278344e-002	-3.739408e-002	7.404211e-001	-6.703593e-001	7.407351e-001	-6.694924e-001	-3.751776e-002	-3.171127e-002
41282051.282	-3.277666e-002	-3.744574e-002	7.402528e-001	-6.705998e-001	7.403516e-001	-6.698724e-001	-3.764718e-002	-3.176841e-002
41313320.826	-3.287812e-002	-3.734236e-002	7.397764e-001	-6.708899e-001	7.400347e-001	-6.702372e-001	-3.766054e-002	-3.176339e-002
41344590.369	-3.294389e-002	-3.745190e-002	7.393278e-001	-6.711531e-001	7.397245e-001	-6.707994e-001	-3.765712e-002	-3.168392e-002
41375859.912	-3.305759e-002	-3.738821e-002	7.391284e-001	-6.717531e-001	7.390438e-001	-6.710789e-001	-3.770728e-002	-3.173595e-002
41407129.456	-3.300308e-002	-3.741676e-002	7.388384e-001	-6.720178e-001	7.388168e-001	-6.713636e-001	-3.785308e-002	-3.165907e-002
41438398.999	-3.304412e-002	-3.749873e-002	7.384945e-001	-6.726795e-001	7.386209e-001	-6.719151e-001	-3.789746e-002	-3.169009e-002
41469668.543	-3.313470e-002	-3.731944e-002	7.379523e-001	-6.730717e-001	7.380847e-001	-6.724673e-001	-3.788972e-002	-3.171652e-002
41500938.086	-3.316147e-002	-3.744332e-002	7.376268e-001	-6.733769e-001	7.378563e-001	-6.727147e-001	-3.794362e-002	-3.179391e-002
41532207.630	-3.317230e-002	-3.745584e-002	7.372510e-001	-6.738229e-001	7.374354e-001	-6.731422e-001	-3.799377e-002	-3.173381e-002
41563477.173	-3.318089e-002	-3.749741e-002	7.368101e-001	-6.742942e-001	7.370150e-001	-6.734927e-001	-3.797486e-002	-3.178982e-002
41594746.717	-3.318655e-002	-3.747676e-002	7.364042e-001	-6.746686e-001	7.366373e-001	-6.739805e-001	-3.808686e-002	-3.168742e-002
41626016.260	-3.340135e-002	-3.753125e-002	7.360805e-001	-6.750514e-001	7.362444e-001	-6.743612e-001	-3.815708e-002	-3.170748e-002
41657285.804	-3.332678e-002	-3.751601e-002	7.357433e-001	-6.755413e-001	7.359018e-001	-6.747268e-001	-3.815916e-002	-3.171744e-002
41688555.347	-3.333937e-002	-3.749398e-002	7.352860e-001	-6.758502e-001	7.355140e-001	-6.752622e-001	-3.821456e-002	-3.170978e-002
41719824.891	-3.337770e-002	-3.742562e-002	7.349800e-001	-6.763566e-001	7.351283e-001	-6.755391e-001	-3.829716e-002	-3.166267e-002
41751094.434	-3.350134e-002	-3.736393e-002	7.346351e-001	-6.765922e-001	7.346706e-001	-6.762400e-001	-3.828754e-002	-3.177787e-002
41782363.977	-3.344478e-002	-3.751747e-002	7.342806e-001	-6.771301e-001	7.344338e-001	-6.763688e-001	-3.850494e-002	-3.171622e-002
41813633.521	-3.356672e-002	-3.752300e-002	7.337273e-001	-6.773882e-001	7.341149e-001	-6.767854e-001	-3.838607e-002	-3.166290e-002
41844903.064	-3.362458e-002	-3.748949e-002	7.335887e-001	-6.777653e-001	7.335720e-001	-6.773261e-001	-3.853386e-002	-3.170998e-002
41876172.608	-3.363179e-002	-3.751604e-002	7.329048e-001	-6.783180e-001	7.333761e-001	-6.777023e-001	-3.862359e-002	-3.166587e-002
41907442.151	-3.373052e-002	-3.746435e-002	7.327082e-001	-6.786663e-001	7.329570e-001	-6.781453e-001	-3.864363e-002	-3.169216e-002
41938711.695	-3.365396e-002	-3.751534e-002	7.322093e-001	-6.791204e-001	7.325957e-001	-6.784233e-001	-3.856286e-002	-3.173991e-002
41969981.238	-3.374340e-002	-3.760224e-002	7.319252e-001	-6.795091e-001	7.320607e-001	-6.790523e-001	-3.863943e-002	-3.166572e-002
42001250.782	-3.377837e-002	-3.750206e-002	7.315541e-001	-6.800031e-001	7.317550e-001	-6.791413e-001	-3.872766e-002	-3.168503e-002
42032520.325	-3.381182e-002	-3.747807e-002	7.311222e-001	-6.803710e-001	7.315521e-001	-6.795341e-001	-3.882557e-002	-3.166384e-002
42063789.869	-3.390898e-002	-3.753822e-002	7.308320e-001	-6.807240e-001	7.309133e-001	-6.801919e-001	-3.893236e-002	-3.169094e-002
42095059.412	-3.392654e-002	-3.755389e-002	7.304292e-001	-6.811760e-001	7.307258e-001	-6.805727e-001	-3.891671e-002	-3.161718e-002
42126328.956	-3.402487e-002	-3.755827e-002	7.300042e-001	-6.814167e-001	7.301340e-001	-6.808635e-001	-3.899047e-002	-3.168115e-002
42157598.499	-3.397768e-002	-3.758656e-002	7.296278e-001	-6.819617e-001	7.298010e-001	-6.814673e-001	-3.900084e-002	-3.165197e-002
42188868.043	-3.404345e-002	-3.760308e-002	7.293768e-001	-6.822080e-001	7.295042e-001	-6.817688e-001	-3.908677e-002	-3.163009e-002
42220137.586	-3.402026e-002	-3.757226e-002	7.288266e-001	-6.828351e-001	7.290881e-001	-6.820209e-001	-3.911751e-002	-3.167176e-002
42251407.129	-3.414676e-002	-3.761728e-002	7.285914e-001	-6.832904e-001	7.286507e-001	-6.826148e-001	-3.921369e-002	-3.160425e-002
42282676.673	-3.415589e-002	-3.761749e-002	7.281065e-001	-6.835823e-001	7.282155e-001	-6.829440e-001	-3.919540e-002	-3.162760e-002
42313946.216	-3.424404e-002	-3.757214e-002	7.278223e-001	-6.840879e-001	7.279884e-001	-6.834411e-001	-3.925292e-002	-3.163828e-002
42345215.760	-3.434591e-002	-3.766848e-002	7.272961e-001	-6.844186e-001	7.274917e-001	-6.838608e-001	-3.940093e-002	-3.159849e-002
42376485.303	-3.435422e-002	-3.766078e-002	7.269007e-001	-6.848592e-001	7.270939e-001	-6.841372e-001	-3.937729e-002	-3.157489e-002
42407754.847	-3.436045e-002	-3.760382e-002	7.264672e-001	-6.851848e-001	7.267620e-001	-6.845780e-001	-3.940620e-002	-3.158215e-002
42439024.390	-3.443323e-002	-3.767490e-002	7.261709e-001	-6.856349e-001	7.263705e-001	-6.848597e-001	-3.951608e-002	-3.167599e-002
42470293.934	-3.440102e-002	-3.768118e-002	7.258268e-001	-6.860519e-001	7.260870e-001	-6.854251e-001	-3.949885e-002	-3.165019e-002
42501563.477	-3.450288e-002	-3.758726e-002	7.255178e-001	-6.863200e-001	7.257166e-001	-6.859248e-001	-3.950740e-002	-3.163004e-002
42532833.021	-3.446673e-002	-3.763494e-002	7.250999e-001	-6.867506e-001	7.254046e-001	-6.863620e-001	-3.965884e-002	-3.164786e-002
42564102.564	-3.458421e-002	-3.765098e-002	7.246937e-001	-6.873460e-001	7.248495e-001	-6.866593e-001	-3.970917e-002	-3.165888e-002
42595372.108	-3.458415e-002	-3.764337e-002	7.241709e-001	-6.877771e-001	7.245045e-001	-6.871628e-001	-3.979742e-002	-3.163419e-002
42626641.651	-3.466250e-002	-3.776898e-002	7.239099e-001	-6.879616e-001	7.241282e-001	-6.873622e-001	-3.982260e-002	-3.162316e-002
42657911.194	-3.471361e-002	-3.767963e-002	7.234947e-001	-6.884781e-001	7.237317e-001	-6.878830e-001	-3.984869e-002	-3.161300e-002
42689180.738	-3.479715e-002	-3.764840e-002	7.231919e-001	-6.888311e-001	7.233448e-001	-6.882696e-001	-3.994827e-002	-3.163809e-002
42720450.281	-3.484312e-002	-3.773429e-002	7.225792e-001	-6.890625e-001	7.228542e-001	-6.886151e-001	-3.990499e-002	-3.160478e-002
42751719.825	-3.485096e-002	-3.781224e-002	7.223385e-001	-6.896140e-001	7.227658e-001	-6.889214e-001	-3.993380e-002	-3.162312e-002
42782989.368	-3.499107e-002	-3.771816e-002	7.219457e-001	-6.902047e-001	7.221928e-001	-6.894987e-001	-4.007228e-002	-3.156553e-002
42814258.912	-3.491272e-002	-3.772387e-002	7.217443e-001	-6.904451e-001	7.218450e-001	-6.898982e-001	-4.007933e-002	-3.171603e-002
42845528.455	-3.503029e-002	-3.768696e-002	7.212117e-001	-6.909605e-001	7.214829e-001	-6.902770e-001	-4.012512e-002	-3.157870e-002
42876797.999	-3.497198e-002	-3.774561e-002	7.209023e-001	-6.911733e-001	7.210240e-001	-6.907283e-001	-4.020499e-002	-3.165987e-002
42908067.542	-3.510744e-002	-3.774829e-002	7.204444e-001	-6.914769e-001	7.207645e-001	-6.909366e-001	-4.025728e-002	-3.168806e-002
42939337.086	-3.506095e-002	-3.770731e-002	7.200525e-001	-6.919470e-001	7.200861e-001	-6.914456e-001	-4.024321e-002	-3.168962e-002
42970606.629	-3.518816e-002	-3.779695e-002	7.196392e-001	-6.924135e-001	7.197865e-001	-6.918691e-001	-4.038078e-002	-3.172792e-002
43001876.173	-3.522685e-002	-3.778610e-002	7.192884e-001	-6.929081e-001	7.195378e-001	-6.923245e-001	-4.043485e-002	-3.154689e-002
43033145.716	-3.516753e-002	-3.773010e-002	7.187382e-001	-6.933001e-001	7.190368e-001	-6.927483e-001	-4.050799e-002	-3.158057e-002
43064415.260	-3.524540e-002	-3.780808e-002	7.183930e-001	-6.936033e-001	7.188219e-001	-6.931048e-001	-4.053174e-002	-3.164234e-002
43095684.803	-3.533876e-002	-3.776739e-002	7.180292e-001	-6.940979e-001	7.183000e-001	-6.935023e-001	-4.060696e-002	-3.162174e-002
43126954.346	-3.531175e-002	-3.775896e-002	7.177424e-001	-6.944558e-001	7.179033e-001	-6.939076e-001	-4.066677e-002	-3.155318e-002
43158223.890	-3.539634e-002	-3.781371e-002	7.173451e-001	-6.946873e-001	7.174605e-001	-6.942461e-001	-4.073598e-002	-3.156649e-002
43189493.433	-3.544533e-002	-3.785666e-002	7.170861e-001	-6.953526e-001	7.169568e-001	-6.948096e-001	-4.077046e-002	-3.151811e-002
43220762.977	-3.547951e-002	-3.777904e-002	7.165971e-001	-6.957090e-001	7.167938e-001	-6.949920e-001	-4.081155e-002	-3.160969e-002
43252032.520	-3.556581e-002	-3.789183e-002	7.161132e-001	-6.960594e-001	7.162916e-001	-6.955951e-001	-4.080018e-002	-3.161910e-002
43283302.064	-3.561360e-002	-3.778258e-002	7.157518e-001	-6.963958e-001	7.158624e-001	-6.957894e-001	-4.081917e-002	-3.154098e-002
43314571.607	-3.568717e-002	-3.789615e-002	7.154562e-001	-6.968634e-001	7.158180e-001	-6.962590e-001	-4.095371e-002	-3.145769e-002
43345841.151	-3.566339e-002	-3.784046e-002	7.149424e-001	-6.972144e-001	7.152141e-001	-6.966795e-001	-4.099555e-002	-3.148257e-002
43377110.694	-3.578890e-002	-3.788635e-002	7.146009e-001	-6.975697e-001	7.147549e-001	-6.971168e-001	-4.106905e-002	-3.153719e-002
43408380.238	-3.572144e-002	-3.793674e-002	7.142844e-001	-6.981940e-001	7.143446e-001	-6.973897e-001	-4.105637e-002	-3.155403e-002
43439649.781	-3.578735e-002	-3.791416e-002	7.137442e-001	-6.984165e-001	7.138543e-001	-6.979144e-001	-4.107114e-002	-3.153217e-002
43470919.325	-3.590470e-002	-3.790802e-002	7.133346e-001	-6.989403e-001	7.137577e-001	-6.983754e-001	-4.113737e-002	-3.144852e-002
43502188.868	-3.592168e-002	-3.795495e-002	7.130278e-001	-6.993327e-001	7.131074e-001	-6.986924e-001	-4.122518e-002	-3.146883e-002
43533458.412	-3.590653e-002	-3.786922e-002	7.126243e-001	-6.995486e-001	7.127507e-001	-6.990463e-001	-4.121215e-002	-3.153120e-002
43564727.955	-3.602905e-002	-3.789178e-002	7.123113e-001	-6.999097e-001	7.124075e-001	-6.996586e-001	-4.134494e-002	-3.155136e-002
43595997.498	-3.603321e-002	-3.796500e-002	7.118412e-001	-7.003210e-001	7.118795e-001	-6.998323e-001	-4.140298e-002	-3.151039e-002
43627267.042	-3.607075e-002	-3.799380e-002	7.115865e-001	-7.007671e-001	7.116295e-001	-7.003600e-001	-4.146012e-002	-3.145057e-002
43658536.585	-3.609166e-002	-3.799943e-002	7.110583e-001	-7.011526e-001	7.111975e-001	-7.006876e-001	-4.150152e-002	-3.148199e-002
43689806.129	-3.608231e-002	-3.801242e-002	7.105829e-001	-7.015857e-001	7.108489e-001	-7.010571e-001	-4.152524e-002	-3.153498e-002
43721075.672	-3.627085e-002	-3.786089e-002	7.101983e-001	-7.019102e-001	7.104473e-001	-7.014970e-001	-4.156842e-002	-3.153430e-002
43752345.216	-3.621324e-002	-3.801288e-002	7.100425e-001	-7.024371e-001	7.099860e-001	-7.019790e-001	-4.160112e-002	-3.146335e-002
43783614.759	-3.625674e-002	-3.802418e-002	7.094317e-001	-7.027331e-001	7.097450e-001	-7.022696e-001	-4.167293e-002	-3.152757e-002
43814884.303	-3.641804e-002	-3.798132e-002	7.091529e-001	-7.031152e-001	7.092911e-001	-7.026316e-001	-4.175655e-002	-3.145271e-002
43846153.846	-3.635089e-002	-3.803373e-002	7.088349e-001	-7.035323e-001	7.090453e-001	-7.030771e-001	-4.182075e-002	-3.146023e-002
43877423.390	-3.642762e-002	-3.804360e-002	7.082542e-001	-7.040928e-001	7.085055e-001	-7.034641e-001	-4.179480e-002	-3.147133e-002
43908692.933	-3.652240e-002	-3.794843e-002	7.078115e-001	-7.044928e-001	7.082354e-001	-7.037566e-001	-4.190695e-002	-3.140914e-002
43939962.477	-3.655617e-002	-3.797467e-002	7.076509e-001	-7.048653e-001	7.077804e-001	-7.042892e-001	-4.194655e-002	-3.142539e-002
43971232.020	-3.656773e-002	-3.803541e-002	7.070543e-001	-7.051754e-001	7.073060e-001	-7.046947e-001	-4.197494e-002	-3.142715e-002
44002501.563	-3.660576e-002	-3.807828e-002	7.066339e-001	-7.054264e-001	7.070302e-001	-7.048997e-001	-4.202942e-002	-3.135800e-002
44033771.107	-3.662823e-002	-3.807047e-002	7.063273e-001	-7.060195e-001	7.065970e-001	-7.052950e-001	-4.208676e-002	-3.139643e-002
44065040.650	-3.667207e-002	-3.796670e-002	7.059787e-001	-7.063902e-001	7.062264e-001	-7.058008e-001	-4.205877e-002	-3.132898e-002
44096310.194	-3.679254e-002	-3.804760e-002	7.056624e-001	-7.066970e-001	7.057523e-001	-7.061453e-001	-4.216365e-002	-3.141464e-002
44127579.737	-3.681068e-002	-3.808100e-002	7.051892e-001	-7.071555e-001	7.053831e-001	-7.064479e-001	-4.220721e-002	-3.141667e-002
44158849.281	-3.682209e-002	-3.805687e-002	7.047822e-001	-7.074295e-001	7.050836e-001	-7.069990e-001	-4.225561e-002	-3.140933e-002
44190118.824	-3.690598e-002	-3.807222e-002	7.043614e-001	-7.078685e-001	7.046905e-001	-7.074453e-001	-4.233005e-002	-3.138036e-002
44221388.368	-3.697826e-002	-3.807595e-002	7.041205e-001	-7.083345e-001	7.040969e-001	-7.077624e-001	-4.247115e-002	-3.135610e-002
44252657.911	-3.701915e-002	-3.806299e-002	7.036222e-001	-7.086774e-001	7.037750e-001	-7.082291e-001	-4.236717e-002	-3.139027e-002
44283927.455	-3.705313e-002	-3.809502e-002	7.031548e-001	-7.089826e-001	7.034180e-001	-7.085285e-001	-4.257983e-002	-3.143804e-002
44315196.998	-3.710645e-002	-3.808621e-002	7.029071e-001	-7.095109e-001	7.030396e-001	-7.089263e-001	-4.249803e-002	-3.143590e-002
44346466.542	-3.713797e-002	-3.810700e-002	7.023608e-001	-7.098698e-001	7.026034e-001	-7.093454e-001	-4.262947e-002	-3.137091e-002
44377736.085	-3.717369e-002	-3.808520e-002	7.019955e-001	-7.100795e-001	7.020796e-001	-7.096538e-001	-4.276094e-002	-3.132338e-002
44409005.629	-3.719151e-002	-3.803454e-002	7.015443e-001	-7.107076e-001	7.017155e-001	-7.100037e-001	-4.271058e-002	-3.136289e-002
44440275.172	-3.722441e-002	-3.819402e-002	7.011117e-001	-7.109224e-001	7.014712e-001	-7.104985e-001	-4.279652e-002	-3.131192e-002
44471544.715	-3.731541e-002	-3.816585e-002	7.007072e-001	-7.113877e-001	7.010990e-001	-7.108828e-001	-4.278692e-002	-3.130090e-002
44502814.259	-3.725459e-002	-3.821329e-002	7.003662e-001	-7.115852e-001	7.004890e-001	-7.112618e-001	-4.281322e-002	-3.131245e-002
44534083.802	-3.742142e-002	-3.812069e-002	6.998757e-001	-7.122541e-001	7.001507e-001	-7.116123e-001	-4.288344e-002	-3.137447e-002
44565353.346	-3.747139e-002	-3.812047e-002	6.995938e-001	-7.126290e-001	6.998900e-001	-7.119825e-001	-4.300735e-002	-3.122101e-002
44596622.889	-3.751209e-002	-3.818766e-002	6.992060e-001	-7.128764e-001	6.994668e-001	-7.123659e-001	-4.299891e-002	-3.127696e-002
44627892.433	-3.750668e-002	-3.816998e-002	6.987674e-001	-7.132797e-001	6.989621e-001	-7.127924e-001	-4.312516e-002	-3.134867e-002
44659161.976	-3.758731e-002	-3.813616e-002	6.982040e-001	-7.137202e-001	6.986569e-001	-7.131554e-001	-4.313182e-002	-3.127012e-002
44690431.520	-3.760361e-002	-3.824577e-002	6.980038e-001	-7.141079e-001	6.981518e-001	-7.135458e-001	-4.318449e-002	-3.126127e-002
