!Agilent Technologies,E5061B,MY49102235,A.02.00
!Date: Mon Jul 03 11:14:52 2023
!Data & Calibration Information:
!Freq	S11:SOLT2(ON)	S21:SOLT2(ON)	S12:SOLT2(ON)	S22:SOLT2(ON)
# Hz S RI R 50
40000000.000	6.455227e-002	-4.023994e-002	6.595227e-001	-6.498466e-001	6.596145e-001	-6.491284e-001	5.950052e-002	-4.258903e-002
40031269.543	6.452496e-002	-4.036682e-002	6.591921e-001	-6.502034e-001	6.593026e-001	-6.493688e-001	5.951316e-002	-4.263488e-002
40062539.087	6.449967e-002	-4.042769e-002	6.585577e-001	-6.503186e-001	6.588476e-001	-6.497262e-001	5.950726e-002	-4.276106e-002
40093808.630	6.447417e-002	-4.048006e-002	6.582289e-001	-6.508096e-001	6.584174e-001	-6.502627e-001	5.946793e-002	-4.279537e-002
40125078.174	6.444420e-002	-4.053070e-002	6.578632e-001	-6.511015e-001	6.579061e-001	-6.505315e-001	5.951599e-002	-4.279692e-002
40156347.717	6.449142e-002	-4.065385e-002	6.575742e-001	-6.515964e-001	6.575707e-001	-6.510142e-001	5.940942e-002	-4.294376e-002
40187617.261	6.445503e-002	-4.076706e-002	6.571618e-001	-6.518125e-001	6.573106e-001	-6.513618e-001	5.939262e-002	-4.311337e-002
40218886.804	6.446522e-002	-4.078217e-002	6.567109e-001	-6.523214e-001	6.567847e-001	-6.515423e-001	5.943181e-002	-4.314631e-002
40250156.348	6.444621e-002	-4.084742e-002	6.563678e-001	-6.525273e-001	6.564574e-001	-6.520043e-001	5.930152e-002	-4.324226e-002
40281425.891	6.440200e-002	-4.095838e-002	6.559448e-001	-6.529647e-001	6.560359e-001	-6.523321e-001	5.933749e-002	-4.326089e-002
40312695.435	6.443086e-002	-4.102476e-002	6.554943e-001	-6.534751e-001	6.556558e-001	-6.526308e-001	5.934529e-002	-4.336005e-002
40343964.978	6.441753e-002	-4.104592e-002	6.551301e-001	-6.535371e-001	6.552435e-001	-6.530046e-001	5.929371e-002	-4.337645e-002
40375234.522	6.442929e-002	-4.112347e-002	6.546282e-001	-6.539862e-001	6.549008e-001	-6.532977e-001	5.923935e-002	-4.347423e-002
40406504.065	6.434558e-002	-4.115347e-002	6.541949e-001	-6.541976e-001	6.544406e-001	-6.538254e-001	5.926628e-002	-4.362938e-002
40437773.609	6.429057e-002	-4.133730e-002	6.540975e-001	-6.546218e-001	6.541631e-001	-6.540299e-001	5.921813e-002	-4.371806e-002
40469043.152	6.437073e-002	-4.139317e-002	6.535716e-001	-6.549874e-001	6.537594e-001	-6.543916e-001	5.918193e-002	-4.370897e-002
40500312.695	6.428785e-002	-4.153565e-002	6.529941e-001	-6.554121e-001	6.533423e-001	-6.547501e-001	5.913289e-002	-4.376542e-002
40531582.239	6.432003e-002	-4.152526e-002	6.526926e-001	-6.554716e-001	6.527788e-001	-6.553295e-001	5.910379e-002	-4.382819e-002
40562851.782	6.428992e-002	-4.155657e-002	6.521954e-001	-6.559608e-001	6.523921e-001	-6.554833e-001	5.915460e-002	-4.405454e-002
40594121.326	6.429356e-002	-4.170096e-002	6.520383e-001	-6.564723e-001	6.520854e-001	-6.557497e-001	5.913030e-002	-4.399278e-002
40625390.869	6.428887e-002	-4.170693e-002	6.516249e-001	-6.567227e-001	6.518693e-001	-6.562719e-001	5.904400e-002	-4.415251e-002
40656660.413	6.426222e-002	-4.180981e-002	6.511535e-001	-6.570904e-001	6.514415e-001	-6.564737e-001	5.905417e-002	-4.416416e-002
40687929.956	6.428967e-002	-4.186308e-002	6.510019e-001	-6.576319e-001	6.510859e-001	-6.568069e-001	5.901788e-002	-4.426486e-002
40719199.500	6.423292e-002	-4.188388e-002	6.502893e-001	-6.577031e-001	6.504765e-001	-6.573925e-001	5.906626e-002	-4.436984e-002
40750469.043	6.421182e-002	-4.201254e-002	6.498367e-001	-6.579520e-001	6.500914e-001	-6.576250e-001	5.889075e-002	-4.438448e-002
40781738.587	6.425444e-002	-4.217751e-002	6.495794e-001	-6.585443e-001	6.497220e-001	-6.580039e-001	5.884812e-002	-4.445968e-002
40813008.130	6.417719e-002	-4.220755e-002	6.493415e-001	-6.587754e-001	6.492099e-001	-6.583294e-001	5.888117e-002	-4.453382e-002
40844277.674	6.420178e-002	-4.220939e-002	6.487339e-001	-6.591460e-001	6.488484e-001	-6.586438e-001	5.880537e-002	-4.459898e-002
40875547.217	6.419015e-002	-4.233921e-002	6.482815e-001	-6.596207e-001	6.486283e-001	-6.588900e-001	5.882244e-002	-4.469726e-002
40906816.760	6.416364e-002	-4.235632e-002	6.480876e-001	-6.599159e-001	6.480897e-001	-6.592577e-001	5.889666e-002	-4.480778e-002
40938086.304	6.407402e-002	-4.249016e-002	6.474302e-001	-6.602884e-001	6.478528e-001	-6.597529e-001	5.874846e-002	-4.485474e-002
40969355.847	6.407603e-002	-4.251348e-002	6.469971e-001	-6.605118e-001	6.473255e-001	-6.600371e-001	5.872560e-002	-4.488739e-002
41000625.391	6.407847e-002	-4.255775e-002	6.465547e-001	-6.608143e-001	6.467965e-001	-6.602983e-001	5.873585e-002	-4.496764e-002
41031894.934	6.423036e-002	-4.261127e-002	6.464746e-001	-6.611396e-001	6.464879e-001	-6.607954e-001	5.868333e-002	-4.503426e-002
41063164.478	6.407480e-002	-4.270737e-002	6.460103e-001	-6.615942e-001	6.462016e-001	-6.611235e-001	5.869289e-002	-4.516350e-002
41094434.021	6.403362e-002	-4.283165e-002	6.455613e-001	-6.618714e-001	6.457065e-001	-6.613234e-001	5.862777e-002	-4.522227e-002
41125703.565	6.405466e-002	-4.290538e-002	6.452281e-001	-6.622736e-001	6.454134e-001	-6.616471e-001	5.858939e-002	-4.526233e-002
41156973.108	6.409154e-002	-4.301203e-002	6.448493e-001	-6.624450e-001	6.448188e-001	-6.621138e-001	5.855911e-002	-4.536588e-002
41188242.652	6.403004e-002	-4.297360e-002	6.443914e-001	-6.631261e-001	6.445257e-001	-6.624287e-001	5.863096e-002	-4.549218e-002
41219512.195	6.403881e-002	-4.317866e-002	6.439646e-001	-6.633670e-001	6.440577e-001	-6.627462e-001	5.853064e-002	-4.557562e-002
41250781.739	6.397126e-002	-4.320102e-002	6.433676e-001	-6.638615e-001	6.436671e-001	-6.631591e-001	5.852933e-002	-4.558381e-002
41282051.282	6.398182e-002	-4.332515e-002	6.431581e-001	-6.640417e-001	6.432653e-001	-6.634716e-001	5.842522e-002	-4.569968e-002
41313320.826	6.393802e-002	-4.328889e-002	6.426595e-001	-6.642748e-001	6.428849e-001	-6.637705e-001	5.844315e-002	-4.578202e-002
41344590.369	6.389072e-002	-4.345484e-002	6.422178e-001	-6.644968e-001	6.425497e-001	-6.642497e-001	5.847261e-002	-4.579005e-002
41375859.912	6.381529e-002	-4.345853e-002	6.419363e-001	-6.650342e-001	6.418573e-001	-6.644417e-001	5.843268e-002	-4.590727e-002
41407129.456	6.388195e-002	-4.356384e-002	6.416055e-001	-6.652416e-001	6.416186e-001	-6.646915e-001	5.832336e-002	-4.590009e-002
41438398.999	6.387194e-002	-4.371547e-002	6.412810e-001	-6.658179e-001	6.413544e-001	-6.651670e-001	5.829277e-002	-4.600369e-002
41469668.543	6.381864e-002	-4.360492e-002	6.406573e-001	-6.661397e-001	6.408328e-001	-6.656468e-001	5.831189e-002	-4.610838e-002
41500938.086	6.382002e-002	-4.380587e-002	6.403686e-001	-6.663540e-001	6.405567e-001	-6.658415e-001	5.826879e-002	-4.624007e-002
41532207.630	6.384285e-002	-4.387418e-002	6.399266e-001	-6.667119e-001	6.401242e-001	-6.662060e-001	5.825558e-002	-4.627607e-002
41563477.173	6.383326e-002	-4.398848e-002	6.394774e-001	-6.671596e-001	6.396865e-001	-6.664614e-001	5.828482e-002	-4.638659e-002
41594746.717	6.386395e-002	-4.403586e-002	6.390544e-001	-6.674410e-001	6.392508e-001	-6.668974e-001	5.819527e-002	-4.637981e-002
41626016.260	6.366173e-002	-4.412987e-002	6.387168e-001	-6.677977e-001	6.388522e-001	-6.672109e-001	5.815116e-002	-4.646417e-002
41657285.804	6.376665e-002	-4.421172e-002	6.383292e-001	-6.681653e-001	6.384817e-001	-6.675172e-001	5.817834e-002	-4.655108e-002
41688555.347	6.378540e-002	-4.424367e-002	6.379001e-001	-6.684451e-001	6.380597e-001	-6.679576e-001	5.812270e-002	-4.662276e-002
41719824.891	6.377584e-002	-4.425449e-002	6.375160e-001	-6.688479e-001	6.376692e-001	-6.681765e-001	5.809064e-002	-4.666067e-002
41751094.434	6.367943e-002	-4.424087e-002	6.371353e-001	-6.690528e-001	6.371557e-001	-6.687680e-001	5.808167e-002	-4.684137e-002
41782363.977	6.375580e-002	-4.446926e-002	6.367663e-001	-6.695236e-001	6.369297e-001	-6.688870e-001	5.791510e-002	-4.684166e-002
41813633.521	6.366597e-002	-4.454152e-002	6.362238e-001	-6.697327e-001	6.365641e-001	-6.692285e-001	5.804710e-002	-4.688796e-002
41844903.064	6.363962e-002	-4.457633e-002	6.359999e-001	-6.700347e-001	6.360070e-001	-6.696884e-001	5.793768e-002	-4.698477e-002
41876172.608	6.365191e-002	-4.468872e-002	6.353211e-001	-6.704761e-001	6.357877e-001	-6.700164e-001	5.785593e-002	-4.701138e-002
41907442.151	6.358927e-002	-4.469379e-002	6.350709e-001	-6.707721e-001	6.353336e-001	-6.703917e-001	5.784713e-002	-4.711173e-002
41938711.695	6.368222e-002	-4.481274e-002	6.345903e-001	-6.711493e-001	6.349200e-001	-6.705808e-001	5.793914e-002	-4.723453e-002
41969981.238	6.360439e-002	-4.495899e-002	6.342689e-001	-6.714802e-001	6.343833e-001	-6.711204e-001	5.790103e-002	-4.727323e-002
42001250.782	6.361769e-002	-4.492213e-002	6.338765e-001	-6.718883e-001	6.340717e-001	-6.711524e-001	5.783241e-002	-4.734682e-002
42032520.325	6.360653e-002	-4.497214e-002	6.334083e-001	-6.721958e-001	6.338224e-001	-6.715233e-001	5.775180e-002	-4.741721e-002
42063789.869	6.352590e-002	-4.509867e-002	6.330947e-001	-6.725113e-001	6.331490e-001	-6.720685e-001	5.768404e-002	-4.750117e-002
42095059.412	6.354484e-002	-4.518072e-002	6.326494e-001	-6.728476e-001	6.329058e-001	-6.724054e-001	5.771674e-002	-4.751288e-002
42126328.956	6.347503e-002	-4.524872e-002	6.322214e-001	-6.730699e-001	6.323658e-001	-6.726345e-001	5.763616e-002	-4.764531e-002
42157598.499	6.354412e-002	-4.535711e-002	6.318216e-001	-6.734973e-001	6.319726e-001	-6.730992e-001	5.764777e-002	-4.769747e-002
42188868.043	6.349880e-002	-4.543081e-002	6.315472e-001	-6.737477e-001	6.316361e-001	-6.733921e-001	5.759627e-002	-4.774586e-002
42220137.586	6.354585e-002	-4.547151e-002	6.309854e-001	-6.742349e-001	6.312109e-001	-6.735964e-001	5.756840e-002	-4.786454e-002
42251407.129	6.345208e-002	-4.557898e-002	6.307187e-001	-6.746319e-001	6.307479e-001	-6.740791e-001	5.750893e-002	-4.786540e-002
42282676.673	6.346643e-002	-4.565147e-002	6.301716e-001	-6.748735e-001	6.303075e-001	-6.743226e-001	5.752785e-002	-4.797760e-002
42313946.216	6.341757e-002	-4.566528e-002	6.298625e-001	-6.752917e-001	6.300293e-001	-6.747821e-001	5.748942e-002	-4.806168e-002
42345215.760	6.332445e-002	-4.581211e-002	6.293639e-001	-6.755687e-001	6.295133e-001	-6.751228e-001	5.737276e-002	-4.808096e-002
42376485.303	6.333894e-002	-4.588604e-002	6.289357e-001	-6.759481e-001	6.290829e-001	-6.753411e-001	5.743225e-002	-4.814743e-002
42407754.847	6.335852e-002	-4.591574e-002	6.284997e-001	-6.762068e-001	6.287215e-001	-6.757320e-001	5.740788e-002	-4.822276e-002
42439024.390	6.328999e-002	-4.604287e-002	6.281402e-001	-6.765796e-001	6.283200e-001	-6.759423e-001	5.732565e-002	-4.837279e-002
42470293.934	6.333795e-002	-4.613138e-002	6.277829e-001	-6.769123e-001	6.280255e-001	-6.763977e-001	5.734115e-002	-4.843352e-002
42501563.477	6.328095e-002	-4.609404e-002	6.274397e-001	-6.771591e-001	6.275934e-001	-6.768497e-001	5.735034e-002	-4.850203e-002
42532833.021	6.333538e-002	-4.621596e-002	6.270046e-001	-6.775101e-001	6.272414e-001	-6.772155e-001	5.720756e-002	-4.858010e-002
42564102.564	6.324914e-002	-4.629406e-002	6.265308e-001	-6.779980e-001	6.267178e-001	-6.774639e-001	5.720164e-002	-4.867784e-002
42595372.108	6.328175e-002	-4.634793e-002	6.260094e-001	-6.783419e-001	6.263340e-001	-6.778865e-001	5.712006e-002	-4.872303e-002
42626641.651	6.320455e-002	-4.655792e-002	6.257939e-001	-6.784828e-001	6.259489e-001	-6.780149e-001	5.710533e-002	-4.877257e-002
42657911.194	6.319074e-002	-4.653271e-002	6.252937e-001	-6.789514e-001	6.255205e-001	-6.784248e-001	5.711264e-002	-4.884980e-002
42689180.738	6.314287e-002	-4.654940e-002	6.249871e-001	-6.792289e-001	6.251061e-001	-6.787964e-001	5.702986e-002	-4.893135e-002
42720450.281	6.311392e-002	-4.671775e-002	6.243492e-001	-6.793997e-001	6.246239e-001	-6.790527e-001	5.707423e-002	-4.898969e-002
42751719.825	6.311412e-002	-4.685529e-002	6.240805e-001	-6.798689e-001	6.244709e-001	-6.793075e-001	5.706106e-002	-4.910825e-002
42782989.368	6.301830e-002	-4.683153e-002	6.236733e-001	-6.803985e-001	6.239079e-001	-6.798081e-001	5.696521e-002	-4.911034e-002
42814258.912	6.311444e-002	-4.691542e-002	6.234297e-001	-6.805861e-001	6.235127e-001	-6.801140e-001	5.694396e-002	-4.932590e-002
42845528.455	6.304077e-002	-4.694829e-002	6.228486e-001	-6.810194e-001	6.231151e-001	-6.804433e-001	5.694342e-002	-4.927468e-002
42876797.999	6.308939e-002	-4.707011e-002	6.225505e-001	-6.811478e-001	6.226161e-001	-6.808164e-001	5.686172e-002	-4.942796e-002
42908067.542	6.298693e-002	-4.713091e-002	6.220765e-001	-6.814077e-001	6.223679e-001	-6.809771e-001	5.681340e-002	-4.953233e-002
42939337.086	6.305489e-002	-4.718554e-002	6.216366e-001	-6.818109e-001	6.216764e-001	-6.814034e-001	5.684310e-002	-4.959787e-002
42970606.629	6.296546e-002	-4.731808e-002	6.211944e-001	-6.821986e-001	6.213483e-001	-6.817425e-001	5.672760e-002	-4.971176e-002
43001876.173	6.294253e-002	-4.737301e-002	6.208093e-001	-6.826035e-001	6.210232e-001	-6.821607e-001	5.672003e-002	-4.962607e-002
43033145.716	6.302273e-002	-4.740598e-002	6.202726e-001	-6.829124e-001	6.205554e-001	-6.824810e-001	5.666500e-002	-4.972350e-002
43064415.260	6.298108e-002	-4.754893e-002	6.199327e-001	-6.831501e-001	6.202786e-001	-6.827550e-001	5.664773e-002	-4.986371e-002
43095684.803	6.290026e-002	-4.757100e-002	6.194999e-001	-6.835930e-001	6.197857e-001	-6.830854e-001	5.659145e-002	-4.991754e-002
43126954.346	6.296215e-002	-4.763361e-002	6.191871e-001	-6.838800e-001	6.193296e-001	-6.834407e-001	5.656102e-002	-4.991597e-002
43158223.890	6.288998e-002	-4.774790e-002	6.188023e-001	-6.840522e-001	6.189080e-001	-6.837245e-001	5.651226e-002	-4.998768e-002
43189493.433	6.285372e-002	-4.787144e-002	6.184893e-001	-6.846262e-001	6.183527e-001	-6.841927e-001	5.648405e-002	-5.003397e-002
43220762.977	6.286174e-002	-4.785897e-002	6.179950e-001	-6.849272e-001	6.181594e-001	-6.843279e-001	5.644873e-002	-5.020709e-002
43252032.520	6.278763e-002	-4.802439e-002	6.174906e-001	-6.852199e-001	6.176417e-001	-6.848362e-001	5.647934e-002	-5.030919e-002
43283302.064	6.277326e-002	-4.797882e-002	6.170936e-001	-6.854645e-001	6.172074e-001	-6.849698e-001	5.645702e-002	-5.030124e-002
43314571.607	6.270946e-002	-4.815690e-002	6.167661e-001	-6.858758e-001	6.170887e-001	-6.854057e-001	5.637296e-002	-5.028682e-002
43345841.151	6.276193e-002	-4.819341e-002	6.162505e-001	-6.861558e-001	6.165274e-001	-6.857216e-001	5.634377e-002	-5.039582e-002
43377110.694	6.266472e-002	-4.828802e-002	6.158823e-001	-6.864710e-001	6.159979e-001	-6.860852e-001	5.627546e-002	-5.051233e-002
43408380.238	6.272441e-002	-4.841521e-002	6.155471e-001	-6.869744e-001	6.156023e-001	-6.862958e-001	5.630291e-002	-5.060556e-002
43439649.781	6.269342e-002	-4.847037e-002	6.150050e-001	-6.871742e-001	6.151041e-001	-6.867350e-001	5.629649e-002	-5.068511e-002
43470919.325	6.261376e-002	-4.852641e-002	6.145315e-001	-6.875982e-001	6.149267e-001	-6.871348e-001	5.626101e-002	-5.066055e-002
43502188.868	6.259668e-002	-4.864246e-002	6.142248e-001	-6.879289e-001	6.142956e-001	-6.873898e-001	5.619548e-002	-5.075949e-002
43533458.412	6.265189e-002	-4.863553e-002	6.138201e-001	-6.880605e-001	6.139302e-001	-6.876435e-001	5.620441e-002	-5.091315e-002
43564727.955	6.254542e-002	-4.870837e-002	6.134515e-001	-6.883804e-001	6.135475e-001	-6.882250e-001	5.610253e-002	-5.099295e-002
43595997.498	6.255747e-002	-4.886645e-002	6.129713e-001	-6.887057e-001	6.130111e-001	-6.883167e-001	5.606454e-002	-5.101968e-002
43627267.042	6.253513e-002	-4.894884e-002	6.126956e-001	-6.890812e-001	6.127090e-001	-6.887512e-001	5.602354e-002	-5.104346e-002
43658536.585	6.252831e-002	-4.903937e-002	6.121470e-001	-6.893871e-001	6.122907e-001	-6.890206e-001	5.598734e-002	-5.114807e-002
43689806.129	6.256512e-002	-4.912779e-002	6.117004e-001	-6.897424e-001	6.119202e-001	-6.893273e-001	5.599432e-002	-5.127487e-002
43721075.672	6.242232e-002	-4.902578e-002	6.112499e-001	-6.900152e-001	6.114932e-001	-6.897126e-001	5.594944e-002	-5.135189e-002
43752345.216	6.248951e-002	-4.926565e-002	6.110541e-001	-6.904800e-001	6.109932e-001	-6.900888e-001	5.593908e-002	-5.136046e-002
43783614.759	6.245889e-002	-4.932746e-002	6.104620e-001	-6.907152e-001	6.107245e-001	-6.903578e-001	5.587217e-002	-5.149118e-002
43814884.303	6.233928e-002	-4.935752e-002	6.101577e-001	-6.910394e-001	6.102712e-001	-6.906308e-001	5.582003e-002	-5.149953e-002
43846153.846	6.240828e-002	-4.947445e-002	6.098203e-001	-6.913403e-001	6.099619e-001	-6.910103e-001	5.575468e-002	-5.158880e-002
43877423.390	6.236151e-002	-4.954662e-002	6.091944e-001	-6.918369e-001	6.094286e-001	-6.912857e-001	5.579711e-002	-5.166395e-002
43908692.933	6.229590e-002	-4.951302e-002	6.087321e-001	-6.921391e-001	6.091524e-001	-6.915649e-001	5.571355e-002	-5.167885e-002
43939962.477	6.228164e-002	-4.961445e-002	6.085266e-001	-6.924738e-001	6.086535e-001	-6.919997e-001	5.568211e-002	-5.179108e-002
43971232.020	6.228452e-002	-4.975666e-002	6.079650e-001	-6.927177e-001	6.081962e-001	-6.923139e-001	5.566467e-002	-5.187532e-002
44002501.563	6.225594e-002	-4.986211e-002	6.074956e-001	-6.929163e-001	6.078569e-001	-6.924713e-001	5.565083e-002	-5.186976e-002
44033771.107	6.226608e-002	-4.993045e-002	6.071792e-001	-6.934363e-001	6.074223e-001	-6.928124e-001	5.558449e-002	-5.198875e-002
44065040.650	6.224959e-002	-4.991016e-002	6.068187e-001	-6.936908e-001	6.070083e-001	-6.932192e-001	5.562672e-002	-5.201811e-002
44096310.194	6.214161e-002	-5.002810e-002	6.064533e-001	-6.939844e-001	6.065238e-001	-6.934794e-001	5.552155e-002	-5.215661e-002
44127579.737	6.214835e-002	-5.014603e-002	6.059781e-001	-6.943431e-001	6.061872e-001	-6.937621e-001	5.548888e-002	-5.224245e-002
44158849.281	6.215140e-002	-5.018780e-002	6.055674e-001	-6.945690e-001	6.058437e-001	-6.942034e-001	5.546187e-002	-5.230628e-002
44190118.824	6.208407e-002	-5.027228e-002	6.050863e-001	-6.949152e-001	6.054253e-001	-6.946002e-001	5.539055e-002	-5.235507e-002
44221388.368	6.202664e-002	-5.033323e-002	6.048210e-001	-6.953274e-001	6.048493e-001	-6.948319e-001	5.530167e-002	-5.241126e-002
44252657.911	6.203547e-002	-5.040964e-002	6.043168e-001	-6.956044e-001	6.044594e-001	-6.952235e-001	5.538914e-002	-5.252988e-002
44283927.455	6.201305e-002	-5.050392e-002	6.038637e-001	-6.958412e-001	6.041086e-001	-6.954717e-001	5.518473e-002	-5.263834e-002
44315196.998	6.197472e-002	-5.055564e-002	6.035425e-001	-6.963186e-001	6.037138e-001	-6.957911e-001	5.528396e-002	-5.269735e-002
44346466.542	6.196045e-002	-5.065158e-002	6.029937e-001	-6.965943e-001	6.032530e-001	-6.961669e-001	5.516599e-002	-5.271699e-002
44377736.085	6.194876e-002	-5.069066e-002	6.026186e-001	-6.967032e-001	6.027102e-001	-6.964075e-001	5.507749e-002	-5.275084e-002
44409005.629	6.195356e-002	-5.073139e-002	6.021070e-001	-6.972435e-001	6.023367e-001	-6.966542e-001	5.513635e-002	-5.286599e-002
44440275.172	6.191701e-002	-5.093204e-002	6.017082e-001	-6.974285e-001	6.020341e-001	-6.970841e-001	5.504824e-002	-5.291429e-002
44471544.715	6.186912e-002	-5.099225e-002	6.012693e-001	-6.978253e-001	6.016420e-001	-6.974045e-001	5.508360e-002	-5.298140e-002
44502814.259	6.192366e-002	-5.109517e-002	6.009542e-001	-6.979447e-001	6.010153e-001	-6.977055e-001	5.506991e-002	-5.307275e-002
44534083.802	6.180980e-002	-5.107801e-002	6.004203e-001	-6.985189e-001	6.007046e-001	-6.979689e-001	5.497703e-002	-5.320207e-002
44565353.346	6.177128e-002	-5.114968e-002	6.000650e-001	-6.988276e-001	6.003828e-001	-6.983042e-001	5.490519e-002	-5.311420e-002
44596622.889	6.172517e-002	-5.126178e-002	5.996981e-001	-6.990490e-001	5.999229e-001	-6.986203e-001	5.490865e-002	-5.326170e-002
44627892.433	6.177684e-002	-5.133616e-002	5.992769e-001	-6.993657e-001	5.994825e-001	-6.989589e-001	5.479232e-002	-5.339563e-002
44659161.976	6.171716e-002	-5.136406e-002	5.986865e-001	-6.997022e-001	5.991183e-001	-6.992427e-001	5.479851e-002	-5.338816e-002
44690431.520	6.171006e-002	-5.155287e-002	5.984421e-001	-7.000367e-001	5.986136e-001	-6.995519e-001	5.476998e-002	-5.346040e-002
44721701.063	6.168723e-002	-5.155367e-002	5.981287e-001	-7.003520e-001	5.982142e-001	-7.000615e-001	5.475527e-002	-5.348462e-002
44752970.607	6.157289e-002	-5.172410e-002	5.975685e-001	-7.006953e-001	5.977042e-001	-7.004214e-001	5.474731e-002	-5.366033e-002
