!Agilent Technologies,E5061B,MY49102235,A.02.00
!Date: Mon Jul 03 11:19:58 2023
!Data & Calibration Information:
!Freq	S11:SOLT2(ON)	S21:SOLT2(ON)	S12:SOLT2(ON)	S22:SOLT2(ON)
# Hz S RI R 50
40000000.000	-2.451142e-002	-2.874419e-002	7.487739e-001	-6.619492e-001	7.488770e-001	-6.611047e-001	-2.839032e-002	-2.395327e-002
40031269.543	-2.456137e-002	-2.881390e-002	7.484703e-001	-6.623320e-001	7.485591e-001	-6.614192e-001	-2.841795e-002	-2.392332e-002
40062539.087	-2.461123e-002	-2.881148e-002	7.478106e-001	-6.625296e-001	7.481153e-001	-6.618235e-001	-2.840274e-002	-2.396695e-002
40093808.630	-2.465093e-002	-2.879276e-002	7.475476e-001	-6.630786e-001	7.477434e-001	-6.624604e-001	-2.848078e-002	-2.392164e-002
40125078.174	-2.472527e-002	-2.877003e-002	7.471820e-001	-6.634420e-001	7.472575e-001	-6.627726e-001	-2.845369e-002	-2.384691e-002
40156347.717	-2.468588e-002	-2.880650e-002	7.469220e-001	-6.640043e-001	7.469054e-001	-6.633561e-001	-2.856605e-002	-2.392749e-002
40187617.261	-2.474805e-002	-2.888027e-002	7.465229e-001	-6.642474e-001	7.467020e-001	-6.637669e-001	-2.859375e-002	-2.404099e-002
40218886.804	-2.474790e-002	-2.881861e-002	7.461268e-001	-6.648705e-001	7.461676e-001	-6.640102e-001	-2.858609e-002	-2.398582e-002
40250156.348	-2.480367e-002	-2.882373e-002	7.457923e-001	-6.651417e-001	7.458846e-001	-6.645360e-001	-2.870048e-002	-2.401057e-002
40281425.891	-2.485985e-002	-2.885233e-002	7.453967e-001	-6.656440e-001	7.454613e-001	-6.649407e-001	-2.869981e-002	-2.396019e-002
40312695.435	-2.485795e-002	-2.884933e-002	7.449738e-001	-6.662336e-001	7.451111e-001	-6.652966e-001	-2.869644e-002	-2.396624e-002
40343964.978	-2.488030e-002	-2.879196e-002	7.446344e-001	-6.663684e-001	7.447201e-001	-6.657366e-001	-2.878397e-002	-2.390939e-002
40375234.522	-2.488606e-002	-2.879992e-002	7.441251e-001	-6.669080e-001	7.443969e-001	-6.660828e-001	-2.883077e-002	-2.393354e-002
40406504.065	-2.499629e-002	-2.877132e-002	7.436697e-001	-6.671715e-001	7.439336e-001	-6.667067e-001	-2.880401e-002	-2.401692e-002
40437773.609	-2.508436e-002	-2.888904e-002	7.436146e-001	-6.676231e-001	7.436873e-001	-6.669703e-001	-2.884889e-002	-2.402438e-002
40469043.152	-2.500163e-002	-2.888911e-002	7.431344e-001	-6.680906e-001	7.433089e-001	-6.673936e-001	-2.893213e-002	-2.393770e-002
40500312.695	-2.510190e-002	-2.896263e-002	7.425558e-001	-6.686091e-001	7.429248e-001	-6.678441e-001	-2.899187e-002	-2.391615e-002
40531582.239	-2.509397e-002	-2.886370e-002	7.422301e-001	-6.687069e-001	7.423735e-001	-6.685126e-001	-2.904237e-002	-2.390421e-002
40562851.782	-2.514699e-002	-2.883696e-002	7.417820e-001	-6.692875e-001	7.419712e-001	-6.687002e-001	-2.897454e-002	-2.406029e-002
40594121.326	-2.515746e-002	-2.889794e-002	7.416612e-001	-6.698466e-001	7.417048e-001	-6.690415e-001	-2.904672e-002	-2.391572e-002
40625390.869	-2.517899e-002	-2.883947e-002	7.412586e-001	-6.701783e-001	7.415193e-001	-6.696367e-001	-2.913479e-002	-2.400858e-002
40656660.413	-2.522320e-002	-2.889170e-002	7.408146e-001	-6.705978e-001	7.411192e-001	-6.698792e-001	-2.912893e-002	-2.394721e-002
40687929.956	-2.524085e-002	-2.887033e-002	7.407145e-001	-6.712107e-001	7.407748e-001	-6.702926e-001	-2.916716e-002	-2.397816e-002
40719199.500	-2.529943e-002	-2.881339e-002	7.399874e-001	-6.713808e-001	7.401904e-001	-6.709872e-001	-2.914419e-002	-2.398556e-002
40750469.043	-2.535326e-002	-2.886152e-002	7.395561e-001	-6.716661e-001	7.398295e-001	-6.712538e-001	-2.933167e-002	-2.395134e-002
40781738.587	-2.529280e-002	-2.896576e-002	7.392946e-001	-6.723617e-001	7.394543e-001	-6.717147e-001	-2.938891e-002	-2.393926e-002
40813008.130	-2.540362e-002	-2.892762e-002	7.390756e-001	-6.726298e-001	7.389655e-001	-6.721313e-001	-2.936522e-002	-2.394922e-002
40844277.674	-2.541436e-002	-2.886775e-002	7.385266e-001	-6.731018e-001	7.386313e-001	-6.725122e-001	-2.947866e-002	-2.393957e-002
40875547.217	-2.542890e-002	-2.893438e-002	7.380650e-001	-6.736403e-001	7.384101e-001	-6.727933e-001	-2.944414e-002	-2.395298e-002
40906816.760	-2.547636e-002	-2.886394e-002	7.379132e-001	-6.739941e-001	7.379224e-001	-6.732715e-001	-2.938721e-002	-2.398696e-002
40938086.304	-2.557847e-002	-2.894273e-002	7.372553e-001	-6.744347e-001	7.376999e-001	-6.738194e-001	-2.955520e-002	-2.396497e-002
40969355.847	-2.562872e-002	-2.889369e-002	7.368592e-001	-6.747142e-001	7.371823e-001	-6.741588e-001	-2.959174e-002	-2.392111e-002
41000625.391	-2.562985e-002	-2.886951e-002	7.364074e-001	-6.750865e-001	7.366415e-001	-6.744873e-001	-2.957168e-002	-2.391872e-002
41031894.934	-2.550025e-002	-2.883141e-002	7.363667e-001	-6.755035e-001	7.363595e-001	-6.751060e-001	-2.966010e-002	-2.392901e-002
41063164.478	-2.566156e-002	-2.888262e-002	7.359132e-001	-6.760112e-001	7.360999e-001	-6.754728e-001	-2.965164e-002	-2.396795e-002
41094434.021	-2.571553e-002	-2.894143e-002	7.354872e-001	-6.763548e-001	7.356177e-001	-6.757483e-001	-2.973794e-002	-2.394218e-002
41125703.565	-2.570996e-002	-2.892955e-002	7.351686e-001	-6.768376e-001	7.353619e-001	-6.761031e-001	-2.977587e-002	-2.392056e-002
41156973.108	-2.570455e-002	-2.896023e-002	7.348150e-001	-6.770846e-001	7.347297e-001	-6.766947e-001	-2.981929e-002	-2.393048e-002
41188242.652	-2.577714e-002	-2.886842e-002	7.343527e-001	-6.778391e-001	7.345070e-001	-6.770485e-001	-2.976371e-002	-2.398155e-002
41219512.195	-2.576999e-002	-2.899433e-002	7.339219e-001	-6.781707e-001	7.340179e-001	-6.774659e-001	-2.986830e-002	-2.401111e-002
41250781.739	-2.587526e-002	-2.895786e-002	7.333372e-001	-6.787192e-001	7.336779e-001	-6.779167e-001	-2.987120e-002	-2.393497e-002
41282051.282	-2.586520e-002	-2.901063e-002	7.331444e-001	-6.789874e-001	7.332494e-001	-6.783117e-001	-2.998997e-002	-2.398200e-002
41313320.826	-2.594660e-002	-2.890588e-002	7.326726e-001	-6.792821e-001	7.329464e-001	-6.786696e-001	-2.999363e-002	-2.397702e-002
41344590.369	-2.600118e-002	-2.900577e-002	7.322346e-001	-6.795272e-001	7.326074e-001	-6.792234e-001	-2.997999e-002	-2.389800e-002
41375859.912	-2.610286e-002	-2.894022e-002	7.320044e-001	-6.801372e-001	7.319124e-001	-6.795287e-001	-3.001524e-002	-2.394818e-002
41407129.456	-2.604490e-002	-2.897187e-002	7.317155e-001	-6.804135e-001	7.316919e-001	-6.797962e-001	-3.015551e-002	-2.387171e-002
41438398.999	-2.607861e-002	-2.904461e-002	7.313688e-001	-6.811046e-001	7.314621e-001	-6.803731e-001	-3.018441e-002	-2.389146e-002
41469668.543	-2.615755e-002	-2.886590e-002	7.308087e-001	-6.814738e-001	7.309439e-001	-6.808807e-001	-3.017446e-002	-2.392136e-002
41500938.086	-2.616715e-002	-2.899013e-002	7.305129e-001	-6.817554e-001	7.306686e-001	-6.811700e-001	-3.022187e-002	-2.399996e-002
41532207.630	-2.616650e-002	-2.900257e-002	7.300869e-001	-6.822213e-001	7.302653e-001	-6.815952e-001	-3.025870e-002	-2.394702e-002
41563477.173	-2.617881e-002	-2.903889e-002	7.296342e-001	-6.827020e-001	7.298242e-001	-6.819253e-001	-3.022526e-002	-2.398739e-002
41594746.717	-2.616010e-002	-2.901691e-002	7.292285e-001	-6.830603e-001	7.294449e-001	-6.824307e-001	-3.032734e-002	-2.389389e-002
41626016.260	-2.636802e-002	-2.906220e-002	7.288933e-001	-6.834630e-001	7.290453e-001	-6.828195e-001	-3.038470e-002	-2.390697e-002
41657285.804	-2.628599e-002	-2.905328e-002	7.285493e-001	-6.839201e-001	7.286865e-001	-6.831944e-001	-3.037137e-002	-2.392260e-002
41688555.347	-2.628688e-002	-2.902122e-002	7.281264e-001	-6.842746e-001	7.283192e-001	-6.837149e-001	-3.042516e-002	-2.390690e-002
41719824.891	-2.631163e-002	-2.896156e-002	7.277631e-001	-6.847483e-001	7.279085e-001	-6.840054e-001	-3.049443e-002	-2.386056e-002
41751094.434	-2.643528e-002	-2.889167e-002	7.274275e-001	-6.850181e-001	7.274015e-001	-6.846769e-001	-3.048065e-002	-2.397231e-002
41782363.977	-2.635888e-002	-2.904038e-002	7.270701e-001	-6.855450e-001	7.272084e-001	-6.848443e-001	-3.068412e-002	-2.390848e-002
41813633.521	-2.647871e-002	-2.903738e-002	7.264989e-001	-6.858167e-001	7.268324e-001	-6.852789e-001	-3.055801e-002	-2.385627e-002
41844903.064	-2.652407e-002	-2.900156e-002	7.263288e-001	-6.861928e-001	7.263172e-001	-6.857780e-001	-3.069520e-002	-2.389965e-002
41876172.608	-2.652476e-002	-2.903925e-002	7.256374e-001	-6.867364e-001	7.261202e-001	-6.861659e-001	-3.076761e-002	-2.385643e-002
41907442.151	-2.661452e-002	-2.898175e-002	7.254210e-001	-6.870815e-001	7.256851e-001	-6.866401e-001	-3.077952e-002	-2.388843e-002
41938711.695	-2.652501e-002	-2.902447e-002	7.249295e-001	-6.875495e-001	7.252944e-001	-6.868849e-001	-3.069155e-002	-2.392925e-002
41969981.238	-2.660400e-002	-2.911615e-002	7.246129e-001	-6.879382e-001	7.247516e-001	-6.875424e-001	-3.074897e-002	-2.385509e-002
42001250.782	-2.662769e-002	-2.899439e-002	7.242573e-001	-6.884374e-001	7.244230e-001	-6.876055e-001	-3.082211e-002	-2.386506e-002
42032520.325	-2.665048e-002	-2.898156e-002	7.238272e-001	-6.888022e-001	7.242209e-001	-6.880293e-001	-3.091886e-002	-2.385725e-002
42063789.869	-2.674580e-002	-2.903388e-002	7.235360e-001	-6.891801e-001	7.235602e-001	-6.886891e-001	-3.102003e-002	-2.386531e-002
42095059.412	-2.675041e-002	-2.905297e-002	7.230869e-001	-6.896214e-001	7.233684e-001	-6.890746e-001	-3.098301e-002	-2.380462e-002
42126328.956	-2.683038e-002	-2.905419e-002	7.226644e-001	-6.898776e-001	7.228157e-001	-6.893635e-001	-3.104721e-002	-2.386251e-002
42157598.499	-2.677688e-002	-2.908206e-002	7.222493e-001	-6.904039e-001	7.224151e-001	-6.899481e-001	-3.105183e-002	-2.383339e-002
42188868.043	-2.683725e-002	-2.909019e-002	7.220160e-001	-6.906796e-001	7.221103e-001	-6.902766e-001	-3.112504e-002	-2.381288e-002
42220137.586	-2.680466e-002	-2.906200e-002	7.214817e-001	-6.912854e-001	7.217072e-001	-6.905383e-001	-3.114748e-002	-2.384980e-002
42251407.129	-2.691217e-002	-2.910578e-002	7.212304e-001	-6.917353e-001	7.212457e-001	-6.910988e-001	-3.123433e-002	-2.377419e-002
42282676.673	-2.692120e-002	-2.909967e-002	7.206826e-001	-6.920320e-001	7.208183e-001	-6.914155e-001	-3.120568e-002	-2.380811e-002
42313946.216	-2.699054e-002	-2.904818e-002	7.203966e-001	-6.925358e-001	7.205510e-001	-6.919490e-001	-3.125456e-002	-2.381037e-002
42345215.760	-2.708490e-002	-2.914204e-002	7.199021e-001	-6.928945e-001	7.200959e-001	-6.923711e-001	-3.138598e-002	-2.377097e-002
42376485.303	-2.708957e-002	-2.913490e-002	7.195068e-001	-6.932960e-001	7.196185e-001	-6.926479e-001	-3.135161e-002	-2.374470e-002
42407754.847	-2.708502e-002	-2.907685e-002	7.190572e-001	-6.936549e-001	7.192893e-001	-6.930854e-001	-3.137877e-002	-2.375425e-002
42439024.390	-2.714187e-002	-2.914716e-002	7.187229e-001	-6.941043e-001	7.188864e-001	-6.933674e-001	-3.146382e-002	-2.384163e-002
42470293.934	-2.710744e-002	-2.915227e-002	7.183845e-001	-6.945365e-001	7.186099e-001	-6.939201e-001	-3.144602e-002	-2.381891e-002
42501563.477	-2.720313e-002	-2.905435e-002	7.180692e-001	-6.947982e-001	7.182444e-001	-6.944325e-001	-3.144030e-002	-2.380350e-002
42532833.021	-2.715515e-002	-2.908465e-002	7.176491e-001	-6.952586e-001	7.178979e-001	-6.948781e-001	-3.157779e-002	-2.381124e-002
42564102.564	-2.725849e-002	-2.910764e-002	7.172057e-001	-6.958199e-001	7.173695e-001	-6.951965e-001	-3.161719e-002	-2.382378e-002
42595372.108	-2.725188e-002	-2.910042e-002	7.166687e-001	-6.962563e-001	7.170067e-001	-6.956936e-001	-3.170189e-002	-2.379909e-002
42626641.651	-2.732151e-002	-2.923262e-002	7.164316e-001	-6.964182e-001	7.166107e-001	-6.958931e-001	-3.172738e-002	-2.378018e-002
42657911.194	-2.735553e-002	-2.914058e-002	7.159892e-001	-6.969773e-001	7.162260e-001	-6.964029e-001	-3.172812e-002	-2.376997e-002
42689180.738	-2.743178e-002	-2.908418e-002	7.156876e-001	-6.973264e-001	7.157985e-001	-6.968116e-001	-3.181694e-002	-2.379202e-002
42720450.281	-2.746582e-002	-2.918458e-002	7.150348e-001	-6.975482e-001	7.153213e-001	-6.971382e-001	-3.177127e-002	-2.376411e-002
42751719.825	-2.746754e-002	-2.925366e-002	7.147714e-001	-6.981136e-001	7.152162e-001	-6.974584e-001	-3.178596e-002	-2.378912e-002
42782989.368	-2.759602e-002	-2.916111e-002	7.143814e-001	-6.987234e-001	7.146358e-001	-6.980316e-001	-3.191252e-002	-2.372283e-002
42814258.912	-2.750577e-002	-2.916546e-002	7.141905e-001	-6.989418e-001	7.142628e-001	-6.984090e-001	-3.191145e-002	-2.387427e-002
42845528.455	-2.760532e-002	-2.911748e-002	7.136303e-001	-6.995149e-001	7.138843e-001	-6.988146e-001	-3.194247e-002	-2.372772e-002
42876797.999	-2.754822e-002	-2.917533e-002	7.133269e-001	-6.996604e-001	7.134273e-001	-6.992483e-001	-3.201906e-002	-2.381797e-002
42908067.542	-2.767289e-002	-2.918892e-002	7.128626e-001	-6.999824e-001	7.131420e-001	-6.994988e-001	-3.205799e-002	-2.384349e-002
42939337.086	-2.761752e-002	-2.913748e-002	7.124848e-001	-7.004603e-001	7.124604e-001	-6.999810e-001	-3.203263e-002	-2.384530e-002
42970606.629	-2.772746e-002	-2.922977e-002	7.120271e-001	-7.009128e-001	7.121436e-001	-7.004108e-001	-3.216162e-002	-2.387638e-002
43001876.173	-2.776108e-002	-2.920796e-002	7.116671e-001	-7.014223e-001	7.118785e-001	-7.008879e-001	-3.219674e-002	-2.368957e-002
43033145.716	-2.768804e-002	-2.915872e-002	7.110960e-001	-7.018116e-001	7.114029e-001	-7.012895e-001	-3.225780e-002	-2.372962e-002
43064415.260	-2.775544e-002	-2.922939e-002	7.107434e-001	-7.020891e-001	7.111487e-001	-7.016777e-001	-3.227080e-002	-2.378641e-002
43095684.803	-2.784511e-002	-2.919402e-002	7.103792e-001	-7.025970e-001	7.106406e-001	-7.020286e-001	-3.233699e-002	-2.377342e-002
43126954.346	-2.780288e-002	-2.917429e-002	7.100805e-001	-7.029704e-001	7.102457e-001	-7.024824e-001	-3.238071e-002	-2.370237e-002
43158223.890	-2.788406e-002	-2.923171e-002	7.096905e-001	-7.032000e-001	7.097784e-001	-7.028144e-001	-3.244667e-002	-2.369456e-002
43189493.433	-2.791621e-002	-2.926973e-002	7.093785e-001	-7.038700e-001	7.092612e-001	-7.033764e-001	-3.247348e-002	-2.366374e-002
43220762.977	-2.795009e-002	-2.919769e-002	7.089307e-001	-7.042364e-001	7.090785e-001	-7.035634e-001	-3.250344e-002	-2.375026e-002
43252032.520	-2.801809e-002	-2.930073e-002	7.084068e-001	-7.046068e-001	7.085552e-001	-7.041440e-001	-3.247207e-002	-2.375880e-002
43283302.064	-2.805584e-002	-2.918419e-002	7.080426e-001	-7.049165e-001	7.081184e-001	-7.043691e-001	-3.248958e-002	-2.369032e-002
43314571.607	-2.811941e-002	-2.930017e-002	7.077259e-001	-7.053886e-001	7.080596e-001	-7.048461e-001	-3.261431e-002	-2.359662e-002
43345841.151	-2.808076e-002	-2.925038e-002	7.072161e-001	-7.057589e-001	7.074949e-001	-7.052498e-001	-3.264697e-002	-2.363513e-002
43377110.694	-2.819277e-002	-2.928046e-002	7.068590e-001	-7.061365e-001	7.069602e-001	-7.057120e-001	-3.270760e-002	-2.368115e-002
43408380.238	-2.813696e-002	-2.933668e-002	7.065394e-001	-7.067203e-001	7.065961e-001	-7.059711e-001	-3.267253e-002	-2.369886e-002
43439649.781	-2.817947e-002	-2.931194e-002	7.059805e-001	-7.069700e-001	7.060720e-001	-7.064780e-001	-3.268644e-002	-2.367224e-002
43470919.325	-2.828965e-002	-2.930330e-002	7.055356e-001	-7.075001e-001	7.059459e-001	-7.069623e-001	-3.274506e-002	-2.358852e-002
43502188.868	-2.829895e-002	-2.934041e-002	7.052435e-001	-7.078765e-001	7.053243e-001	-7.072743e-001	-3.281514e-002	-2.360781e-002
43533458.412	-2.826719e-002	-2.925194e-002	7.048238e-001	-7.080895e-001	7.049393e-001	-7.076156e-001	-3.279349e-002	-2.366840e-002
43564727.955	-2.838847e-002	-2.928392e-002	7.045003e-001	-7.084715e-001	7.046115e-001	-7.082794e-001	-3.291329e-002	-2.368402e-002
43595997.498	-2.837782e-002	-2.935392e-002	7.040319e-001	-7.088729e-001	7.040434e-001	-7.084100e-001	-3.296153e-002	-2.363858e-002
43627267.042	-2.840762e-002	-2.937784e-002	7.037455e-001	-7.093070e-001	7.037867e-001	-7.089429e-001	-3.300890e-002	-2.358143e-002
43658536.585	-2.840473e-002	-2.937842e-002	7.032223e-001	-7.096900e-001	7.033291e-001	-7.092702e-001	-3.304572e-002	-2.360681e-002
43689806.129	-2.839680e-002	-2.939729e-002	7.027529e-001	-7.101352e-001	7.029869e-001	-7.096606e-001	-3.306018e-002	-2.366856e-002
43721075.672	-2.857621e-002	-2.923630e-002	7.023609e-001	-7.104715e-001	7.025884e-001	-7.100932e-001	-3.309015e-002	-2.366496e-002
43752345.216	-2.850197e-002	-2.938277e-002	7.021702e-001	-7.109910e-001	7.020938e-001	-7.105624e-001	-3.310141e-002	-2.359301e-002
43783614.759	-2.854404e-002	-2.939977e-002	7.015754e-001	-7.113047e-001	7.018372e-001	-7.108782e-001	-3.316143e-002	-2.365449e-002
43814884.303	-2.868433e-002	-2.934415e-002	7.012744e-001	-7.116924e-001	7.014003e-001	-7.112266e-001	-3.324569e-002	-2.357097e-002
43846153.846	-2.862079e-002	-2.939602e-002	7.009564e-001	-7.120848e-001	7.011135e-001	-7.116958e-001	-3.329293e-002	-2.359390e-002
43877423.390	-2.868197e-002	-2.940997e-002	7.003353e-001	-7.126712e-001	7.005766e-001	-7.120527e-001	-3.325902e-002	-2.359255e-002
43908692.933	-2.876905e-002	-2.931076e-002	6.999075e-001	-7.130646e-001	7.002968e-001	-7.123706e-001	-3.335241e-002	-2.352026e-002
43939962.477	-2.878772e-002	-2.933510e-002	6.997130e-001	-7.134219e-001	6.998406e-001	-7.128754e-001	-3.338329e-002	-2.354856e-002
43971232.020	-2.879659e-002	-2.940022e-002	6.991158e-001	-7.137617e-001	6.993703e-001	-7.133032e-001	-3.340200e-002	-2.354720e-002
44002501.563	-2.881094e-002	-2.942984e-002	6.986813e-001	-7.139904e-001	6.990621e-001	-7.134745e-001	-3.345048e-002	-2.348114e-002
44033771.107	-2.883955e-002	-2.942431e-002	6.983609e-001	-7.146057e-001	6.986138e-001	-7.139149e-001	-3.349180e-002	-2.351681e-002
44065040.650	-2.886063e-002	-2.931896e-002	6.980224e-001	-7.149552e-001	6.982073e-001	-7.144223e-001	-3.346002e-002	-2.345774e-002
44096310.194	-2.897334e-002	-2.940256e-002	6.977036e-001	-7.152852e-001	6.977354e-001	-7.147510e-001	-3.356207e-002	-2.354130e-002
44127579.737	-2.897919e-002	-2.942443e-002	6.971802e-001	-7.157313e-001	6.974029e-001	-7.150705e-001	-3.357948e-002	-2.353992e-002
44158849.281	-2.898164e-002	-2.941029e-002	6.967962e-001	-7.160066e-001	6.970630e-001	-7.156267e-001	-3.362482e-002	-2.352455e-002
44190118.824	-2.906634e-002	-2.941546e-002	6.963573e-001	-7.164440e-001	6.966612e-001	-7.160608e-001	-3.368574e-002	-2.350186e-002
44221388.368	-2.912568e-002	-2.941543e-002	6.960975e-001	-7.169362e-001	6.960793e-001	-7.163727e-001	-3.381831e-002	-2.347804e-002
44252657.911	-2.914599e-002	-2.940352e-002	6.955724e-001	-7.172591e-001	6.957267e-001	-7.168591e-001	-3.370459e-002	-2.351035e-002
44283927.455	-2.916863e-002	-2.943674e-002	6.951272e-001	-7.175745e-001	6.953720e-001	-7.171327e-001	-3.390233e-002	-2.355169e-002
44315196.998	-2.921489e-002	-2.942298e-002	6.948718e-001	-7.181311e-001	6.949899e-001	-7.175323e-001	-3.380892e-002	-2.355804e-002
44346466.542	-2.923501e-002	-2.943849e-002	6.942979e-001	-7.184760e-001	6.945334e-001	-7.180023e-001	-3.393879e-002	-2.348742e-002
44377736.085	-2.925794e-002	-2.942328e-002	6.939316e-001	-7.186552e-001	6.939956e-001	-7.182906e-001	-3.405464e-002	-2.344320e-002
44409005.629	-2.926905e-002	-2.936666e-002	6.934315e-001	-7.192939e-001	6.936205e-001	-7.186512e-001	-3.399429e-002	-2.347220e-002
44440275.172	-2.929238e-002	-2.951537e-002	6.929840e-001	-7.195114e-001	6.933459e-001	-7.191207e-001	-3.405481e-002	-2.342768e-002
44471544.715	-2.937522e-002	-2.949675e-002	6.926052e-001	-7.199759e-001	6.929757e-001	-7.195040e-001	-3.403929e-002	-2.342222e-002
44502814.259	-2.930706e-002	-2.953691e-002	6.922740e-001	-7.201812e-001	6.923079e-001	-7.199124e-001	-3.406152e-002	-2.342916e-002
44534083.802	-2.946288e-002	-2.944958e-002	6.917706e-001	-7.208542e-001	6.920199e-001	-7.202613e-001	-3.412494e-002	-2.349376e-002
44565353.346	-2.950602e-002	-2.944001e-002	6.914401e-001	-7.212025e-001	6.917345e-001	-7.206333e-001	-3.422714e-002	-2.333997e-002
44596622.889	-2.953758e-002	-2.949802e-002	6.910480e-001	-7.215037e-001	6.913056e-001	-7.210253e-001	-3.421722e-002	-2.339548e-002
44627892.433	-2.951872e-002	-2.948136e-002	6.906326e-001	-7.218747e-001	6.908215e-001	-7.214424e-001	-3.433310e-002	-2.346646e-002
44659161.976	-2.958255e-002	-2.945204e-002	6.900432e-001	-7.223042e-001	6.904554e-001	-7.217961e-001	-3.432817e-002	-2.337861e-002
44690431.520	-2.958662e-002	-2.956632e-002	6.898390e-001	-7.227029e-001	6.899967e-001	-7.221646e-001	-3.436767e-002	-2.336984e-002
